!  2-Port S-parameters saved by WinCal
! VAR MeasName=S-Parameters (CALIBRATED_DATA) read from VNA (C)
! VAR MeasDate=10/16/2015 1:42:19 PM
! VAR NAME=M6082_13_17_2_2_20C_2.5mA_-17.5dBm
! VAR FILENAME=M6082_13_17_2_2_20C_2.5mA_-17.5dBm.S2P
! VAR DATE=10/16/2015 1:42:19 PM
! VAR PHYS_PORTS=2,1
! VAR ObjTypeName=DATASET
! VAR IndexType=Frequency
!
# Hz S RI R 50
45000000.000 +7.3596954346E-002 -8.4304809570E-004 -8.2564353943E-004 +7.0893764496E-003 +9.0539455414E-004 +2.6297569275E-004 +2.8894424438E-002 +1.9874572754E-003
177500000.000 +7.3333740234E-002 -1.0208129883E-002 +2.1595954895E-003 +5.5582523346E-003 +5.6102871895E-006 +1.7627328634E-004 +1.5460014343E-002 +1.6514778137E-002
310000000.000 +7.2933197021E-002 -1.8402099609E-002 +4.8341751099E-003 +3.5045146942E-003 -1.2540072203E-004 -7.0676207542E-005 +2.9266357422E-002 +6.1481475830E-002
442500000.000 +7.2395324707E-002 -2.6779174805E-002 +6.6540241241E-003 -3.1638145447E-004 +4.8475340009E-005 -5.4128468037E-005 +7.2460174561E-002 +2.2472381592E-002
575000000.000 +7.1361541748E-002 -3.5400390625E-002 +5.0759315491E-003 -3.9091110229E-003 +1.1606141925E-005 -2.9365532100E-005 +2.7135848999E-002 +1.1296272278E-002
707500000.000 +7.0171356201E-002 -4.3334960938E-002 +1.9254684448E-003 -5.9769153595E-003 -4.0465965867E-005 -1.0574236512E-005 +2.0217895508E-003 +1.8668174744E-002
840000000.000 +6.9309234619E-002 -5.1826477051E-002 -1.7724037170E-003 -5.9921741486E-003 +1.9450671971E-005 +4.1043385863E-006 -1.9875526428E-002 +2.6041984558E-002
972500000.000 +6.8428039551E-002 -5.9925079346E-002 -4.7402381897E-003 -3.8530826569E-003 -7.8938901424E-006 +4.4265761971E-005 -3.5831451416E-002 +3.5543441772E-002
1105000000.000 +6.6673278809E-002 -6.8267822266E-002 -6.0513019562E-003 -6.1082839966E-004 +6.7055225372E-006 -6.2428414822E-005 -4.6932220459E-002 +3.8253784180E-002
1237500000.000 +6.4933776855E-002 -7.5908660889E-002 -5.2981376648E-003 +2.9344558716E-003 +5.8611854911E-005 -4.3325126171E-005 -5.8570861816E-002 +3.3884048462E-002
1370000000.000 +6.3152313232E-002 -8.3683013916E-002 -2.7394294739E-003 +5.4192543030E-003 +4.4442713261E-006 +4.0613114834E-005 -7.4020385742E-002 +2.7011871338E-002
1502500000.000 +6.1241149902E-002 -9.1373443604E-002 +7.8773498535E-004 +6.0029029846E-003 -5.3381547332E-005 -3.7102028728E-005 -8.7993621826E-002 +2.1347045898E-002
1635000000.000 +6.0077667236E-002 -9.9082946777E-002 +3.9832592010E-003 +4.4636726379E-003 +2.5488436222E-005 -5.4061412811E-005 -9.9048614502E-002 +1.1688232422E-002
1767500000.000 +5.7842254639E-002 -1.0726928711E-001 +5.8245658875E-003 +1.4488697052E-003 -7.1488320827E-006 +6.1739236116E-005 -1.1194610596E-001 +2.9029846191E-003
1900000000.000 +5.5519104004E-002 -1.1417388916E-001 +5.5716037750E-003 -2.1121501923E-003 -9.0986490250E-005 -6.3590705395E-006 -1.1381530762E-001 -3.4370422363E-003
2032500000.000 +5.3161621094E-002 -1.2103652954E-001 +3.3702850342E-003 -4.9142837524E-003 +1.8416903913E-005 -2.4496577680E-005 -1.1378479004E-001 -2.4330139160E-002
2165000000.000 +5.1612854004E-002 -1.2911224365E-001 +1.7642974854E-005 -5.8619976044E-003 +1.5635043383E-005 +8.2030892372E-005 -1.2253189087E-001 -4.2198181152E-002
2297500000.000 +4.8904418945E-002 -1.3590240479E-001 -3.2694339752E-003 -4.9316883087E-003 +4.0629878640E-005 +9.7826123238E-006 -1.2658691406E-001 -5.3459167480E-002
2430000000.000 +4.6318054199E-002 -1.4202880859E-001 -5.3467750549E-003 -2.2096633911E-003 +1.1858530343E-005 +1.2550968677E-005 -1.2645721436E-001 -6.4773559570E-002
2562500000.000 +4.4189453125E-002 -1.4936065674E-001 -5.7086944580E-003 +1.0759830475E-003 +1.3208389282E-004 -4.7728419304E-005 -1.2518310547E-001 -7.0930480957E-002
2695000000.000 +3.9947509766E-002 -1.5533447266E-001 -4.0881633759E-003 +4.1193962097E-003 -7.6446682215E-005 +4.8458576202E-005 -1.1374664307E-001 -7.3368072510E-002
2827500000.000 +3.6735534668E-002 -1.6036224365E-001 -9.4008445740E-004 +5.5792331696E-003 -1.1103227735E-004 -1.4793127775E-005 -9.8617553711E-002 -8.1806182861E-002
2960000000.000 +3.4660339355E-002 -1.6623687744E-001 +2.3941993713E-003 +5.3224563599E-003 +5.7838857174E-005 -4.5686960220E-005 -8.8146209717E-002 -8.6643218994E-002
3092500000.000 +3.0929565430E-002 -1.7363739014E-001 +4.9962997437E-003 +3.0879974365E-003 +5.4031610489E-005 +1.2391060591E-004 -7.0549011230E-002 -8.6013793945E-002
3225000000.000 +2.5985717773E-002 -1.7964935303E-001 +5.9564113617E-003 -1.6570091248E-004 +3.0064955354E-005 -3.4678727388E-005 -5.1982879639E-002 -9.1114044189E-002
3357500000.000 +2.2689819336E-002 -1.8391418457E-001 +4.6436786652E-003 -3.3411979675E-003 +1.2049823999E-004 +9.5404684544E-006 -4.1240692139E-002 -9.1632843018E-002
3490000000.000 +1.9958496094E-002 -1.9107818604E-001 +2.0689964294E-003 -5.4514408112E-003 -1.7303973436E-005 +5.4746866226E-005 -2.8057098389E-002 -8.3286285400E-002
3622500000.000 +1.6075134277E-002 -1.9810485840E-001 -1.5587806702E-003 -5.7537555695E-003 -8.7857246399E-005 -5.1818788052E-005 -1.1421203613E-002 -7.9174041748E-002
3755000000.000 +1.1459350586E-002 -2.0464324951E-001 -4.4240951538E-003 -3.9825439453E-003 -9.3325972557E-005 -9.6052885056E-005 -5.9776306152E-003 -7.2914123535E-002
3887500000.000 +8.0947875977E-003 -2.1021270752E-001 -6.0229301453E-003 -7.1859359741E-004 -3.5010278225E-005 +5.2943825722E-005 +2.0828247070E-003 -5.6020736694E-002
4020000000.000 +4.8217773438E-003 -2.1589660645E-001 -5.4564476013E-003 +2.8715133667E-003 -8.2947313786E-005 -1.1175870895E-008 +1.3351440430E-002 -4.4462203979E-002
4152500000.000 +1.5716552734E-003 -2.2263336182E-001 -2.8085708618E-003 +5.5496692657E-003 +6.3974410295E-005 -6.6351145506E-005 +1.5346527100E-002 -3.2571792603E-002
4285000000.000 -2.1514892578E-003 -2.2868347168E-001 +7.9822540283E-004 +6.1376094818E-003 -1.9624829292E-005 +8.0551952124E-005 +1.7096519470E-002 -1.3160705566E-002
4417500000.000 -6.7062377930E-003 -2.3448181152E-001 +4.1408538818E-003 +4.5170783997E-003 -4.3518841267E-005 +7.4464827776E-005 +2.5657653809E-002 +3.5924911499E-003
4550000000.000 -9.5520019531E-003 -2.3969268799E-001 +6.0117244720E-003 +1.4092922211E-003 +3.0271708965E-005 -3.7508085370E-005 +2.9131889343E-002 +9.4604492188E-003
4682500000.000 -1.2786865234E-002 -2.4649810791E-001 +5.7537555695E-003 -2.2661685944E-003 +9.6544623375E-005 -6.6086649895E-006 +2.5585174561E-002 +2.0561218262E-002
4815000000.000 -1.7166137695E-002 -2.5225830078E-001 +3.5643577576E-003 -5.0525665283E-003 -1.5720725060E-005 +6.0534104705E-005 +3.1197547913E-002 +2.7332305908E-002
4947500000.000 -2.0294189453E-002 -2.5703430176E-001 +1.2588500977E-004 -6.2327384949E-003 -1.1008232832E-006 -5.3006224334E-006 +2.7649879456E-002 +1.9842147827E-002
5080000000.000 -2.2735595703E-002 -2.6275634766E-001 -3.4980773926E-003 -5.3038597107E-003 -6.1097089201E-006 -1.2563541532E-006 +1.3305664063E-002 +2.0434379578E-002
5212500000.000 -2.6443481445E-002 -2.6852416992E-001 -6.0038566589E-003 -2.3937225342E-003 -1.8699094653E-005 +1.5590339899E-006 +9.3011856079E-003 +2.4677276611E-002
5345000000.000 -3.0334472656E-002 -2.7262878418E-001 -6.3877105713E-003 +1.4500617981E-003 -6.1269849539E-005 -1.1384487152E-005 +5.4941177368E-003 +1.6114234924E-002
5477500000.000 -3.1997680664E-002 -2.7677917480E-001 -4.5304298401E-003 +4.9450397491E-003 +3.5319477320E-005 -5.3070485592E-005 -9.1514587402E-003 +1.0223865509E-002
5610000000.000 -3.4729003906E-002 -2.8260803223E-001 -7.4744224548E-004 +6.7670345306E-003 +1.6633421183E-005 +7.1562826633E-005 -1.4801979065E-002 +1.4394283295E-002
5742500000.000 -3.8909912109E-002 -2.8659057617E-001 +3.2167434692E-003 +6.0908794403E-003 -3.3978372812E-005 -6.1497092247E-005 -1.1469841003E-002 +5.9089660645E-003
5875000000.000 -4.2419433594E-002 -2.8878784180E-001 +6.2289237976E-003 +3.2176971436E-003 -1.1138617992E-005 +3.6215409636E-005 -2.0194053650E-002 -3.3960342407E-003
6007500000.000 -4.4464111328E-002 -2.9290771484E-001 +7.0531368256E-003 -1.0244846344E-003 -3.1717121601E-005 +4.4245272875E-005 -2.3106575012E-002 +1.8787384033E-004
6140000000.000 -4.7760009766E-002 -2.9827880859E-001 +5.1035881042E-003 -5.0096511841E-003 -2.7043744922E-005 +4.8294663429E-005 -1.5295028687E-002 -2.7818679810E-003
6272500000.000 -5.3588867188E-002 -3.0177307129E-001 +1.4235973358E-003 -7.1778297424E-003 +3.7413090467E-005 -5.5957585573E-005 -1.6414642334E-002 -1.1761665344E-002
6405000000.000 -5.7876586914E-002 -3.0368041992E-001 -3.0105113983E-003 -6.7639350891E-003 +9.8864547908E-006 -2.5955960155E-006 -1.9309043884E-002 -6.2685012817E-003
6537500000.000 -5.9692382813E-002 -3.0845642090E-001 -6.5968036652E-003 -3.5903453827E-003 -5.2563846111E-006 +7.5124204159E-005 -9.3121528625E-003 -3.2000541687E-003
6670000000.000 -6.3995361328E-002 -3.1439208984E-001 -7.4975490570E-003 +7.9154968262E-004 +6.5043568611E-006 -3.7582591176E-005 -7.7960491180E-003 -7.2453022003E-003
6802500000.000 -7.0755004883E-002 -3.1874084473E-001 -5.6397914886E-003 +5.1431655884E-003 -8.1751495600E-006 -3.5924836993E-005 -1.1368751526E-002 +1.3160705566E-004
6935000000.000 -7.5393676758E-002 -3.2160949707E-001 -1.2712478638E-003 +7.5798034668E-003 -2.6896595955E-006 +3.9763748646E-005 -6.3424110413E-003 +9.9363327026E-003
7067500000.000 -7.6980590820E-002 -3.2572937012E-001 +3.4139156342E-003 +7.0104598999E-003 -5.0405040383E-005 -3.6979094148E-005 -4.6854019165E-003 +1.0219573975E-002
7200000000.000 -8.2214355469E-002 -3.3152770996E-001 +6.8511962891E-003 +3.9188861847E-003 +1.4260411263E-005 -3.6014243960E-005 -1.5025138855E-002 +1.7051696777E-002
7332500000.000 -8.9508056641E-002 -3.3609008789E-001 +7.8144073486E-003 -1.1515617371E-003 -3.6442652345E-005 +1.0626390576E-005 -1.7040252686E-002 +3.0727386475E-002
7465000000.000 -9.3536376953E-002 -3.3929443359E-001 +5.6676864624E-003 -5.6309700012E-003 -6.6522508860E-005 -4.0680170059E-006 -1.9904136658E-002 +3.1170845032E-002
7597500000.000 -9.6466064453E-002 -3.4317016602E-001 +1.7466545105E-003 -7.9360008240E-003 +3.5449862480E-005 -7.3835253716E-006 -3.6428451538E-002 +3.3309936523E-002
7730000000.000 -1.0287475586E-001 -3.5057067871E-001 -3.6621093750E-003 -7.1992874146E-003 +5.4121017456E-005 +6.5807253122E-005 -4.8288345337E-002 +4.3628692627E-002
7862500000.000 -1.0958862305E-001 -3.5589599609E-001 -7.3230266571E-003 -3.0796527863E-003 -5.3621828556E-005 +2.4961307645E-005 -5.3691864014E-002 +4.2659759521E-002
7995000000.000 -1.1167907715E-001 -3.5766601563E-001 -8.0704689026E-003 +1.3031959534E-003 +3.8033351302E-005 +1.9237399101E-005 -7.2875976563E-002 +3.5125732422E-002
8127500000.000 -1.1560058594E-001 -3.6387634277E-001 -5.8016777039E-003 +5.7561397552E-003 +3.2367184758E-005 +3.1005591154E-005 -9.1407775879E-002 +3.9848327637E-002
8260000000.000 -1.2347412109E-001 -3.6885070801E-001 -5.7411193848E-004 +7.8940391541E-003 -3.5174190998E-005 +5.9727579355E-005 -9.5516204834E-002 +3.4317016602E-002
8392500000.000 -1.2614440918E-001 -3.7118530273E-001 +3.9207935333E-003 +6.9999694824E-003 +4.3319538236E-005 +9.9651515484E-007 -1.0981750488E-001 +1.8493652344E-002
8525000000.000 -1.2826538086E-001 -3.7478637695E-001 +7.1990489960E-003 +3.5748481750E-003 +4.6160072088E-005 -1.4124438167E-005 -1.2195205688E-001 +1.5068054199E-002
8657500000.000 -1.3429260254E-001 -3.7944030762E-001 +7.4582099915E-003 -1.8863677979E-003 +3.0840747058E-006 -7.8040175140E-006 -1.1780166626E-001 +4.2152404785E-003
8790000000.000 -1.3946533203E-001 -3.8262939453E-001 +4.9161911011E-003 -5.8279037476E-003 +4.0445476770E-005 -7.3194503784E-005 -1.1961364746E-001 -1.7333984375E-002
8922500000.000 -1.4181518555E-001 -3.8325500488E-001 +9.4628334045E-004 -7.6742172241E-003 +1.5405938029E-005 -3.3341348171E-006 -1.2237930298E-001 -3.0445098877E-002
9055000000.000 -1.4595031738E-001 -3.8641357422E-001 -3.8552284241E-003 -6.3538551331E-003 -4.5176595449E-005 +2.2923573852E-005 -1.1099243164E-001 -4.3869018555E-002
9187500000.000 -1.5032958984E-001 -3.8838195801E-001 -6.7148208618E-003 -2.7110576630E-003 -2.9496848583E-005 -4.6137720346E-005 -1.0027313232E-001 -6.6715240479E-002
9320000000.000 -1.5594482422E-001 -3.8902282715E-001 -7.2097778320E-003 +1.5270709991E-003 +2.1374784410E-005 +2.0264647901E-005 -9.3719482422E-002 -7.9444885254E-002
9452500000.000 -1.5960693359E-001 -3.8964843750E-001 -4.8959255219E-003 +5.2607059479E-003 -3.0687078834E-005 +1.5273690224E-005 -7.4253082275E-002 -8.6608886719E-002
9585000000.000 -1.6442871094E-001 -3.9103698730E-001 -6.2322616577E-004 +6.8488121033E-003 -6.6205859184E-005 -2.0589679480E-005 -5.4290771484E-002 -1.0116958618E-001
9717500000.000 -1.6998291016E-001 -3.9370727539E-001 +3.3223628998E-003 +6.0918331146E-003 -3.4278258681E-005 +4.5344233513E-005 -4.1347503662E-002 -1.0695648193E-001
9850000000.000 -1.7663574219E-001 -3.9215087891E-001 +6.0694217682E-003 +2.8736591339E-003 -8.6799263954E-007 +8.7372027338E-006 -1.9100189209E-002 -1.0227203369E-001
9982500000.000 -1.7941284180E-001 -3.9321899414E-001 +6.3922405243E-003 -1.2574195862E-003 -3.0413269997E-005 -6.0001388192E-005 +6.3972473145E-003 -1.0331344604E-001
10115000000.000 -1.8379211426E-001 -3.9543151855E-001 +4.5189857483E-003 -4.4827461243E-003 -1.4606863260E-005 -6.4350664616E-005 +1.9104003906E-002 -9.9128723145E-002
10247500000.000 -1.9062805176E-001 -3.9607238770E-001 +1.0478496552E-003 -6.2308311462E-003 +2.2941268981E-005 +3.3574178815E-006 +3.5732269287E-002 -7.9998016357E-002
10380000000.000 -1.9548034668E-001 -3.9526367188E-001 -2.7592182159E-003 -5.2587985992E-003 -4.5953318477E-005 -1.5985220671E-005 +5.6938171387E-002 -6.7672729492E-002
10512500000.000 -1.9905090332E-001 -3.9620971680E-001 -5.2483081818E-003 -2.7461051941E-003 -4.1361898184E-005 -3.8091093302E-005 +6.2480926514E-002 -5.6156158447E-002
10645000000.000 -2.0318603516E-001 -3.9781188965E-001 -5.7213306427E-003 +6.2775611877E-004 -2.6045367122E-005 +2.0812265575E-005 +6.6051483154E-002 -2.9228210449E-002
10777500000.000 -2.0857238770E-001 -3.9849853516E-001 -4.0600299835E-003 +3.6728382111E-003 -6.2320381403E-005 +1.1138617992E-006 +7.7213287354E-002 -8.0299377441E-003
10910000000.000 -2.1304321289E-001 -3.9894104004E-001 -1.1565685272E-003 +5.1913261414E-003 -1.4018267393E-005 -5.8928504586E-005 +7.2387695313E-002 +5.3138732910E-003
11042500000.000 -2.1786499023E-001 -4.0010070801E-001 +1.9145011902E-003 +4.8530101776E-003 +9.2327594757E-005 +6.3780695200E-005 +5.9661865234E-002 +3.1103134155E-002
11175000000.000 -2.2154235840E-001 -4.0197753906E-001 +4.2088031769E-003 +2.7687549591E-003 -9.6037983894E-006 +4.5774504542E-005 +5.6701660156E-002 +5.2383422852E-002
11307500000.000 -2.2462463379E-001 -4.0238952637E-001 +4.8463344574E-003 -1.0609626770E-004 -6.0811638832E-005 +3.2166019082E-005 +4.3760299683E-002 +5.8488845825E-002
11440000000.000 -2.2946166992E-001 -4.0390014648E-001 +3.8158893585E-003 -2.7154684067E-003 +5.8529898524E-005 -2.2370368242E-006 +1.8314361572E-002 +7.1975708008E-002
11572500000.000 -2.3139953613E-001 -4.0625000000E-001 +1.4450550079E-003 -4.3103694916E-003 +4.7173351049E-005 +2.2707507014E-005 +4.5700073242E-003 +8.7284088135E-002
11705000000.000 -2.3428344727E-001 -4.0704345703E-001 -1.2569427490E-003 -4.2440891266E-003 -3.5833567381E-005 -8.1147998571E-005 -9.8800659180E-003 +8.0909729004E-002
11837500000.000 -2.3803710938E-001 -4.0838623047E-001 -3.1409263611E-003 -2.6385784149E-003 +2.9018148780E-005 +1.2923963368E-005 -4.2957305908E-002 +7.6763153076E-002
11970000000.000 -2.3962402344E-001 -4.0812683105E-001 -4.0988922119E-003 -3.9052963257E-004 -3.5526230931E-005 +1.7350539565E-005 -5.9246063232E-002 +8.3194732666E-002
12102500000.000 -2.3979187012E-001 -4.0969848633E-001 -3.5423040390E-003 +1.8370151520E-003 -6.1154365540E-005 -7.2851777077E-005 -6.5261840820E-002 +6.4491271973E-002
12235000000.000 -2.4530029297E-001 -4.0975952148E-001 -1.7131567001E-003 +3.4537315369E-003 +2.0960345864E-005 -4.8015266657E-005 -9.2666625977E-002 +4.4139862061E-002
12367500000.000 -2.4543762207E-001 -4.0925598145E-001 +5.3393840790E-004 +3.7547349930E-003 +5.0283968449E-005 +3.2739713788E-005 -1.0540771484E-001 +4.2850494385E-002
12500000000.000 -2.4925231934E-001 -4.0847778320E-001 +2.4151802063E-003 +2.6103258133E-003 -4.9998983741E-005 +3.0612573028E-005 -9.7160339355E-002 +2.0481109619E-002
12632500000.000 -2.5109863281E-001 -4.1015625000E-001 +3.4128427505E-003 +7.2729587555E-004 +1.7562881112E-005 -2.4025328457E-005 -1.0931015015E-001 -1.3339996338E-002
12765000000.000 -2.5364685059E-001 -4.0956115723E-001 +3.1908750534E-003 -1.2481212616E-003 +3.6530196667E-005 +3.8497149944E-005 -1.1731338501E-001 -1.7673492432E-002
12897500000.000 -2.5616455078E-001 -4.0802001953E-001 +1.8438100815E-003 -2.6799440384E-003 +1.6950070858E-006 +3.6578625441E-005 -9.2224121094E-002 -3.4477233887E-002
13030000000.000 -2.5801086426E-001 -4.0776062012E-001 -5.6385993958E-005 -3.1847953796E-003 -4.2071565986E-005 -3.1031668186E-005 -8.9660644531E-002 -7.1010589600E-002
13162500000.000 -2.6055908203E-001 -4.0856933594E-001 -1.7149448395E-003 -2.4785995483E-003 +2.8451904655E-005 -1.7950311303E-005 -9.1846466064E-002 -7.2505950928E-002
13295000000.000 -2.6351928711E-001 -4.0878295898E-001 -2.7341842651E-003 -1.0693073273E-003 +8.2328915596E-007 +7.6439231634E-005 -6.1290740967E-002 -7.8556060791E-002
13427500000.000 -2.6742553711E-001 -4.0692138672E-001 -2.8004646301E-003 +6.0176849365E-004 +1.2192409486E-005 -2.7753412724E-006 -4.6886444092E-002 -1.0421371460E-001
13560000000.000 -2.6763916016E-001 -4.0644836426E-001 -1.8696188927E-003 +1.9254088402E-003 +1.2442469597E-005 -1.0074675083E-004 -4.6844482422E-002 -1.0137557983E-001
13692500000.000 -2.7006530762E-001 -4.0843200684E-001 -3.8671493530E-004 +2.6749372482E-003 +4.9084424973E-005 +3.7955120206E-005 -1.7951965332E-002 -8.9237213135E-002
13825000000.000 -2.7470397949E-001 -4.0885925293E-001 +1.1700391769E-003 +2.3666620255E-003 -5.1012262702E-005 +2.2517517209E-005 +4.1503906250E-003 -1.0323715210E-001
13957500000.000 -2.7755737305E-001 -4.0673828125E-001 +2.0778179169E-003 +1.2999773026E-003 +5.4661184549E-005 +4.9615278840E-005 -3.3569335938E-004 -9.5752716064E-002
14090000000.000 -2.7813720703E-001 -4.0730285645E-001 +2.4425983429E-003 -2.6822090149E-004 +3.4770928323E-006 -8.7455846369E-006 +2.1709442139E-002 -7.0354461670E-002
14222500000.000 -2.7944946289E-001 -4.1020202637E-001 +1.8387436867E-003 -1.4210343361E-003 -8.7946653366E-005 -3.3557415009E-005 +4.4021606445E-002 -7.4382781982E-002
14355000000.000 -2.8424072266E-001 -4.1018676758E-001 +8.1193447113E-004 -2.1342039108E-003 +1.7182901502E-005 +5.1615759730E-005 +3.3275604248E-002 -6.7337036133E-002
14487500000.000 -2.8639221191E-001 -4.0977478027E-001 -5.0079822540E-004 -2.1369457245E-003 -1.5772879124E-005 -6.4922496676E-006 +4.0178298950E-002 -3.4166336060E-002
14620000000.000 -2.8620910645E-001 -4.1105651855E-001 -1.4471411705E-003 -1.3944506645E-003 -7.2423368692E-005 -3.2398849726E-005 +6.0956954956E-002 -3.1612396240E-002
14752500000.000 -2.8932189941E-001 -4.1500854492E-001 -2.0021200180E-003 -4.3201446533E-004 -1.0674446821E-004 -3.8586556911E-005 +4.3199539185E-002 -3.2287597656E-002
14885000000.000 -2.9219055176E-001 -4.1567993164E-001 -1.8638372421E-003 +9.5582008362E-004 +1.0084733367E-004 +5.5704265833E-005 +3.5661697388E-002 +1.5392303467E-003
15017500000.000 -2.9284667969E-001 -4.1622924805E-001 -1.0377168655E-003 +1.7246603966E-003 -4.4876709580E-005 +2.0513311028E-005 +5.3159713745E-002 +8.5391998291E-003
15150000000.000 -2.9373168945E-001 -4.1993713379E-001 +7.6889991760E-005 +1.9893646240E-003 -9.0990215540E-005 -4.2006373405E-005 +3.5060882568E-002 -1.5792846680E-003
15282500000.000 -2.9449462891E-001 -4.2240905762E-001 +1.2089014053E-003 +1.5034675598E-003 -1.5303492546E-005 +4.3319538236E-005 +1.4713287354E-002 +2.3441314697E-002
