!  2-Port S-parameters saved by WinCal
! VAR MeasName=S-Parameters (CALIBRATED_DATA) read from VNA (C)
! VAR MeasDate=10/16/2015 2:37:07 PM
! VAR NAME=M6082_10_13_2_2_20C_6.4mA_-17.5dBm
! VAR FILENAME=M6082_10_13_2_2_20C_6.4mA_-17.5dBm.S2P
! VAR DATE=10/16/2015 2:37:07 PM
! VAR PHYS_PORTS=2,1
! VAR ObjTypeName=DATASET
! VAR IndexType=Frequency
!
# Hz S RI R 50
45000000.000 -5.6537628174E-002 -8.0680847168E-004 -1.3797283173E-003 +7.3826313019E-003 +5.3068995476E-004 -1.5178322792E-004 +2.7626991272E-002 +3.3216476440E-003
177500000.000 -5.5431365967E-002 -6.2026977539E-003 +2.7787685394E-003 +6.9124698639E-003 -1.5214830637E-004 -1.7702579498E-005 +1.5665054321E-002 +1.6643524170E-002
310000000.000 -5.4580688477E-002 -1.2128829956E-002 +5.8703422546E-003 +4.5776367188E-003 +8.2388520241E-005 -1.2453645468E-004 +2.9058456421E-002 +6.1565399170E-002
442500000.000 -5.4027557373E-002 -1.8884658813E-002 +8.4395408630E-003 +1.7452239990E-004 -4.5603141189E-005 -2.6913359761E-005 +7.2578430176E-002 +2.2724151611E-002
575000000.000 -5.4241180420E-002 -2.5983810425E-002 +6.4392089844E-003 -4.5664310455E-003 +4.1265040636E-005 +5.5303797126E-005 +2.7165412903E-002 +1.1361122131E-002
707500000.000 -5.4676055908E-002 -3.2142639160E-002 +2.6781558990E-003 -7.2484016418E-003 +1.7639249563E-006 +3.3743679523E-005 +2.2001266479E-003 +1.8746376038E-002
840000000.000 -5.4651260376E-002 -3.9041519165E-002 -1.7626285553E-003 -7.3986053467E-003 +7.8275799751E-005 +9.6298754215E-006 -1.9882202148E-002 +2.6096343994E-002
972500000.000 -5.4656982422E-002 -4.5837402344E-002 -5.5074691772E-003 -5.0656795502E-003 -2.8204172850E-005 -2.9981136322E-005 -3.5732269287E-002 +3.5469055176E-002
1105000000.000 -5.5662155151E-002 -5.2667617798E-002 -7.5538158417E-003 -1.0659694672E-003 -1.6819685698E-005 +5.5532902479E-005 -4.6842575073E-002 +3.8265228271E-002
1237500000.000 -5.6449890137E-002 -5.9020996094E-002 -6.6921710968E-003 +3.2000541687E-003 +4.1564926505E-005 +8.9276582003E-006 -5.8521270752E-002 +3.3885955811E-002
1370000000.000 -5.7548522949E-002 -6.5513610840E-002 -3.7605762482E-003 +6.3812732697E-003 +1.0261312127E-005 +5.1561743021E-005 -7.3902130127E-002 +2.6954650879E-002
1502500000.000 -5.8319091797E-002 -7.1834564209E-002 +5.2189826965E-004 +7.4129104614E-003 -1.1023133993E-005 -6.6671520472E-005 -8.8043212891E-002 +2.1339416504E-002
1635000000.000 -5.8837890625E-002 -7.8800201416E-002 +4.4615268707E-003 +5.8579444885E-003 +7.6174736023E-005 -3.0066817999E-005 -9.9037170410E-002 +1.1627197266E-002
1767500000.000 -6.0260772705E-002 -8.5506439209E-002 +7.0488452911E-003 +2.3133754730E-003 +2.9461458325E-005 -2.0824372768E-006 -1.1191558838E-001 +2.8686523438E-003
1900000000.000 -6.1141967773E-002 -9.1243743896E-002 +7.0986747742E-003 -2.1214485168E-003 -3.2912939787E-005 +5.8356672525E-005 -1.1390304565E-001 -3.4523010254E-003
2032500000.000 -6.2431335449E-002 -9.7347259521E-002 +4.6355724335E-003 -5.5682659149E-003 -4.6443194151E-005 -1.0462105274E-004 -1.1371994019E-001 -2.4414062500E-002
2165000000.000 -6.3270568848E-002 -1.0426712036E-001 +7.2622299194E-004 -7.3125362396E-003 +4.5718625188E-005 +6.3087791204E-006 -1.2259674072E-001 -4.2373657227E-002
2297500000.000 -6.4731597900E-002 -1.0995101929E-001 -3.4966468811E-003 -6.4983367920E-003 +3.7878751755E-005 +4.8208981752E-005 -1.2660217285E-001 -5.3451538086E-002
2430000000.000 -6.6032409668E-002 -1.1561965942E-001 -6.4289569855E-003 -3.3438205719E-003 -2.4218112230E-005 -4.8179179430E-005 -1.2627410889E-001 -6.4910888672E-002
2562500000.000 -6.7398071289E-002 -1.2191390991E-001 -7.0664882660E-003 +7.1001052856E-004 +2.2388994694E-006 +7.5824558735E-005 -1.2513732910E-001 -7.1113586426E-002
2695000000.000 -7.0655822754E-002 -1.2707519531E-001 -5.7027339935E-003 +4.6622753143E-003 +3.1162053347E-005 -7.2665512562E-005 -1.1364746094E-001 -7.3421478271E-002
2827500000.000 -7.2814941406E-002 -1.3137054443E-001 -1.8284320831E-003 +6.8969726563E-003 -1.5294551849E-004 -1.0390579700E-004 -9.8449707031E-002 -8.1710815430E-002
2960000000.000 -7.4157714844E-002 -1.3682556152E-001 +2.1324157715E-003 +6.7403316498E-003 -1.2896955013E-005 +2.3953616619E-005 -8.8069915771E-002 -8.6879730225E-002
3092500000.000 -7.6820373535E-002 -1.4340209961E-001 +5.6650638580E-003 +4.3110847473E-003 -3.0547380447E-007 -3.0184164643E-005 -7.0343017578E-002 -8.6082458496E-002
3225000000.000 -8.0955505371E-002 -1.4862060547E-001 +7.0796012878E-003 +4.0864944458E-004 -1.7674639821E-005 -3.9866194129E-005 -5.2024841309E-002 -9.1022491455E-002
3357500000.000 -8.3457946777E-002 -1.5250396729E-001 +6.0613155365E-003 -3.5099983215E-003 +5.4091215134E-005 -2.0295381546E-005 -4.1427612305E-002 -9.1670989990E-002
3490000000.000 -8.5563659668E-002 -1.5904998779E-001 +3.2355785370E-003 -6.2096118927E-003 -4.6549364924E-005 -6.8489462137E-006 -2.7839660645E-002 -8.3419799805E-002
3622500000.000 -8.8638305664E-002 -1.6554260254E-001 -9.9968910217E-004 -6.9620609283E-003 -6.1329454184E-005 -1.4603137970E-005 -1.1421203613E-002 -7.9082489014E-002
3755000000.000 -9.2430114746E-002 -1.7147827148E-001 -4.4910907745E-003 -5.2378177643E-003 +1.2602657080E-004 -4.2527914047E-005 -5.9509277344E-003 -7.3074340820E-002
3887500000.000 -9.5138549805E-002 -1.7657470703E-001 -6.8147182465E-003 -1.8298625946E-003 +4.8201531172E-005 +9.2759728432E-005 +2.2029876709E-003 -5.5948257446E-002
4020000000.000 -9.7579956055E-002 -1.8154907227E-001 -6.6668987274E-003 +2.2859573364E-003 -4.5387074351E-005 +3.4293159842E-005 +1.3305664063E-002 -4.4548034668E-002
4152500000.000 -1.0005950928E-001 -1.8776702881E-001 -4.0781497955E-003 +5.6686401367E-003 -2.3519620299E-005 -4.4526532292E-005 +1.5451431274E-002 -3.2632827759E-002
4285000000.000 -1.0330200195E-001 -1.9333648682E-001 -1.5068054199E-004 +6.9777965546E-003 +5.9358775616E-005 +7.9888850451E-005 +1.6989707947E-002 -1.2973785400E-002
4417500000.000 -1.0712432861E-001 -1.9830322266E-001 +3.6416053772E-003 +5.9247016907E-003 -6.2063336372E-006 +3.5308301449E-005 +2.5635719299E-002 +3.6630630493E-003
4550000000.000 -1.0906219482E-001 -2.0310211182E-001 +6.3276290894E-003 +2.7611255646E-003 -4.8846006393E-005 -4.6398490667E-006 +2.8905868530E-002 +9.5586776733E-003
4682500000.000 -1.1170959473E-001 -2.0911407471E-001 +6.6955089569E-003 -1.0418891907E-003 +3.9141625166E-005 +2.7582049370E-005 +2.5547027588E-002 +2.0741462708E-002
4815000000.000 -1.1524963379E-001 -2.1453857422E-001 +4.9555301666E-003 -4.5254230499E-003 -1.5078578144E-005 +1.2619420886E-007 +3.1176567078E-002 +2.7424812317E-002
4947500000.000 -1.1777496338E-001 -2.1895599365E-001 +1.6446113586E-003 -6.7105293274E-003 -2.2921711206E-005 -9.3881040812E-005 +2.7667045593E-002 +1.9955635071E-002
5080000000.000 -1.1952209473E-001 -2.2419738770E-001 -2.3293495178E-003 -6.4959526062E-003 +1.1546537280E-005 +2.3589469492E-005 +1.3227462769E-002 +2.0534515381E-002
5212500000.000 -1.2239074707E-001 -2.2946166992E-001 -5.6056976318E-003 -4.2033195496E-003 -3.0925497413E-005 +2.9949471354E-005 +9.2372894287E-003 +2.4832725525E-002
5345000000.000 -1.2568664551E-001 -2.3347473145E-001 -7.0006847382E-003 -2.6369094849E-004 -6.6757202148E-005 -4.1972845793E-005 +5.4597854614E-003 +1.6284942627E-002
5477500000.000 -1.2684631348E-001 -2.3715209961E-001 -5.9335231781E-003 +3.7672519684E-003 -1.0097399354E-005 +4.1740015149E-005 -9.1891288757E-003 +1.0204315186E-002
5610000000.000 -1.2900543213E-001 -2.4239349365E-001 -2.8355121613E-003 +6.4651966095E-003 +3.8221478462E-006 +3.6874786019E-005 -1.4927387238E-002 +1.4439105988E-002
5742500000.000 -1.3253784180E-001 -2.4611663818E-001 +1.2502670288E-003 +6.9830417633E-003 -2.4049542844E-005 -2.2624619305E-005 -1.1553287506E-002 +5.8774948120E-003
5875000000.000 -1.3566589355E-001 -2.4804687500E-001 +5.0323009491E-003 +5.0148963928E-003 +6.4089894295E-005 -2.9351562262E-005 -2.0257949829E-002 -3.3254623413E-003
6007500000.000 -1.3739013672E-001 -2.5146484375E-001 +6.9849491119E-003 +1.2822151184E-003 -7.9972669482E-006 +2.0498409867E-005 -2.3245811462E-002 +2.0599365234E-004
6140000000.000 -1.4030456543E-001 -2.5624084473E-001 +6.5402984619E-003 -2.7959346771E-003 -7.9512596130E-005 +2.8349459171E-005 -1.5412330627E-002 -2.8586387634E-003
6272500000.000 -1.4558410645E-001 -2.5955200195E-001 +3.7825107574E-003 -5.9957504272E-003 +1.4694407582E-005 -2.0829960704E-005 -1.6434669495E-002 -1.1824607849E-002
6405000000.000 -1.4953613281E-001 -2.6063537598E-001 -2.1553039551E-004 -7.0457458496E-003 -3.0376948416E-005 +1.3040378690E-005 -1.9413948059E-002 -6.2141418457E-003
6537500000.000 -1.5107727051E-001 -2.6423645020E-001 -4.1267871857E-003 -5.7146549225E-003 -4.4358894229E-005 +8.8550150394E-006 -9.2396736145E-003 -3.2548904419E-003
6670000000.000 -1.5484619141E-001 -2.6983642578E-001 -6.6421031952E-003 -2.4282932281E-003 +1.0769814253E-005 -3.3399090171E-005 -7.9169273376E-003 -7.2841644287E-003
6802500000.000 -1.6102600098E-001 -2.7302551270E-001 -6.7553520203E-003 +1.7309188843E-003 +2.6642344892E-005 +1.7520040274E-005 -1.1361598969E-002 +1.8787384033E-004
6935000000.000 -1.6470336914E-001 -2.7372741699E-001 -4.6381950378E-003 +5.2332878113E-003 -3.8752332330E-005 +5.3513795137E-006 -6.4172744751E-003 +9.8934173584E-003
7067500000.000 -1.6571044922E-001 -2.7763366699E-001 -9.2720985413E-004 +6.9634914398E-003 -1.6564503312E-005 -3.6841258407E-005 -4.7240257263E-003 +1.0179042816E-002
7200000000.000 -1.7019653320E-001 -2.8308105469E-001 +3.0844211578E-003 +6.2441825867E-003 +3.2024458051E-005 -2.7436763048E-006 -1.5152931213E-002 +1.6968727112E-002
7332500000.000 -1.7617797852E-001 -2.8543090820E-001 +6.0093402863E-003 +3.3428668976E-003 -4.1080638766E-005 +4.4396147132E-005 -1.7112731934E-002 +3.0726432800E-002
7465000000.000 -1.7932128906E-001 -2.8749084473E-001 +6.9062709808E-003 -5.5217742920E-004 -1.4789402485E-006 -4.5059248805E-005 -1.9919395447E-002 +3.1168937683E-002
7597500000.000 -1.8182373047E-001 -2.9183959961E-001 +5.3853988647E-003 -4.2872428894E-003 +5.3409487009E-005 -9.8887830973E-006 -3.6437988281E-002 +3.3258438110E-002
7730000000.000 -1.8620300293E-001 -2.9698181152E-001 +2.0852088928E-003 -6.5977573395E-003 -4.4645741582E-005 +3.5304576159E-005 -4.8307418823E-002 +4.3510437012E-002
7862500000.000 -1.9024658203E-001 -2.9994201660E-001 -2.0093917847E-003 -6.5584182739E-003 -4.6079978347E-005 +2.7157366276E-005 -5.3573608398E-002 +4.2623519897E-002
7995000000.000 -1.9235229492E-001 -3.0265808105E-001 -5.3262710571E-003 -4.3773651123E-003 +4.6087428927E-005 -3.6342069507E-005 -7.2917938232E-002 +3.5037994385E-002
8127500000.000 -1.9480895996E-001 -3.0838012695E-001 -6.8256855011E-003 -7.4625015259E-004 +1.3465527445E-005 -8.4238126874E-006 -9.1476440430E-002 +3.9695739746E-002
8260000000.000 -1.9934082031E-001 -3.1164550781E-001 -6.1149597168E-003 +3.2799243927E-003 -5.7561323047E-005 +3.3790245652E-005 -9.5603942871E-002 +3.4442901611E-002
8392500000.000 -2.0097351074E-001 -3.1439208984E-001 -3.2460689545E-003 +6.0505867004E-003 +1.7413869500E-005 +4.4800341129E-005 -1.0974884033E-001 +1.8474578857E-002
8525000000.000 -2.0205688477E-001 -3.1813049316E-001 +7.8463554382E-004 +6.8342685699E-003 +2.4098902941E-005 +4.9289315939E-005 -1.2195205688E-001 +1.4957427979E-002
8657500000.000 -2.0463562012E-001 -3.2221984863E-001 +4.4555664063E-003 +5.2721500397E-003 -5.3912401199E-005 +4.4843181968E-005 -1.1788177490E-001 +4.2076110840E-003
8790000000.000 -2.0811462402E-001 -3.2554626465E-001 +6.6986083984E-003 +1.8639564514E-003 -1.3627111912E-005 -6.7077577114E-005 -1.1960983276E-001 -1.7372131348E-002
8922500000.000 -2.0986938477E-001 -3.2661437988E-001 +6.6196918488E-003 -2.2397041321E-003 +3.5457313061E-005 +3.9342790842E-005 -1.2231063843E-001 -3.0586242676E-002
9055000000.000 -2.1148681641E-001 -3.2989501953E-001 +4.1890144348E-003 -5.5396556854E-003 -1.2334436178E-005 +3.9778649807E-005 -1.1096191406E-001 -4.3968200684E-002
9187500000.000 -2.1426391602E-001 -3.3256530762E-001 +3.2186508179E-004 -6.9224834442E-003 -7.2650611401E-005 -1.7292797565E-005 -1.0011672974E-001 -6.6822052002E-002
9320000000.000 -2.1913146973E-001 -3.3363342285E-001 -3.6284923553E-003 -5.9142112732E-003 +1.5103258193E-005 -9.0901739895E-006 -9.3643188477E-002 -7.9483032227E-002
9452500000.000 -2.2151184082E-001 -3.3482360840E-001 -6.3185691833E-003 -2.8643608093E-003 -2.3003667593E-006 +2.4550594389E-005 -7.4226379395E-002 -8.6643218994E-002
9585000000.000 -2.2421264648E-001 -3.3717346191E-001 -6.8526268005E-003 +1.1518001556E-003 -2.0411796868E-005 -2.6818364859E-005 -5.4103851318E-002 -1.0128402710E-001
9717500000.000 -2.2912597656E-001 -3.4051513672E-001 -4.9712657928E-003 +4.8208236694E-003 +3.9314851165E-005 -5.9796497226E-005 -4.1194915771E-002 -1.0689926147E-001
9850000000.000 -2.3440551758E-001 -3.3979797363E-001 -1.4283657074E-003 +6.8130493164E-003 +2.9657036066E-005 +6.3158571720E-005 -1.9062042236E-002 -1.0218429565E-001
9982500000.000 -2.3573303223E-001 -3.4211730957E-001 +2.6071071625E-003 +6.4415931702E-003 -7.1700662374E-005 -1.5236437321E-006 +6.4620971680E-003 -1.0322189331E-001
10115000000.000 -2.3898315430E-001 -3.4530639648E-001 +5.7199001312E-003 +3.8676261902E-003 +9.2964619398E-006 -5.6911259890E-005 +1.9279479980E-002 -9.9060058594E-002
10247500000.000 -2.4511718750E-001 -3.4675598145E-001 +7.0002079010E-003 -1.1205673218E-004 +2.3253262043E-005 +6.1564147472E-005 +3.5736083984E-002 -7.9959869385E-002
10380000000.000 -2.4845886230E-001 -3.4727478027E-001 +5.7325363159E-003 -3.9637088776E-003 -1.0350719094E-005 +4.6215951443E-005 +5.7025909424E-002 -6.7512512207E-002
10512500000.000 -2.5119018555E-001 -3.4902954102E-001 +2.4652481079E-003 -6.5109729767E-003 +7.4133276939E-006 -2.5027431548E-005 +6.2641143799E-002 -5.6018829346E-002
10645000000.000 -2.5495910645E-001 -3.5125732422E-001 -1.5223026276E-003 -6.8347454071E-003 +5.8632344007E-005 +7.0866197348E-005 +6.6116333008E-002 -2.9155731201E-002
10777500000.000 -2.5959777832E-001 -3.5333251953E-001 -5.0537586212E-003 -4.7183036804E-003 -4.3395906687E-005 +7.0869922638E-005 +7.7030181885E-002 -7.8697204590E-003
10910000000.000 -2.6365661621E-001 -3.5478210449E-001 -6.9000720978E-003 -1.0461807251E-003 +3.3818185329E-005 -6.2383711338E-005 +7.2296142578E-002 +5.6343078613E-003
11042500000.000 -2.6805114746E-001 -3.5655212402E-001 -6.2940120697E-003 +3.0074119568E-003 -3.1597912312E-005 -4.5476481318E-005 +5.9606552124E-002 +3.1259536743E-002
11175000000.000 -2.7133178711E-001 -3.5986328125E-001 -3.4945011139E-003 +5.9819221497E-003 -3.4555792809E-005 +9.1187655926E-005 +5.6478500366E-002 +5.2314758301E-002
11307500000.000 -2.7403259277E-001 -3.6181640625E-001 +5.0187110901E-004 +6.9129467010E-003 -2.5087967515E-005 +1.5612691641E-005 +4.3531417847E-002 +5.8561325073E-002
11440000000.000 -2.7853393555E-001 -3.6415100098E-001 +4.2719841003E-003 +5.4764747620E-003 -3.3814460039E-005 -1.0577961802E-005 +1.8234252930E-002 +7.2055816650E-002
11572500000.000 -2.8009033203E-001 -3.6734008789E-001 +6.6134929657E-003 +2.0530223846E-003 +1.5310943127E-005 +1.5409663320E-005 +4.4174194336E-003 +8.7272644043E-002
11705000000.000 -2.8256225586E-001 -3.6952209473E-001 +6.6158771515E-003 -1.9729137421E-003 -4.5126304030E-005 -5.4894015193E-005 -1.0169982910E-002 +8.0905914307E-002
11837500000.000 -2.8608703613E-001 -3.7178039551E-001 +4.3747425079E-003 -5.3627490997E-003 +7.9754740000E-005 -4.2639672756E-005 -4.3010711670E-002 +7.6538085938E-002
11970000000.000 -2.8741455078E-001 -3.7220764160E-001 +5.1903724670E-004 -6.9251060486E-003 -2.5189481676E-005 +1.7287209630E-005 -5.9356689453E-002 +8.3000183105E-002
12102500000.000 -2.8736877441E-001 -3.7466430664E-001 -3.4849643707E-003 -6.0701370239E-003 -4.6957284212E-005 +4.4690445065E-005 -6.5399169922E-002 +6.4327239990E-002
12235000000.000 -2.9306030273E-001 -3.7539672852E-001 -6.3567161560E-003 -3.0353069305E-003 +1.0458007455E-004 -9.5892697573E-005 -9.2781066895E-002 +4.3918609619E-002
12367500000.000 -2.9356384277E-001 -3.7568664551E-001 -6.8626403809E-003 +1.1072158813E-003 +1.6419216990E-005 +3.1115487218E-005 -1.0554504395E-001 +4.2633056641E-002
12500000000.000 -2.9721069336E-001 -3.7530517578E-001 -5.0432682037E-003 +4.6820640564E-003 -8.5391104221E-005 +8.2001090050E-005 -9.7301483154E-002 +2.0393371582E-002
12632500000.000 -2.9965209961E-001 -3.7783813477E-001 -1.4548301697E-003 +6.6461563110E-003 -4.3306499720E-006 -8.9849345386E-006 -1.0922622681E-001 -1.3614654541E-002
12765000000.000 -3.0236816406E-001 -3.7799072266E-001 +2.4456977844E-003 +6.3710212708E-003 -9.9744647741E-007 -3.0467286706E-005 -1.1727142334E-001 -1.8032073975E-002
12897500000.000 -3.0503845215E-001 -3.7707519531E-001 +5.6772232056E-003 +3.7765502930E-003 +2.5086104870E-005 +5.1883980632E-005 -9.2224121094E-002 -3.4732818604E-002
13030000000.000 -3.0717468262E-001 -3.7780761719E-001 +6.7973136902E-003 -7.3194503784E-005 -2.9141083360E-005 -4.8914924264E-005 -8.9328765869E-002 -7.0968627930E-002
13162500000.000 -3.0979919434E-001 -3.7937927246E-001 +5.5928230286E-003 -3.9327144623E-003 +5.0589442253E-005 -5.5365264416E-005 -9.1430664063E-002 -7.2708129883E-002
13295000000.000 -3.1251525879E-001 -3.8020324707E-001 +2.3646354675E-003 -6.3986778259E-003 -1.9330531359E-005 +6.0018151999E-005 -6.1145782471E-002 -7.8670501709E-002
13427500000.000 -3.1622314453E-001 -3.7908935547E-001 -1.4753341675E-003 -6.6187381744E-003 -6.9789588451E-005 -1.2863427401E-005 -4.6768188477E-002 -1.0402679443E-001
13560000000.000 -3.1634521484E-001 -3.7925720215E-001 -5.0084590912E-003 -4.5633316040E-003 -1.0480172932E-005 -2.1333806217E-005 -4.6382904053E-002 -1.0136795044E-001
13692500000.000 -3.1883239746E-001 -3.8140869141E-001 -6.7005157471E-003 -9.3078613281E-004 +8.1464648247E-005 +3.6463141441E-005 -1.7822265625E-002 -8.9241027832E-002
13825000000.000 -3.2347106934E-001 -3.8204956055E-001 -6.0107707977E-003 +3.0584335327E-003 +4.7264620662E-005 +3.4812837839E-005 +4.2381286621E-003 -1.0297393799E-001
13957500000.000 -3.2644653320E-001 -3.8011169434E-001 -3.1538009644E-003 +5.9695243835E-003 +6.2715262175E-005 -3.0957162380E-005 -1.9073486328E-004 -9.5420837402E-002
14090000000.000 -3.2771301270E-001 -3.8081359863E-001 +6.6733360291E-004 +6.6852569580E-003 +4.1335821152E-005 +1.2890249491E-004 +2.1945953369E-002 -7.0171356201E-002
14222500000.000 -3.2948303223E-001 -3.8403320313E-001 +4.2407512665E-003 +5.1364898682E-003 +2.8253532946E-005 +2.3711472750E-005 +4.3979644775E-002 -7.4188232422E-002
14355000000.000 -3.3464050293E-001 -3.8447570801E-001 +6.4716339111E-003 +1.8088817596E-003 -1.0718777776E-004 -4.5917928219E-005 +3.3100128174E-002 -6.7161560059E-002
14487500000.000 -3.3749389648E-001 -3.8439941406E-001 +6.2904357910E-003 -2.1858215332E-003 +2.4990178645E-005 +2.0659528673E-005 +4.0100097656E-002 -3.4034729004E-002
14620000000.000 -3.3760070801E-001 -3.8626098633E-001 +3.9021968842E-003 -5.3730010986E-003 -7.9300254583E-005 +6.8239867687E-005 +6.0956954956E-002 -3.1354904175E-002
14752500000.000 -3.4089660645E-001 -3.9094543457E-001 +2.7108192444E-004 -6.6511631012E-003 -1.8807128072E-005 +3.0125491321E-005 +4.3155670166E-002 -3.2361984253E-002
14885000000.000 -3.4358215332E-001 -3.9245605469E-001 -3.5066604614E-003 -5.6073665619E-003 -7.2088092566E-005 -3.4488737583E-005 +3.5411834717E-002 +1.5773773193E-003
15017500000.000 -3.4419250488E-001 -3.9395141602E-001 -5.9506893158E-003 -2.5048255920E-003 -3.4578144550E-005 +8.1967562437E-005 +5.3056716919E-002 +8.7604522705E-003
15150000000.000 -3.4507751465E-001 -3.9784240723E-001 -6.2973499298E-003 +1.2419223785E-003 -3.7090852857E-005 -2.6971101761E-005 +3.5057067871E-002 -1.5430450439E-003
15282500000.000 -3.4585571289E-001 -4.0029907227E-001 -4.4536590576E-003 +4.5769214630E-003 +3.6548823118E-005 -2.5602057576E-005 +1.4515876770E-002 +2.3243904114E-002
