!  2-Port S-parameters saved by WinCal
! VAR MeasName=S-Parameters (CALIBRATED_DATA) read from VNA (C)
! VAR MeasDate=10/16/2015 12:45:01 PM
! VAR NAME=M6082_13_15_2_2_20C_4.8mA_-17.5dBm
! VAR FILENAME=M6082_13_15_2_2_20C_4.8mA_-17.5dBm.S2P
! VAR DATE=10/16/2015 12:45:01 PM
! VAR PHYS_PORTS=2,1
! VAR ObjTypeName=DATASET
! VAR IndexType=Frequency
!
# Hz S RI R 50
45000000.000 +4.4750213623E-002 -1.4762878418E-003 -1.1315345764E-003 +8.5434913635E-003 +1.2603402138E-003 -3.6579370499E-004 +2.8379440308E-002 +2.3269653320E-003
177500000.000 +4.4115066528E-002 -7.1392059326E-003 +2.6049613953E-003 +6.2098503113E-003 +7.1272253990E-005 +8.5860490799E-005 +1.5765190125E-002 +1.6470909119E-002
310000000.000 +4.3540954590E-002 -1.2821197510E-002 +5.1927566528E-003 +4.0948390961E-003 -6.5743923187E-005 -1.1892616749E-004 +2.9209136963E-002 +6.1344146729E-002
442500000.000 +4.3298721313E-002 -1.8695831299E-002 +7.4927806854E-003 +5.7220458984E-006 +4.4500455260E-005 +2.4383887649E-005 +7.2502136230E-002 +2.2552490234E-002
575000000.000 +4.2709350586E-002 -2.4652481079E-002 +5.6996345520E-003 -4.0431022644E-003 -2.1094456315E-005 +3.2410025597E-005 +2.7204513550E-002 +1.1383056641E-002
707500000.000 +4.1854858398E-002 -2.9893875122E-002 +2.3736953735E-003 -6.4458847046E-003 -9.2711299658E-005 -4.6942383051E-005 +2.1734237671E-003 +1.8653869629E-002
840000000.000 +4.1479110718E-002 -3.5890579224E-002 -1.6229152679E-003 -6.6690444946E-003 +5.4039061069E-005 -1.5385448933E-006 -1.9905090332E-002 +2.5939941406E-002
972500000.000 +4.1294097900E-002 -4.1339874268E-002 -4.9219131470E-003 -4.5678615570E-003 -1.4830380678E-005 +9.4022601843E-005 -3.5837173462E-002 +3.5308837891E-002
1105000000.000 +4.0246963501E-002 -4.7142028809E-002 -6.6699981689E-003 -9.8490715027E-004 -3.6343932152E-005 +2.5061890483E-005 -4.6888351440E-002 +3.8208007813E-002
1237500000.000 +3.9249420166E-002 -5.2324295044E-002 -6.1154365540E-003 +2.8431415558E-003 +6.2532722950E-005 -1.4204531908E-005 -5.8530807495E-002 +3.3845901489E-002
1370000000.000 +3.8457870483E-002 -5.7720184326E-002 -3.3721923828E-003 +5.7351589203E-003 +3.4216791391E-005 +4.2164698243E-005 -7.4012756348E-002 +2.6939392090E-002
1502500000.000 +3.7513732910E-002 -6.2976837158E-002 +3.8099288940E-004 +6.5510272980E-003 -1.0241195560E-004 +7.5176358223E-006 -8.7917327881E-002 +2.1324157715E-002
1635000000.000 +3.7281036377E-002 -6.8672180176E-002 +4.0204524994E-003 +5.2063465118E-003 +8.4299594164E-005 -2.8200447559E-005 -9.9040985107E-002 +1.1634826660E-002
1767500000.000 +3.5907745361E-002 -7.4554443359E-002 +6.2642097473E-003 +2.0084381104E-003 +4.0084123611E-006 +5.3830444813E-005 -1.1182022095E-001 +2.9067993164E-003
1900000000.000 +3.5297393799E-002 -7.9315185547E-002 +6.4146518707E-003 -1.8446445465E-003 -4.8814341426E-005 +7.3257833719E-006 -1.1378097534E-001 -3.5018920898E-003
2032500000.000 +3.4217834473E-002 -8.4117889404E-002 +4.1131973267E-003 -4.9238204956E-003 -1.8073245883E-005 -4.3693929911E-005 -1.1369705200E-001 -2.4421691895E-002
2165000000.000 +3.3912658691E-002 -9.0080261230E-002 +6.9761276245E-004 -6.5019130707E-003 +5.6054443121E-005 +1.0498240590E-004 -1.2252426147E-001 -4.2201995850E-002
2297500000.000 +3.2703399658E-002 -9.4982147217E-002 -3.1192302704E-003 -5.5985450745E-003 -3.1754374504E-005 +2.8964132071E-006 -1.2632751465E-001 -5.3504943848E-002
2430000000.000 +3.1623840332E-002 -9.9609375000E-002 -5.7716369629E-003 -2.8638839722E-003 -5.8284029365E-005 -5.7445839047E-005 -1.2670898438E-001 -6.4872741699E-002
2562500000.000 +3.0693054199E-002 -1.0504531860E-001 -6.5567493439E-003 +6.7424774170E-004 +3.5509467125E-005 +6.6284090281E-005 -1.2503814697E-001 -7.0983886719E-002
2695000000.000 +2.8095245361E-002 -1.0897445679E-001 -4.8999786377E-003 +4.2600631714E-003 -1.0521709919E-004 +9.1496855021E-005 -1.1362457275E-001 -7.3280334473E-002
2827500000.000 +2.6393890381E-002 -1.1243438721E-001 -1.6434192657E-003 +6.1991214752E-003 -5.4415315390E-005 -1.8371269107E-005 -9.8506927490E-002 -8.1790924072E-002
2960000000.000 +2.5611877441E-002 -1.1698150635E-001 +1.9066333771E-003 +6.0019493103E-003 +9.5758587122E-005 +1.1293962598E-004 -8.8088989258E-002 -8.6624145508E-002
3092500000.000 +2.3567199707E-002 -1.2263107300E-001 +5.0473213196E-003 +3.9367675781E-003 -1.2985616922E-004 +8.0667436123E-005 -7.0507049561E-002 -8.5826873779E-002
3225000000.000 +2.0011901855E-002 -1.2719726563E-001 +6.1960220337E-003 +4.4369697571E-004 +5.6982040405E-005 -4.2336061597E-005 -5.1895141602E-002 -9.1152191162E-002
3357500000.000 +1.8157958984E-002 -1.3014221191E-001 +5.4709911346E-003 -3.1094551086E-003 +1.7859041691E-004 +2.5399029255E-005 -4.1278839111E-002 -9.1526031494E-002
3490000000.000 +1.6693115234E-002 -1.3594818115E-001 +2.7141571045E-003 -5.5985450745E-003 -6.5125524998E-005 +7.0020556450E-005 -2.7923583984E-002 -8.3217620850E-002
3622500000.000 +1.4633178711E-002 -1.4168548584E-001 -7.8892707825E-004 -6.1573982239E-003 -1.1973828077E-004 +1.1548399925E-007 -1.1260986328E-002 -7.9135894775E-002
3755000000.000 +1.1497497559E-002 -1.4688110352E-001 -4.1949748993E-003 -4.7483444214E-003 -1.1079013348E-005 -1.1008605361E-004 -5.8441162109E-003 -7.2914123535E-002
3887500000.000 +9.6740722656E-003 -1.5117645264E-001 -6.1676502228E-003 -1.6953945160E-003 +8.1043690443E-006 +7.4971467257E-006 +2.1743774414E-003 -5.5870056152E-002
4020000000.000 +8.0184936523E-003 -1.5568542480E-001 -5.9895515442E-003 +2.1266937256E-003 -4.5070424676E-005 -3.8059428334E-005 +1.3315200806E-002 -4.4401168823E-002
4152500000.000 +6.1416625977E-003 -1.6116333008E-001 -3.8533210754E-003 +5.2216053009E-003 +7.8413635492E-005 -5.1874667406E-005 +1.5481948853E-002 -3.2646179199E-002
4285000000.000 +3.7918090820E-003 -1.6605377197E-001 -1.9907951355E-004 +6.3605308533E-003 -1.0780990124E-004 +4.9147754908E-005 +1.7131805420E-002 -1.3184547424E-002
4417500000.000 +9.9945068359E-004 -1.7050170898E-001 +3.3729076385E-003 +5.3291320801E-003 -5.3890049458E-005 +4.0449202061E-005 +2.5579452515E-002 +3.6697387695E-003
4550000000.000 -2.9754638672E-004 -1.7487335205E-001 +5.7456493378E-003 +2.5668144226E-003 -3.7305057049E-005 -5.3565949202E-005 +2.8902053833E-002 +9.6588134766E-003
4682500000.000 -1.9073486328E-003 -1.8040466309E-001 +6.1573982239E-003 -1.0335445404E-003 +2.5095418096E-005 +4.7298148274E-005 +2.5691986084E-002 +2.0656585693E-002
4815000000.000 -4.6386718750E-003 -1.8508911133E-001 +4.5866966248E-003 -4.2431354523E-003 -9.8545104265E-005 +6.4868479967E-005 +3.1259536743E-002 +2.7502059937E-002
4947500000.000 -6.0882568359E-003 -1.8910980225E-001 +1.5525817871E-003 -6.0837268829E-003 -2.4531036615E-006 -5.0563365221E-005 +2.7670860291E-002 +1.9978523254E-002
5080000000.000 -6.9427490234E-003 -1.9380950928E-001 -2.1517276764E-003 -6.0429573059E-003 +1.9469298422E-005 +1.0173767805E-005 +1.3336181641E-002 +2.0652770996E-002
5212500000.000 -8.9645385742E-003 -1.9869995117E-001 -5.2485466003E-003 -3.8647651672E-003 -1.8430873752E-005 +2.2258609533E-006 +9.2363357544E-003 +2.4763107300E-002
5345000000.000 -1.1390686035E-002 -2.0236206055E-001 -6.4818859100E-003 -2.6535987854E-004 +3.5082921386E-006 +8.0689787865E-006 +5.5932998657E-003 +1.6254425049E-002
5477500000.000 -1.1398315430E-002 -2.0577239990E-001 -5.5649280548E-003 +3.4165382385E-003 +6.8459659815E-005 -3.9756298065E-005 -9.1052055359E-003 +1.0366916656E-002
5610000000.000 -1.2603759766E-002 -2.1057891846E-001 -2.6907920837E-003 +6.0918331146E-003 -1.0143965483E-005 +7.3239207268E-005 -1.4883041382E-002 +1.4542579651E-002
5742500000.000 -1.5312194824E-002 -2.1403503418E-001 +1.2557506561E-003 +6.4735412598E-003 -3.8746744394E-005 -2.6989728212E-006 -1.1477947235E-002 +5.9862136841E-003
5875000000.000 -1.7311096191E-002 -2.1574401855E-001 +4.6899318695E-003 +4.7502517700E-003 +1.8250197172E-005 +3.5716220737E-006 -2.0217895508E-002 -3.3559799194E-003
6007500000.000 -1.7944335938E-002 -2.1887207031E-001 +6.5858364105E-003 +1.1999607086E-003 -7.0603564382E-006 +8.9341774583E-006 -2.3232460022E-002 +2.4127960205E-004
6140000000.000 -2.0088195801E-002 -2.2354888916E-001 +6.1402320862E-003 -2.7892589569E-003 +2.3439526558E-005 +3.4471973777E-005 -1.5364170074E-002 -2.7098655701E-003
6272500000.000 -2.4566650391E-002 -2.2644042969E-001 +3.5877227783E-003 -5.7835578918E-003 +1.0456889868E-005 -5.1641836762E-005 -1.6413688660E-002 -1.1769294739E-002
6405000000.000 -2.7343750000E-002 -2.2749328613E-001 -3.1948089600E-004 -6.7150592804E-003 +4.1037797928E-005 +6.8288296461E-005 -1.9501686096E-002 -6.2780380249E-003
6537500000.000 -2.7870178223E-002 -2.3104858398E-001 -4.0249824524E-003 -5.3694248199E-003 -2.9894523323E-005 +2.3108907044E-005 -9.3522071838E-003 -3.2005310059E-003
6670000000.000 -3.0799865723E-002 -2.3664093018E-001 -6.3621997833E-003 -2.1884441376E-003 -2.1703541279E-005 -1.9713304937E-005 -7.8787803650E-003 -7.2970390320E-003
6802500000.000 -3.6026000977E-002 -2.3970031738E-001 -6.4342021942E-003 +1.7480850220E-003 +3.4345313907E-005 -1.5590339899E-005 -1.1356353760E-002 +4.6253204346E-005
6935000000.000 -3.8520812988E-002 -2.4066162109E-001 -4.3330192566E-003 +5.1524639130E-003 -5.0287693739E-005 -2.1105632186E-005 -6.4225196838E-003 +9.8090171814E-003
7067500000.000 -3.9024353027E-002 -2.4439239502E-001 -7.6079368591E-004 +6.7141056061E-003 +3.5353004932E-006 -6.2331557274E-005 -4.7035217285E-003 +1.0099887848E-002
7200000000.000 -4.2930603027E-002 -2.4972534180E-001 +3.1821727753E-003 +6.0019493103E-003 +6.1087310314E-005 -2.0608305931E-005 -1.5090942383E-002 +1.7022132874E-002
7332500000.000 -4.7714233398E-002 -2.5250244141E-001 +5.9573650360E-003 +3.1378269196E-003 -1.9158236682E-005 +1.5825033188E-005 -1.7000198364E-002 +3.0707359314E-002
7465000000.000 -4.9789428711E-002 -2.5460815430E-001 +6.7603588104E-003 -7.1644783020E-004 -3.6546960473E-005 +3.0789524317E-006 -1.9804000854E-002 +3.1219482422E-002
7597500000.000 -5.2001953125E-002 -2.5924682617E-001 +5.0418376923E-003 -4.2536258698E-003 +4.2006373405E-005 -4.0696933866E-005 -3.6394119263E-002 +3.3311843872E-002
7730000000.000 -5.5389404297E-002 -2.6412963867E-001 +1.8334388733E-003 -6.4790248871E-003 +4.2293220758E-005 +1.7039477825E-005 -4.8175811768E-002 +4.3586730957E-002
7862500000.000 -5.8227539063E-002 -2.6742553711E-001 -2.1026134491E-003 -6.3662528992E-003 -6.7926943302E-005 -5.2895396948E-005 -5.3585052490E-002 +4.2537689209E-002
7995000000.000 -5.9707641602E-002 -2.7026367188E-001 -5.3877830505E-003 -4.0645599365E-003 +1.2187287211E-005 +2.0543113351E-005 -7.2990417480E-002 +3.5129547119E-002
8127500000.000 -6.1538696289E-002 -2.7612304688E-001 -6.7791938782E-003 -3.9076805115E-004 +4.1611492634E-006 +3.3278018236E-005 -9.1400146484E-002 +3.9859771729E-002
8260000000.000 -6.4910888672E-002 -2.7957153320E-001 -5.8181285858E-003 +3.4899711609E-003 -5.5495649576E-005 -6.7092478275E-006 -9.5413208008E-002 +3.4313201904E-002
8392500000.000 -6.5994262695E-002 -2.8251647949E-001 -2.9449462891E-003 +6.2386989594E-003 +3.7683174014E-005 +4.0780752897E-005 -1.0982894897E-001 +1.8413543701E-002
8525000000.000 -6.6543579102E-002 -2.8630065918E-001 +1.1906623840E-003 +6.8094730377E-003 +2.2017396986E-005 +7.6303258538E-006 -1.2195968628E-001 +1.4991760254E-002
8657500000.000 -6.8283081055E-002 -2.9061889648E-001 +4.8396587372E-003 +5.0547122955E-003 -8.1550329924E-005 +3.0737370253E-005 -1.1778640747E-001 +4.2572021484E-003
8790000000.000 -7.0648193359E-002 -2.9417419434E-001 +6.8273544312E-003 +1.4903545380E-003 +1.9332394004E-005 -4.8598274589E-005 -1.1964416504E-001 -1.7395019531E-002
8922500000.000 -7.1716308594E-002 -2.9557800293E-001 +6.4890384674E-003 -2.5868415833E-003 +8.6482614279E-006 -1.4626421034E-006 -1.2241363525E-001 -3.0422210693E-002
9055000000.000 -7.2616577148E-002 -2.9919433594E-001 +3.8452148438E-003 -5.9072971344E-003 +5.9293583035E-005 +1.5584751964E-005 -1.1101531982E-001 -4.3960571289E-002
9187500000.000 -7.4523925781E-002 -3.0191040039E-001 -2.2149085999E-004 -7.0338249207E-003 +1.9588507712E-005 -2.6689842343E-005 -1.0021972656E-001 -6.6837310791E-002
9320000000.000 -7.8323364258E-002 -3.0343627930E-001 -4.1193962097E-003 -5.7952404022E-003 +5.9386715293E-005 -4.0229409933E-005 -9.3635559082E-002 -7.9521179199E-002
9452500000.000 -7.9635620117E-002 -3.0516052246E-001 -6.8123340607E-003 -2.4411678314E-003 -1.7685815692E-005 +5.3524971008E-005 -7.4188232422E-002 -8.6708068848E-002
9585000000.000 -8.1573486328E-002 -3.0796813965E-001 -6.9811344147E-003 +1.8553733826E-003 -6.6237989813E-006 -4.7134235501E-006 -5.4298400879E-002 -1.0124206543E-001
9717500000.000 -8.6120605469E-002 -3.1140136719E-001 -4.7028064728E-003 +5.4678916931E-003 +4.4906511903E-005 -8.7339431047E-006 -4.1351318359E-002 -1.0686111450E-001
9850000000.000 -9.0209960938E-002 -3.1159973145E-001 -7.4839591980E-004 +7.1237087250E-003 -1.7078593373E-005 +3.6533921957E-005 -1.8962860107E-002 -1.0224533081E-001
9982500000.000 -9.1018676758E-002 -3.1443786621E-001 +3.4232139587E-003 +6.3645839691E-003 +6.6328793764E-006 +4.3427571654E-005 +6.3781738281E-003 -1.0341262817E-001
10115000000.000 -9.4116210938E-002 -3.1785583496E-001 +6.4334869385E-003 +3.2842159271E-003 -8.8855624199E-005 -7.3350965977E-006 +1.9180297852E-002 -9.9033355713E-002
10247500000.000 -9.9441528320E-002 -3.1993103027E-001 +7.2593688965E-003 -8.9812278748E-004 +1.6612932086E-005 -3.4114345908E-005 +3.5755157471E-002 -7.9833984375E-002
10380000000.000 -1.0180664063E-001 -3.2156372070E-001 +5.4366588593E-003 -4.9598217010E-003 -5.2601099014E-005 +9.1698020697E-005 +5.7144165039E-002 -6.7699432373E-002
10512500000.000 -1.0469055176E-001 -3.2395935059E-001 +1.6324520111E-003 -7.1566104889E-003 -3.0174851418E-005 -7.6822936535E-005 +6.2440872192E-002 -5.6081771851E-002
10645000000.000 -1.0815429688E-001 -3.2637023926E-001 -2.6693344116E-003 -6.9406032562E-003 +3.8005411625E-005 +2.9470771551E-005 +6.6097259521E-002 -2.9121398926E-002
10777500000.000 -1.1170959473E-001 -3.2905578613E-001 -6.1154365540E-003 -4.1348934174E-003 +1.9930303097E-006 +6.5732747316E-005 +7.7312469482E-002 -7.8811645508E-003
10910000000.000 -1.1499023438E-001 -3.3175659180E-001 -7.4429512024E-003 +5.6028366089E-005 +1.9138678908E-006 -1.7552636564E-005 +7.2319030762E-002 +5.3749084473E-003
11042500000.000 -1.1946105957E-001 -3.3435058594E-001 -6.0627460480E-003 +4.2531490326E-003 +4.1766092181E-005 -5.2776187658E-005 +5.9370040894E-002 +3.1291961670E-002
11175000000.000 -1.2226867676E-001 -3.3796691895E-001 -2.5341510773E-003 +6.9715976715E-003 -2.1956861019E-005 +6.1735510826E-005 +5.6501388550E-002 +5.2648544312E-002
11307500000.000 -1.2420654297E-001 -3.4008789063E-001 +1.8560886383E-003 +7.1589946747E-003 +3.3630058169E-006 -1.9657425582E-005 +4.3596267700E-002 +5.8504104614E-002
11440000000.000 -1.2849426270E-001 -3.4320068359E-001 +5.7084560394E-003 +4.7929286957E-003 +3.3622607589E-005 +1.0877847672E-005 +1.8062591553E-002 +7.2116851807E-002
11572500000.000 -1.2994384766E-001 -3.4704589844E-001 +7.4374675751E-003 +7.2169303894E-004 -3.7211924791E-005 +3.1180679798E-005 +4.2648315430E-003 +8.7509155273E-002
11705000000.000 -1.3232421875E-001 -3.4954833984E-001 +6.5503120422E-003 -3.5498142242E-003 -2.3664906621E-005 +3.9920210838E-005 -1.0166168213E-002 +8.1043243408E-002
11837500000.000 -1.3575744629E-001 -3.5227966309E-001 +3.2410621643E-003 -6.6337585449E-003 +6.6634267569E-005 +9.1567635536E-006 -4.3067932129E-002 +7.6549530029E-002
11970000000.000 -1.3690185547E-001 -3.5340881348E-001 -1.0931491852E-003 -7.3196887970E-003 +5.4627656937E-005 +1.0519474745E-004 -5.9486389160E-002 +8.3049774170E-002
12102500000.000 -1.3685607910E-001 -3.5664367676E-001 -5.1581859589E-003 -5.3999423981E-003 -3.1799077988E-005 +1.8689781427E-005 -6.5567016602E-002 +6.4300537109E-002
12235000000.000 -1.4231872559E-001 -3.5780334473E-001 -7.3151588440E-003 -1.3933181763E-003 +8.2194805145E-005 -2.9563903809E-005 -9.2979431152E-002 +4.3991088867E-002
12367500000.000 -1.4210510254E-001 -3.5842895508E-001 -6.7760944366E-003 +3.0112266541E-003 +6.1370432377E-005 +1.5672296286E-005 -1.0550308228E-001 +4.2526245117E-002
12500000000.000 -1.4567565918E-001 -3.5916137695E-001 -3.9131641388E-003 +6.2937736511E-003 -1.6015022993E-005 +3.6029145122E-005 -9.7183227539E-002 +2.0195007324E-002
12632500000.000 -1.4779663086E-001 -3.6231994629E-001 +4.4012069702E-004 +7.3180198669E-003 -1.5512108803E-005 -7.1667134762E-005 -1.0929870605E-001 -1.3660430908E-002
12765000000.000 -1.4987182617E-001 -3.6256408691E-001 +4.5669078827E-003 +5.6929588318E-003 -2.2612512112E-005 +1.1678785086E-005 -1.1711883545E-001 -1.7738342285E-002
12897500000.000 -1.5238952637E-001 -3.6193847656E-001 +6.9639682770E-003 +2.0682811737E-003 -5.4454430938E-005 +1.6683712602E-005 -9.2029571533E-002 -3.4801483154E-002
13030000000.000 -1.5441894531E-001 -3.6314392090E-001 +6.7660808563E-003 -2.3221969604E-003 -3.3322721720E-005 +1.7913058400E-005 -8.9408874512E-002 -7.1392059326E-002
13162500000.000 -1.5704345703E-001 -3.6509704590E-001 +4.2684078217E-003 -5.7311058044E-003 -7.7132135630E-006 -3.1206756830E-005 -9.1644287109E-002 -7.2422027588E-002
13295000000.000 -1.6004943848E-001 -3.6625671387E-001 +2.6893615723E-004 -7.1432590485E-003 +4.9993395805E-006 +3.9173290133E-005 -6.0901641846E-002 -7.8407287598E-002
13427500000.000 -1.6430664063E-001 -3.6546325684E-001 -3.8597583771E-003 -5.9363842010E-003 -7.2084367275E-005 -4.2673200369E-005 -4.6642303467E-002 -1.0439300537E-001
13560000000.000 -1.6433715820E-001 -3.6572265625E-001 -6.3817501068E-003 -2.5901794434E-003 +7.9099088907E-005 +3.7290155888E-006 -4.6642303467E-002 -1.0129928589E-001
13692500000.000 -1.6690063477E-001 -3.6868286133E-001 -6.7248344421E-003 +1.5492439270E-003 +1.4398247004E-006 +5.1911920309E-005 -1.7684936523E-002 -8.8928222656E-002
13825000000.000 -1.7196655273E-001 -3.7005615234E-001 -4.6918392181E-003 +5.0795078278E-003 -1.5748664737E-005 +7.5073912740E-006 +4.4898986816E-003 -1.0308456421E-001
13957500000.000 -1.7486572266E-001 -3.6857604980E-001 -8.8238716125E-004 +6.6905021667E-003 -4.8670917749E-006 -2.2676773369E-005 -2.2888183594E-004 -9.5546722412E-002
14090000000.000 -1.7575073242E-001 -3.6996459961E-001 +3.0522346497E-003 +5.8691501617E-003 -9.5590949059E-006 +5.1200389862E-005 +2.1945953369E-002 -7.0022583008E-002
14222500000.000 -1.7739868164E-001 -3.7365722656E-001 +5.8922767639E-003 +3.0736923218E-003 -8.2515180111E-005 +3.5755336285E-005 +4.4059753418E-002 -7.4066162109E-002
14355000000.000 -1.8223571777E-001 -3.7423706055E-001 +6.4959526062E-003 -9.2530250549E-004 -7.8584998846E-006 -4.0940940380E-005 +3.3485412598E-002 -6.7108154297E-002
14487500000.000 -1.8467712402E-001 -3.7422180176E-001 +4.8456192017E-003 -4.4989585876E-003 +4.8758462071E-005 -2.4901703000E-005 +4.0258407593E-002 -3.4076690674E-002
14620000000.000 -1.8478393555E-001 -3.7631225586E-001 +1.3949871063E-003 -6.2510967255E-003 +1.0145828128E-005 +1.9911676645E-005 +6.0779571533E-002 -3.1375885010E-002
14752500000.000 -1.8841552734E-001 -3.8059997559E-001 -2.4554729462E-003 -5.8650970459E-003 -6.4272433519E-005 -6.1821192503E-005 +4.3132781982E-002 -3.1925201416E-002
14885000000.000 -1.9146728516E-001 -3.8154602051E-001 -5.1894187927E-003 -3.4241676331E-003 +3.8623809814E-005 +6.6369771957E-005 +3.5690307617E-002 +1.4858245850E-003
15017500000.000 -1.9186401367E-001 -3.8240051270E-001 -6.1624050140E-003 +1.6188621521E-004 +5.3524971008E-005 +1.3043731451E-004 +5.2967071533E-002 +8.4705352783E-003
15150000000.000 -1.9264221191E-001 -3.8690185547E-001 -4.7721862793E-003 +3.6630630493E-003 -5.6423246861E-005 -1.0229274631E-004 +3.4791946411E-002 -1.4133453369E-003
15282500000.000 -1.9401550293E-001 -3.8966369629E-001 -1.8827915192E-003 +5.7702064514E-003 +3.5762786865E-005 -6.7949295044E-005 +1.4656066895E-002 +2.3526191711E-002
