!  2-Port S-parameters saved by WinCal
! VAR MeasName=S-Parameters (CALIBRATED_DATA) read from VNA (C)
! VAR MeasDate=10/16/2015 11:02:53 AM
! VAR NAME=M6082_13_13_2_2_20C_10.4mA_-17.5dBm
! VAR FILENAME=M6082_13_13_2_2_20C_10.4mA_-17.5dBm_1_1.S2P
! VAR DATE=10/16/2015 11:02:53 AM
! VAR PHYS_PORTS=2,1
! VAR ObjTypeName=DATASET
! VAR IndexType=Frequency
!
# Hz S RI R 50
45000000.000 +9.7030639648E-002 +1.4724731445E-003 -2.4056434631E-004 +6.3393115997E-003 +7.2321295738E-004 +7.8251957893E-004 +2.7769088745E-002 +3.8537979126E-003
177500000.000 +9.9033355713E-002 -2.0942687988E-003 +2.2330284119E-003 +6.3769817352E-003 +2.9116868973E-005 +3.1812489033E-004 +1.6128540039E-002 +1.7028808594E-002
310000000.000 +1.0029983521E-001 -6.6490173340E-003 +5.2771568298E-003 +4.2662620544E-003 +8.7786465883E-005 -5.0067901611E-006 +2.9314041138E-002 +6.1790466309E-002
442500000.000 +1.0113906860E-001 -1.1940002441E-002 +7.3492527008E-003 +1.6212463379E-005 +1.0877847672E-004 -5.8799982071E-005 +7.3047637939E-002 +2.3323059082E-002
575000000.000 +1.0119247437E-001 -1.7250061035E-002 +5.6595802307E-003 -3.7257671356E-003 +1.1116266251E-005 -1.1007767171E-005 +2.7768135071E-002 +1.1566162109E-002
707500000.000 +1.0101318359E-001 -2.1751403809E-002 +2.5203227997E-003 -6.3264369965E-003 -3.6492943764E-005 -5.4026022553E-005 +2.4909973145E-003 +1.8828392029E-002
840000000.000 +1.0130310059E-001 -2.7107238770E-002 -1.4469623566E-003 -6.6835880280E-003 +1.4165882021E-005 -4.2882747948E-006 -1.9721984863E-002 +2.6147842407E-002
972500000.000 +1.0147476196E-001 -3.2070159912E-002 -4.8649311066E-003 -4.6889781952E-003 -3.6807730794E-005 +5.1096081734E-005 -3.5835266113E-002 +3.5751342773E-002
1105000000.000 +1.0070800781E-001 -3.7189483643E-002 -6.6614151001E-003 -1.1684894562E-003 -8.5989013314E-006 -2.4611130357E-005 -4.6760559082E-002 +3.8515090942E-002
1237500000.000 +1.0033035278E-001 -4.1847229004E-002 -6.0939788818E-003 +2.7358531952E-003 +2.4572014809E-005 -1.7249025404E-005 -5.8542251587E-002 +3.4067153931E-002
1370000000.000 +9.9761962891E-002 -4.6699523926E-002 -3.5746097565E-003 +5.6755542755E-003 -2.3130327463E-005 +4.8175454140E-005 -7.3993682861E-002 +2.7278900146E-002
1502500000.000 +9.9086761475E-002 -5.1448822021E-002 +1.5759468079E-004 +6.6976547241E-003 -7.5377523899E-005 -2.3737549782E-005 -8.8012695313E-002 +2.1648406982E-002
1635000000.000 +9.9193572998E-002 -5.6247711182E-002 +3.7941932678E-003 +5.4364204407E-003 +6.8034976721E-005 +9.2014670372E-007 -9.9060058594E-002 +1.1882781982E-002
1767500000.000 +9.8571777344E-002 -6.1706542969E-002 +6.0760974884E-003 +2.4075508118E-003 +9.9092721939E-007 +6.5349042416E-005 -1.1209487915E-001 +3.1967163086E-003
1900000000.000 +9.8098754883E-002 -6.6055297852E-002 +6.4365863800E-003 -1.6691684723E-003 -6.1014667153E-005 +3.9232894778E-005 -1.1396408081E-001 -3.2310485840E-003
2032500000.000 +9.7301483154E-002 -7.0034027100E-002 +4.4479370117E-003 -4.9414634705E-003 +1.1901929975E-004 -1.0147690773E-004 -1.1399078369E-001 -2.4238586426E-002
2165000000.000 +9.7549438477E-002 -7.5199127197E-002 +9.8586082458E-004 -6.3865184784E-003 -8.1747770309E-005 +1.4328956604E-004 -1.2274551392E-001 -4.2045593262E-002
2297500000.000 +9.6851348877E-002 -7.9704284668E-002 -2.7384757996E-003 -5.8250427246E-003 -5.4577365518E-005 -3.3298507333E-005 -1.2670135498E-001 -5.3398132324E-002
2430000000.000 +9.5859527588E-002 -8.3580017090E-002 -5.2664279938E-003 -3.2930374146E-003 +5.6255608797E-005 -1.0039657354E-004 -1.2696075439E-001 -6.4949035645E-002
2562500000.000 +9.5321655273E-002 -8.8348388672E-002 -6.4604282379E-003 +3.3116340637E-004 +8.1188976765E-005 -6.8172812462E-007 -1.2562561035E-001 -7.0884704590E-002
2695000000.000 +9.3151092529E-002 -9.1945648193E-002 -5.2759647369E-003 +3.8058757782E-003 -1.6617774963E-004 +6.5565109253E-006 -1.1431121826E-001 -7.3314666748E-002
2827500000.000 +9.1732025146E-002 -9.4760894775E-002 -2.0763874054E-003 +6.1037540436E-003 -1.0311231017E-004 -4.4122338295E-005 -9.8888397217E-002 -8.1867218018E-002
2960000000.000 +9.1373443604E-002 -9.8533630371E-002 +1.5985965729E-003 +6.2298774719E-003 +1.2421607971E-004 +1.3135373592E-005 -8.8806152344E-002 -8.6704254150E-002
3092500000.000 +8.9473724365E-002 -1.0372543335E-001 +4.6818256378E-003 +4.2648315430E-003 -1.5103071928E-004 +9.5993280411E-005 -7.1022033691E-002 -8.5792541504E-002
3225000000.000 +8.6627960205E-002 -1.0742950439E-001 +6.2952041626E-003 +9.2673301697E-004 -3.3857300878E-005 +3.8834288716E-005 -5.2230834961E-002 -9.0972900391E-002
3357500000.000 +8.5170745850E-002 -1.1000823975E-001 +5.6638717651E-003 -2.7613639832E-003 +4.3971464038E-005 +1.5048310161E-005 -4.1709899902E-002 -9.1705322266E-002
3490000000.000 +8.4102630615E-002 -1.1513137817E-001 +3.2625198364E-003 -5.3374767303E-003 +3.3887103200E-005 -3.4105032682E-006 -2.8419494629E-002 -8.3110809326E-002
3622500000.000 +8.1920623779E-002 -1.2003707886E-001 -2.7656555176E-004 -6.3962936401E-003 -3.2888725400E-005 +1.9621104002E-005 -1.1566162109E-002 -7.9105377197E-002
3755000000.000 +7.9650878906E-002 -1.2444305420E-001 -3.7329196930E-003 -5.1403045654E-003 +4.1991472244E-005 +2.3361295462E-005 -5.8174133301E-003 -7.3257446289E-002
3887500000.000 +7.8140258789E-002 -1.2857818604E-001 -6.0479640961E-003 -2.2842884064E-003 +3.3713877201E-007 +4.5461580157E-005 +2.0446777344E-003 -5.6226730347E-002
4020000000.000 +7.6362609863E-002 -1.3253784180E-001 -6.1964988708E-003 +1.5137195587E-003 -2.3807398975E-005 -4.2961910367E-006 +1.3233184814E-002 -4.4530868530E-002
4152500000.000 +7.4989318848E-002 -1.3706970215E-001 -4.2924880981E-003 +4.8463344574E-003 +4.3328851461E-005 -8.7030231953E-005 +1.5638351440E-002 -3.2749176025E-002
4285000000.000 +7.3249816895E-002 -1.4162445068E-001 -8.5139274597E-004 +6.4294338226E-003 +4.6163797379E-005 +9.7624957561E-005 +1.7247200012E-002 -1.3667106628E-002
4417500000.000 +7.0671081543E-002 -1.4567565918E-001 +2.9296875000E-003 +5.7115554810E-003 -5.5100768805E-005 -2.5140121579E-005 +2.5768280029E-002 +3.4561157227E-003
4550000000.000 +6.9725036621E-002 -1.4956665039E-001 +5.3339004517E-003 +3.2401084900E-003 -4.2868778110E-005 -3.0852854252E-005 +2.9472351074E-002 +9.3479156494E-003
4682500000.000 +6.8275451660E-002 -1.5464019775E-001 +6.2391757965E-003 -2.8276443481E-004 +2.9770657420E-005 -5.0803646445E-006 +2.6331901550E-002 +2.0317077637E-002
4815000000.000 +6.5979003906E-002 -1.5883636475E-001 +5.0606727600E-003 -3.6571025848E-003 +1.7081387341E-005 +2.8757378459E-005 +3.1686782837E-002 +2.7170181274E-002
4947500000.000 +6.5246582031E-002 -1.6226196289E-001 +2.2721290588E-003 -5.7895183563E-003 -2.5356188416E-005 -3.8590282202E-005 +2.8244018555E-002 +1.9655227661E-002
5080000000.000 +6.4659118652E-002 -1.6673278809E-001 -1.2619495392E-003 -6.1936378479E-003 +1.7673708498E-005 +2.2487714887E-005 +1.4063835144E-002 +2.0307540894E-002
5212500000.000 +6.2850952148E-002 -1.7097473145E-001 -4.6243667603E-003 -4.3871402740E-003 -4.3831765652E-005 +2.5853514671E-005 +9.9725723267E-003 +2.4660110474E-002
5345000000.000 +6.1225891113E-002 -1.7393493652E-001 -6.3593387604E-003 -1.0478496552E-003 -1.9946135581E-005 -1.4268793166E-005 +6.3123703003E-003 +1.6121864319E-002
5477500000.000 +6.1706542969E-002 -1.7720794678E-001 -5.9528350830E-003 +2.7143955231E-003 +2.1812506020E-005 +7.8789889812E-007 -8.5377693176E-003 +1.0168552399E-002
5610000000.000 +6.0539245605E-002 -1.8165588379E-001 -3.4465789795E-003 +5.5980682373E-003 -2.9633753002E-005 +2.9307790101E-005 -1.4263629913E-002 +1.4651298523E-002
5742500000.000 +5.8258056641E-002 -1.8412780762E-001 +2.9158592224E-004 +6.5362453461E-003 -1.0022893548E-005 +2.2554770112E-005 -1.0652542114E-002 +6.2956809998E-003
5875000000.000 +5.7083129883E-002 -1.8543243408E-001 +3.9179325104E-003 +5.2011013031E-003 +3.6694109440E-005 +3.4160912037E-006 -1.9505500793E-002 -3.1690597534E-003
6007500000.000 +5.6823730469E-002 -1.8875122070E-001 +6.1416625977E-003 +2.1440982819E-003 -2.0675361156E-007 +5.0367787480E-005 -2.2907257080E-002 +5.2165985107E-004
6140000000.000 +5.4870605469E-002 -1.9269561768E-001 +6.2527656555E-003 -1.7471313477E-003 -4.5713037252E-005 +1.0751187801E-005 -1.4826774597E-002 -2.0375251770E-003
6272500000.000 +5.0918579102E-002 -1.9509124756E-001 +4.2481422424E-003 -4.9836635590E-003 +6.6716223955E-005 -6.5069645643E-005 -1.5808105469E-002 -1.1250495911E-002
6405000000.000 +4.8812866211E-002 -1.9595336914E-001 +7.5197219849E-004 -6.4878463745E-003 +3.0953437090E-005 -4.5699998736E-005 -1.9307136536E-002 -5.8774948120E-003
6537500000.000 +4.8797607422E-002 -1.9902801514E-001 -3.0589103699E-003 -5.8200359344E-003 -5.1682814956E-005 +3.1752511859E-005 -9.3908309937E-003 -2.5320053101E-003
6670000000.000 +4.6394348145E-002 -2.0446014404E-001 -5.7125091553E-003 -3.0968189240E-003 -1.7005950212E-005 -6.3262879848E-005 -7.7881813049E-003 -6.5135955811E-003
6802500000.000 +4.1610717773E-002 -2.0734405518E-001 -6.4401626587E-003 +5.6695938110E-004 +3.7735328078E-005 +1.1719763279E-005 -1.1517047882E-002 +5.1689147949E-004
6935000000.000 +3.9382934570E-002 -2.0769500732E-001 -5.0315856934E-003 +4.0290355682E-003 -5.4536387324E-005 +5.6771561503E-005 -6.8588256836E-003 +1.0241508484E-002
7067500000.000 +3.9550781250E-002 -2.1102905273E-001 -1.8825531006E-003 +6.1762332916E-003 +1.2865290046E-005 +3.7036836147E-005 -5.1994323730E-003 +1.0683536530E-002
7200000000.000 +3.5980224609E-002 -2.1626281738E-001 +1.9593238831E-003 +6.2298774719E-003 +3.1432136893E-005 -3.9916485548E-006 -1.5438079834E-002 +1.7422676086E-002
7332500000.000 +3.1692504883E-002 -2.1876525879E-001 +5.0468444824E-003 +4.0824413300E-003 +2.8805807233E-005 -8.5886567831E-006 -1.7492294312E-002 +3.0735015869E-002
7465000000.000 +3.0052185059E-002 -2.2049713135E-001 +6.4046382904E-003 +5.5575370789E-004 -3.7141144276E-006 -4.2973086238E-005 -2.0466804504E-002 +3.0952453613E-002
7597500000.000 +2.8366088867E-002 -2.2544097900E-001 +5.6626796722E-003 -3.1471252441E-003 +2.1174550056E-005 +1.3990327716E-005 -3.6848068237E-002 +3.3489227295E-002
7730000000.000 +2.4917602539E-002 -2.2966003418E-001 +2.9771327972E-003 -5.7024955750E-003 -8.6117535830E-005 +4.7136098146E-005 -4.8448562622E-002 +4.3748855591E-002
7862500000.000 +2.2697448730E-002 -2.3253631592E-001 -6.9451332092E-004 -6.3717365265E-003 -7.0780515671E-005 -5.9343874454E-006 -5.3913116455E-002 +4.2253494263E-002
7995000000.000 +2.1911621094E-002 -2.3582458496E-001 -4.1840076447E-003 -4.8971176147E-003 -2.8350390494E-005 +4.4694170356E-006 -7.3287963867E-002 +3.4828186035E-002
8127500000.000 +2.0126342773E-002 -2.4130249023E-001 -6.1445236206E-003 -1.8076896667E-003 +1.4692544937E-005 +6.2145292759E-005 -9.1365814209E-002 +3.9829254150E-002
8260000000.000 +1.7410278320E-002 -2.4449157715E-001 -6.1182975769E-003 +1.9838809967E-003 -5.8420002460E-005 -2.4797394872E-005 -9.5195770264E-002 +3.4378051758E-002
8392500000.000 +1.6914367676E-002 -2.4765014648E-001 -4.0001869202E-003 +5.0661563873E-003 +6.7781656981E-006 -2.9955059290E-005 -1.0997390747E-001 +1.8512725830E-002
8525000000.000 +1.6494750977E-002 -2.5097656250E-001 -4.8732757568E-004 +6.4647197723E-003 +3.9877370000E-005 +3.2825395465E-005 -1.2213516235E-001 +1.5468597412E-002
8657500000.000 +1.5701293945E-002 -2.5439453125E-001 +3.1843185425E-003 +5.7206153870E-003 -4.8676505685E-005 -1.1259689927E-005 -1.1780929565E-001 +4.7149658203E-003
8790000000.000 +1.4282226563E-002 -2.5794982910E-001 +5.8321952820E-003 +2.8820037842E-003 +1.5851110220E-005 -8.3919614553E-005 -1.1966705322E-001 -1.7066955566E-002
8922500000.000 +1.3244628906E-002 -2.5964355469E-001 +6.4325332642E-003 -8.9836120605E-004 +1.9157305360E-006 +1.4565885067E-005 -1.2244796753E-001 -3.0063629150E-002
9055000000.000 +1.1993408203E-002 -2.6232910156E-001 +4.8761367798E-003 -4.3122768402E-003 -4.5912340283E-005 -6.3702464104E-007 -1.1113357544E-001 -4.3502807617E-002
9187500000.000 +1.1032104492E-002 -2.6438903809E-001 +1.5952587128E-003 -6.3946247101E-003 +2.4309381843E-005 -3.2948330045E-005 -1.0063552856E-001 -6.6089630127E-002
9320000000.000 +8.2855224609E-003 -2.6602172852E-001 -2.2482872009E-003 -6.1323642731E-003 +1.6069971025E-005 -2.5066547096E-005 -9.4062805176E-002 -7.8865051270E-002
9452500000.000 +6.9122314453E-003 -2.6808166504E-001 -5.3713321686E-003 -3.8514137268E-003 -4.6260654926E-005 -1.5106052160E-006 -7.4779510498E-002 -8.6460113525E-002
9585000000.000 +5.0964355469E-003 -2.7040100098E-001 -6.4668655396E-003 -2.1314620972E-004 -1.7715618014E-005 -2.7794390917E-005 -5.5221557617E-002 -1.0097503662E-001
9717500000.000 +1.2969970703E-003 -2.7371215820E-001 -5.6104660034E-003 +3.5247802734E-003 +2.7843751013E-005 -2.7243979275E-005 -4.2171478271E-002 -1.0636901855E-001
9850000000.000 -1.7852783203E-003 -2.7433776855E-001 -2.6497840881E-003 +6.0827732086E-003 +3.6396086216E-005 +6.1169266701E-005 -1.9584655762E-002 -1.0213851929E-001
9982500000.000 -2.4566650391E-003 -2.7696228027E-001 +1.1024475098E-003 +6.3729286194E-003 -9.0334564447E-005 -6.4224004745E-006 +5.3215026855E-003 -1.0394668579E-001
10115000000.000 -5.4779052734E-003 -2.8004455566E-001 +4.5878887177E-003 +4.6601295471E-003 +7.1074813604E-005 -3.8426369429E-005 +1.7704010010E-002 -9.9288940430E-002
10247500000.000 -9.3383789063E-003 -2.8144836426E-001 +6.3679218292E-003 +1.3346672058E-003 +6.9573521614E-005 +5.4847449064E-005 +3.5045623779E-002 -8.0368041992E-002
10380000000.000 -1.0620117188E-002 -2.8385925293E-001 +6.1237812042E-003 -2.4387836456E-003 -4.7679990530E-005 -1.1073425412E-005 +5.6644439697E-002 -6.8996429443E-002
10512500000.000 -1.4251708984E-002 -2.8659057617E-001 +3.6249160767E-003 -5.3615570068E-003 -2.6982277632E-005 -7.4915587902E-005 +6.1834335327E-002 -5.7600021362E-002
10645000000.000 -1.7822265625E-002 -2.8761291504E-001 +3.8146972656E-005 -6.4952373505E-003 +3.8402155042E-005 +1.2228265405E-005 +6.5685272217E-002 -2.9857635498E-002
10777500000.000 -1.9531250000E-002 -2.8970336914E-001 -3.7357807159E-003 -5.4364204407E-003 -1.8700957298E-005 +2.3157335818E-005 +7.7671051025E-002 -9.0522766113E-003
10910000000.000 -2.1865844727E-002 -2.9353332520E-001 -6.1039924622E-003 -2.4416446686E-003 -1.3883691281E-005 -1.4644116163E-005 +7.2719573975E-002 +3.5591125488E-003
11042500000.000 -2.7496337891E-002 -2.9690551758E-001 -6.4415931702E-003 +1.3432502747E-003 +1.1329725385E-004 +1.9587576389E-005 +5.9988021851E-002 +2.9972076416E-002
11175000000.000 -3.0212402344E-002 -2.9930114746E-001 -4.5192241669E-003 +4.7843456268E-003 -2.8176233172E-005 +5.1589682698E-005 +5.7918548584E-002 +5.1954269409E-002
11307500000.000 -3.1005859375E-002 -3.0136108398E-001 -1.0166168213E-003 +6.5464973450E-003 +7.0035457611E-007 -5.3402036428E-005 +4.5274734497E-002 +5.7573318481E-002
11440000000.000 -3.4240722656E-002 -3.0560302734E-001 +2.7687549591E-003 +6.0613155365E-003 +7.6327472925E-005 -1.6398727894E-005 +1.9500732422E-002 +7.1361541748E-002
11572500000.000 -3.5934448242E-002 -3.0928039551E-001 +5.5911540985E-003 +3.4811496735E-003 +2.8656795621E-005 +3.5958364606E-005 +5.8212280273E-003 +8.7333679199E-002
11705000000.000 -3.7887573242E-002 -3.1130981445E-001 +6.6552162170E-003 -3.8123130798E-004 -1.7229467630E-006 -3.7059187889E-005 -8.2015991211E-003 +8.1420898438E-002
11837500000.000 -4.0130615234E-002 -3.1419372559E-001 +5.3050518036E-003 -3.9432048798E-003 -2.1194107831E-005 -2.5150366127E-005 -4.1374206543E-002 +7.7148437500E-002
11970000000.000 -4.0802001953E-002 -3.1556701660E-001 +2.1920204163E-003 -6.3629150391E-003 +2.1565705538E-005 +2.0509585738E-005 -5.7998657227E-002 +8.4075927734E-002
12102500000.000 -4.0344238281E-002 -3.1849670410E-001 -1.8477439880E-003 -6.3886642456E-003 -1.5879049897E-005 -6.1476603150E-006 -6.4327239990E-002 +6.5513610840E-002
12235000000.000 -4.5516967773E-002 -3.1896972656E-001 -5.1002502441E-003 -4.2603015900E-003 +4.8147514462E-005 -3.8689002395E-005 -9.1999053955E-002 +4.5711517334E-002
12367500000.000 -4.4540405273E-002 -3.1983947754E-001 -6.5512657166E-003 -8.1038475037E-004 +4.9056485295E-005 -3.6880373955E-007 -1.0446548462E-001 +4.4689178467E-002
12500000000.000 -4.7668457031E-002 -3.2116699219E-001 -5.7888031006E-003 +3.0772686005E-003 -1.9256956875E-005 +9.8841264844E-006 -9.6977233887E-002 +2.1987915039E-002
12632500000.000 -5.0445556641E-002 -3.2455444336E-001 -3.0007362366E-003 +5.7303905487E-003 +3.0724331737E-006 -2.1892599761E-005 -1.1042404175E-001 -1.1844635010E-002
12765000000.000 -5.2352905273E-002 -3.2403564453E-001 +6.7472457886E-004 +6.5009593964E-003 -1.5186145902E-005 +5.0034373999E-005 -1.1800765991E-001 -1.5659332275E-002
12897500000.000 -5.4122924805E-002 -3.2388305664E-001 +4.1737556458E-003 +4.9519538879E-003 -4.0881335735E-005 +8.3517283201E-005 -9.2418670654E-002 -3.3317565918E-002
13030000000.000 -5.5297851563E-002 -3.2637023926E-001 +6.2298774719E-003 +1.7182826996E-003 +2.5238841772E-005 -5.5326148868E-005 -9.1438293457E-002 -7.0522308350E-002
13162500000.000 -5.7769775391E-002 -3.2862854004E-001 +6.1502456665E-003 -2.0432472229E-003 +1.9972212613E-005 +8.6668878794E-006 -9.4417572021E-002 -7.1369171143E-002
13295000000.000 -6.0531616211E-002 -3.3007812500E-001 +3.9336681366E-003 -5.1870346069E-003 -4.3835490942E-005 +5.0298869610E-005 -6.2496185303E-002 -7.7762603760E-002
13427500000.000 -6.4056396484E-002 -3.2937622070E-001 +3.3760070801E-004 -6.4163208008E-003 -4.7922134399E-005 -2.3182481527E-005 -4.8320770264E-002 -1.0531997681E-001
13560000000.000 -6.3461303711E-002 -3.2962036133E-001 -3.4067630768E-003 -5.5618286133E-003 +2.4478882551E-005 -7.7411532402E-005 -4.9308776855E-002 -1.0227584839E-001
13692500000.000 -6.4605712891E-002 -3.3331298828E-001 -5.8381557465E-003 -2.7816295624E-003 -1.5342608094E-005 +3.9029866457E-005 -1.9458770752E-002 -8.9359283447E-002
13825000000.000 -6.9610595703E-002 -3.3462524414E-001 -6.3295364380E-003 +9.7942352295E-004 -7.7657401562E-005 -2.6088207960E-005 +3.6811828613E-003 -1.0459899902E-001
13957500000.000 -7.2616577148E-002 -3.3338928223E-001 -4.6203136444E-003 +4.5177936554E-003 +5.5544078350E-005 +4.7096982598E-005 -1.1978149414E-003 -9.7774505615E-002
14090000000.000 -7.3516845703E-002 -3.3467102051E-001 -1.4066696167E-003 +6.2017440796E-003 +6.8739056587E-005 +1.0326504707E-004 +2.0847320557E-002 -7.1727752686E-002
14222500000.000 -7.5561523438E-002 -3.3869934082E-001 +2.4154186249E-003 +5.9595108032E-003 -5.2120536566E-005 -1.0572373867E-005 +4.4033050537E-002 -7.5534820557E-002
14355000000.000 -7.9910278320E-002 -3.3938598633E-001 +5.3803920746E-003 +3.5636425018E-003 +6.7941844463E-005 -6.6764652729E-005 +3.4015655518E-002 -6.8752288818E-002
14487500000.000 -8.2458496094E-002 -3.4016418457E-001 +6.3602924347E-003 -5.3644180298E-005 +1.6260892153E-005 +5.9114769101E-005 +4.1006088257E-002 -3.5757064819E-002
14620000000.000 -8.2702636719E-002 -3.4370422363E-001 +5.2583217621E-003 -3.6666393280E-003 -3.8819387555E-005 -3.5431236029E-005 +6.1412811279E-002 -3.2550811768E-002
14752500000.000 -8.6929321289E-002 -3.4844970703E-001 +2.2532939911E-003 -6.0667991638E-003 +3.0878931284E-005 -2.8606504202E-005 +4.4054031372E-002 -3.2287597656E-002
14885000000.000 -8.9141845703E-002 -3.4945678711E-001 -1.5735626221E-003 -6.1693191528E-003 +4.2309984565E-005 +2.7865171432E-006 +3.7553787231E-002 +1.1882781982E-003
15017500000.000 -8.8165283203E-002 -3.5043334961E-001 -4.6355724335E-003 -4.2598247528E-003 -4.7860667109E-005 +4.0862709284E-005 +5.4044723511E-002 +7.6274871826E-003
15150000000.000 -8.8287353516E-002 -3.5595703125E-001 -6.2031745911E-003 -8.7761878967E-004 -9.5903873444E-005 -3.5945326090E-005 +3.5160064697E-002 -9.6130371094E-004
15282500000.000 -8.9599609375E-002 -3.5917663574E-001 -5.6412220001E-003 +2.6762485504E-003 +5.8457255363E-005 -8.7436288595E-005 +1.5969276428E-002 +2.4924278259E-002
