!  2-Port S-parameters saved by WinCal
! VAR MeasName=S-Parameters (CALIBRATED_DATA) read from VNA (C)
! VAR MeasDate=10/16/2015 12:36:04 PM
! VAR NAME=M6082_13_15_2_2_20C_1.4mA_-17.5dBm
! VAR FILENAME=M6082_13_15_2_2_20C_1.4mA_-17.5dBm.S2P
! VAR DATE=10/16/2015 12:36:04 PM
! VAR PHYS_PORTS=2,1
! VAR ObjTypeName=DATASET
! VAR IndexType=Frequency
!
# Hz S RI R 50
45000000.000 +2.7096557617E-001 -9.4909667969E-003 -1.6245841980E-003 +4.4500827789E-003 +9.4485282898E-004 +6.3338875771E-004 +2.9130935669E-002 +2.5796890259E-003
177500000.000 +2.6138305664E-001 -2.3391723633E-002 +1.9166469574E-003 +3.6662817001E-003 +6.6339969635E-005 +1.2632459402E-004 +1.6088485718E-002 +1.6838073730E-002
310000000.000 +2.6206970215E-001 -3.9886474609E-002 +2.7140378952E-003 +2.0030736923E-003 -2.1529197693E-004 +5.5238604546E-005 +2.9483795166E-002 +6.1635971069E-002
442500000.000 +2.4767303467E-001 -4.7683715820E-002 +4.3275356293E-003 -5.1426887512E-004 +4.8896297812E-005 -1.9159168005E-005 +7.2788238525E-002 +2.2880554199E-002
575000000.000 +2.4008941650E-001 -5.5625915527E-002 +3.0211210251E-003 -2.8804540634E-003 -1.2896955013E-005 -2.0992010832E-005 +2.7402877808E-002 +1.1462211609E-002
707500000.000 +2.3631286621E-001 -6.6070556641E-002 +6.3753128052E-004 -3.9086341858E-003 -3.5595148802E-005 -7.5876712799E-005 +2.2249221802E-003 +1.8758773804E-002
840000000.000 +2.3081207275E-001 -7.2532653809E-002 -1.8028020859E-003 -3.5194158554E-003 +4.6562403440E-005 -1.6380101442E-005 -1.9823074341E-002 +2.6129722595E-002
972500000.000 +2.2743988037E-001 -8.0856323242E-002 -3.6000013351E-003 -1.8135309219E-003 +2.8735958040E-005 +1.2878328562E-005 -3.5879135132E-002 +3.5596847534E-002
1105000000.000 +2.2406768799E-001 -8.9721679688E-002 -3.7920475006E-003 +6.0665607452E-004 -1.2422911823E-005 -1.6763806343E-008 -4.6924591064E-002 +3.8366317749E-002
1237500000.000 +2.2088623047E-001 -9.7801208496E-002 -2.6547908783E-003 +2.7108192444E-003 +7.9069286585E-006 -3.5742297769E-005 -5.8551788330E-002 +3.3975601196E-002
1370000000.000 +2.1654510498E-001 -1.0512542725E-001 -6.3371658325E-004 +3.7641525269E-003 +7.3369592428E-006 +4.4982880354E-005 -7.3989868164E-002 +2.7175903320E-002
1502500000.000 +2.1321105957E-001 -1.1078643799E-001 +1.7750263214E-003 +3.4548044205E-003 -2.4953857064E-005 -2.7460977435E-005 -8.8039398193E-002 +2.1526336670E-002
1635000000.000 +2.1188354492E-001 -1.2091827393E-001 +3.3366680145E-003 +1.6514062881E-003 +2.5270506740E-005 -1.3552606106E-005 -9.9159240723E-002 +1.1745452881E-002
1767500000.000 +2.0791625977E-001 -1.2835693359E-001 +3.7626028061E-003 -7.2622299194E-004 +2.7069821954E-005 +3.4082680941E-005 -1.1202239990E-001 +3.0364990234E-003
1900000000.000 +2.0420837402E-001 -1.3155364990E-001 +2.7810335159E-003 -2.9433965683E-003 -2.0494684577E-005 +1.3682991266E-005 -1.1387634277E-001 -3.3645629883E-003
2032500000.000 +2.0007324219E-001 -1.3746643066E-001 +6.2870979309E-004 -4.0917396545E-003 +7.6990574598E-005 -4.2144209146E-005 -1.1396026611E-001 -2.4265289307E-002
2165000000.000 +1.9825744629E-001 -1.4254760742E-001 -1.9924640656E-003 -3.8251876831E-003 -1.1918600649E-005 -8.7525695562E-006 -1.2265014648E-001 -4.2083740234E-002
2297500000.000 +1.9618225098E-001 -1.4539337158E-001 -4.1532516479E-003 -2.2318363190E-003 -6.8444758654E-005 -3.8258731365E-005 -1.2667846680E-001 -5.3527832031E-002
2430000000.000 +1.9474029541E-001 -1.5019989014E-001 -5.0883293152E-003 +6.7472457886E-004 -1.3031065464E-004 -1.1245161295E-004 -1.2670135498E-001 -6.4811706543E-002
2562500000.000 +1.9448089600E-001 -1.5780639648E-001 -3.6883354187E-003 +3.6114454269E-003 +1.3776868582E-004 +7.6398253441E-005 -1.2542724609E-001 -7.0991516113E-002
2695000000.000 +1.9302368164E-001 -1.6204833984E-001 -8.2802772522E-004 +5.5201053619E-003 -9.2759728432E-005 +1.8600374460E-005 -1.1365127563E-001 -7.3295593262E-002
2827500000.000 +1.9190979004E-001 -1.7010498047E-001 +2.7630329132E-003 +4.8542022705E-003 -3.2171607018E-005 -1.2979656458E-004 -9.8686218262E-002 -8.1771850586E-002
2960000000.000 +1.9013214111E-001 -1.8200683594E-001 +5.1572322845E-003 +1.6927719116E-003 +4.6374276280E-005 -4.0085986257E-005 -8.8348388672E-002 -8.6853027344E-002
3092500000.000 +1.8800354004E-001 -1.9277191162E-001 +5.3017139435E-003 -1.9505023956E-003 -4.7676265240E-005 +1.4773011208E-004 -7.0556640625E-002 -8.5960388184E-002
3225000000.000 +1.8285369873E-001 -2.0286560059E-001 +2.8898715973E-003 -4.8089027405E-003 -1.4188885689E-004 +4.6841800213E-005 -5.2139282227E-002 -9.1133117676E-002
3357500000.000 +1.7625427246E-001 -2.1286773682E-001 -9.5462799072E-004 -5.0594806671E-003 -3.1393021345E-005 +3.6589801311E-005 -4.1507720947E-002 -9.1621398926E-002
3490000000.000 +1.7135620117E-001 -2.2344970703E-001 -4.0557384491E-003 -3.3648014069E-003 -8.2109123468E-005 +3.9298087358E-005 -2.8083801270E-002 -8.3324432373E-002
3622500000.000 +1.6480255127E-001 -2.3345184326E-001 -5.2309036255E-003 +4.6253204346E-005 -9.8571181297E-005 -1.2610852718E-004 -1.1436462402E-002 -7.9257965088E-002
3755000000.000 +1.5427398682E-001 -2.4196624756E-001 -3.7280321121E-003 +3.1970739365E-003 -1.7748214304E-005 -1.7579644918E-005 -5.8898925781E-003 -7.3032379150E-002
3887500000.000 +1.4617919922E-001 -2.4812316895E-001 -6.9355964661E-004 +4.5373439789E-003 +8.0093741417E-006 +1.0884925723E-004 +2.1648406982E-003 -5.6104660034E-002
4020000000.000 +1.3969421387E-001 -2.5450134277E-001 +2.1967887878E-003 +4.0450096130E-003 -7.9639256001E-005 +4.5057386160E-005 +1.3305664063E-002 -4.4486999512E-002
4152500000.000 +1.3194274902E-001 -2.6023864746E-001 +3.9446353912E-003 +1.6689300537E-003 +9.2063099146E-005 -3.3203512430E-005 +1.5522003174E-002 -3.2552719116E-002
4285000000.000 +1.2467956543E-001 -2.6472473145E-001 +3.7618875504E-003 -1.0138750076E-003 -6.0349702835E-006 +3.7472695112E-005 +1.7066001892E-002 -1.3187408447E-002
4417500000.000 +1.1735534668E-001 -2.6905822754E-001 +2.2622346878E-003 -3.0868053436E-003 -3.1268224120E-005 -3.8566067815E-005 +2.5754928589E-002 +3.6087036133E-003
4550000000.000 +1.1210632324E-001 -2.7258300781E-001 -3.3617019653E-005 -3.5470724106E-003 -7.9348683357E-006 -7.4572861195E-005 +2.9060363770E-002 +9.5882415771E-003
4682500000.000 +1.0629272461E-001 -2.7621459961E-001 -1.9115209579E-003 -2.6696920395E-003 +2.5165267289E-005 +1.6389414668E-005 +2.5919914246E-002 +2.0668029785E-002
4815000000.000 +1.0058593750E-001 -2.7999877930E-001 -2.9289722443E-003 -1.0201931000E-003 -6.6533684731E-005 +1.8820166588E-005 +3.1282424927E-002 +2.7477264404E-002
4947500000.000 +9.6359252930E-002 -2.8311157227E-001 -2.9436349869E-003 +9.1004371643E-004 -9.6037983894E-006 -4.2967498302E-005 +2.7701377869E-002 +1.9922256470E-002
5080000000.000 +9.2742919922E-002 -2.8611755371E-001 -1.7099380493E-003 +2.1996498108E-003 +2.3841857910E-007 -2.1364539862E-005 +1.3551712036E-002 +2.0599365234E-002
5212500000.000 +8.8455200195E-002 -2.8973388672E-001 -1.9741058350E-004 +2.7152299881E-003 -4.5560300350E-005 +3.9801001549E-005 +9.4633102417E-003 +2.4853706360E-002
5345000000.000 +8.4213256836E-002 -2.9261779785E-001 +1.4163255692E-003 +2.2932291031E-003 -4.5696273446E-005 -1.8866732717E-005 +5.7687759399E-003 +1.6382217407E-002
5477500000.000 +8.2305908203E-002 -2.9444885254E-001 +2.2777318954E-003 +1.0464191437E-003 -4.3199397624E-006 +1.1599157006E-005 -9.0341567993E-003 +1.0373115540E-002
5610000000.000 +7.9544067383E-002 -2.9791259766E-001 +2.2720098495E-003 -4.0876865387E-004 -1.4541670680E-005 +4.8680230975E-005 -1.4813899994E-002 +1.4633178711E-002
5742500000.000 +7.5241088867E-002 -3.0047607422E-001 +1.6895532608E-003 -1.5670657158E-003 -1.5303492546E-005 +1.4021061361E-005 -1.1466503143E-002 +6.1125755310E-003
5875000000.000 +7.1884155273E-002 -3.0123901367E-001 +5.2750110626E-004 -2.1184682846E-003 -9.1735273600E-006 -3.2795593143E-005 -2.0215988159E-002 -3.3073425293E-003
6007500000.000 +7.0205688477E-002 -3.0305480957E-001 -5.9950351715E-004 -1.8974542618E-003 +1.1855736375E-006 +2.8742477298E-005 -2.3278236389E-002 +3.6621093750E-004
6140000000.000 +6.6558837891E-002 -3.0699157715E-001 -1.5015006065E-003 -1.2614727020E-003 -4.1892752051E-005 -1.4521181583E-005 -1.5351295471E-002 -2.6030540466E-003
6272500000.000 +6.0302734375E-002 -3.0947875977E-001 -2.0446777344E-003 -9.5725059509E-005 +3.9368867874E-005 -1.3981014490E-005 -1.6386985779E-002 -1.1652946472E-002
6405000000.000 +5.6777954102E-002 -3.0932617188E-001 -1.5960931778E-003 +8.4692239761E-004 +3.2855197787E-005 +6.7949295044E-006 -1.9506454468E-002 -6.2532424927E-003
6537500000.000 +5.5541992188E-002 -3.1190490723E-001 -9.0408325195E-004 +1.4363527298E-003 -1.5123747289E-005 -3.2670795918E-006 -9.4637870789E-003 -3.0479431152E-003
6670000000.000 +5.0384521484E-002 -3.1741333008E-001 +2.4771690369E-004 +1.7083883286E-003 +2.1877698600E-005 -1.0721385479E-005 -8.0080032349E-003 -7.0834159851E-003
6802500000.000 +4.4479370117E-002 -3.1954956055E-001 +9.7966194153E-004 +1.3431310654E-003 +1.6675330698E-005 -2.6251189411E-005 -1.1424064636E-002 +1.2683868408E-004
6935000000.000 +4.1534423828E-002 -3.1930541992E-001 +1.3733506203E-003 +6.9850683212E-004 +2.4102628231E-005 +4.4532120228E-005 -6.5827369690E-003 +9.9630355835E-003
7067500000.000 +3.9474487305E-002 -3.2273864746E-001 +1.5448331833E-003 -3.4582614899E-004 -8.0678611994E-005 -3.3155083656E-005 -4.8279762268E-003 +1.0223865509E-002
7200000000.000 +3.3416748047E-002 -3.2780456543E-001 +9.3454122543E-004 -1.2426376343E-003 +5.2662566304E-005 +2.0533800125E-005 -1.5138626099E-002 +1.7069816589E-002
7332500000.000 +2.8305053711E-002 -3.2966613770E-001 +2.1624565125E-004 -1.4653801918E-003 +3.1059607863E-005 +1.2040138245E-005 -1.7102241516E-002 +3.0656814575E-002
7465000000.000 +2.4337768555E-002 -3.3140563965E-001 -7.7199935913E-004 -1.2604594231E-003 -2.7526170015E-005 -6.1765313148E-005 -1.9909858704E-002 +3.1194686890E-002
7597500000.000 +1.9943237305E-002 -3.3581542969E-001 -1.6102194786E-003 -3.4570693970E-004 +3.6872923374E-005 -1.1092051864E-004 -3.6396026611E-002 +3.3262252808E-002
7730000000.000 +1.6448974609E-002 -3.3961486816E-001 -1.4276504517E-003 +3.7902593613E-004 +2.3350119591E-005 +1.3685226440E-004 -4.8196792603E-002 +4.3571472168E-002
7862500000.000 +1.2985229492E-002 -3.4205627441E-001 -1.0122060776E-003 +9.1814994812E-004 -3.6662444472E-005 -3.4874305129E-005 -5.3680419922E-002 +4.2369842529E-002
7995000000.000 +9.3994140625E-003 -3.4455871582E-001 -2.3424625397E-005 +1.4602541924E-003 -3.8221478462E-005 -6.5077096224E-005 -7.2994232178E-002 +3.4969329834E-002
8127500000.000 +6.6070556641E-003 -3.4954833984E-001 +8.5467100143E-004 +1.2683272362E-003 -1.2998003513E-005 +5.8216974139E-006 -9.1411590576E-002 +3.9798736572E-002
8260000000.000 +2.6855468750E-003 -3.5240173340E-001 +1.1579394341E-003 +5.6982040405E-004 -3.7852674723E-005 +1.5335157514E-005 -9.5493316650E-002 +3.4301757813E-002
8392500000.000 +3.9672851563E-004 -3.5462951660E-001 +1.3158917427E-003 -2.9861927032E-004 +8.7238848209E-005 -6.1661005020E-005 -1.0984039307E-001 +1.8325805664E-002
8525000000.000 -7.6293945313E-004 -3.5772705078E-001 +9.4610452652E-004 -9.9700689316E-004 +1.0930001736E-005 +5.0470232964E-005 -1.2202835083E-001 +1.5048980713E-002
8657500000.000 -3.0059814453E-003 -3.6125183105E-001 +1.9794702530E-004 -1.1754631996E-003 -3.6336481571E-005 +2.5577843189E-005 -1.1774444580E-001 +4.2266845703E-003
8790000000.000 -6.0729980469E-003 -3.6419677734E-001 -4.8196315765E-004 -1.0348558426E-003 -2.5728717446E-005 -3.0150637031E-005 -1.1968231201E-001 -1.7406463623E-002
8922500000.000 -8.1176757813E-003 -3.6497497559E-001 -1.0337233543E-003 -6.6941976547E-004 +7.2671100497E-006 -1.6096979380E-005 -1.2237930298E-001 -3.0429840088E-002
9055000000.000 -9.5672607422E-003 -3.6787414551E-001 -1.1563897133E-003 +5.3822994232E-005 -4.2792409658E-005 +3.6215409636E-005 -1.1103057861E-001 -4.4090270996E-002
9187500000.000 -1.2054443359E-002 -3.6972045898E-001 -8.9991092682E-004 +6.3443183899E-004 -3.6127865314E-005 -1.6303732991E-005 -1.0031127930E-001 -6.6787719727E-002
9320000000.000 -1.6479492188E-002 -3.7074279785E-001 -3.5083293915E-004 +1.0022521019E-003 +3.0625611544E-005 +2.4756416678E-005 -9.3677520752E-002 -7.9433441162E-002
9452500000.000 -1.8341064453E-002 -3.7207031250E-001 +1.5830993652E-004 +1.0744333267E-003 -2.9616057873E-007 +1.3693701476E-005 -7.4176788330E-002 -8.6647033691E-002
9585000000.000 -2.0843505859E-002 -3.7426757813E-001 +7.7000260353E-004 +6.9633126259E-004 -2.6951543987E-005 +2.3457221687E-005 -5.4401397705E-002 -1.0129165649E-001
9717500000.000 -2.6153564453E-002 -3.7709045410E-001 +1.0386705399E-003 +1.4770030975E-004 -1.1354684830E-005 -3.7277117372E-005 -4.1343688965E-002 -1.0684204102E-001
9850000000.000 -3.0776977539E-002 -3.7678527832E-001 +8.8459253311E-004 -4.0140748024E-004 +3.0374154449E-005 +5.8619305491E-005 -1.8901824951E-002 -1.0218811035E-001
9982500000.000 -3.2028198242E-002 -3.7889099121E-001 +4.9909949303E-004 -9.0202689171E-004 -6.6168606281E-005 -7.1153044701E-006 +6.4888000488E-003 -1.0345840454E-001
10115000000.000 -3.5629272461E-002 -3.8185119629E-001 -3.2722949982E-005 -9.4991922379E-004 +7.6368451118E-008 -2.8103590012E-005 +1.9096374512E-002 -9.8934173584E-002
10247500000.000 -4.1412353516E-002 -3.8322448730E-001 -4.9284100533E-004 -7.3286890984E-004 -3.9277598262E-005 +1.9172206521E-005 +3.5835266113E-002 -7.9849243164E-002
10380000000.000 -4.4158935547E-002 -3.8447570801E-001 -7.8532099724E-004 -2.3594498634E-004 +1.2477859855E-005 +4.4666230679E-005 +5.7262420654E-002 -6.7687988281E-002
10512500000.000 -4.7760009766E-002 -3.8627624512E-001 -8.1208348274E-004 +1.9493699074E-004 -7.0545822382E-005 -1.2617558241E-005 +6.2385559082E-002 -5.6119918823E-002
10645000000.000 -5.1666259766E-002 -3.8790893555E-001 -6.0689449310E-004 +5.8439373970E-004 +6.6988170147E-005 -1.2263655663E-005 +6.6043853760E-002 -2.9048919678E-002
10777500000.000 -5.5358886719E-002 -3.9001464844E-001 -1.0499358177E-004 +7.7581405640E-004 -2.4430453777E-005 +4.2764469981E-005 +7.7438354492E-002 -7.9040527344E-003
10910000000.000 -5.9097290039E-002 -3.9225769043E-001 +3.3417344093E-004 +6.9427490234E-004 -3.8634985685E-005 -3.8206577301E-005 +7.2456359863E-002 +5.3443908691E-003
11042500000.000 -6.4163208008E-002 -3.9431762695E-001 +5.9071183205E-004 +3.9485096931E-004 -1.3170763850E-005 +3.4501776099E-005 +5.9410095215E-002 +3.1328201294E-002
11175000000.000 -6.7443847656E-002 -3.9714050293E-001 +7.2309374809E-004 -5.8442354202E-005 +5.7276338339E-007 -1.7518177629E-005 +5.6592941284E-002 +5.2600860596E-002
11307500000.000 -6.9473266602E-002 -3.9894104004E-001 +5.9798359871E-004 -4.0668249130E-004 -2.4980865419E-005 -2.2751279175E-005 +4.3777465820E-002 +5.8525085449E-002
11440000000.000 -7.4249267578E-002 -4.0144348145E-001 +2.7370452881E-004 -6.7475438118E-004 +4.7786161304E-005 +3.6042183638E-006 +1.8199920654E-002 +7.2063446045E-002
11572500000.000 -7.6004028320E-002 -4.0470886230E-001 -1.2958049774E-004 -5.8075785637E-004 -2.0896084607E-005 +2.3508444428E-005 +4.3563842773E-003 +8.7497711182E-002
11705000000.000 -7.8460693359E-002 -4.0664672852E-001 -3.7299096584E-004 -4.3937563896E-004 -8.2667917013E-005 +1.0419636965E-005 -1.0070800781E-002 +8.1089019775E-002
11837500000.000 -8.1970214844E-002 -4.0888977051E-001 -6.3556432724E-004 -9.7483396530E-005 +5.3448602557E-005 -2.7025118470E-005 -4.2999267578E-002 +7.6675415039E-002
11970000000.000 -8.3236694336E-002 -4.0963745117E-001 -5.5840611458E-004 +2.6372075081E-004 +3.8109719753E-005 +3.0759721994E-005 -5.9524536133E-002 +8.3194732666E-002
12102500000.000 -8.3190917969E-002 -4.1224670410E-001 -3.7443637848E-004 +5.1507353783E-004 -7.7255070210E-005 +3.6608427763E-005 -6.5414428711E-002 +6.4437866211E-002
12235000000.000 -8.8760375977E-002 -4.1287231445E-001 -5.0693750381E-005 +6.1184167862E-004 -2.5372020900E-005 -1.0289251804E-005 -9.2895507813E-002 +4.4155120850E-002
12367500000.000 -8.8699340820E-002 -4.1305541992E-001 +3.5332143307E-004 +4.1168928146E-004 -4.9420632422E-006 -1.0689720511E-005 -1.0544967651E-001 +4.2812347412E-002
12500000000.000 -9.2437744141E-002 -4.1343688965E-001 +5.7473778725E-004 +2.5442242622E-004 -2.1409243345E-005 +2.7980655432E-005 -9.7290039063E-002 +2.0263671875E-002
12632500000.000 -9.4726562500E-002 -4.1596984863E-001 +4.8325955868E-004 -7.9676508904E-005 -3.2186508179E-005 -5.5763870478E-005 -1.0954666138E-001 -1.3481140137E-002
12765000000.000 -9.7045898438E-002 -4.1589355469E-001 +3.9383769035E-004 -3.3782422543E-004 +8.9667737484E-005 +5.9846788645E-005 -1.1733245850E-001 -1.7612457275E-002
12897500000.000 -9.9655151367E-002 -4.1502380371E-001 +8.9585781097E-005 -4.8404932022E-004 +1.2159347534E-005 +7.8387558460E-005 -9.1991424561E-002 -3.4671783447E-002
13030000000.000 -1.0162353516E-001 -4.1587829590E-001 -1.6492605209E-004 -4.7166645527E-004 -3.8985162973E-005 +5.8878213167E-006 -8.9660644531E-002 -7.1376800537E-002
13162500000.000 -1.0421752930E-001 -4.1755676270E-001 -3.9249658585E-004 -2.8768181801E-004 +1.3608485460E-004 -8.6717307568E-005 -9.2014312744E-002 -7.2475433350E-002
13295000000.000 -1.0731506348E-001 -4.1856384277E-001 -4.1501224041E-004 +1.5780329704E-005 -4.2041763663E-005 +7.3835253716E-006 -6.0886383057E-002 -7.8510284424E-002
13427500000.000 -1.1155700684E-001 -4.1758728027E-001 -3.1955540180E-004 +2.6121735573E-004 -4.1373074055E-005 -2.6308000088E-005 -4.6703338623E-002 -1.0456848145E-001
13560000000.000 -1.1149597168E-001 -4.1754150391E-001 -1.2625753880E-004 +4.4396519661E-004 -1.3589859009E-005 -1.1409819126E-004 -4.6928405762E-002 -1.0161972046E-001
13692500000.000 -1.1378479004E-001 -4.2037963867E-001 +4.9993395805E-005 +3.5887956619E-004 -2.7183443308E-005 +3.7187710404E-005 -1.7742156982E-002 -8.9023590088E-002
13825000000.000 -1.1886596680E-001 -4.2137145996E-001 +2.1307170391E-004 +2.6862323284E-004 -9.4242393970E-005 -3.3874064684E-005 +4.5661926270E-003 -1.0315704346E-001
13957500000.000 -1.2188720703E-001 -4.1973876953E-001 +3.9464235306E-004 +6.1765313148E-005 +2.4173408747E-005 -7.9277902842E-005 -9.1552734375E-005 -9.5878601074E-002
14090000000.000 -1.2275695801E-001 -4.2086791992E-001 +3.5545229912E-004 -1.2847781181E-004 +5.3614377975E-005 +6.0116872191E-005 +2.1961212158E-002 -7.0304870605E-002
14222500000.000 -1.2452697754E-001 -4.2419433594E-001 +1.2852251530E-004 -3.8810074329E-004 -9.1120600700E-006 -4.4127926230E-005 +4.4116973877E-002 -7.4146270752E-002
14355000000.000 -1.2948608398E-001 -4.2454528809E-001 -4.4703483582E-007 -2.9477477074E-004 +5.0513073802E-005 +3.8459897041E-005 +3.3344268799E-002 -6.7150115967E-002
14487500000.000 -1.3200378418E-001 -4.2434692383E-001 -2.3946166039E-005 -3.6554038525E-004 +4.2878091335E-006 -4.2863190174E-005 +4.0369033813E-002 -3.4107208252E-002
14620000000.000 -1.3212585449E-001 -4.2645263672E-001 -3.7831068039E-004 -1.5914440155E-004 -6.8478286266E-005 -2.5842338800E-005 +6.0752868652E-002 -3.1484603882E-002
14752500000.000 -1.3592529297E-001 -4.3077087402E-001 -3.2399594784E-004 -4.5984983444E-005 +5.2876770496E-005 -5.9187412262E-005 +4.3176651001E-002 -3.2030105591E-002
14885000000.000 -1.3865661621E-001 -4.3191528320E-001 -3.0969083309E-004 +2.5464594364E-004 +9.7535550594E-005 +8.0239027739E-005 +3.5924911499E-002 +1.5773773193E-003
15017500000.000 -1.3911437988E-001 -4.3263244629E-001 -1.7017126083E-004 +3.2591819763E-004 -5.0924718380E-006 +7.1968883276E-005 +5.2932739258E-002 +8.4552764893E-003
15150000000.000 -1.3949584961E-001 -4.3717956543E-001 +4.4658780098E-005 +3.0392408371E-004 +4.6208500862E-005 +7.8264623880E-005 +3.4709930420E-002 -1.4286041260E-003
15282500000.000 -1.4068603516E-001 -4.3991088867E-001 +2.4743378162E-004 +2.9064714909E-004 +7.2833150625E-005 -6.3732266426E-005 +1.4804840088E-002 +2.3625373840E-002
