!  2-Port S-parameters saved by WinCal
! VAR MeasName=S-Parameters (CALIBRATED_DATA) read from VNA (C)
! VAR MeasDate=10/16/2015 12:40:33 PM
! VAR NAME=M6082_13_15_2_2_20C_2.5mA_-17.5dBm
! VAR FILENAME=M6082_13_15_2_2_20C_2.5mA_-17.5dBm.S2P
! VAR DATE=10/16/2015 12:40:33 PM
! VAR PHYS_PORTS=2,1
! VAR ObjTypeName=DATASET
! VAR IndexType=Frequency
!
# Hz S RI R 50
45000000.000 +1.4096832275E-001 -1.7395019531E-003 -1.0066032410E-003 +4.8053264618E-003 -9.6127390862E-004 +7.3570013046E-004 +2.8978347778E-002 +1.6050338745E-003
177500000.000 +1.3834381104E-001 -9.8190307617E-003 +2.3219585419E-003 +5.4442882538E-003 -4.5839697123E-005 +8.1121921539E-005 +1.5958786011E-002 +1.6812324524E-002
310000000.000 +1.3752746582E-001 -1.6326904297E-002 +4.5585632324E-003 +3.5881996155E-003 -8.6966902018E-005 +8.9116394520E-005 +2.9222488403E-002 +6.1401367188E-002
442500000.000 +1.3674163818E-001 -2.3918151855E-002 +6.5217018127E-003 -1.1682510376E-004 +1.3470649719E-004 +1.6696751118E-005 +7.2681427002E-002 +2.2449493408E-002
575000000.000 +1.3562774658E-001 -3.1402587891E-002 +4.8305988312E-003 -3.6575794220E-003 +5.7624652982E-005 +1.0989606380E-006 +2.7302742004E-002 +1.1274337769E-002
707500000.000 +1.3440704346E-001 -3.7887573242E-002 +1.8377304077E-003 -5.6273937225E-003 +1.7037615180E-005 -5.2720308304E-005 +2.0713806152E-003 +1.8603324890E-002
840000000.000 +1.3349151611E-001 -4.5051574707E-002 -1.6009807587E-003 -5.6390762329E-003 -2.7168542147E-005 -4.3651089072E-005 -1.9922256470E-002 +2.6086807251E-002
972500000.000 +1.3278961182E-001 -5.1628112793E-002 -4.3971538544E-003 -3.7648677826E-003 -8.6501240730E-005 +6.1910599470E-005 -3.5812377930E-002 +3.5484313965E-002
1105000000.000 +1.3117218018E-001 -5.8662414551E-002 -5.6705474854E-003 -6.0415267944E-004 -4.8916786909E-005 -4.9332156777E-005 -4.6859741211E-002 +3.8209915161E-002
1237500000.000 +1.2967681885E-001 -6.4842224121E-002 -5.0606727600E-003 +2.7053356171E-003 +3.7940219045E-005 -4.5076012611E-007 -5.8515548706E-002 +3.3836364746E-002
1370000000.000 +1.2831115723E-001 -7.1357727051E-002 -2.6290416718E-003 +4.9891471863E-003 +1.5240162611E-005 +3.5971403122E-005 -7.3947906494E-002 +2.6977539063E-002
1502500000.000 +1.2661743164E-001 -7.7713012695E-002 +6.6781044006E-004 +5.6712627411E-003 -3.3171847463E-005 +1.6631558537E-005 -8.7989807129E-002 +2.1335601807E-002
1635000000.000 +1.2612152100E-001 -8.4190368652E-002 +3.6671161652E-003 +4.2428970337E-003 +4.6990811825E-005 +3.0783936381E-005 -9.8907470703E-002 +1.1672973633E-002
1767500000.000 +1.2427520752E-001 -9.1239929199E-002 +5.4671764374E-003 +1.4610290527E-003 +5.8184377849E-006 -8.7893567979E-006 -1.1186218262E-001 +2.8877258301E-003
1900000000.000 +1.2249374390E-001 -9.6969604492E-002 +5.3541660309E-003 -1.9254684448E-003 -7.5217336416E-005 -4.1738152504E-005 -1.1380386353E-001 -3.3988952637E-003
2032500000.000 +1.2076950073E-001 -1.0272216797E-001 +3.3028125763E-003 -4.4724941254E-003 +1.8116086721E-005 -8.3729624748E-005 -1.1370849609E-001 -2.4341583252E-002
2165000000.000 +1.1978149414E-001 -1.0927581787E-001 +3.0159950256E-004 -5.6169033051E-003 -1.9446015358E-006 +4.0771439672E-005 -1.2257766724E-001 -4.2278289795E-002
2297500000.000 +1.1802673340E-001 -1.1501693726E-001 -2.9296875000E-003 -4.8024654388E-003 +3.2968819141E-005 -8.2571059465E-006 -1.2644958496E-001 -5.3466796875E-002
2430000000.000 +1.1602783203E-001 -1.2028884888E-001 -5.1608085632E-003 -2.2706985474E-003 +4.2226165533E-005 -9.3169510365E-005 -1.2658691406E-001 -6.4964294434E-002
2562500000.000 +1.1476898193E-001 -1.2611389160E-001 -5.6169033051E-003 +9.6726417542E-004 +9.6682459116E-005 +9.4745308161E-005 -1.2519836426E-001 -7.0892333984E-002
2695000000.000 +1.1158752441E-001 -1.3117980957E-001 -4.0287971497E-003 +3.8814544678E-003 -5.9455633163E-006 +1.2398511171E-004 -1.1372756958E-001 -7.3402404785E-002
2827500000.000 +1.0897827148E-001 -1.3535308838E-001 -1.1281967163E-003 +5.4268836975E-003 +3.0204653740E-005 +1.5998259187E-005 -9.8472595215E-002 -8.1951141357E-002
2960000000.000 +1.0765075684E-001 -1.4034271240E-001 +2.0976066589E-003 +5.3043365479E-003 +8.2369893789E-005 -3.9733946323E-005 -8.8283538818E-002 -8.6715698242E-002
3092500000.000 +1.0518646240E-001 -1.4683532715E-001 +4.6889781952E-003 +3.1867027283E-003 +2.3365020752E-005 +8.5704028606E-005 -7.0491790771E-002 -8.5876464844E-002
3225000000.000 +1.0129547119E-001 -1.5201568604E-001 +5.7046413422E-003 -5.3405761719E-005 +1.0099261999E-005 -6.6023319960E-005 -5.1948547363E-002 -9.1037750244E-002
3357500000.000 +9.8709106445E-002 -1.5573120117E-001 +4.7309398651E-003 -3.2560825348E-003 +4.1624531150E-005 +3.2868236303E-005 -4.1324615479E-002 -9.1438293457E-002
3490000000.000 +9.7045898438E-002 -1.6193389893E-001 +2.0973682404E-003 -5.3305625916E-003 -2.6389956474E-005 +4.3306499720E-005 -2.8038024902E-002 -8.3164215088E-002
3622500000.000 +9.4223022461E-002 -1.6850280762E-001 -1.1518001556E-003 -5.7373046875E-003 +1.1648982763E-004 -7.2665512562E-005 -1.1306762695E-002 -7.9185485840E-002
3755000000.000 +9.0606689453E-002 -1.7437744141E-001 -4.1139125824E-003 -4.0872097015E-003 +1.1739879847E-004 -5.0265341997E-005 -5.8822631836E-003 -7.2902679443E-002
3887500000.000 +8.8333129883E-002 -1.7936706543E-001 -5.7854652405E-003 -9.5129013062E-004 -1.1295080185E-005 +1.2278556824E-004 +2.0999908447E-003 -5.5950164795E-002
4020000000.000 +8.6135864258E-002 -1.8455505371E-001 -5.4087638855E-003 +2.4857521057E-003 -4.6782195568E-005 -1.6072392464E-004 +1.3269424438E-002 -4.4467926025E-002
4152500000.000 +8.3694458008E-002 -1.9072723389E-001 -2.9382705688E-003 +5.1801204681E-003 +5.0444155931E-005 -1.7086043954E-005 +1.5378952026E-002 -3.2520294189E-002
4285000000.000 +8.1016540527E-002 -1.9629669189E-001 +4.5037269592E-004 +6.0462951660E-003 +4.1367486119E-005 +3.5353004932E-005 +1.7079353333E-002 -1.3174057007E-002
4417500000.000 +7.7606201172E-002 -2.0170593262E-001 +3.7229061127E-003 +4.5948028564E-003 -3.2071024179E-005 +8.4888190031E-005 +2.5629997253E-002 +3.6525726318E-003
4550000000.000 +7.5782775879E-002 -2.0654296875E-001 +5.6056976318E-003 +1.6884803772E-003 -2.7474015951E-005 -1.0824576020E-004 +2.8828620911E-002 +9.5586776733E-003
4682500000.000 +7.3547363281E-002 -2.1287536621E-001 +5.6662559509E-003 -1.8827915192E-003 +1.5321187675E-005 +1.7795711756E-005 +2.5666236877E-002 +2.0589828491E-002
4815000000.000 +7.0281982422E-002 -2.1821594238E-001 +3.6995410919E-003 -4.6508312225E-003 +1.3329088688E-005 +6.5665692091E-005 +3.1172752380E-002 +2.7466773987E-002
4947500000.000 +6.8359375000E-002 -2.2278594971E-001 +4.7135353088E-004 -6.0427188873E-003 -4.3287873268E-006 -5.2969902754E-005 +2.7642250061E-002 +1.9890785217E-002
5080000000.000 +6.7031860352E-002 -2.2824859619E-001 -3.0791759491E-003 -5.3672790527E-003 +9.5646828413E-006 -1.3799406588E-005 +1.3317108154E-002 +2.0578384399E-002
5212500000.000 +6.4407348633E-002 -2.3359680176E-001 -5.6707859039E-003 -2.7198791504E-003 +1.5903264284E-005 +4.9892812967E-005 +9.2535018921E-003 +2.4772644043E-002
5345000000.000 +6.1515808105E-002 -2.3757934570E-001 -6.3738822937E-003 +1.0099411011E-003 -2.7739442885E-005 +2.4708919227E-005 +5.6219100952E-003 +1.6200065613E-002
5477500000.000 +6.0989379883E-002 -2.4172210693E-001 -4.6291351318E-003 +4.5371055603E-003 +3.6019831896E-005 +6.5229833126E-006 -9.1118812561E-003 +1.0285854340E-002
5610000000.000 +5.9463500977E-002 -2.4736785889E-001 -1.1289119720E-003 +6.5762996674E-003 +1.8301419914E-005 -6.2473118305E-006 -1.4870166779E-002 +1.4562129974E-002
5742500000.000 +5.6259155273E-002 -2.5109863281E-001 +2.7821063995E-003 +6.0777664185E-003 -9.3970447779E-006 -5.6015327573E-005 -1.1417388916E-002 +6.0091018677E-003
5875000000.000 +5.3894042969E-002 -2.5343322754E-001 +5.9964656830E-003 +3.4227371216E-003 +4.9918889999E-006 -2.0221807063E-005 -2.0068168640E-002 -3.4170150757E-003
6007500000.000 +5.2886962891E-002 -2.5746154785E-001 +6.8435668945E-003 -6.7758560181E-004 +6.6738575697E-006 +5.2176415920E-005 -2.3264884949E-002 +1.1062622070E-004
6140000000.000 +5.0445556641E-002 -2.6278686523E-001 +5.1991939545E-003 -4.6193599701E-003 -3.4878030419E-005 +2.5628134608E-005 -1.5300750732E-002 -2.8367042542E-003
6272500000.000 +4.5272827148E-002 -2.6634216309E-001 +1.7144680023E-003 -6.8547725677E-003 +3.3030286431E-005 -9.6112489700E-007 -1.6332626343E-002 -1.1841773987E-002
6405000000.000 +4.2282104492E-002 -2.6849365234E-001 -2.6941299438E-003 -6.6907405853E-003 +9.0878456831E-006 +4.7164037824E-005 -1.9449234009E-002 -6.3428878784E-003
6537500000.000 +4.1534423828E-002 -2.7317810059E-001 -6.1714649200E-003 -3.7522315979E-003 +3.3346936107E-005 +4.2149797082E-005 -9.3197822571E-003 -3.2157897949E-003
6670000000.000 +3.7597656250E-002 -2.7922058105E-001 -7.2691440582E-003 +3.8790702820E-004 -1.9370578229E-005 -1.8254853785E-005 -7.8535079956E-003 -7.2450637817E-003
6802500000.000 +3.2089233398E-002 -2.8405761719E-001 -5.5859088898E-003 +4.8131942749E-003 +3.4993514419E-005 +4.6722590923E-005 -1.1334896088E-002 +1.1301040649E-004
6935000000.000 +2.9067993164E-002 -2.8721618652E-001 -1.3411045074E-003 +7.3964595795E-003 -8.6426734924E-007 +2.4512410164E-005 -6.4191818237E-003 +9.8228454590E-003
7067500000.000 +2.7709960938E-002 -2.9113769531E-001 +2.9251575470E-003 +6.8857669830E-003 +1.9464641809E-007 -2.3811124265E-005 -4.7554969788E-003 +1.0219097137E-002
7200000000.000 +2.2705078125E-002 -2.9687500000E-001 +6.2546730042E-003 +3.9072036743E-003 +2.1512620151E-005 -6.5406784415E-006 -1.5018463135E-002 +1.7062187195E-002
7332500000.000 +1.6998291016E-002 -3.0171203613E-001 +7.5073242188E-003 -7.4696540833E-004 -5.1004812121E-005 +2.7203932405E-005 -1.6992568970E-002 +3.0699729919E-002
7465000000.000 +1.3839721680E-002 -3.0451965332E-001 +5.6843757629E-003 -5.0091743469E-003 -1.2013129890E-005 -2.4400651455E-005 -1.9855499268E-002 +3.1068801880E-002
7597500000.000 +1.1001586914E-002 -3.0880737305E-001 +2.0699501038E-003 -7.2970390320E-003 +4.5442953706E-005 -1.4387071133E-005 -3.6445617676E-002 +3.3258438110E-002
7730000000.000 +5.9051513672E-003 -3.1628417969E-001 -3.0577182770E-003 -6.8805217743E-003 +2.1340325475E-005 +3.6321580410E-006 -4.8149108887E-002 +4.3735504150E-002
7862500000.000 +9.6130371094E-004 -3.2142639160E-001 -6.6382884979E-003 -3.3705234528E-003 -3.6716461182E-005 -1.7343088984E-005 -5.3586959839E-002 +4.2556762695E-002
7995000000.000 -5.9509277344E-004 -3.2354736328E-001 -7.6441764832E-003 +6.6280364990E-004 +3.2801181078E-005 -6.5159052610E-005 -7.2975158691E-002 +3.5129547119E-002
8127500000.000 -3.9215087891E-003 -3.3049011230E-001 -5.7451725006E-003 +5.2621364594E-003 +2.8735026717E-005 +1.9012950361E-005 -9.1335296631E-002 +3.9878845215E-002
8260000000.000 -1.0009765625E-002 -3.3554077148E-001 -1.1327266693E-003 +7.4994564056E-003 -2.7297995985E-005 -1.3842247427E-005 -9.5458984375E-002 +3.4370422363E-002
8392500000.000 -1.1856079102E-002 -3.3859252930E-001 +3.2176971436E-003 +6.9770812988E-003 +3.1162053347E-006 -4.2870640755E-005 -1.0984420776E-001 +1.8489837646E-002
8525000000.000 -1.3595581055E-002 -3.4303283691E-001 +6.7870616913E-003 +3.7713050842E-003 +3.2279640436E-006 +5.5113807321E-005 -1.2197494507E-001 +1.5087127686E-002
8657500000.000 -1.8386840820E-002 -3.4783935547E-001 +7.3812007904E-003 -1.3854503632E-003 -1.1626631021E-005 +6.2089413404E-005 -1.1777114868E-001 +4.2190551758E-003
8790000000.000 -2.2186279297E-002 -3.5182189941E-001 +5.1474571228E-003 -5.4087638855E-003 -8.4936618805E-006 -1.0420009494E-004 -1.1968612671E-001 -1.7379760742E-002
8922500000.000 -2.4230957031E-002 -3.5354614258E-001 +1.2025833130E-003 -7.4803829193E-003 +6.0237944126E-005 +5.1645562053E-005 -1.2247467041E-001 -3.0372619629E-002
9055000000.000 -2.7694702148E-002 -3.5705566406E-001 -3.6461353302E-003 -6.4458847046E-003 -1.4575198293E-005 +4.4049695134E-005 -1.1105728149E-001 -4.3945312500E-002
9187500000.000 -3.1219482422E-002 -3.5963439941E-001 -6.6461563110E-003 -3.0262470245E-003 +1.3122335076E-005 -4.0981918573E-005 -1.0036849976E-001 -6.6719055176E-002
9320000000.000 -3.6148071289E-002 -3.6103820801E-001 -7.1413516998E-003 +1.4078617096E-003 +1.9902363420E-005 -1.2151896954E-005 -9.3757629395E-002 -7.9444885254E-002
9452500000.000 -3.9291381836E-002 -3.6230468750E-001 -4.8131942749E-003 +5.2993297577E-003 +6.3702464104E-007 +7.4852257967E-005 -7.4264526367E-002 -8.6635589600E-002
9585000000.000 -4.3258666992E-002 -3.6424255371E-001 -6.4706802368E-004 +6.8128108978E-003 +3.6749988794E-005 -7.1231275797E-005 -5.4492950439E-002 -1.0129165649E-001
9717500000.000 -4.8477172852E-002 -3.6720275879E-001 +3.2670497894E-003 +6.0431957245E-003 +5.2118673921E-005 -2.9928982258E-005 -4.1446685791E-002 -1.0679626465E-001
9850000000.000 -5.4306030273E-002 -3.6662292480E-001 +6.0200691223E-003 +2.8913021088E-003 +3.6740675569E-005 +3.4574419260E-005 -1.9115447998E-002 -1.0227584839E-001
9982500000.000 -5.6518554688E-002 -3.6833190918E-001 +6.3440799713E-003 -1.2192726135E-003 -5.5121257901E-005 -2.3718923330E-005 +6.2217712402E-003 -1.0345840454E-001
10115000000.000 -6.0501098633E-002 -3.7097167969E-001 +4.5013427734E-003 -4.5459270477E-003 +4.4157728553E-005 -5.0164759159E-005 +1.8859863281E-002 -9.9163055420E-002
10247500000.000 -6.7031860352E-002 -3.7213134766E-001 +1.0573863983E-003 -6.0541629791E-003 -1.1817552149E-005 -2.2684223950E-005 +3.5713195801E-002 -7.9956054688E-002
10380000000.000 -7.0526123047E-002 -3.7251281738E-001 -2.6540756226E-003 -5.1913261414E-003 -5.6009739637E-005 +1.1540949345E-005 +5.7132720947E-002 -6.7798614502E-002
10512500000.000 -7.4264526367E-002 -3.7409973145E-001 -5.1844120026E-003 -2.8197765350E-003 -3.6442652345E-005 -2.0634382963E-005 +6.2351226807E-002 -5.6289672852E-002
10645000000.000 -7.8414916992E-002 -3.7554931641E-001 -5.6240558624E-003 +5.5980682373E-004 +4.5984983444E-005 +4.0592625737E-005 +6.6036224365E-002 -2.9193878174E-002
10777500000.000 -8.2794189453E-002 -3.7698364258E-001 -3.9820671082E-003 +3.5636425018E-003 -1.7192214727E-006 -1.5745870769E-005 +7.7297210693E-002 -7.9498291016E-003
10910000000.000 -8.6669921875E-002 -3.7861633301E-001 -1.1887550354E-003 +5.0854682922E-003 -6.1970204115E-005 -5.5428594351E-005 +7.2364807129E-002 +5.3138732910E-003
11042500000.000 -9.1690063477E-002 -3.8029479980E-001 +1.8048286438E-003 +4.6937465668E-003 +2.0403414965E-005 +3.0849128962E-005 +5.9391021729E-002 +3.1156539917E-002
11175000000.000 -9.5169067383E-002 -3.8267517090E-001 +4.0261745453E-003 +2.7844905853E-003 -2.4722889066E-005 +4.3882057071E-005 +5.6642532349E-002 +5.2606582642E-002
11307500000.000 -9.7396850586E-002 -3.8369750977E-001 +4.6937465668E-003 -6.9618225098E-005 -7.8774988651E-005 -3.0230730772E-005 +4.3807983398E-002 +5.8340072632E-002
11440000000.000 -1.0220336914E-001 -3.8587951660E-001 +3.6745071411E-003 -2.5758743286E-003 +8.1036705524E-007 -1.9617145881E-006 +1.8234252930E-002 +7.1941375732E-002
11572500000.000 -1.0406494141E-001 -3.8879394531E-001 +1.5838146210E-003 -4.1115283966E-003 -2.0418316126E-005 +2.6029534638E-005 +4.4174194336E-003 +8.7520599365E-002
11705000000.000 -1.0646057129E-001 -3.9025878906E-001 -1.0490417480E-003 -4.0342807770E-003 -4.0950253606E-005 +2.2526830435E-005 -1.0028839111E-002 +8.0993652344E-002
11837500000.000 -1.0998535156E-001 -3.9210510254E-001 -3.0249357224E-003 -2.7097463608E-003 +3.8681551814E-005 -2.9573217034E-005 -4.2976379395E-002 +7.6538085938E-002
11970000000.000 -1.1135864258E-001 -3.9250183105E-001 -3.8775205612E-003 -5.0365924835E-004 +3.1050294638E-005 -2.3709610105E-005 -5.9215545654E-002 +8.3087921143E-002
12102500000.000 -1.1117553711E-001 -3.9482116699E-001 -3.3726692200E-003 +1.7284154892E-003 -4.4271349907E-005 +4.1628256440E-005 -6.5437316895E-002 +6.4414978027E-002
12235000000.000 -1.1669921875E-001 -3.9514160156E-001 -1.8088817596E-003 +3.2820701599E-003 +3.3495947719E-005 -4.2116269469E-005 -9.2933654785E-002 +4.4181823730E-002
12367500000.000 -1.1659240723E-001 -3.9512634277E-001 +3.8027763367E-004 +3.5746097565E-003 +6.4726918936E-006 +1.6290694475E-005 -1.0535430908E-001 +4.2778015137E-002
12500000000.000 -1.2026977539E-001 -3.9514160156E-001 +2.3237466812E-003 +2.6407241821E-003 +3.0916184187E-005 +5.4424628615E-005 -9.7164154053E-002 +2.0294189453E-002
12632500000.000 -1.2220764160E-001 -3.9739990234E-001 +3.2670497894E-003 +7.9512596130E-004 -1.3276934624E-005 -3.4522265196E-005 -1.0930633545E-001 -1.3511657715E-002
12765000000.000 -1.2443542480E-001 -3.9707946777E-001 +3.0285120010E-003 -1.0743141174E-003 -4.2952597141E-006 +3.6971643567E-005 -1.1727523804E-001 -1.7688751221E-002
12897500000.000 -1.2669372559E-001 -3.9590454102E-001 +1.8461942673E-003 -2.5550127029E-003 +1.8263235688E-005 +3.1648203731E-005 -9.2090606689E-002 -3.4729003906E-002
13030000000.000 -1.2855529785E-001 -3.9639282227E-001 +1.3816356659E-004 -3.0957460403E-003 -3.6993995309E-005 -4.9499794841E-005 -8.9572906494E-002 -7.1205139160E-002
13162500000.000 -1.3101196289E-001 -3.9778137207E-001 -1.6065835953E-003 -2.4803876877E-003 +5.3551048040E-005 +1.0512769222E-005 -9.1815948486E-002 -7.2265625000E-002
13295000000.000 -1.3395690918E-001 -3.9852905273E-001 -2.5266408920E-003 -1.1408329010E-003 -2.3107975721E-005 -3.9627775550E-005 -6.0993194580E-002 -7.8495025635E-002
13427500000.000 -1.3800048828E-001 -3.9729309082E-001 -2.7010440826E-003 +4.5776367188E-004 -4.0531158447E-006 -5.1287934184E-005 -4.6688079834E-002 -1.0442352295E-001
13560000000.000 -1.3786315918E-001 -3.9723205566E-001 -1.8615126610E-003 +1.9242167473E-003 +4.3647363782E-005 -3.3410266042E-005 -4.6730041504E-002 -1.0142898560E-001
13692500000.000 -1.3999938965E-001 -3.9991760254E-001 -5.5229663849E-004 +2.5109052658E-003 +2.4499371648E-005 +4.6903267503E-005 -1.7787933350E-002 -8.8924407959E-002
13825000000.000 -1.4501953125E-001 -4.0084838867E-001 +9.1934204102E-004 +2.3136138916E-003 -4.9414113164E-005 +5.8058649302E-005 +4.4860839844E-003 -1.0318374634E-001
13957500000.000 -1.4770507813E-001 -3.9918518066E-001 +1.8751025200E-003 +1.3766288757E-003 +1.1373311281E-005 -6.6801905632E-005 -3.1661987305E-004 -9.5672607422E-002
14090000000.000 -1.4834594727E-001 -4.0014648438E-001 +2.4303197861E-003 -6.6876411438E-005 -1.7486512661E-005 +6.3788145781E-005 +2.1934509277E-002 -7.0159912109E-002
14222500000.000 -1.4970397949E-001 -4.0350341797E-001 +1.9732713699E-003 -1.3424158096E-003 -8.2720071077E-006 +4.2960047722E-005 +4.4063568115E-002 -7.4077606201E-002
14355000000.000 -1.5449523926E-001 -4.0380859375E-001 +8.6867809296E-004 -2.0502805710E-003 -4.9080699682E-005 -1.5171244740E-005 +3.3401489258E-002 -6.7123413086E-002
14487500000.000 -1.5666198730E-001 -4.0362548828E-001 -3.7252902985E-004 -2.1517276764E-003 -1.3947486877E-005 -8.1453472376E-005 +4.0216445923E-002 -3.4112930298E-002
14620000000.000 -1.5652465820E-001 -4.0548706055E-001 -1.4970898628E-003 -1.5018582344E-003 -2.2920779884E-005 +3.0143186450E-005 +6.0840606689E-002 -3.1387329102E-002
14752500000.000 -1.6003417969E-001 -4.0968322754E-001 -1.9843578339E-003 -3.5953521729E-004 +4.3222680688E-006 -1.9609928131E-005 +4.3096542358E-002 -3.2001495361E-002
14885000000.000 -1.6284179688E-001 -4.1058349609E-001 -1.8044114113E-003 +7.3641538620E-004 +6.0163438320E-006 -1.0420382023E-004 +3.5707473755E-002 +1.5678405762E-003
15017500000.000 -1.6310119629E-001 -4.1123962402E-001 -1.0390877724E-003 +1.6371011734E-003 +2.7026981115E-006 +3.2372772694E-005 +5.2869796753E-002 +8.3293914795E-003
15150000000.000 -1.6361999512E-001 -4.1571044922E-001 -1.2516975403E-005 +1.9207596779E-003 +2.7446076274E-005 -3.2795593143E-005 +3.4759521484E-002 -1.4457702637E-003
15282500000.000 -1.6465759277E-001 -4.1835021973E-001 +9.7650289536E-004 +1.5406012535E-003 +2.6267953217E-005 -6.2473118305E-006 +1.4684677124E-002 +2.3609161377E-002
