!  2-Port S-parameters saved by WinCal
! VAR MeasName=S-Parameters (CALIBRATED_DATA) read from VNA (C)
! VAR MeasDate=10/16/2015 10:50:19 AM
! VAR NAME=M6082_13_13_2_2_20C_1.8mA_-17.5dBm
! VAR FILENAME=M6082_13_13_2_2_20C_1.8mA_-17.5dBm_1_1.S2P
! VAR DATE=10/16/2015 10:50:19 AM
! VAR PHYS_PORTS=2,1
! VAR ObjTypeName=DATASET
! VAR IndexType=Frequency
!
# Hz S RI R 50
45000000.000 +4.2834472656E-001 -3.8299560547E-003 +1.6283988953E-004 +4.9099922180E-003 +1.9168853760E-004 -1.2976676226E-004 +3.0545234680E-002 +2.9115676880E-003
177500000.000 +4.2552185059E-001 -1.3275146484E-002 +2.1216869354E-003 +4.7724246979E-003 +1.1942163110E-004 +8.1449747086E-005 +1.6604423523E-002 +1.7091751099E-002
310000000.000 +4.2655944824E-001 -2.1453857422E-002 +3.9761066437E-003 +2.9230117798E-003 -2.8446316719E-005 -1.4772266150E-004 +2.9588699341E-002 +6.1761856079E-002
442500000.000 +4.2202758789E-001 -3.2318115234E-002 +5.6786537170E-003 -8.0823898315E-005 +1.2905802578E-005 -4.8871152103E-006 +7.3162078857E-002 +2.3406982422E-002
575000000.000 +4.1976928711E-001 -4.1793823242E-002 +4.4696331024E-003 -3.2792091370E-003 +1.8996186554E-005 -1.3934448361E-005 +2.7745246887E-002 +1.1677742004E-002
707500000.000 +4.1818237305E-001 -5.0109863281E-002 +1.7955303192E-003 -5.0382614136E-003 +1.3278797269E-005 -4.2555853724E-005 +2.5968551636E-003 +1.8869400024E-002
840000000.000 +4.1581726074E-001 -5.9143066406E-002 -1.3940334320E-003 -5.1708221436E-003 +4.7400593758E-005 +3.6578625441E-005 -1.9576072693E-002 +2.6109695435E-002
972500000.000 +4.1369628906E-001 -6.7214965820E-002 -3.9997100830E-003 -3.4043788910E-003 -5.8243051171E-005 -2.5447458029E-005 -3.5808563232E-002 +3.5867691040E-002
1105000000.000 +4.1163635254E-001 -7.5698852539E-002 -5.2707195282E-003 -6.0248374939E-004 +9.4105489552E-006 +8.1644393504E-006 -4.6735763550E-002 +3.8652420044E-002
1237500000.000 +4.0943908691E-001 -8.3236694336E-002 -4.6973228455E-003 +2.3851394653E-003 +1.3563781977E-005 -3.3369287848E-005 -5.8599472046E-002 +3.4229278564E-002
1370000000.000 +4.0641784668E-001 -9.1339111328E-002 -2.5327205658E-003 +4.6975612640E-003 +5.2947551012E-005 -2.6388093829E-005 -7.4127197266E-002 +2.7397155762E-002
1502500000.000 +4.0336608887E-001 -9.9151611328E-002 +4.6348571777E-004 +5.2649974823E-003 -1.0278075933E-005 -3.2335519791E-005 -8.8016510010E-002 +2.1743774414E-002
1635000000.000 +4.0307617188E-001 -1.0614013672E-001 +3.5002231598E-003 +4.0113925934E-003 +7.6619908214E-006 -2.8273090720E-005 -9.9128723145E-002 +1.2027740479E-002
1767500000.000 +3.9935302734E-001 -1.1491394043E-001 +5.0983428955E-003 +1.4431476593E-003 +1.6404315829E-005 +4.4962391257E-005 -1.1214828491E-001 +3.2806396484E-003
1900000000.000 +3.9559936523E-001 -1.2200927734E-001 +5.2406787872E-003 -1.6798973083E-003 -4.4681131840E-005 +2.0178034902E-005 -1.1399841309E-001 -3.1623840332E-003
2032500000.000 +3.9311218262E-001 -1.2844848633E-001 +3.1979084015E-003 -4.3077468872E-003 +1.5783309937E-004 -5.0187110901E-005 -1.1410140991E-001 -2.4219512939E-002
2165000000.000 +3.9060974121E-001 -1.3584899902E-001 +4.2486190796E-004 -5.4924488068E-003 +1.0192394257E-004 +3.8728117943E-005 -1.2286376953E-001 -4.1996002197E-002
2297500000.000 +3.8719177246E-001 -1.4277648926E-001 -2.7582645416E-003 -4.5900344849E-003 -7.7933073044E-006 -1.3723038137E-006 -1.2681579590E-001 -5.3421020508E-002
2430000000.000 +3.8395690918E-001 -1.4828491211E-001 -4.9681663513E-003 -2.3684501648E-003 -1.4822185040E-004 -1.1051446199E-004 -1.2722015381E-001 -6.4918518066E-002
2562500000.000 +3.8180541992E-001 -1.5486145020E-001 -5.4223537445E-003 +8.0275535583E-004 +1.4931708574E-004 +3.7916004658E-005 -1.2597656250E-001 -7.0861816406E-002
2695000000.000 +3.7715148926E-001 -1.6091918945E-001 -4.0595531464E-003 +3.8149356842E-003 -3.9806589484E-005 +3.1927600503E-005 -1.1432647705E-001 -7.3257446289E-002
2827500000.000 +3.7414550781E-001 -1.6525268555E-001 -1.2323856354E-003 +5.6159496307E-003 -4.2967498302E-005 -1.5968084335E-004 -9.9147796631E-002 -8.1848144531E-002
2960000000.000 +3.7232971191E-001 -1.7060852051E-001 +2.0878314972E-003 +5.3362846375E-003 +8.4970146418E-005 +6.3315033913E-005 -8.9031219482E-002 -8.6841583252E-002
3092500000.000 +3.6863708496E-001 -1.7793273926E-001 +4.7502517700E-003 +3.1914710999E-003 +3.2372772694E-006 +4.9615278840E-005 -7.0934295654E-002 -8.5777282715E-002
3225000000.000 +3.6376953125E-001 -1.8365478516E-001 +5.8462619781E-003 -7.4148178101E-005 +2.9399991035E-005 -9.9923461676E-005 -5.2249908447E-002 -9.1152191162E-002
3357500000.000 +3.6116027832E-001 -1.8814086914E-001 +4.7121047974E-003 -3.4484863281E-003 +9.7762793303E-005 +1.5646219254E-006 -4.1812896729E-002 -9.1773986816E-002
3490000000.000 +3.5838317871E-001 -1.9486999512E-001 +2.1572113037E-003 -5.7280063629E-003 -8.0797821283E-005 +8.4396451712E-005 -2.8347015381E-002 -8.3385467529E-002
3622500000.000 +3.5424804688E-001 -2.0182800293E-001 -1.3856887817E-003 -5.9559345245E-003 -9.2726200819E-005 -7.6252967119E-005 -1.1508941650E-002 -7.9067230225E-002
3755000000.000 +3.5052490234E-001 -2.0805358887E-001 -4.6937465668E-003 -4.0957927704E-003 +3.2540410757E-005 +5.6851655245E-005 -6.0005187988E-003 -7.3417663574E-002
3887500000.000 +3.4777832031E-001 -2.1398925781E-001 -6.2000751495E-003 -5.8197975159E-004 +5.0973147154E-005 +9.6581876278E-005 +2.0160675049E-003 -5.6394577026E-002
4020000000.000 +3.4426879883E-001 -2.1911621094E-001 -5.7189464569E-003 +3.0703544617E-003 +2.1439045668E-005 +1.0872632265E-004 +1.3216018677E-002 -4.4610977173E-002
4152500000.000 +3.4193420410E-001 -2.2552490234E-001 -2.8374195099E-003 +5.9328079224E-003 +4.5903027058E-005 -5.1258131862E-005 +1.5741348267E-002 -3.2934188843E-002
4285000000.000 +3.3876037598E-001 -2.3162841797E-001 +1.1451244354E-003 +6.5486431122E-003 -1.2828968465E-005 -1.4468561858E-005 +1.7196655273E-002 -1.3688087463E-002
4417500000.000 +3.3496093750E-001 -2.3741149902E-001 +4.8477649689E-003 +4.7042369843E-003 -2.8209760785E-005 -2.2306106985E-005 +2.5751113892E-002 +3.3693313599E-003
4550000000.000 +3.3296203613E-001 -2.4302673340E-001 +6.8662166595E-003 +9.8204612732E-004 +1.3697892427E-005 -3.9579346776E-005 +2.9457092285E-002 +9.3536376953E-003
4682500000.000 +3.3114624023E-001 -2.5077819824E-001 +6.0420036316E-003 -3.5185813904E-003 +3.1381845474E-005 -4.1149556637E-005 +2.6329994202E-002 +2.0281791687E-002
4815000000.000 +3.2766723633E-001 -2.5660705566E-001 +2.9342174530E-003 -6.4737796783E-003 +3.9042904973E-005 -7.2885304689E-006 +3.1866073608E-002 +2.7036666870E-002
4947500000.000 +3.2597351074E-001 -2.6266479492E-001 -1.7173290253E-003 -7.1783065796E-003 -1.3470649719E-005 -4.0877610445E-005 +2.8335571289E-002 +1.9647598267E-002
5080000000.000 +3.2534790039E-001 -2.7249145508E-001 -6.2925815582E-003 -3.9703845978E-003 +4.3893232942E-005 -4.1108578444E-006 +1.4163017273E-002 +2.0332336426E-002
5212500000.000 +3.2135009766E-001 -2.7851867676E-001 -7.5814723969E-003 +4.4775009155E-004 -2.0632520318E-005 +5.8889389038E-005 +1.0169982910E-002 +2.4646759033E-002
5345000000.000 +3.1784057617E-001 -2.8276062012E-001 -6.0381889343E-003 +4.9524307251E-003 -5.1755458117E-005 -3.1145289540E-005 +6.4678192139E-003 +1.6148567200E-002
5477500000.000 +3.1631469727E-001 -2.9147338867E-001 -7.8201293945E-004 +7.5733661652E-003 +5.6246295571E-005 +2.2729858756E-005 -8.4095001221E-003 +1.0144233704E-002
5610000000.000 +3.1216430664E-001 -2.9937744141E-001 +4.3008327484E-003 +6.0894489288E-003 -1.8602237105E-005 +2.6310794055E-005 -1.4099597931E-002 +1.4748096466E-002
5742500000.000 +3.0787658691E-001 -3.0262756348E-001 +7.2984695435E-003 +2.6638507843E-003 -5.9001147747E-005 -4.1291117668E-005 -1.0492324829E-002 +6.4358711243E-003
5875000000.000 +3.0403137207E-001 -3.0679321289E-001 +7.0807933807E-003 -2.5079250336E-003 -2.5331974030E-006 -3.2344833016E-005 -1.9499778748E-002 -3.1890869141E-003
6007500000.000 +3.0035400391E-001 -3.1239318848E-001 +3.5793781281E-003 -6.2465667725E-003 +7.7974051237E-005 +2.4981796741E-005 -2.2874832153E-002 +6.1893463135E-004
6140000000.000 +2.9591369629E-001 -3.1773376465E-001 -7.1048736572E-004 -7.4191093445E-003 -4.1153281927E-005 -4.4073909521E-005 -1.4856815338E-002 -1.9021034241E-003
6272500000.000 +2.8919982910E-001 -3.2185363770E-001 -5.0492286682E-003 -5.5129528046E-003 +6.1508268118E-005 -3.2532960176E-005 -1.5851974487E-002 -1.1108398438E-002
6405000000.000 +2.8414916992E-001 -3.2429504395E-001 -7.0242881775E-003 -9.9372863770E-004 +2.8948299587E-005 -1.8111430109E-005 -1.9350051880E-002 -5.7725906372E-003
6537500000.000 +2.8121948242E-001 -3.2827758789E-001 -6.1569213867E-003 +3.4165382385E-003 -2.4429522455E-005 +3.4645199776E-006 -9.4552040100E-003 -2.4127960205E-003
6670000000.000 +2.7619934082E-001 -3.3460998535E-001 -3.2529830933E-003 +6.4160823822E-003 -1.3159587979E-005 -2.5666318834E-005 -7.7865123749E-003 -6.3483715057E-003
6802500000.000 +2.6828002930E-001 -3.3828735352E-001 +1.4448165894E-003 +6.3765048981E-003 +4.3753534555E-005 +1.6082078218E-005 -1.1468410492E-002 +5.1164627075E-004
6935000000.000 +2.6336669922E-001 -3.3897399902E-001 +4.7707557678E-003 +3.9982795715E-003 +1.0648276657E-005 -4.2235478759E-006 -7.0424079895E-003 +1.0349750519E-002
7067500000.000 +2.6126098633E-001 -3.4252929688E-001 +6.4227581024E-003 +7.7557563782E-004 -2.0651146770E-005 -1.0372139513E-005 -5.1894187927E-003 +1.0698318481E-002
7200000000.000 +2.5473022461E-001 -3.4815979004E-001 +5.6300163269E-003 -2.9573440552E-003 +7.0344656706E-005 -3.3453106880E-006 -1.5439033508E-002 +1.7452239990E-002
7332500000.000 +2.4821472168E-001 -3.5089111328E-001 +2.5756359100E-003 -5.3849220276E-003 -3.9830803871E-005 -1.1069700122E-005 -1.7480850220E-002 +3.0754089355E-002
7465000000.000 +2.4389648438E-001 -3.5299682617E-001 -8.4972381592E-004 -6.0064792633E-003 -1.0482035577E-005 -1.1754687876E-005 -2.0485877991E-002 +3.0969619751E-002
7597500000.000 +2.3936462402E-001 -3.5806274414E-001 -4.1301250458E-003 -4.5576095581E-003 +4.7961249948E-005 -4.0562823415E-005 -3.6966323853E-002 +3.3445358276E-002
7730000000.000 +2.3420715332E-001 -3.6177062988E-001 -5.3796768188E-003 -8.8810920715E-004 +3.1664967537E-007 +5.6471675634E-005 -4.8526763916E-002 +4.3703079224E-002
7862500000.000 +2.2998046875E-001 -3.6466979980E-001 -4.6668052673E-003 +2.2742748260E-003 +5.6626275182E-005 +4.9179419875E-005 -5.3953170776E-002 +4.2091369629E-002
7995000000.000 +2.2575378418E-001 -3.6787414551E-001 -2.7971267700E-003 +4.6498775482E-003 +6.7360699177E-005 +2.3432075977E-006 -7.3501586914E-002 +3.4721374512E-002
8127500000.000 +2.2213745117E-001 -3.7333679199E-001 +4.4584274292E-004 +5.1472187042E-003 +4.3578445911E-005 +4.9838796258E-005 -9.1514587402E-002 +3.9722442627E-002
8260000000.000 +2.1812438965E-001 -3.7599182129E-001 +3.0587911606E-003 +3.7657022476E-003 +3.7010759115E-006 +4.7029927373E-005 -9.5218658447E-002 +3.4202575684E-002
8392500000.000 +2.1478271484E-001 -3.7910461426E-001 +4.6384334564E-003 +1.3163089752E-003 -2.1541491151E-006 -2.8299167752E-005 -1.1001968384E-001 +1.8291473389E-002
8525000000.000 +2.1247863770E-001 -3.8212585449E-001 +4.3599605560E-003 -1.4758110046E-003 -9.1057270765E-005 -1.2103468180E-005 -1.2221908569E-001 +1.5419006348E-002
8657500000.000 +2.1095275879E-001 -3.8488769531E-001 +2.5197267532E-003 -3.4143924713E-003 -8.8708475232E-006 -5.5306591094E-006 -1.1779403687E-001 +4.5433044434E-003
8790000000.000 +2.0745849609E-001 -3.8812255859E-001 +1.1467933655E-004 -4.2755603790E-003 +1.2860633433E-005 +5.2591785789E-006 -1.1965942383E-001 -1.7028808594E-002
8922500000.000 +2.0417785645E-001 -3.8960266113E-001 -2.2398233414E-003 -3.4759044647E-003 +4.7322362661E-005 +1.5741214156E-005 -1.2245559692E-001 -3.0078887939E-002
9055000000.000 +2.0245361328E-001 -3.9186096191E-001 -3.6420822144E-003 -1.5047788620E-003 +1.1742115021E-005 +2.3297034204E-005 -1.1116790771E-001 -4.3548583984E-002
9187500000.000 +1.9966125488E-001 -3.9334106445E-001 -3.7683248520E-003 +7.4660778046E-004 -9.8757445812E-006 +3.2668933272E-005 -1.0065841675E-001 -6.6066741943E-002
9320000000.000 +1.9520568848E-001 -3.9503479004E-001 -2.6419162750E-003 +2.6793479919E-003 -5.8514997363E-006 -2.5656074286E-005 -9.3997955322E-002 -7.8807830811E-002
9452500000.000 +1.9291687012E-001 -3.9688110352E-001 -6.4027309418E-004 +3.4754276276E-003 -1.4748424292E-005 +5.9211626649E-005 -7.4703216553E-002 -8.6387634277E-002
9585000000.000 +1.9021606445E-001 -3.9926147461E-001 +1.5159845352E-003 +3.0552148819E-003 -2.4193897843E-005 +2.1107494831E-005 -5.5248260498E-002 -1.0098648071E-001
9717500000.000 +1.8402099609E-001 -4.0225219727E-001 +2.9073953629E-003 +1.7783641815E-003 +4.6543776989E-005 -1.0395422578E-005 -4.2247772217E-002 -1.0631942749E-001
9850000000.000 +1.8023681641E-001 -4.0290832520E-001 +3.1945705414E-003 -2.6798248291E-004 -1.7276033759E-006 +1.8332153559E-005 -1.9535064697E-002 -1.0215377808E-001
9982500000.000 +1.7819213867E-001 -4.0536499023E-001 +2.3580789566E-003 -1.8485784531E-003 -1.4721415937E-005 -1.7142854631E-005 +5.3672790527E-003 -1.0405731201E-001
10115000000.000 +1.7312622070E-001 -4.0824890137E-001 +8.4030628204E-004 -2.8189420700E-003 +2.1149404347E-005 -8.8950619102E-006 +1.7642974854E-002 -9.9281311035E-002
10247500000.000 +1.6827392578E-001 -4.0965270996E-001 -8.0716609955E-004 -2.6664733887E-003 +3.9719045162E-005 +3.2540410757E-005 +3.5118103027E-002 -8.0284118652E-002
10380000000.000 +1.6658020020E-001 -4.1215515137E-001 -2.1530389786E-003 -1.7162561417E-003 -3.3160671592E-005 -1.9196420908E-005 +5.6816101074E-002 -6.9026947021E-002
10512500000.000 +1.6017150879E-001 -4.1461181641E-001 -2.6227235794E-003 -1.8262863159E-004 -7.0910900831E-006 -4.0745362639E-005 +6.1834335327E-002 -5.7538986206E-002
10645000000.000 +1.5493774414E-001 -4.1534423828E-001 -2.2480487823E-003 +1.2743473053E-003 -3.4947879612E-006 +9.4445422292E-006 +6.5692901611E-002 -2.9747009277E-002
10777500000.000 +1.5335083008E-001 -4.1749572754E-001 -1.1593103409E-003 +2.1963119507E-003 -4.2986124754E-005 -3.3125281334E-005 +7.7941894531E-002 -8.9492797852E-003
10910000000.000 +1.4923095703E-001 -4.2118835449E-001 +3.1542778015E-004 +2.3225545883E-003 -4.9127265811E-005 -6.1970204115E-006 +7.2792053223E-002 +3.5057067871E-003
11042500000.000 +1.4123535156E-001 -4.2443847656E-001 +1.4828443527E-003 +1.7009377480E-003 +2.1556392312E-005 -4.6497210860E-005 +5.9934616089E-002 +3.0088424683E-002
11175000000.000 +1.3790893555E-001 -4.2678833008E-001 +2.2110939026E-003 +6.2406063080E-004 -2.4600885808E-006 -9.0445391834E-006 +5.8006286621E-002 +5.2103042603E-002
11307500000.000 +1.3671875000E-001 -4.2861938477E-001 +2.0260810852E-003 -6.5565109253E-004 -2.7049332857E-005 -3.1255185604E-005 +4.5307159424E-002 +5.7695388794E-002
11440000000.000 +1.3098144531E-001 -4.3238830566E-001 +1.2974143028E-003 -1.6251206398E-003 +4.2157247663E-005 -3.2134354115E-005 +1.9454956055E-002 +7.1319580078E-002
11572500000.000 +1.2826538086E-001 -4.3597412109E-001 +1.1241436005E-004 -1.9460320473E-003 +3.5382807255E-005 +5.0436705351E-005 +5.8822631836E-003 +8.7463378906E-002
11705000000.000 +1.2567138672E-001 -4.3794250488E-001 -9.3036890030E-004 -1.6095042229E-003 -5.3750351071E-005 -1.3617798686E-005 -8.0795288086E-003 +8.1348419189E-002
11837500000.000 +1.2168884277E-001 -4.4027709961E-001 -1.6257166862E-003 -8.6492300034E-004 +1.1350959539E-004 +7.6405704021E-006 -4.1328430176E-002 +7.7163696289E-002
11970000000.000 +1.1956787109E-001 -4.4132995605E-001 -1.7780065536E-003 +1.4257431030E-004 +5.9349462390E-005 +4.9583613873E-005 -5.7907104492E-002 +8.4175109863E-002
12102500000.000 +1.2007141113E-001 -4.4416809082E-001 -1.3532042503E-003 +1.1683106422E-003 -2.6226043701E-006 +3.0337832868E-005 -6.4365386963E-002 +6.5559387207E-002
12235000000.000 +1.1328125000E-001 -4.4435119629E-001 -3.5578012466E-004 +1.6555786133E-003 -1.0602176189E-005 -3.1644478440E-005 -9.1972351074E-002 +4.5867919922E-002
12367500000.000 +1.1294555664E-001 -4.4485473633E-001 +5.1754713058E-004 +1.5400648117E-003 +4.6804547310E-005 +3.2987445593E-005 -1.0443115234E-001 +4.4860839844E-002
12500000000.000 +1.0899353027E-001 -4.4609069824E-001 +1.2885332108E-003 +9.8717212677E-004 -8.1848353148E-005 +2.4139881134E-005 -9.6858978271E-002 +2.1923065186E-002
12632500000.000 +1.0499572754E-001 -4.4923400879E-001 +1.5879869461E-003 +1.2153387070E-004 -5.7017430663E-005 -2.3784115911E-005 -1.1057281494E-001 -1.1829376221E-002
12765000000.000 +1.0192871094E-001 -4.4841003418E-001 +1.2950897217E-003 -6.8378448486E-004 +6.2804669142E-005 +1.5933066607E-005 -1.1806488037E-001 -1.5445709229E-002
12897500000.000 +9.9166870117E-002 -4.4799804688E-001 +6.4599514008E-004 -1.3647079468E-003 -4.7352164984E-005 +2.6348978281E-005 -9.2414855957E-002 -3.3378601074E-002
13030000000.000 +9.7015380859E-002 -4.5028686523E-001 -2.5069713593E-004 -1.4626979828E-003 +7.3835253716E-006 +8.0414116383E-005 -9.1567993164E-002 -7.0552825928E-002
13162500000.000 +9.3414306641E-002 -4.5222473145E-001 -8.9353322983E-004 -1.0656118393E-003 +8.0421566963E-005 -1.4401972294E-005 -9.4512939453E-002 -7.1144104004E-002
13295000000.000 +8.9782714844E-002 -4.5332336426E-001 -1.2989640236E-003 -3.7753582001E-004 -1.0915100574E-005 +6.5833330154E-005 -6.2477111816E-002 -7.7686309814E-002
13427500000.000 +8.5388183594E-002 -4.5251464844E-001 -1.2092590332E-003 +4.8989057541E-004 -5.1207840443E-005 -2.5138258934E-005 -4.8336029053E-002 -1.0548782349E-001
13560000000.000 +8.4899902344E-002 -4.5239257813E-001 -7.7980756760E-004 +1.0053515434E-003 -3.4159049392E-005 +3.6517158151E-005 -4.9549102783E-002 -1.0234832764E-001
13692500000.000 +8.2733154297E-002 -4.5565795898E-001 -3.8146972656E-005 +1.2683272362E-003 +3.5718083382E-005 +8.4590166807E-005 -1.9439697266E-002 -8.9244842529E-002
13825000000.000 +7.6690673828E-002 -4.5677185059E-001 +5.2738189697E-004 +9.8216533661E-004 -1.5817582607E-005 -1.3502687216E-004 +3.7918090820E-003 -1.0454559326E-001
13957500000.000 +7.2952270508E-002 -4.5542907715E-001 +1.0315775871E-003 +6.2233209610E-004 -3.5816803575E-005 +4.5057386160E-006 -1.4228820801E-003 -9.7934722900E-002
14090000000.000 +7.1182250977E-002 -4.5658874512E-001 +1.0915398598E-003 -1.9472837448E-004 +2.8491020203E-005 +7.0359557867E-005 +2.0870208740E-002 -7.1769714355E-002
14222500000.000 +6.8161010742E-002 -4.6023559570E-001 +8.7442994118E-004 -7.3274970055E-004 -4.5344233513E-005 -8.2872807980E-005 +4.4082641602E-002 -7.5523376465E-002
14355000000.000 +6.2759399414E-002 -4.6058654785E-001 +3.2427906990E-004 -9.6839666367E-004 +1.8080696464E-005 -4.2432919145E-005 +3.4145355225E-002 -6.8740844727E-002
14487500000.000 +5.9295654297E-002 -4.6075439453E-001 -1.4644861221E-004 -1.0532140732E-003 +4.3349340558E-005 +5.7123601437E-005 +4.1212081909E-002 -3.5875320435E-002
14620000000.000 +5.8120727539E-002 -4.6397399902E-001 -7.2535872459E-004 -6.8199634552E-004 -6.2119215727E-005 +4.3440610170E-005 +6.1407089233E-002 -3.2632827759E-002
14752500000.000 +5.2917480469E-002 -4.6833801270E-001 -8.8652968407E-004 -1.7490983009E-004 -4.4755637646E-005 -9.9129974842E-005 +4.4057846069E-002 -3.2022476196E-002
14885000000.000 +5.0003051758E-002 -4.6855163574E-001 -8.7931752205E-004 +4.0039420128E-004 +6.7867338657E-005 -3.2071024179E-005 +3.7708282471E-002 +1.2111663818E-003
15017500000.000 +5.0354003906E-002 -4.6928405762E-001 -5.7211518288E-004 +8.8435411453E-004 -2.3726373911E-005 +1.0471791029E-004 +5.4050445557E-002 +7.4100494385E-003
15150000000.000 +4.9942016602E-002 -4.7448730469E-001 +9.0032815933E-005 +9.1528892517E-004 -2.0995736122E-005 -8.5610896349E-005 +3.4919738770E-002 -8.4495544434E-004
15282500000.000 +4.7927856445E-002 -4.7708129883E-001 +5.3185224533E-004 +9.3564391136E-004 -5.0941482186E-005 +1.1231750250E-005 +1.6076087952E-002 +2.5231361389E-002
