!  2-Port S-parameters saved by WinCal
! VAR MeasName=S-Parameters (CALIBRATED_DATA) read from VNA (C)
! VAR MeasDate=10/16/2015 3:46:30 PM
! VAR NAME=M6082_10_17_2_2_20C_2.5mA_-17.5dBm
! VAR FILENAME=M6082_10_17_2_2_20C_2.5mA_-17.5dBm.S2P
! VAR DATE=10/16/2015 3:46:30 PM
! VAR PHYS_PORTS=2,1
! VAR ObjTypeName=DATASET
! VAR IndexType=Frequency
!
# Hz S RI R 50
45000000.000 +2.8491973877E-002 -4.4097900391E-003 -2.1710395813E-003 +7.4698925018E-003 +3.4207105637E-004 -5.7131052017E-004 +2.8777122498E-002 +2.3679733276E-003
177500000.000 +2.8087615967E-002 -1.8671989441E-002 +2.8166770935E-003 +6.5999031067E-003 +1.2513250113E-004 +8.7238848209E-005 +1.5946388245E-002 +1.6587257385E-002
310000000.000 +2.7462005615E-002 -3.3224105835E-002 +5.4154396057E-003 +4.2099952698E-003 -3.0951201916E-004 -6.1243772507E-005 +2.9060363770E-002 +6.1679840088E-002
442500000.000 +2.6252746582E-002 -4.8229217529E-002 +7.7946186066E-003 -3.2639503479E-004 +8.8881701231E-005 +1.6026198864E-005 +7.2494506836E-002 +2.2605895996E-002
575000000.000 +2.4059295654E-002 -6.3522338867E-002 +5.6698322296E-003 -4.6505928040E-003 -6.5363943577E-005 -1.3403594494E-005 +2.7105331421E-002 +1.1316299438E-002
707500000.000 +2.1064758301E-002 -7.7842712402E-002 +1.9900798798E-003 -6.8545341492E-003 -6.4708292484E-005 -7.0858746767E-005 +1.9588470459E-003 +1.8750190735E-002
840000000.000 +1.8180847168E-002 -9.2597961426E-002 -2.1488666534E-003 -6.6258907318E-003 +3.0603259802E-006 +1.3857614249E-005 -1.9880294800E-002 +2.6131629944E-002
972500000.000 +1.5266418457E-002 -1.0694122314E-001 -5.4275989532E-003 -4.2016506195E-003 -4.9065798521E-005 +1.0534003377E-004 -3.5820007324E-002 +3.5461425781E-002
1105000000.000 +1.0784149170E-002 -1.2126159668E-001 -6.8857669830E-003 -3.2854080200E-004 -5.8505684137E-005 -5.3346157074E-005 -4.6960830688E-002 +3.8282394409E-002
1237500000.000 +6.0958862305E-003 -1.3471984863E-001 -5.7489871979E-003 +3.5576820374E-003 +2.7492642403E-005 -2.1913088858E-005 -5.8542251587E-002 +3.3887863159E-002
1370000000.000 +1.0528564453E-003 -1.4807891846E-001 -2.6733875275E-003 +6.1542987823E-003 -1.0896474123E-005 +1.3506039977E-005 -7.3974609375E-002 +2.6920318604E-002
1502500000.000 -4.6234130859E-003 -1.6095733643E-001 +1.3086795807E-003 +6.5071582794E-003 -5.0093978643E-005 +1.3083219528E-005 -8.7936401367E-002 +2.1244049072E-002
1635000000.000 -9.3612670898E-003 -1.7417907715E-001 +4.8193931580E-003 +4.7564506531E-003 -1.9701197743E-005 +4.0579587221E-005 -9.9140167236E-002 +1.1661529541E-002
1767500000.000 -1.5899658203E-002 -1.8688964844E-001 +6.5844058990E-003 +1.1734962463E-003 -1.6756355762E-005 +7.5656920671E-005 -1.1185836792E-001 +2.8762817383E-003
1900000000.000 -2.2392272949E-002 -1.9828796387E-001 +5.9971809387E-003 -2.7697086334E-003 -4.0385872126E-005 +2.8187409043E-005 -1.1383438110E-001 -3.5057067871E-003
2032500000.000 -2.8915405273E-002 -2.0942687988E-001 +3.4198760986E-003 -5.7229995728E-003 +7.6964497566E-006 -7.1939080954E-005 -1.1367416382E-001 -2.4387359619E-002
2165000000.000 -3.5095214844E-002 -2.2157287598E-001 -5.0711631775E-004 -6.5486431122E-003 +6.3218176365E-005 +1.3548880816E-005 -1.2257385254E-001 -4.2182922363E-002
2297500000.000 -4.2640686035E-002 -2.3188018799E-001 -4.1208267212E-003 -5.1441192627E-003 -2.8224661946E-005 +4.3306499720E-005 -1.2654876709E-001 -5.3466796875E-002
2430000000.000 -4.9476623535E-002 -2.4151611328E-001 -6.0803890228E-003 -1.9867420197E-003 -1.0628253222E-004 -4.4666230679E-006 -1.2650299072E-001 -6.4865112305E-002
2562500000.000 -5.6594848633E-002 -2.5189208984E-001 -6.0718059540E-003 +1.9459724426E-003 +1.3129413128E-004 +4.2915344238E-006 -1.2510681152E-001 -7.0938110352E-002
2695000000.000 -6.5490722656E-002 -2.6074218750E-001 -4.1151046753E-003 +5.1140785217E-003 -4.6789646149E-005 -9.0077519417E-005 -1.1372375488E-001 -7.3562622070E-002
2827500000.000 -7.4050903320E-002 -2.6838684082E-001 -4.5394897461E-004 +6.2878131866E-003 -4.0359795094E-005 -2.4147331715E-004 -9.8606109619E-002 -8.1871032715E-002
2960000000.000 -8.0841064453E-002 -2.7670288086E-001 +3.2467842102E-003 +5.4361820221E-003 -1.2822449207E-005 -4.7367066145E-005 -8.8062286377E-002 -8.6891174316E-002
3092500000.000 -8.9721679688E-002 -2.8608703613E-001 +5.7408809662E-003 +2.7797222137E-003 +2.3692846298E-005 +8.0659985542E-005 -7.0457458496E-002 -8.6132049561E-002
3225000000.000 -9.9700927734E-002 -2.9379272461E-001 +6.2079429626E-003 -1.0015964508E-003 -2.5339424610E-005 -1.1340528727E-004 -5.2021026611E-002 -9.1262817383E-002
3357500000.000 -1.0813903809E-001 -2.9948425293E-001 +4.5146942139E-003 -4.2464733124E-003 +3.8346275687E-005 -5.3307041526E-005 -4.1381835938E-002 -9.1648101807E-002
3490000000.000 -1.1607360840E-001 -3.0838012695E-001 +1.3754367828E-003 -6.0532093048E-003 +2.9690563679E-005 -3.8381665945E-005 -2.7866363525E-002 -8.3370208740E-002
3622500000.000 -1.2498474121E-001 -3.1634521484E-001 -2.2461414337E-003 -5.9173107147E-003 -7.4114650488E-005 -6.3009560108E-005 -1.1428833008E-002 -7.9353332520E-002
3755000000.000 -1.3455200195E-001 -3.2342529297E-001 -5.2993297577E-003 -3.4830570221E-003 +3.1389296055E-005 -7.7456235886E-005 -5.9318542480E-003 -7.2826385498E-002
3887500000.000 -1.4277648926E-001 -3.2968139648E-001 -6.3321590424E-003 +8.5592269897E-005 +3.6008656025E-005 +1.1350959539E-004 +2.2563934326E-003 -5.5944442749E-002
4020000000.000 -1.5078735352E-001 -3.3584594727E-001 -5.2363872528E-003 +3.6342144012E-003 -9.3542039394E-005 +1.1660158634E-006 +1.3343811035E-002 -4.4570922852E-002
4152500000.000 -1.5876770020E-001 -3.4262084961E-001 -2.1679401398E-003 +5.9514045715E-003 +4.2134895921E-005 +3.9115548134E-008 +1.5167236328E-002 -3.2636642456E-002
4285000000.000 -1.6726684570E-001 -3.4875488281E-001 +1.6653537750E-003 +6.1790943146E-003 +5.4039061069E-005 -1.1066719890E-004 +1.6956329346E-002 -1.3059616089E-002
4417500000.000 -1.7648315430E-001 -3.5414123535E-001 +4.8732757568E-003 +4.0819644928E-003 -6.3203275204E-005 +5.5063515902E-005 +2.5770187378E-002 +3.6420822144E-003
4550000000.000 -1.8379211426E-001 -3.5903930664E-001 +6.2980651855E-003 +6.1297416687E-004 +2.6516616344E-005 -2.2348016500E-005 +2.8909683228E-002 +9.5224380493E-003
4682500000.000 -1.9120788574E-001 -3.6497497559E-001 +5.4945945740E-003 -2.9859542847E-003 -3.6569312215E-005 +4.0303915739E-005 +2.5563240051E-002 +2.0682334900E-002
4815000000.000 -1.9967651367E-001 -3.7042236328E-001 +2.8314590454E-003 -5.5572986603E-003 +2.0212493837E-005 +1.8326565623E-005 +3.1204223633E-002 +2.7402877808E-002
4947500000.000 -2.0729064941E-001 -3.7442016602E-001 -7.0714950562E-004 -6.2196254730E-003 -1.6164965928E-005 -2.8166919947E-005 +2.7641296387E-002 +1.9932746887E-002
5080000000.000 -2.1386718750E-001 -3.7913513184E-001 -4.1368007660E-003 -4.8732757568E-003 +2.9021874070E-005 +1.7397105694E-006 +1.3353347778E-002 +2.0587921143E-002
5212500000.000 -2.2128295898E-001 -3.8420104980E-001 -6.2963962555E-003 -1.5971660614E-003 +8.3521008492E-006 +3.7182122469E-005 +9.2430114746E-003 +2.4834632874E-002
5345000000.000 -2.2929382324E-001 -3.8739013672E-001 -6.1542987823E-003 +2.2792816162E-003 -4.6618282795E-005 -4.2483210564E-005 +5.5475234985E-003 +1.6248703003E-002
5477500000.000 -2.3478698730E-001 -3.9013671875E-001 -3.7951469421E-003 +5.4183006287E-003 -2.0152889192E-005 -1.6978010535E-006 -9.0217590332E-003 +1.0392665863E-002
5610000000.000 -2.4122619629E-001 -3.9451599121E-001 +9.5367431641E-006 +6.6826343536E-003 -8.9090317488E-006 +4.2909756303E-005 -1.4791488647E-002 +1.4525890350E-002
5742500000.000 -2.4909973145E-001 -3.9753723145E-001 +3.9083957672E-003 +5.5246353149E-003 +1.9844621420E-005 -3.4641474485E-005 -1.1569499969E-002 +5.9781074524E-003
5875000000.000 -2.5651550293E-001 -3.9793395996E-001 +6.3967704773E-003 +2.3822784424E-003 +8.4117054939E-006 -8.0808997154E-005 -2.0275115967E-002 -3.1862258911E-003
6007500000.000 -2.6208496094E-001 -4.0014648438E-001 +6.6120624542E-003 -1.7621517181E-003 +1.5001744032E-005 -3.2685697079E-005 -2.3112297058E-002 +2.7942657471E-004
6140000000.000 -2.6879882813E-001 -4.0414428711E-001 +4.3914318085E-003 -5.3677558899E-003 -6.2271952629E-005 -1.7799437046E-005 -1.5359401703E-002 -2.7441978455E-003
6272500000.000 -2.7789306641E-001 -4.0554809570E-001 +5.6695938110E-004 -6.9749355316E-003 -3.2588839531E-005 -2.2262334824E-005 -1.6553878784E-002 -1.1703491211E-002
6405000000.000 -2.8569030762E-001 -4.0499877930E-001 -3.5028457642E-003 -6.0496330261E-003 +4.5740976930E-005 -1.6443431377E-005 -1.9430160522E-002 -6.1683654785E-003
6537500000.000 -2.9095458984E-001 -4.0789794922E-001 -6.4392089844E-003 -2.8574466705E-003 -5.7401135564E-005 -2.1783635020E-005 -9.2544555664E-003 -3.2768249512E-003
6670000000.000 -2.9798889160E-001 -4.1171264648E-001 -6.9973468781E-003 +1.3480186462E-003 -2.4579465389E-005 -2.9018148780E-005 -8.0132484436E-003 -7.2941780090E-003
6802500000.000 -3.0766296387E-001 -4.1282653809E-001 -5.0036907196E-003 +5.1558017731E-003 +1.0034069419E-005 -2.6677735150E-006 -1.1453151703E-002 +1.9836425781E-004
6935000000.000 -3.1495666504E-001 -4.1265869141E-001 -8.0871582031E-004 +7.2586536407E-003 -2.5716610253E-005 -1.9839964807E-005 -6.3662528992E-003 +9.8991394043E-003
7067500000.000 -3.1900024414E-001 -4.1517639160E-001 +3.5183429718E-003 +6.4463615417E-003 -3.2447278500E-005 -6.1526894569E-005 -4.7369003296E-003 +1.0129928589E-002
7200000000.000 -3.2606506348E-001 -4.1799926758E-001 +6.5312385559E-003 +3.4108161926E-003 +3.4179538488E-005 -1.7911195755E-005 -1.5204429626E-002 +1.7002105713E-002
7332500000.000 -3.3526611328E-001 -4.1914367676E-001 +7.2808265686E-003 -1.1699199677E-003 +1.1263415217E-005 +1.8564984202E-005 -1.7264366150E-002 +3.0736923218E-002
7465000000.000 -3.4161376953E-001 -4.2002868652E-001 +5.1603317261E-003 -5.3539276123E-003 -5.1463022828E-005 -9.0450048447E-006 -1.9877433777E-002 +3.1229019165E-002
7597500000.000 -3.4622192383E-001 -4.2160034180E-001 +1.4612674713E-003 -7.3432922363E-003 +5.4379925132E-005 -2.9677525163E-005 -3.6350250244E-002 +3.3252716064E-002
7730000000.000 -3.5354614258E-001 -4.2556762695E-001 -3.2515525818E-003 -6.7460536957E-003 +2.7849338949E-005 +2.9711052775E-005 -4.8408508301E-002 +4.3575286865E-002
7862500000.000 -3.6137390137E-001 -4.2759704590E-001 -6.7965984344E-003 -3.1638145447E-003 -4.6597793698E-005 +1.6981735826E-005 -5.3680419922E-002 +4.2737960815E-002
7995000000.000 -3.6582946777E-001 -4.2793273926E-001 -7.4565410614E-003 +1.1510848999E-003 +3.1411647797E-005 -5.7322904468E-005 -7.2917938232E-002 +3.5049438477E-002
8127500000.000 -3.7026977539E-001 -4.3151855469E-001 -5.6028366089E-003 +5.0797462463E-003 +4.5433640480E-005 +1.7168000340E-005 -9.1468811035E-002 +3.9619445801E-002
8260000000.000 -3.7886047363E-001 -4.3397521973E-001 -9.8371505737E-004 +7.4620246887E-003 -8.0671161413E-006 -4.0818005800E-005 -9.5699310303E-002 +3.4297943115E-002
8392500000.000 -3.8294982910E-001 -4.3420410156E-001 +3.4134387970E-003 +6.7830085754E-003 +1.1391937733E-005 -3.5909935832E-005 -1.0981750488E-001 +1.8318176270E-002
8525000000.000 -3.8595581055E-001 -4.3595886230E-001 +6.6592693329E-003 +3.6778450012E-003 +9.2342495918E-005 +3.3576041460E-005 -1.2189102173E-001 +1.4743804932E-002
8657500000.000 -3.9173889160E-001 -4.3861389160E-001 +7.4591636658E-003 -1.2166500092E-003 -5.5223703384E-005 -1.0954216123E-005 -1.1783981323E-001 +4.0855407715E-003
8790000000.000 -3.9884948730E-001 -4.3965148926E-001 +5.0151348114E-003 -5.4309368134E-003 +8.6277723312E-006 -7.2184950113E-005 -1.1954879761E-001 -1.7528533936E-002
8922500000.000 -4.0199279785E-001 -4.3843078613E-001 +1.2779235840E-003 -7.3492527008E-003 +3.7217512727E-005 +2.4490058422E-005 -1.2223052979E-001 -3.0651092529E-002
9055000000.000 -4.0669250488E-001 -4.3974304199E-001 -3.4637451172E-003 -6.4978599548E-003 -9.8897144198E-006 +2.8274953365E-005 -1.1086654663E-001 -4.4208526611E-002
9187500000.000 -4.1229248047E-001 -4.4021606445E-001 -6.5677165985E-003 -3.0639171600E-003 -4.4228509068E-005 +3.3048912883E-005 -1.0008239746E-001 -6.6940307617E-002
9320000000.000 -4.1950988770E-001 -4.3823242188E-001 -7.1706771851E-003 +1.1966228485E-003 -9.6829608083E-006 -2.2868625820E-005 -9.3544006348E-002 -7.9681396484E-002
9452500000.000 -4.2398071289E-001 -4.3675231934E-001 -5.0170421600E-003 +5.0487518311E-003 +2.7762725949E-005 +4.9646943808E-005 -7.4111938477E-002 -8.6765289307E-002
9585000000.000 -4.2977905273E-001 -4.3626403809E-001 -7.3885917664E-004 +6.8454742432E-003 -3.9992853999E-005 -2.4959445000E-005 -5.4042816162E-002 -1.0120010376E-001
9717500000.000 -4.3598937988E-001 -4.3678283691E-001 +3.2119750977E-003 +6.1254501343E-003 +3.5602599382E-005 +1.2582167983E-005 -4.1007995605E-002 -1.0702514648E-001
9850000000.000 -4.4363403320E-001 -4.3269348145E-001 +6.1869621277E-003 +3.0095577240E-003 -7.6135620475E-006 +2.5527551770E-005 -1.8924713135E-002 -1.0220336914E-001
9982500000.000 -4.4676208496E-001 -4.3217468262E-001 +6.4065456390E-003 -1.1765956879E-003 -1.5722587705E-005 -1.7423182726E-005 +6.6833496094E-003 -1.0307693481E-001
10115000000.000 -4.5127868652E-001 -4.3232727051E-001 +4.4627189636E-003 -4.5630931854E-003 +5.9194862843E-005 -5.6747347116E-005 +1.9451141357E-002 -9.9124908447E-002
10247500000.000 -4.5845031738E-001 -4.3113708496E-001 +1.0313987732E-003 -6.0968399048E-003 +2.0810402930E-005 -1.9647181034E-005 +3.5808563232E-002 -7.9925537109E-002
10380000000.000 -4.6371459961E-001 -4.2791748047E-001 -2.8314590454E-003 -5.2700042725E-003 -2.5378540158E-006 -1.2732110918E-005 +5.7125091553E-002 -6.7302703857E-002
10512500000.000 -4.6717834473E-001 -4.2660522461E-001 -5.2685737610E-003 -2.6285648346E-003 +1.5236437321E-005 -6.5576285124E-005 +6.2763214111E-002 -5.5770874023E-002
10645000000.000 -4.7113037109E-001 -4.2640686035E-001 -5.8476924896E-003 +6.5851211548E-004 +2.4840235710E-005 +5.4005533457E-005 +6.6154479980E-002 -2.9193878174E-002
10777500000.000 -4.7703552246E-001 -4.2550659180E-001 -4.1146278381E-003 +3.8220882416E-003 -1.8179416656E-005 +5.9058889747E-005 +7.6942443848E-002 -7.6942443848E-003
10910000000.000 -4.8220825195E-001 -4.2318725586E-001 -9.9515914917E-004 +5.2602291107E-003 -2.6458874345E-005 +2.2982247174E-005 +7.2277069092E-002 +6.0081481934E-003
11042500000.000 -4.8660278320E-001 -4.2198181152E-001 +2.0713806152E-003 +4.8813819885E-003 +4.9112364650E-005 +1.6270205379E-005 +5.9617996216E-002 +3.1440734863E-002
11175000000.000 -4.9008178711E-001 -4.2291259766E-001 +4.2841434479E-003 +2.6412010193E-003 +2.5331974030E-007 +3.5764649510E-005 +5.6236267090E-002 +5.2518844604E-002
11307500000.000 -4.9334716797E-001 -4.2207336426E-001 +4.8308372498E-003 -3.0732154846E-004 +3.9706006646E-005 -3.0355527997E-005 +4.3241500854E-002 +5.8710098267E-002
11440000000.000 -4.9789428711E-001 -4.2138671875E-001 +3.6580562592E-003 -3.0065774918E-003 +6.8545341492E-005 -2.5399029255E-005 +1.8043518066E-002 +7.2227478027E-002
11572500000.000 -4.9942016602E-001 -4.2248535156E-001 +1.3678073883E-003 -4.3845176697E-003 +7.0636160672E-006 +7.8636221588E-006 +4.1122436523E-003 +8.7398529053E-002
11705000000.000 -5.0201416016E-001 -4.2239379883E-001 -1.5048980713E-003 -4.0874481201E-003 -7.1037560701E-005 -1.3805925846E-005 -1.0475158691E-002 +8.0863952637E-002
11837500000.000 -5.0561523438E-001 -4.2214965820E-001 -3.3801794052E-003 -2.5515556335E-003 +1.3284385204E-005 -2.5748275220E-005 -4.3350219727E-002 +7.6576232910E-002
11970000000.000 -5.0723266602E-001 -4.2019653320E-001 -4.0695667267E-003 -1.1587142944E-004 -1.0319054127E-006 +5.6721270084E-005 -5.9562683105E-002 +8.3007812500E-002
12102500000.000 -5.0711059570E-001 -4.2059326172E-001 -3.3526420593E-003 +2.0908117294E-003 -6.3735991716E-005 +4.0579587221E-005 -6.5643310547E-002 +6.4220428467E-002
12235000000.000 -5.1226806641E-001 -4.1885375977E-001 -1.4538764954E-003 +3.5127401352E-003 +7.8082084656E-005 -3.0703842640E-005 -9.2937469482E-002 +4.3762207031E-002
12367500000.000 -5.1330566406E-001 -4.1711425781E-001 +7.3826313019E-004 +3.6691427231E-003 +5.1043927670E-005 +1.9241124392E-005 -1.0578536987E-001 +4.2308807373E-002
12500000000.000 -5.1672363281E-001 -4.1418457031E-001 +2.6234388351E-003 +2.5020837784E-003 -5.6438148022E-006 -2.9216520488E-005 -9.7309112549E-002 +2.0217895508E-002
12632500000.000 -5.1818847656E-001 -4.1424560547E-001 +3.4921169281E-003 +5.9199333191E-004 -3.0726194382E-005 -9.0111047029E-005 -1.0908889771E-001 -1.3828277588E-002
12765000000.000 -5.2102661133E-001 -4.1271972656E-001 +3.0179023743E-003 -1.3918876648E-003 +1.4284625649E-005 -3.3577904105E-005 -1.1725234985E-001 -1.8413543701E-002
12897500000.000 -5.2349853516E-001 -4.1003417969E-001 +1.5660524368E-003 -2.8200149536E-003 -7.5064599514E-006 +2.3741275072E-005 -9.2323303223E-002 -3.4950256348E-002
13030000000.000 -5.2529907227E-001 -4.0811157227E-001 -2.9706954956E-004 -3.1185150146E-003 -3.1910836697E-005 -2.5397166610E-005 -8.9153289795E-002 -7.1094512939E-002
13162500000.000 -5.2725219727E-001 -4.0811157227E-001 -1.9023418427E-003 -2.4003982544E-003 +3.7586316466E-005 -5.5575743318E-005 -9.1136932373E-002 -7.2883605957E-002
13295000000.000 -5.2957153320E-001 -4.0753173828E-001 -2.8557777405E-003 -8.6617469788E-004 -1.8615275621E-005 +5.9179961681E-005 -6.0997009277E-002 -7.8849792480E-002
13427500000.000 -5.3280639648E-001 -4.0414428711E-001 -2.7455091476E-003 +8.3506107330E-004 -3.0473805964E-005 -1.1487863958E-005 -4.6596527100E-002 -1.0398483276E-001
13560000000.000 -5.3244018555E-001 -4.0274047852E-001 -1.6640424728E-003 +2.2699832916E-003 +8.1393867731E-005 +5.5469572544E-006 -4.6058654785E-002 -1.0143661499E-001
13692500000.000 -5.3439331055E-001 -4.0356445313E-001 -4.2557716370E-005 +2.5907754898E-003 +8.5104256868E-005 +8.6277723312E-005 -1.7559051514E-002 -8.9260101318E-002
13825000000.000 -5.3842163086E-001 -4.0231323242E-001 +1.2909173965E-003 +2.0865201950E-003 -5.6805089116E-005 -5.2178278565E-005 +4.3525695801E-003 -1.0290908813E-001
13957500000.000 -5.4061889648E-001 -3.9868164063E-001 +2.1023750305E-003 +1.0238885880E-003 +1.4736317098E-005 -7.3746778071E-006 +2.1743774414E-004 -9.5287322998E-002
14090000000.000 -5.4132080078E-001 -3.9788818359E-001 +2.2544860840E-003 -3.6776065826E-004 -1.6909092665E-005 +5.4720789194E-005 +2.2277832031E-002 -7.0117950439E-002
14222500000.000 -5.4229736328E-001 -3.9971923828E-001 +1.6872882843E-003 -1.6353726387E-003 +2.9796734452E-005 -3.9380043745E-005 +4.4082641602E-002 -7.4218750000E-002
14355000000.000 -5.4696655273E-001 -3.9855957031E-001 +5.1343441010E-004 -2.0581483841E-003 -4.2714178562E-005 -1.3859570026E-004 +3.2966613770E-002 -6.6944122314E-002
14487500000.000 -5.4855346680E-001 -3.9807128906E-001 -7.4553489685E-004 -1.9724369049E-003 +1.7901882529E-005 -5.4616481066E-005 +4.0203094482E-002 -3.3769607544E-002
14620000000.000 -5.4840087891E-001 -3.9837646484E-001 -1.6357302666E-003 -1.2058615685E-003 -3.2169744372E-005 -1.1915341020E-005 +6.0960769653E-002 -3.1358718872E-002
14752500000.000 -5.5065917969E-001 -4.0216064453E-001 -1.9662380219E-003 -2.5880336761E-004 -7.1067363024E-005 -7.4252486229E-005 +4.3230056763E-002 -3.2361984253E-002
14885000000.000 -5.5328369141E-001 -4.0341186523E-001 -1.7570257187E-003 +9.9956989288E-004 +7.6361000538E-005 +2.3692846298E-005 +3.5310745239E-002 +1.6422271729E-003
15017500000.000 -5.5380249023E-001 -4.0353393555E-001 -7.6460838318E-004 +1.7183423042E-003 -6.6272914410E-005 +7.2594732046E-005 +5.3163528442E-002 +8.9607238770E-003
15150000000.000 -5.5371093750E-001 -4.0603637695E-001 +2.1994113922E-004 +1.8920302391E-003 -8.8509172201E-005 -8.9146196842E-006 +3.5249710083E-002 -1.6708374023E-003
15282500000.000 -5.5441284180E-001 -4.0866088867E-001 +1.3140439987E-003 +1.3998150826E-003 -5.5825337768E-005 -4.8354268074E-006 +1.4401435852E-002 +2.3166656494E-002
