!  2-Port S-parameters saved by WinCal
! VAR MeasName=S-Parameters (CALIBRATED_DATA) read from VNA (C)
! VAR MeasDate=10/16/2015 11:04:07 AM
! VAR NAME=M6082_13_13_2_2_20C_10.0mA_-17.5dBm
! VAR FILENAME=M6082_13_13_2_2_20C_10.0mA_-17.5dBm_1_1.S2P
! VAR DATE=10/16/2015 11:04:07 AM
! VAR PHYS_PORTS=2,1
! VAR ObjTypeName=DATASET
! VAR IndexType=Frequency
!
# Hz S RI R 50
45000000.000 +1.0288238525E-001 +1.9531250000E-003 -4.3106079102E-004 +6.4008235931E-003 +7.4291229248E-004 +2.5868415833E-005 +2.8574943542E-002 +3.6239624023E-003
177500000.000 +1.0552978516E-001 -2.2773742676E-003 +2.3310184479E-003 +6.3803195953E-003 -2.0657479763E-004 -1.5836209059E-004 +1.6396522522E-002 +1.6881942749E-002
310000000.000 +1.0681915283E-001 -7.1258544922E-003 +5.1589012146E-003 +4.4023990631E-003 -5.6460499763E-005 -1.2316554785E-004 +2.9359817505E-002 +6.1517715454E-002
442500000.000 +1.0728454590E-001 -1.2264251709E-002 +7.5349807739E-003 +5.9604644775E-005 +8.5823237896E-005 -7.2039663792E-005 +7.3089599609E-002 +2.3380279541E-002
575000000.000 +1.0742950439E-001 -1.7776489258E-002 +5.8417320251E-003 -3.9613246918E-003 -5.6106597185E-005 +5.6922435760E-006 +2.7709960938E-002 +1.1621475220E-002
707500000.000 +1.0723876953E-001 -2.2331237793E-002 +2.5975704193E-003 -6.4477920532E-003 -1.6845762730E-005 -4.0272250772E-005 +2.5463104248E-003 +1.8898010254E-002
840000000.000 +1.0752868652E-001 -2.7729034424E-002 -1.4252662659E-003 -6.6986083984E-003 +4.8125162721E-005 -4.0791928768E-007 -1.9741058350E-002 +2.6075363159E-002
972500000.000 +1.0752487183E-001 -3.2768249512E-002 -4.9126148224E-003 -4.7152042389E-003 +1.3571232557E-005 +1.0294839740E-004 -3.5804748535E-002 +3.5728454590E-002
1105000000.000 +1.0677719116E-001 -3.7998199463E-002 -6.5257549286E-003 -1.1749267578E-003 -8.9714303613E-006 +2.8040260077E-005 -4.6827316284E-002 +3.8625717163E-002
1237500000.000 +1.0631942749E-001 -4.2629241943E-002 -6.1483383179E-003 +2.7129650116E-003 +1.2768432498E-005 -2.8154812753E-005 -5.8591842651E-002 +3.4120559692E-002
1370000000.000 +1.0573959351E-001 -4.7649383545E-002 -3.6172866821E-003 +5.6166648865E-003 +6.4283609390E-005 +1.9960105419E-005 -7.4153900146E-002 +2.7256011963E-002
1502500000.000 +1.0519027710E-001 -5.2455902100E-002 +1.3422966003E-004 +6.7141056061E-003 -2.2020190954E-005 -3.8133934140E-005 -8.8108062744E-002 +2.1755218506E-002
1635000000.000 +1.0516738892E-001 -5.7323455811E-002 +3.7944316864E-003 +5.4662227631E-003 +1.5860423446E-005 +2.7340836823E-005 -9.9147796631E-002 +1.1970520020E-002
1767500000.000 +1.0451507568E-001 -6.2755584717E-002 +6.1924457550E-003 +2.3508071899E-003 +3.9185397327E-006 +1.4700926840E-005 -1.1212921143E-001 +3.1967163086E-003
1900000000.000 +1.0390472412E-001 -6.7104339600E-002 +6.5383911133E-003 -1.5192031860E-003 -7.5306743383E-005 +2.3048371077E-005 -1.1403656006E-001 -3.1166076660E-003
2032500000.000 +1.0314559937E-001 -7.1254730225E-002 +4.4710636139E-003 -4.9123764038E-003 -1.7102807760E-005 -3.1024217606E-005 -1.1396026611E-001 -2.4219512939E-002
2165000000.000 +1.0327529907E-001 -7.6534271240E-002 +9.0813636780E-004 -6.6015720367E-003 +6.9227069616E-005 +1.1908635497E-004 -1.2283325195E-001 -4.2015075684E-002
2297500000.000 +1.0257339478E-001 -8.0783843994E-002 -2.7725696564E-003 -6.0164928436E-003 -5.9830024838E-005 +1.0548159480E-005 -1.2679290771E-001 -5.3459167480E-002
2430000000.000 +1.0171127319E-001 -8.5033416748E-002 -5.4612159729E-003 -3.5054683685E-003 -1.2032687664E-006 -9.0401619673E-005 -1.2701416016E-001 -6.5010070801E-002
2562500000.000 +1.0098266602E-001 -8.9584350586E-002 -6.6714286804E-003 +4.4155120850E-004 -9.1645866632E-005 +9.7282230854E-005 -1.2583923340E-001 -7.0938110352E-002
2695000000.000 +9.8659515381E-002 -9.3364715576E-002 -5.0649642944E-003 +3.8757324219E-003 -1.8220394850E-005 -9.7397714853E-005 -1.1416244507E-001 -7.3154449463E-002
2827500000.000 +9.7293853760E-002 -9.6191406250E-002 -2.1085739136E-003 +6.0527324677E-003 -9.7040086985E-005 -1.5720725060E-005 -9.8930358887E-002 -8.1802368164E-002
2960000000.000 +9.6778869629E-002 -1.0003662109E-001 +1.6255378723E-003 +6.3164234161E-003 -6.7472457886E-005 +4.9147754908E-005 -8.8760375977E-002 -8.6696624756E-002
3092500000.000 +9.4940185547E-002 -1.0528182983E-001 +4.9247741699E-003 +4.3158531189E-003 -1.3671815395E-005 -1.5385448933E-004 -7.0899963379E-002 -8.5716247559E-002
3225000000.000 +9.2048645020E-002 -1.0902786255E-001 +6.3164234161E-003 +1.0180473328E-003 +7.7739357948E-005 -4.9263238907E-005 -5.2249908447E-002 -9.1102600098E-002
3357500000.000 +9.0557098389E-002 -1.1166763306E-001 +5.8667659760E-003 -2.6514530182E-003 -5.6969001889E-005 +4.9117952585E-005 -4.1763305664E-002 -9.1781616211E-002
3490000000.000 +8.9447021484E-002 -1.1676406860E-001 +3.4418106079E-003 -5.3544044495E-003 -3.1825155020E-005 +1.1307746172E-004 -2.8495788574E-002 -8.3286285400E-002
3622500000.000 +8.7413787842E-002 -1.2174987793E-001 -2.1600723267E-004 -6.3271522522E-003 -3.5982578993E-005 -1.0827556252E-005 -1.1486053467E-002 -7.9227447510E-002
3755000000.000 +8.4999084473E-002 -1.2643432617E-001 -3.9422512054E-003 -5.3157806396E-003 +1.0784342885E-004 -1.3008713722E-005 -5.9242248535E-003 -7.3295593262E-002
3887500000.000 +8.3526611328E-002 -1.3051605225E-001 -6.0350894928E-003 -2.2096633911E-003 +4.0851533413E-005 +4.0102750063E-005 +1.9340515137E-003 -5.6287765503E-002
4020000000.000 +8.1588745117E-002 -1.3441467285E-001 -6.3390731812E-003 +1.4932155609E-003 -1.2911856174E-004 +7.6301395893E-005 +1.3187408447E-002 -4.4605255127E-002
4152500000.000 +8.0253601074E-002 -1.3904571533E-001 -4.4260025024E-003 +4.7500133514E-003 +3.7442892790E-005 -7.1886926889E-005 +1.5707015991E-002 -3.2709121704E-002
4285000000.000 +7.8392028809E-002 -1.4353942871E-001 -8.1324577332E-004 +6.4318180084E-003 +7.0624053478E-005 -1.6801059246E-006 +1.7217636108E-002 -1.3711929321E-002
4417500000.000 +7.5828552246E-002 -1.4767456055E-001 +2.7890205383E-003 +5.8813095093E-003 -2.7276575565E-005 +1.0930746794E-004 +2.5813102722E-002 +3.3178329468E-003
4550000000.000 +7.4798583984E-002 -1.5155029297E-001 +5.4149627686E-003 +3.2074451447E-003 -1.0732561350E-005 -6.3847750425E-005 +2.9426574707E-002 +9.4442367554E-003
4682500000.000 +7.3318481445E-002 -1.5666961670E-001 +6.2446594238E-003 -3.0303001404E-004 -1.8501654267E-005 +2.1991319954E-005 +2.6248931885E-002 +2.0316123962E-002
4815000000.000 +7.1083068848E-002 -1.6090393066E-001 +5.1538944244E-003 -3.7024021149E-003 -8.1587582827E-005 -3.6194920540E-005 +3.1793594360E-002 +2.7135848999E-002
4947500000.000 +7.0198059082E-002 -1.6434478760E-001 +2.3241043091E-003 -5.9139728546E-003 +3.7144869566E-005 +1.3498589396E-005 +2.8223991394E-002 +1.9570350647E-002
5080000000.000 +6.9572448730E-002 -1.6893005371E-001 -1.3391971588E-003 -6.2410831451E-003 +4.8801302910E-005 -1.1598691344E-005 +1.4092445374E-002 +2.0256042480E-002
5212500000.000 +6.7741394043E-002 -1.7314147949E-001 -4.6284198761E-003 -4.4689178467E-003 +3.1366944313E-005 +1.7259269953E-005 +9.9821090698E-003 +2.4636268616E-002
5345000000.000 +6.5994262695E-002 -1.7617797852E-001 -6.3951015472E-003 -1.1079311371E-003 -1.9687227905E-005 -2.7948059142E-005 +6.3304901123E-003 +1.6155242920E-002
5477500000.000 +6.6551208496E-002 -1.7943572998E-001 -5.9809684753E-003 +2.7201175690E-003 +4.6499073505E-005 -5.2880495787E-006 -8.3975791931E-003 +1.0087966919E-002
5610000000.000 +6.5307617188E-002 -1.8394470215E-001 -3.4444332123E-003 +5.6080818176E-003 -4.6663917601E-006 +6.8624503911E-006 -1.4204025269E-002 +1.4591693878E-002
5742500000.000 +6.2942504883E-002 -1.8632507324E-001 +3.3807754517E-004 +6.5684318542E-003 -4.9192458391E-005 -5.6607648730E-005 -1.0651111603E-002 +6.3076019287E-003
5875000000.000 +6.1767578125E-002 -1.8772888184E-001 +3.9761066437E-003 +5.4035186768E-003 +5.1109120250E-005 -5.8064237237E-005 -1.9496917725E-002 -3.1929016113E-003
6007500000.000 +6.1500549316E-002 -1.9107818604E-001 +6.1862468719E-003 +2.2163391113E-003 +4.5888125896E-005 +2.5801360607E-005 -2.2929191589E-002 +4.8923492432E-004
6140000000.000 +5.9455871582E-002 -1.9501495361E-001 +6.4864158630E-003 -1.7204284668E-003 -3.0784867704E-006 +2.9681250453E-006 -1.4855384827E-002 -2.1109580994E-003
6272500000.000 +5.5511474609E-002 -1.9747161865E-001 +4.3501853943E-003 -4.9951076508E-003 +6.8228691816E-005 -5.5227428675E-005 -1.5903472900E-002 -1.1159896851E-002
6405000000.000 +5.3352355957E-002 -1.9836425781E-001 +7.8821182251E-004 -6.5391063690E-003 +4.0015205741E-005 +1.7089769244E-005 -1.9335746765E-002 -5.7992935181E-003
6537500000.000 +5.3276062012E-002 -2.0143127441E-001 -3.0167102814E-003 -5.8617591858E-003 -3.8065016270E-005 +1.8186867237E-005 -9.4265937805E-003 -2.4967193604E-003
6670000000.000 +5.0849914551E-002 -2.0688629150E-001 -5.7446956635E-003 -3.1969547272E-003 +3.2968819141E-006 -4.1889026761E-005 -7.7807903290E-003 -6.4392089844E-003
6802500000.000 +4.6035766602E-002 -2.0980834961E-001 -6.5188407898E-003 +6.2489509583E-004 +5.4096803069E-005 +4.1723251343E-005 -1.1470794678E-002 +5.1164627075E-004
6935000000.000 +4.3853759766E-002 -2.1022033691E-001 -5.1310062408E-003 +4.1265487671E-003 -1.5845522285E-005 +1.4107674360E-005 -6.8306922913E-003 +1.0315895081E-002
7067500000.000 +4.3930053711E-002 -2.1355438232E-001 -1.9397735596E-003 +6.2847137451E-003 -8.5998326540E-005 -1.3586133718E-005 -5.1193237305E-003 +1.0697841644E-002
7200000000.000 +4.0298461914E-002 -2.1878814697E-001 +1.8749237061E-003 +6.2694549561E-003 +2.6946887374E-005 -1.8215738237E-005 -1.5470504761E-002 +1.7425537109E-002
7332500000.000 +3.5903930664E-002 -2.2129821777E-001 +5.0985813141E-003 +4.1320323944E-003 -1.7091631889E-005 +7.9739838839E-005 -1.7538070679E-002 +3.0780792236E-002
7465000000.000 +3.4301757813E-002 -2.2311401367E-001 +6.4773559570E-003 +5.9199333191E-004 -6.6775828600E-005 -1.5020370483E-005 -2.0447731018E-002 +3.1102180481E-002
7597500000.000 +3.2379150391E-002 -2.2789001465E-001 +5.7754516602E-003 -3.1359195709E-003 -5.6251883507E-007 -3.3758580685E-005 -3.6756515503E-002 +3.3500671387E-002
7730000000.000 +2.9136657715E-002 -2.3229217529E-001 +3.0441284180E-003 -5.7590007782E-003 -3.3194199204E-005 +3.2447278500E-006 -4.8349380493E-002 +4.3787002563E-002
7862500000.000 +2.6794433594E-002 -2.3518371582E-001 -6.4516067505E-004 -6.4778327942E-003 -7.9870223999E-005 -7.5958669186E-006 -5.3924560547E-002 +4.2259216309E-002
7995000000.000 +2.5856018066E-002 -2.3831939697E-001 -4.1704177856E-003 -5.0158500671E-003 +2.4246051908E-005 -3.6310404539E-005 -7.3425292969E-002 +3.4805297852E-002
8127500000.000 +2.4139404297E-002 -2.4396514893E-001 -6.2325000763E-003 -1.8508434296E-003 -3.3009797335E-005 +6.0312449932E-006 -9.1407775879E-002 +3.9901733398E-002
8260000000.000 +2.1469116211E-002 -2.4716949463E-001 -6.2234401703E-003 +1.9822120667E-003 -3.4095719457E-005 -5.0086528063E-006 -9.5214843750E-002 +3.4431457520E-002
8392500000.000 +2.0919799805E-002 -2.5027465820E-001 -4.0717124939E-003 +5.0463676453E-003 +6.4052641392E-005 -1.7184764147E-005 -1.0989761353E-001 +1.8520355225E-002
8525000000.000 +2.0370483398E-002 -2.5367736816E-001 -5.3024291992E-004 +6.5197944641E-003 -4.2539089918E-005 -1.9565224648E-005 -1.2212753296E-001 +1.5460968018E-002
8657500000.000 +1.9546508789E-002 -2.5708007813E-001 +3.2608509064E-003 +5.7494640350E-003 -2.1174550056E-005 +6.6060572863E-005 -1.1781692505E-001 +4.6234130859E-003
8790000000.000 +1.8173217773E-002 -2.6069641113E-001 +5.8543682098E-003 +2.9795169830E-003 +5.6680291891E-006 -1.9293278456E-005 -1.1964416504E-001 -1.7063140869E-002
8922500000.000 +1.7059326172E-002 -2.6237487793E-001 +6.5898895264E-003 -8.6617469788E-004 +7.7828764915E-005 +5.3320080042E-005 -1.2242889404E-001 -3.0040740967E-002
9055000000.000 +1.5853881836E-002 -2.6502990723E-001 +5.0191879272E-003 -4.3323040009E-003 +1.4724209905E-005 +3.9042904973E-005 -1.1112213135E-001 -4.3495178223E-002
9187500000.000 +1.4785766602E-002 -2.6707458496E-001 +1.6567707062E-003 -6.3688755035E-003 -1.2600794435E-005 +2.0340085030E-006 -1.0050964355E-001 -6.6162109375E-002
9320000000.000 +1.2008666992E-002 -2.6879882813E-001 -2.2556781769E-003 -6.2806606293E-003 +6.3277781010E-005 +1.0322779417E-005 -9.4039916992E-002 -7.8838348389E-002
9452500000.000 +1.0528564453E-002 -2.7075195313E-001 -5.3558349609E-003 -3.9238929749E-003 -1.4223158360E-005 +3.3397227526E-005 -7.4748992920E-002 -8.6318969727E-002
9585000000.000 +8.7585449219E-003 -2.7310180664E-001 -6.6406726837E-003 -2.6583671570E-004 -5.2141025662E-005 +1.5700235963E-005 -5.5255889893E-002 -1.0094451904E-001
9717500000.000 +4.8217773438E-003 -2.7638244629E-001 -5.6011676788E-003 +3.4928321838E-003 +1.0773539543E-005 +3.6779791117E-005 -4.2140960693E-002 -1.0637283325E-001
9850000000.000 +1.8920898438E-003 -2.7705383301E-001 -2.8152465820E-003 +6.0791969299E-003 +9.5330178738E-006 +3.9836391807E-005 -1.9611358643E-002 -1.0209274292E-001
9982500000.000 +1.0986328125E-003 -2.7972412109E-001 +1.1684894562E-003 +6.5200328827E-003 -5.4465606809E-005 -3.2236799598E-005 +5.2108764648E-003 -1.0394668579E-001
10115000000.000 -1.9836425781E-003 -2.8291320801E-001 +4.5585632324E-003 +4.7998428345E-003 -1.8252991140E-005 -1.1497177184E-005 +1.7696380615E-002 -9.9231719971E-002
10247500000.000 -5.8746337891E-003 -2.8427124023E-001 +6.5331459045E-003 +1.4195442200E-003 -3.4173950553E-005 +4.9134716392E-005 +3.5011291504E-002 -8.0390930176E-002
10380000000.000 -7.1411132813E-003 -2.8662109375E-001 +6.2131881714E-003 -2.4514198303E-003 -3.0212104321E-006 +2.7020461857E-005 +5.6701660156E-002 -6.8977355957E-002
10512500000.000 -1.0650634766E-002 -2.8932189941E-001 +3.7040710449E-003 -5.5027008057E-003 +2.4870038033E-005 +1.1379830539E-005 +6.1790466309E-002 -5.7649612427E-002
10645000000.000 -1.4297485352E-002 -2.9043579102E-001 +1.5974044800E-005 -6.6280364990E-003 +1.3075303286E-005 +9.5292925835E-006 +6.5689086914E-002 -2.9800415039E-002
10777500000.000 -1.6174316406E-002 -2.9255676270E-001 -3.6978721619E-003 -5.5489540100E-003 -6.6962093115E-006 +3.0359253287E-005 +7.7754974365E-002 -8.9607238770E-003
10910000000.000 -1.8646240234E-002 -2.9631042480E-001 -6.2544345856E-003 -2.5558471680E-003 +3.9119273424E-005 -5.0328671932E-005 +7.2692871094E-002 +3.5324096680E-003
11042500000.000 -2.4108886719E-002 -2.9959106445E-001 -6.4718723297E-003 +1.3158321381E-003 +6.8329274654E-005 -3.6396086216E-006 +5.9997558594E-002 +2.9951095581E-002
11175000000.000 -2.6824951172E-002 -3.0220031738E-001 -4.6131610870E-003 +4.8294067383E-003 -6.0744583607E-005 +4.8611313105E-005 +5.7975769043E-002 +5.1927566528E-002
11307500000.000 -2.7786254883E-002 -3.0418395996E-001 -1.1527538300E-003 +6.6328048706E-003 +3.6144629121E-006 +2.3096799850E-005 +4.5274734497E-002 +5.7559967041E-002
11440000000.000 -3.1082153320E-002 -3.0845642090E-001 +2.7647018433E-003 +6.1492919922E-003 +4.7989189625E-005 -3.9312988520E-005 +1.9420623779E-002 +7.1285247803E-002
11572500000.000 -3.2760620117E-002 -3.1211853027E-001 +5.7177543640E-003 +3.4892559052E-003 -1.6730278730E-005 +5.9390440583E-005 +5.8326721191E-003 +8.7429046631E-002
11705000000.000 -3.4744262695E-002 -3.1423950195E-001 +6.7031383514E-003 -2.6607513428E-004 -1.1699274182E-005 -1.5708617866E-005 -8.1977844238E-003 +8.1245422363E-002
11837500000.000 -3.7094116211E-002 -3.1701660156E-001 +5.4092407227E-003 -4.0712356567E-003 +5.4193660617E-005 -4.8454850912E-005 -4.1252136230E-002 +7.7106475830E-002
11970000000.000 -3.7750244141E-002 -3.1838989258E-001 +2.2192001343E-003 -6.3610076904E-003 +1.1194497347E-006 +1.2272037566E-005 -5.7884216309E-002 +8.4011077881E-002
12102500000.000 -3.7322998047E-002 -3.2133483887E-001 -1.8348693848E-003 -6.4733028412E-003 +4.7251582146E-005 -1.9151717424E-005 -6.4186096191E-002 +6.5555572510E-002
12235000000.000 -4.2449951172E-002 -3.2186889648E-001 -5.1069259644E-003 -4.3733119965E-003 -2.2144056857E-005 +4.3911859393E-006 -9.1869354248E-002 +4.5711517334E-002
12367500000.000 -4.1549682617E-002 -3.2263183594E-001 -6.5765380859E-003 -7.3933601379E-004 +4.6148896217E-005 +7.0810317993E-005 -1.0448074341E-001 +4.4734954834E-002
12500000000.000 -4.4692993164E-002 -3.2405090332E-001 -5.9807300568E-003 +3.0865669250E-003 -7.0082023740E-006 +1.3765878975E-005 -9.6832275391E-002 +2.2102355957E-002
12632500000.000 -4.7485351563E-002 -3.2736206055E-001 -3.1144618988E-003 +5.8560371399E-003 +4.2375177145E-008 -1.3470998965E-006 -1.1030578613E-001 -1.1707305908E-002
12765000000.000 -4.9423217773E-002 -3.2688903809E-001 +7.0142745972E-004 +6.6421031952E-003 +7.1361660957E-005 -3.1702220440E-006 -1.1796951294E-001 -1.5602111816E-002
12897500000.000 -5.1254272461E-002 -3.2672119141E-001 +4.3103694916E-003 +5.0542354584E-003 -6.5721571445E-005 +8.4530562162E-005 -9.2479705811E-002 -3.3420562744E-002
13030000000.000 -5.2520751953E-002 -3.2917785645E-001 +6.3557624817E-003 +1.8088817596E-003 -1.9703060389E-005 -5.8025121689E-005 -9.1407775879E-002 -7.0442199707E-002
13162500000.000 -5.4977416992E-002 -3.3145141602E-001 +6.3192844391E-003 -2.1033287048E-003 +2.7726404369E-005 +1.2719072402E-005 -9.4318389893E-002 -7.1292877197E-002
13295000000.000 -5.7678222656E-002 -3.3288574219E-001 +4.0233135223E-003 -5.2716732025E-003 -1.1216849089E-005 +3.5755336285E-005 -6.2515258789E-002 -7.7911376953E-002
13427500000.000 -6.1172485352E-002 -3.3213806152E-001 +3.8456916809E-004 -6.7033767700E-003 -1.6093254089E-005 -5.6372955441E-005 -4.8377990723E-002 -1.0541534424E-001
13560000000.000 -6.0729980469E-002 -3.3241271973E-001 -3.4060478210E-003 -5.6076049805E-003 +4.0877610445E-005 +4.0076673031E-005 -4.9465179443E-002 -1.0220718384E-001
13692500000.000 -6.2072753906E-002 -3.3616638184E-001 -5.9170722961E-003 -2.7718544006E-003 +3.6492943764E-005 +8.9976936579E-005 -1.9458770752E-002 -8.9366912842E-002
13825000000.000 -6.7001342773E-002 -3.3734130859E-001 -6.4682960510E-003 +1.0406970978E-003 -4.1171908379E-005 -3.4511089325E-005 +3.6315917969E-003 -1.0442352295E-001
13957500000.000 -7.0098876953E-002 -3.3612060547E-001 -4.8196315765E-003 +4.5738220215E-003 +4.0654093027E-005 -8.2112848759E-005 -1.3694763184E-003 -9.7679138184E-002
14090000000.000 -7.0938110352E-002 -3.3749389648E-001 -1.3785362244E-003 +6.5331459045E-003 -2.8021633625E-005 -7.3786824942E-005 +2.0935058594E-002 -7.1754455566E-002
14222500000.000 -7.3043823242E-002 -3.4150695801E-001 +2.6082992554E-003 +6.0956478119E-003 -1.2150034308E-005 +2.5671906769E-005 +4.3903350830E-002 -7.5515747070E-002
14355000000.000 -7.7514648438E-002 -3.4225463867E-001 +5.4464340210E-003 +3.6365985870E-003 -6.6507607698E-005 -4.4401735067E-005 +3.3901214600E-002 -6.8744659424E-002
14487500000.000 -7.9879760742E-002 -3.4291076660E-001 +6.5784454346E-003 -1.3828277588E-004 +5.4411590099E-005 +1.0600313544E-004 +4.0958404541E-002 -3.5650253296E-002
14620000000.000 -8.0291748047E-002 -3.4637451172E-001 +5.2511692047E-003 -3.6907196045E-003 -7.5213611126E-005 -1.6476958990E-005 +6.1075210571E-002 -3.2531738281E-002
14752500000.000 -8.4442138672E-002 -3.5124206543E-001 +2.1655559540E-003 -6.1964988708E-003 -3.6945566535E-005 +9.9148601294E-006 +4.4099807739E-002 -3.2165527344E-002
14885000000.000 -8.6639404297E-002 -3.5229492188E-001 -1.5115737915E-003 -6.3629150391E-003 +2.2362917662E-005 -7.2546303272E-005 +3.7551879883E-002 +1.1100769043E-003
15017500000.000 -8.5754394531E-002 -3.5313415527E-001 -4.8036575317E-003 -4.1501522064E-003 +5.2476301789E-005 -3.1888484955E-005 +5.3903579712E-002 +7.6007843018E-003
15150000000.000 -8.5922241211E-002 -3.5876464844E-001 -6.2909126282E-003 -8.2230567932E-004 -6.6325068474E-005 +1.9192695618E-005 +3.5177230835E-002 -8.8119506836E-004
15282500000.000 -8.7173461914E-002 -3.6189270020E-001 -5.6722164154E-003 +2.7868747711E-003 +1.5821307898E-004 -2.9988586903E-005 +1.5897750854E-002 +2.4939537048E-002
