!  2-Port S-parameters saved by WinCal
! VAR MeasName=S-Parameters (CALIBRATED_DATA) read from VNA (C)
! VAR MeasDate=10/16/2015 3:44:15 PM
! VAR NAME=M6082_10_17_2_2_20C_1.8mA_-17.5dBm
! VAR FILENAME=M6082_10_17_2_2_20C_1.8mA_-17.5dBm.S2P
! VAR DATE=10/16/2015 3:44:15 PM
! VAR PHYS_PORTS=2,1
! VAR ObjTypeName=DATASET
! VAR IndexType=Frequency
!
# Hz S RI R 50
45000000.000 +8.2443237305E-002 -5.2375793457E-003 -2.8769969940E-003 +7.1473121643E-003 -3.4272670746E-004 +5.2481889725E-004 +2.7628898621E-002 +3.9205551147E-003
177500000.000 +8.6368560791E-002 -2.5672912598E-002 +2.6130676270E-003 +5.6152343750E-003 -9.8578631878E-005 -4.4599175453E-005 +1.5941619873E-002 +1.7157554626E-002
310000000.000 +8.7051391602E-002 -4.4967651367E-002 +4.9080848694E-003 +3.2265186310E-003 -1.9686296582E-005 -3.8988888264E-005 +2.9170989990E-002 +6.1658859253E-002
442500000.000 +7.9429626465E-002 -6.1035156250E-002 +6.6657066345E-003 -5.6195259094E-004 +1.1499971151E-005 -1.0612420738E-006 +7.2410583496E-002 +2.2411346436E-002
575000000.000 +7.2036743164E-002 -7.5622558594E-002 +4.6956539154E-003 -4.2793750763E-003 +1.1775642633E-005 +9.3996524811E-005 +2.7011871338E-002 +1.1188507080E-002
707500000.000 +6.7314147949E-002 -9.1564178467E-002 +1.3706684113E-003 -6.0753822327E-003 -6.4436346292E-005 -3.8724392653E-005 +1.9245147705E-003 +1.8582344055E-002
840000000.000 +6.1817169189E-002 -1.0633468628E-001 -2.3427009583E-003 -5.7289600372E-003 +5.2357092500E-005 +4.6078115702E-005 -1.9966125488E-002 +2.6001930237E-002
972500000.000 +5.9078216553E-002 -1.2327957153E-001 -5.1751136780E-003 -3.2374858856E-003 +3.9823353291E-006 +2.3511238396E-005 -3.5795211792E-002 +3.5352706909E-002
1105000000.000 +5.2345275879E-002 -1.3742828369E-001 -6.1271190643E-003 +4.3392181396E-004 -4.2006373405E-005 -1.1420249939E-004 -4.6907424927E-002 +3.8188934326E-002
1237500000.000 +4.7500610352E-002 -1.5338134766E-001 -4.7109127045E-003 +3.8371086121E-003 +1.8828548491E-005 +2.2118911147E-005 -5.8574676514E-002 +3.3823013306E-002
1370000000.000 +4.1969299316E-002 -1.6961669922E-001 -1.5616416931E-003 +5.6989192963E-003 -2.2271648049E-005 +3.9106234908E-005 -7.3963165283E-002 +2.6931762695E-002
1502500000.000 +3.3409118652E-002 -1.7951202393E-001 +1.9690990448E-003 +5.7907104492E-003 +9.2610716820E-006 +3.6217272282E-005 -8.7997436523E-002 +2.1194458008E-002
1635000000.000 +2.8503417969E-002 -1.9586944580E-001 +4.9977302551E-003 +3.4220218658E-003 +4.1237100959E-005 -1.7236918211E-005 -9.8991394043E-002 +1.1676788330E-002
1767500000.000 +2.1156311035E-002 -2.1060180664E-001 +6.0284137726E-003 -1.3613700867E-004 -9.7788870335E-007 +4.0881335735E-005 -1.1178970337E-001 +2.8610229492E-003
1900000000.000 +1.1558532715E-002 -2.1707916260E-001 +5.2998065948E-003 -3.6211013794E-003 -3.2769516110E-005 -1.4463439584E-005 -1.1394119263E-001 -3.4675598145E-003
2032500000.000 +2.4566650391E-003 -2.2788238525E-001 +2.3677349091E-003 -6.0367584229E-003 +4.5385211706E-005 -9.5847994089E-005 -1.1361694336E-001 -2.4406433105E-002
2165000000.000 -4.9819946289E-003 -2.4049377441E-001 -1.4095306396E-003 -6.2637329102E-003 +5.9749931097E-005 -1.3632699847E-005 -1.2250518799E-001 -4.2263031006E-002
2297500000.000 -1.5853881836E-002 -2.5019836426E-001 -4.4708251953E-003 -4.4975280762E-003 -1.0412186384E-004 -2.2351741791E-006 -1.2655639648E-001 -5.3489685059E-002
2430000000.000 -2.4734497070E-002 -2.5971984863E-001 -6.3257217407E-003 -1.2516975403E-003 +3.4600496292E-005 -2.1614134312E-004 -1.2644195557E-001 -6.5063476563E-002
2562500000.000 -3.2226562500E-002 -2.7111816406E-001 -5.9709548950E-003 +2.5773048401E-003 +5.8341771364E-005 -8.2921236753E-005 -1.2508392334E-001 -7.1067810059E-002
2695000000.000 -4.2709350586E-002 -2.8004455566E-001 -3.4310817719E-003 +5.3157806396E-003 -1.3411045074E-005 +8.2399696112E-005 -1.1371231079E-001 -7.3581695557E-002
2827500000.000 -5.2246093750E-002 -2.8778076172E-001 +1.8024444580E-004 +6.3259601593E-003 +3.7588179111E-006 -9.3519687653E-005 -9.8609924316E-002 -8.1680297852E-002
2960000000.000 -5.9158325195E-002 -2.9690551758E-001 +4.0149688721E-003 +5.1820278168E-003 +1.2188032269E-004 +4.9665570259E-005 -8.7924957275E-002 -8.6791992188E-002
3092500000.000 -6.8298339844E-002 -3.0738830566E-001 +6.1564445496E-003 +1.9507408142E-003 -4.4159591198E-005 +5.4193660617E-005 -7.0446014404E-002 -8.6193084717E-002
3225000000.000 -7.9574584961E-002 -3.1521606445E-001 +6.0737133026E-003 -1.9147396088E-003 -1.0724365711E-004 -7.0549547672E-005 -5.1990509033E-002 -9.1110229492E-002
3357500000.000 -8.8882446289E-002 -3.2208251953E-001 +3.9896965027E-003 -5.1090717316E-003 +1.1581927538E-005 +2.1046958864E-005 -4.1389465332E-002 -9.1636657715E-002
3490000000.000 -9.7503662109E-002 -3.3186340332E-001 +1.4472007751E-004 -6.4315795898E-003 -3.1892210245E-005 +1.6162171960E-005 -2.7961730957E-002 -8.3255767822E-002
3622500000.000 -1.0771179199E-001 -3.3982849121E-001 -3.4365653992E-003 -5.3851604462E-003 +4.3384730816E-005 -1.7444044352E-004 -1.1398315430E-002 -7.9059600830E-002
3755000000.000 -1.1845397949E-001 -3.4693908691E-001 -5.9535503387E-003 -2.6226043701E-003 -8.2697719336E-005 -2.7194619179E-005 -5.8593750000E-003 -7.2822570801E-002
3887500000.000 -1.2724304199E-001 -3.5409545898E-001 -6.3917636871E-003 +1.5981197357E-003 +5.9096142650E-005 +4.6756118536E-005 +2.1915435791E-003 -5.5938720703E-002
4020000000.000 -1.3621520996E-001 -3.6003112793E-001 -4.3542385101E-003 +4.8494338989E-003 -2.4214386940E-005 -9.6946954727E-005 +1.3378143311E-002 -4.4494628906E-002
4152500000.000 -1.4457702637E-001 -3.6685180664E-001 -7.7295303345E-004 +6.6349506378E-003 -1.4193356037E-006 +3.9864331484E-005 +1.5253067017E-002 -3.2455444336E-002
4285000000.000 -1.5357971191E-001 -3.7387084961E-001 +3.3733844757E-003 +5.7878494263E-003 +6.0183927417E-005 +3.0327588320E-005 +1.7061233521E-002 -1.2981414795E-002
4417500000.000 -1.6299438477E-001 -3.8047790527E-001 +6.4306259155E-003 +2.5346279144E-003 -4.3796375394E-005 -7.6554715633E-006 +2.5698661804E-002 +3.6087036133E-003
4550000000.000 -1.7053222656E-001 -3.8574218750E-001 +6.6075325012E-003 -1.4467239380E-003 +1.3455748558E-005 -6.8522989750E-005 +2.8771400452E-002 +9.5186233521E-003
4682500000.000 -1.7793273926E-001 -3.9511108398E-001 +4.0154457092E-003 -5.6281089783E-003 +9.3802809715E-005 -1.4971941710E-005 +2.5535583496E-002 +2.0707130432E-002
4815000000.000 -1.8835449219E-001 -4.0599060059E-001 -8.4304809570E-004 -6.7832469940E-003 +5.9790909290E-006 +7.6115131378E-005 +3.1124114990E-002 +2.7491569519E-002
4947500000.000 -1.9689941406E-001 -4.1113281250E-001 -4.9200057983E-003 -5.1555633545E-003 +2.4486333132E-005 -4.1583552957E-005 +2.7536392212E-002 +1.9806861877E-002
5080000000.000 -2.0648193359E-001 -4.1899108887E-001 -7.0409774780E-003 -7.6150894165E-004 +4.4507905841E-005 -4.0037557483E-005 +1.3243675232E-002 +2.0564079285E-002
5212500000.000 -2.2036743164E-001 -4.2774963379E-001 -5.0680637360E-003 +4.1995048523E-003 +8.0079771578E-006 +1.2981705368E-005 +9.1056823730E-003 +2.4730682373E-002
5345000000.000 -2.2972106934E-001 -4.3087768555E-001 -1.7290115356E-003 +6.6361427307E-003 -3.7793070078E-005 -2.6311725378E-005 +5.3596496582E-003 +1.6157150269E-002
5477500000.000 -2.3716735840E-001 -4.3357849121E-001 +2.6106834412E-003 +6.4382553101E-003 -1.5783123672E-005 +1.0679475963E-005 -9.2625617981E-003 +1.0257244110E-002
5610000000.000 -2.4848937988E-001 -4.3782043457E-001 +5.9244632721E-003 +2.9454231262E-003 +3.0519440770E-005 +3.5736709833E-005 -1.4848232269E-002 +1.4433860779E-002
5742500000.000 -2.5878906250E-001 -4.3998718262E-001 +6.4218044281E-003 -1.2042522430E-003 -5.0511211157E-005 +1.7713755369E-005 -1.1589527130E-002 +5.8326721191E-003
5875000000.000 -2.6596069336E-001 -4.4010925293E-001 +4.9664974213E-003 -4.7323703766E-003 +2.2386200726E-005 -2.8871931136E-005 -2.0384788513E-002 -3.3950805664E-003
6007500000.000 -2.7532958984E-001 -4.4090270996E-001 +8.1634521484E-004 -6.5662860870E-003 -1.2142583728E-005 +3.0549243093E-005 -2.3259162903E-002 +4.0054321289E-005
6140000000.000 -2.8594970703E-001 -4.4233703613E-001 -3.3669471741E-003 -5.1281452179E-003 +3.6936253309E-005 +3.6038458347E-005 -1.5417098999E-002 -2.9082298279E-003
6272500000.000 -2.9446411133E-001 -4.4369506836E-001 -5.9411525726E-003 -2.7754306793E-003 +1.5352852643E-005 -3.2829120755E-006 -1.6438484192E-002 -1.1847496033E-002
6405000000.000 -3.0393981934E-001 -4.4178771973E-001 -6.3428878784E-003 +1.2404918671E-003 +3.0877068639E-005 +4.5910477638E-005 -1.9302368164E-002 -6.3362121582E-003
6537500000.000 -3.1239318848E-001 -4.4116210938E-001 -3.7522315979E-003 +4.5666694641E-003 -4.1104853153E-005 +3.9059668779E-006 -9.2129707336E-003 -3.4356117249E-003
6670000000.000 -3.1938171387E-001 -4.4425964355E-001 -7.0047378540E-004 +6.2174797058E-003 +2.6714056730E-005 -6.1959028244E-005 -7.8568458557E-003 -7.4558258057E-003
6802500000.000 -3.2968139648E-001 -4.4398498535E-001 +2.9380321503E-003 +5.5356025696E-003 +3.4632161260E-005 +7.3406845331E-006 -1.1365413666E-002 +1.2922286987E-004
6935000000.000 -3.3935546875E-001 -4.3910217285E-001 +5.1341056824E-003 +2.0020008087E-003 +1.1650379747E-005 -1.3317912817E-006 -6.3486099243E-003 +9.8147392273E-003
7067500000.000 -3.4382629395E-001 -4.3988037109E-001 +5.3977966309E-003 -1.2896060944E-003 -5.0198286772E-006 -2.1759420633E-005 -4.6696662903E-003 +1.0123729706E-002
7200000000.000 -3.4997558594E-001 -4.4331359863E-001 +4.2557716370E-003 -4.1346549988E-003 +6.4332038164E-005 -4.1127204895E-006 -1.5113830566E-002 +1.7020225525E-002
7332500000.000 -3.6013793945E-001 -4.4088745117E-001 +7.6866149902E-004 -5.4991245270E-003 -1.6044825315E-005 +7.2997063398E-005 -1.7137527466E-002 +3.0761718750E-002
7465000000.000 -3.6676025391E-001 -4.3852233887E-001 -2.5188922882E-003 -4.5473575592E-003 -1.0289950296E-006 -2.1590385586E-006 -1.9706726074E-002 +3.1255722046E-002
7597500000.000 -3.7083435059E-001 -4.4102478027E-001 -4.9471855164E-003 -2.9051303864E-003 +2.6833266020E-005 -5.8993697166E-005 -3.6319732666E-002 +3.3227920532E-002
7730000000.000 -3.7814331055E-001 -4.4201660156E-001 -5.3198337555E-003 +5.6982040405E-004 -4.8767775297E-005 +9.1593712568E-005 -4.8231124878E-002 +4.3643951416E-002
7862500000.000 -3.8542175293E-001 -4.3945312500E-001 -3.3931732178E-003 +3.2807588577E-003 -3.5893172026E-006 -2.2388063371E-005 -5.3625106812E-002 +4.2705535889E-002
7995000000.000 -3.8952636719E-001 -4.3971252441E-001 -1.1072158813E-003 +4.7600269318E-003 +8.3185732365E-005 -7.6595693827E-005 -7.2910308838E-002 +3.5125732422E-002
8127500000.000 -3.9366149902E-001 -4.4241333008E-001 +1.6732215881E-003 +4.4958591461E-003 -2.6868656278E-006 -1.0938849300E-005 -9.1472625732E-002 +3.9699554443E-002
8260000000.000 -4.0066528320E-001 -4.4119262695E-001 +3.7080049515E-003 +2.3657083511E-003 +1.9464641809E-006 -3.4196302295E-005 -9.5626831055E-002 +3.4454345703E-002
8392500000.000 -4.0402221680E-001 -4.4059753418E-001 +4.3742656708E-003 -1.4519691467E-004 -1.2036878616E-005 -4.3725594878E-007 -1.0978317261E-001 +1.8501281738E-002
8525000000.000 -4.0682983398E-001 -4.4195556641E-001 +3.6437511444E-003 -2.4968385696E-003 +1.2718606740E-005 -1.1126510799E-005 -1.2183761597E-001 +1.4930725098E-002
8657500000.000 -4.1081237793E-001 -4.4236755371E-001 +1.3847351074E-003 -3.9105415344E-003 -1.7177313566E-005 +6.7856162786E-005 -1.1785507202E-001 +4.1198730469E-003
8790000000.000 -4.1622924805E-001 -4.4200134277E-001 -1.0662078857E-003 -3.6853551865E-003 -1.5962868929E-005 -7.4703246355E-005 -1.1956024170E-001 -1.7398834229E-002
8922500000.000 -4.1940307617E-001 -4.4044494629E-001 -2.9351711273E-003 -2.5997161865E-003 -5.6067947298E-006 -4.1183084249E-006 -1.2230300903E-001 -3.0551910400E-002
9055000000.000 -4.2254638672E-001 -4.4094848633E-001 -3.6797523499E-003 -3.3795833588E-004 -8.9477747679E-005 +4.2565166950E-005 -1.1093139648E-001 -4.4181823730E-002
9187500000.000 -4.2658996582E-001 -4.4049072266E-001 -3.0453205109E-003 +1.7609596252E-003 -3.2029347494E-006 -8.2899350673E-007 -1.0019683838E-001 -6.6787719727E-002
9320000000.000 -4.3347167969E-001 -4.3797302246E-001 -1.5609264374E-003 +3.0865669250E-003 +2.5490298867E-005 +1.8097460270E-005 -9.3727111816E-002 -7.9597473145E-002
9452500000.000 -4.3693542480E-001 -4.3626403809E-001 +4.9161911011E-004 +3.3884048462E-003 +7.0240348577E-006 +1.8347986042E-005 -7.4214935303E-002 -8.6708068848E-002
9585000000.000 -4.4068908691E-001 -4.3519592285E-001 +2.0768642426E-003 +2.3550987244E-003 -8.2306563854E-005 -4.9900263548E-005 -5.4183959961E-002 -1.0111618042E-001
9717500000.000 -4.4673156738E-001 -4.3556213379E-001 +3.1148195267E-003 +7.4172019958E-004 +8.0209225416E-005 +2.1215528250E-005 -4.1126251221E-002 -1.0705566406E-001
9850000000.000 -4.5320129395E-001 -4.3133544922E-001 +2.9045343399E-003 -1.0796785355E-003 +1.6756355762E-005 +2.6959925890E-005 -1.9096374512E-002 -1.0223007202E-001
9982500000.000 -4.5507812500E-001 -4.3090820313E-001 +1.6406774521E-003 -2.4234056473E-003 -1.1375546455E-004 -1.5154480934E-005 +6.5231323242E-003 -1.0314559937E-001
10115000000.000 -4.5916748047E-001 -4.3106079102E-001 +7.4148178101E-005 -2.8073787689E-003 +6.1027705669E-005 -6.9603323936E-005 +1.9401550293E-002 -9.9098205566E-002
10247500000.000 -4.6568298340E-001 -4.2993164063E-001 -1.5871524811E-003 -2.3287534714E-003 -5.3979456425E-006 +6.3806772232E-005 +3.5678863525E-002 -8.0112457275E-002
10380000000.000 -4.6983337402E-001 -4.2686462402E-001 -2.3615360260E-003 -9.2160701752E-004 -1.5237834305E-005 +1.2530013919E-005 +5.7056427002E-002 -6.7371368408E-002
10512500000.000 -4.7280883789E-001 -4.2567443848E-001 -2.3955106735E-003 +5.0747394562E-004 +1.5437602997E-005 -8.3994120359E-005 +6.2698364258E-002 -5.5847167969E-002
10645000000.000 -4.7644042969E-001 -4.2564392090E-001 -1.7172098160E-003 +1.7651319504E-003 +3.9706006646E-005 +5.0291419029E-006 +6.6143035889E-002 -2.9243469238E-002
10777500000.000 -4.8176574707E-001 -4.2488098145E-001 -3.5250186920E-004 +2.2813081741E-003 +3.6216806620E-006 +4.4370535761E-006 +7.7030181885E-002 -7.6637268066E-003
10910000000.000 -4.8638916016E-001 -4.2303466797E-001 +9.3466043472E-004 +1.9395351410E-003 +7.9637393355E-006 +2.5270506740E-005 +7.2338104248E-002 +5.8021545410E-003
11042500000.000 -4.9043273926E-001 -4.2192077637E-001 +1.7786026001E-003 +1.0160207748E-003 +3.4702941775E-005 +7.2307884693E-006 +5.9593200684E-002 +3.1351089478E-002
11175000000.000 -4.9348449707E-001 -4.2294311523E-001 +2.0051002502E-003 -5.0902366638E-005 +8.9881941676E-006 +2.7143396437E-005 +5.6314468384E-002 +5.2450180054E-002
11307500000.000 -4.9653625488E-001 -4.2274475098E-001 +1.4996528625E-003 -1.1423826218E-003 -4.4569373131E-005 -3.8510188460E-005 +4.3285369873E-002 +5.8612823486E-002
11440000000.000 -5.0088500977E-001 -4.2205810547E-001 +6.3335895538E-004 -1.6680955887E-003 +4.0141865611E-005 -4.5171007514E-005 +1.8051147461E-002 +7.2326660156E-002
11572500000.000 -5.0225830078E-001 -4.2333984375E-001 -4.5436620712E-004 -1.7621517181E-003 +3.1024217606E-005 +9.2327594757E-005 +4.1351318359E-003 +8.7318420410E-002
11705000000.000 -5.0466918945E-001 -4.2361450195E-001 -1.2064576149E-003 -1.1174678802E-003 -4.3909996748E-005 +7.1004033089E-006 -1.0482788086E-002 +8.0898284912E-002
11837500000.000 -5.0811767578E-001 -4.2373657227E-001 -1.5946030617E-003 -2.3049116135E-004 -1.6524456441E-005 +1.5143305063E-005 -4.3453216553E-002 +7.6580047607E-002
11970000000.000 -5.0961303711E-001 -4.2169189453E-001 -1.4413595200E-003 +6.5898895264E-004 +2.0131468773E-005 +4.6875327826E-005 -5.9417724609E-002 +8.2984924316E-002
12102500000.000 -5.0942993164E-001 -4.2236328125E-001 -8.4775686264E-004 +1.4230608940E-003 -3.3982098103E-005 -6.7189335823E-005 -6.5616607666E-002 +6.4167022705E-002
12235000000.000 -5.1446533203E-001 -4.2089843750E-001 -7.4326992035E-005 +1.4889836311E-003 +4.7657638788E-005 -6.9968402386E-005 -9.2967987061E-002 +4.3750762939E-002
12367500000.000 -5.1544189453E-001 -4.1909790039E-001 +9.7483396530E-004 +1.1370778084E-003 +5.4001808167E-005 -3.9566308260E-005 -1.0556793213E-001 +4.2358398438E-002
12500000000.000 -5.1901245117E-001 -4.1638183594E-001 +1.3644099236E-003 +5.3715705872E-004 +2.5170855224E-005 +2.4951994419E-005 -9.7297668457E-002 +2.0175933838E-002
12632500000.000 -5.2023315430E-001 -4.1665649414E-001 +1.3635158539E-003 -2.9951334000E-004 -5.0650909543E-005 -4.9995258451E-005 -1.0907745361E-001 -1.3778686523E-002
12765000000.000 -5.2313232422E-001 -4.1513061523E-001 +1.0161995888E-003 -1.0525584221E-003 -1.4956109226E-005 +2.6309862733E-005 -1.1713790894E-001 -1.8207550049E-002
12897500000.000 -5.2566528320E-001 -4.1262817383E-001 +1.5109777451E-004 -1.2997388840E-003 -3.2683834434E-005 +5.3364783525E-006 -9.2205047607E-002 -3.4801483154E-002
13030000000.000 -5.2728271484E-001 -4.1079711914E-001 -5.6385993958E-004 -1.1448860168E-003 -3.4537166357E-005 -2.5909394026E-005 -8.9130401611E-002 -7.1109771729E-002
13162500000.000 -5.2938842773E-001 -4.1076660156E-001 -1.1178851128E-003 -6.0230493546E-004 -1.5355646610E-005 -3.5466626287E-005 -9.1182708740E-002 -7.2807312012E-002
13295000000.000 -5.3176879883E-001 -4.1024780273E-001 -1.2547969818E-003 +6.6399574280E-005 +4.8428773880E-006 +6.9282948971E-005 -6.0871124268E-002 -7.8674316406E-002
13427500000.000 -5.3475952148E-001 -4.0704345703E-001 -8.0949068069E-004 +7.0551037788E-004 -4.0248036385E-005 -2.6157125831E-005 -4.6596527100E-002 -1.0394287109E-001
13560000000.000 -5.3482055664E-001 -4.0560913086E-001 -4.2426586151E-004 +1.0864138603E-003 +8.8173896074E-005 +2.6937574148E-005 -4.6169281006E-002 -1.0120010376E-001
13692500000.000 -5.3686523438E-001 -4.0667724609E-001 +1.9329786301E-004 +1.0505318642E-003 +4.5672059059E-005 +1.4927983284E-004 -1.7684936523E-002 -8.9069366455E-002
13825000000.000 -5.4043579102E-001 -4.0521240234E-001 +7.0250034332E-004 +7.0396065712E-004 -4.6841800213E-005 +4.7475099564E-005 +4.2800903320E-003 -1.0283279419E-001
13957500000.000 -5.4306030273E-001 -4.0164184570E-001 +1.0219812393E-003 +5.5074691772E-005 +5.7825818658E-005 -1.8142163754E-006 +2.6702880859E-005 -9.5268249512E-002
14090000000.000 -5.4379272461E-001 -4.0109252930E-001 +8.7526440620E-004 -4.2515993118E-004 +7.5027346611E-005 +1.2233108282E-004 +2.2136688232E-002 -7.0030212402E-002
14222500000.000 -5.4455566406E-001 -4.0289306641E-001 +4.7266483307E-004 -7.1266293526E-004 -3.1795352697E-005 +5.2709132433E-005 +4.3857574463E-002 -7.3940277100E-002
14355000000.000 -5.4949951172E-001 -4.0164184570E-001 +3.5673379898E-005 -8.8351964951E-004 +5.9831887484E-005 -7.8551471233E-005 +3.3058166504E-002 -6.6879272461E-002
14487500000.000 -5.5105590820E-001 -4.0130615234E-001 -5.4720044136E-004 -6.2546133995E-004 +2.1647661924E-005 +2.4599023163E-005 +4.0006637573E-002 -3.3702850342E-002
14620000000.000 -5.5081176758E-001 -4.0155029297E-001 -7.6410174370E-004 -4.1201710701E-004 -6.6105276346E-005 +4.6562403440E-005 +6.0905456543E-002 -3.1356811523E-002
14752500000.000 -5.5316162109E-001 -4.0539550781E-001 -7.7846646309E-004 +9.1165304184E-005 -4.0706247091E-005 -7.5459480286E-005 +4.3159484863E-002 -3.2377243042E-002
14885000000.000 -5.5587768555E-001 -4.0670776367E-001 -7.3534250259E-004 +5.4681301117E-004 +8.3990395069E-005 -4.4338405132E-005 +3.5202026367E-002 +1.6307830811E-003
15017500000.000 -5.5636596680E-001 -4.0652465820E-001 -2.2339820862E-004 +8.0269575119E-004 -8.0343335867E-005 +4.6424567699E-005 +5.2999496460E-002 +8.8825225830E-003
15150000000.000 -5.5630493164E-001 -4.0936279297E-001 +2.8684735298E-004 +7.1063637733E-004 -4.2622908950E-005 -5.6080520153E-005 +3.5160064697E-002 -1.7108917236E-003
15282500000.000 -5.5700683594E-001 -4.1186523438E-001 +6.1747431755E-004 +4.8100948334E-004 -1.6481615603E-005 -2.5784596801E-005 +1.4433860779E-002 +2.3196220398E-002
