!  2-Port S-parameters saved by WinCal
! VAR MeasName=S-Parameters (CALIBRATED_DATA) read from VNA (C)
! VAR MeasDate=10/16/2015 1:51:05 PM
! VAR NAME=M6082_13_17_2_2_20C_6.4mA_-17.5dBm
! VAR FILENAME=M6082_13_17_2_2_20C_6.4mA_-17.5dBm.S2P
! VAR DATE=10/16/2015 1:51:05 PM
! VAR PHYS_PORTS=2,1
! VAR ObjTypeName=DATASET
! VAR IndexType=Frequency
!
# Hz S RI R 50
45000000.000 -3.9098739624E-002 -1.7356872559E-004 -4.4488906860E-004 +8.6288452148E-003 +1.1308789253E-003 -4.6694278717E-004 +2.8381347656E-002 +2.0141601563E-003
177500000.000 -3.8928985596E-002 -6.6032409668E-003 +2.5272369385E-003 +6.8817138672E-003 -2.1976232529E-004 +3.2079219818E-004 +1.6204833984E-002 +1.6917228699E-002
310000000.000 -3.8688659668E-002 -1.2325286865E-002 +5.3923130035E-003 +4.2426586151E-003 -1.2077018619E-004 -8.5748732090E-005 +2.9083251953E-002 +6.1548233032E-002
442500000.000 -3.8705825806E-002 -1.8447875977E-002 +7.8821182251E-003 -5.2452087402E-005 +7.1164220572E-005 -3.8541853428E-005 +7.2662353516E-002 +2.2693634033E-002
575000000.000 -3.9165496826E-002 -2.4896621704E-002 +6.0410499573E-003 -4.3184757233E-003 -4.8220157623E-005 +8.3070248365E-005 +2.7184486389E-002 +1.1399269104E-002
707500000.000 -3.9833068848E-002 -3.0584335327E-002 +2.6144981384E-003 -6.7083835602E-003 -2.6693567634E-005 +4.2147934437E-005 +2.0618438721E-003 +1.8736839294E-002
840000000.000 -4.0023803711E-002 -3.6815643311E-002 -1.6698837280E-003 -6.8585872650E-003 +5.4519623518E-006 +3.1320378184E-005 -1.9840240479E-002 +2.6101112366E-002
972500000.000 -4.0140151978E-002 -4.2711257935E-002 -5.3381919861E-003 -4.7743320465E-003 -1.8313527107E-005 +6.1586499214E-005 -3.5757064819E-002 +3.5453796387E-002
1105000000.000 -4.1126251221E-002 -4.8978805542E-002 -6.9134235382E-003 -1.0290145874E-003 -7.7981501818E-005 -9.8869204521E-006 -4.6897888184E-002 +3.8274765015E-002
1237500000.000 -4.1978836060E-002 -5.4674148560E-002 -6.2012672424E-003 +2.9830932617E-003 +5.3321942687E-005 -3.7757679820E-005 -5.8511734009E-002 +3.3931732178E-002
1370000000.000 -4.2985916138E-002 -6.0462951660E-002 -3.5164356232E-003 +5.9320926666E-003 -3.6543235183E-005 +2.5033950806E-005 -7.4047088623E-002 +2.7072906494E-002
1502500000.000 -4.3811798096E-002 -6.6177368164E-002 +5.0854682922E-004 +6.7989826202E-003 +5.2945688367E-005 -3.0754134059E-005 -8.7970733643E-002 +2.1327972412E-002
1635000000.000 -4.4162750244E-002 -7.2357177734E-002 +4.2505264282E-003 +5.4810047150E-003 +1.5234574676E-005 +9.4594433904E-006 -9.9136352539E-002 +1.1737823486E-002
1767500000.000 -4.5513153076E-002 -7.8361511230E-002 +6.6199302673E-003 +2.1071434021E-003 +4.5490451157E-006 +6.4573250711E-006 -1.1199569702E-001 +3.0250549316E-003
1900000000.000 -4.6272277832E-002 -8.3431243896E-002 +6.6757202148E-003 -1.9886493683E-003 -3.1970441341E-005 +9.4976276159E-006 -1.1384582520E-001 -3.4217834473E-003
2032500000.000 -4.7431945801E-002 -8.8729858398E-002 +4.3113231659E-003 -5.1543712616E-003 +4.6949833632E-005 -9.8768621683E-005 -1.1382293701E-001 -2.4337768555E-002
2165000000.000 -4.7992706299E-002 -9.5035552979E-002 +6.8116188049E-004 -6.7300796509E-003 +8.6504966021E-005 +7.2043389082E-005 -1.2256622314E-001 -4.2175292969E-002
2297500000.000 -4.9186706543E-002 -1.0010147095E-001 -3.0767917633E-003 -5.9375762939E-003 -4.8393383622E-005 +1.0691583157E-006 -1.2660217285E-001 -5.3497314453E-002
2430000000.000 -5.0193786621E-002 -1.0536193848E-001 -6.0114860535E-003 -3.1042098999E-003 -7.1674585342E-005 -1.2665241957E-004 -1.2670135498E-001 -6.4842224121E-002
2562500000.000 -5.1677703857E-002 -1.1107635498E-001 -6.8323612213E-003 +7.8749656677E-004 -9.5553696156E-006 -8.0894678831E-005 -1.2532806396E-001 -7.0861816406E-002
2695000000.000 -5.4264068604E-002 -1.1548233032E-001 -5.1088333130E-003 +4.2204856873E-003 -5.9843063354E-005 +2.5965273380E-005 -1.1379241943E-001 -7.3459625244E-002
2827500000.000 -5.6198120117E-002 -1.1926269531E-001 -1.7330646515E-003 +6.3309669495E-003 +7.1953982115E-005 -5.0932168961E-005 -9.8819732666E-002 -8.1844329834E-002
2960000000.000 -5.7025909424E-002 -1.2400054932E-001 +2.0487308502E-003 +6.2351226807E-003 +4.1760504246E-006 -7.7757984400E-005 -8.8256835938E-002 -8.6734771729E-002
3092500000.000 -5.9532165527E-002 -1.3011169434E-001 +5.1350593567E-003 +4.0202140808E-003 +6.1813741922E-005 +9.1087073088E-005 -7.0407867432E-002 -8.5990905762E-002
3225000000.000 -6.2942504883E-002 -1.3478851318E-001 +6.3045024872E-003 +5.0091743469E-004 +5.5667012930E-005 -1.3057142496E-006 -5.2124023438E-002 -9.1342926025E-002
3357500000.000 -6.5048217773E-002 -1.3815307617E-001 +5.5501461029E-003 -3.2222270966E-003 +1.2727081776E-004 +8.1613659859E-005 -4.1587829590E-002 -9.1754913330E-002
3490000000.000 -6.6757202148E-002 -1.4402008057E-001 +2.9852390289E-003 -5.8560371399E-003 +2.3685395718E-005 +1.1786818504E-004 -2.8030395508E-002 -8.3484649658E-002
3622500000.000 -6.9282531738E-002 -1.4994812012E-001 -8.8000297546E-004 -6.4146518707E-003 -5.0857663155E-005 -1.1676922441E-004 -1.1497497559E-002 -7.9353332520E-002
3755000000.000 -7.2708129883E-002 -1.5533447266E-001 -4.1751861572E-003 -4.9586296082E-003 +7.1596354246E-005 +5.4016709328E-005 -5.8631896973E-003 -7.3127746582E-002
3887500000.000 -7.4829101563E-002 -1.6009521484E-001 -6.3309669495E-003 -1.7213821411E-003 -1.6901642084E-004 -1.0909885168E-004 +2.0923614502E-003 -5.6041717529E-002
4020000000.000 -7.6957702637E-002 -1.6464233398E-001 -6.2375068665E-003 +2.1555423737E-003 -6.9167464972E-005 +9.0006738901E-005 +1.3389587402E-002 -4.4500350952E-002
4152500000.000 -7.8826904297E-002 -1.7045593262E-001 -3.8523674011E-003 +5.2442550659E-003 +1.8297694623E-005 +1.6354024410E-006 +1.5438079834E-002 -3.2705307007E-002
4285000000.000 -8.1611633301E-002 -1.7565155029E-001 -1.4591217041E-004 +6.5922737122E-003 -2.8456561267E-005 +2.1972693503E-005 +1.7046928406E-002 -1.3168334961E-002
4417500000.000 -8.4846496582E-002 -1.8033599854E-001 +3.4263134003E-003 +5.4349899292E-003 -3.9104372263E-005 +3.0655413866E-005 +2.5710105896E-002 +3.5953521729E-003
4550000000.000 -8.6380004883E-002 -1.8467712402E-001 +5.8555603027E-003 +2.5937557220E-003 -8.7469816208E-006 -1.2300908566E-004 +2.9059410095E-002 +9.4041824341E-003
4682500000.000 -8.8455200195E-002 -1.9039154053E-001 +6.2170028687E-003 -1.0020732880E-003 -1.0870862752E-005 -6.2193721533E-006 +2.5748252869E-002 +2.0549774170E-002
4815000000.000 -9.1423034668E-002 -1.9539642334E-001 +4.7862529755E-003 -4.2030811310E-003 -3.6269426346E-005 -4.1142106056E-005 +3.1360626221E-002 +2.7395248413E-002
4947500000.000 -9.3269348145E-002 -1.9950866699E-001 +1.6028881073E-003 -6.1540603638E-003 -3.5053119063E-005 -3.7865713239E-005 +2.7761459351E-002 +1.9845008850E-002
5080000000.000 -9.4535827637E-002 -2.0442962646E-001 -2.0873546600E-003 -6.1056613922E-003 -1.6307458282E-005 +3.3665448427E-005 +1.3481140137E-002 +2.0478248596E-002
5212500000.000 -9.6893310547E-002 -2.0950317383E-001 -5.1808357239E-003 -3.9346218109E-003 -4.0253624320E-005 -2.0172446966E-005 +9.2935562134E-003 +2.4677276611E-002
5345000000.000 -9.9609375000E-002 -2.1321105957E-001 -6.5460205078E-003 -3.6191940308E-004 -1.6566365957E-005 -7.2207301855E-005 +5.6581497192E-003 +1.6223907471E-002
5477500000.000 -1.0009765625E-001 -2.1669769287E-001 -5.5656433105E-003 +3.3740997314E-003 +2.5616958737E-005 +5.2016228437E-005 -9.1166496277E-003 +1.0276794434E-002
5610000000.000 -1.0177612305E-001 -2.2170257568E-001 -2.7084350586E-003 +5.9666633606E-003 -3.6766752601E-005 +3.0171126127E-005 -1.4801502228E-002 +1.4563560486E-002
5742500000.000 -1.0482788086E-001 -2.2522735596E-001 +1.1780261993E-003 +6.5629482269E-003 -3.7308782339E-005 +2.4821609259E-005 -1.1374473572E-002 +5.9666633606E-003
5875000000.000 -1.0726928711E-001 -2.2703552246E-001 +4.6806335449E-003 +4.7144889832E-003 +7.5064599514E-007 +3.4874305129E-005 -2.0090103149E-002 -3.3168792725E-003
6007500000.000 -1.0842895508E-001 -2.3025512695E-001 +6.5443515778E-003 +1.3058185577E-003 +2.5485642254E-005 -1.8719583750E-007 -2.3145675659E-002 +2.8133392334E-004
6140000000.000 -1.1071777344E-001 -2.3493957520E-001 +6.1447620392E-003 -2.6779174805E-003 -5.5368989706E-005 +1.2222677469E-005 -1.5220165253E-002 -2.6760101318E-003
6272500000.000 -1.1547851563E-001 -2.3804473877E-001 +3.5517215729E-003 -5.5615901947E-003 +2.5596469641E-005 -6.4235180616E-005 -1.6383171082E-002 -1.1680603027E-002
6405000000.000 -1.1876678467E-001 -2.3896026611E-001 -1.1086463928E-004 -6.5858364105E-003 +6.7949295044E-005 +5.1446259022E-005 -1.9394874573E-002 -6.1101913452E-003
6537500000.000 -1.1975097656E-001 -2.4250030518E-001 -3.8743019104E-003 -5.3849220276E-003 -4.8315152526E-005 +6.7800283432E-007 -9.1753005981E-003 -3.1700134277E-003
6670000000.000 -1.2292480469E-001 -2.4801635742E-001 -6.2108039856E-003 -2.3038387299E-003 +6.1802566051E-006 -3.7537887692E-005 -7.8558921814E-003 -7.2069168091E-003
6802500000.000 -1.2866210938E-001 -2.5114440918E-001 -6.3765048981E-003 +1.4913082123E-003 +1.2955628335E-005 -1.3171695173E-005 -1.1293888092E-002 +1.5115737915E-004
6935000000.000 -1.3175964355E-001 -2.5177001953E-001 -4.4581890106E-003 +4.8332214355E-003 -3.2510608435E-005 +6.3005834818E-005 -6.3953399658E-003 +9.9773406982E-003
7067500000.000 -1.3230895996E-001 -2.5555419922E-001 -9.2291831970E-004 +6.5507888794E-003 -7.9460442066E-006 -3.2927840948E-005 -4.6997070313E-003 +1.0214328766E-002
7200000000.000 -1.3645935059E-001 -2.6104736328E-001 +2.8893947601E-003 +5.8457851410E-003 -3.6777928472E-005 -3.0810013413E-005 -1.5095710754E-002 +1.7048835754E-002
7332500000.000 -1.4183044434E-001 -2.6368713379E-001 +5.6486129761E-003 +3.2446384430E-003 -4.2293220758E-005 +3.9204955101E-005 -1.7152786255E-002 +3.0749320984E-002
7465000000.000 -1.4427185059E-001 -2.6556396484E-001 +6.5100193024E-003 -4.7206878662E-004 -2.3171305656E-005 -3.1230971217E-005 -1.9970893860E-002 +3.1200408936E-002
7597500000.000 -1.4631652832E-001 -2.7017211914E-001 +5.0923824310E-003 -4.0254592896E-003 +3.8990750909E-005 -2.3832544684E-005 -3.6556243896E-002 +3.3277511597E-002
7730000000.000 -1.5017700195E-001 -2.7528381348E-001 +2.0818710327E-003 -6.0541629791E-003 -2.4601817131E-005 +3.2434239984E-005 -4.8284530640E-002 +4.3590545654E-002
7862500000.000 -1.5364074707E-001 -2.7828979492E-001 -1.7735958099E-003 -6.2072277069E-003 +3.0227005482E-005 -2.5583431125E-005 -5.3783416748E-002 +4.2503356934E-002
7995000000.000 -1.5527343750E-001 -2.8109741211E-001 -4.9741268158E-003 -4.2021274567E-003 -5.4154545069E-005 -1.8298625946E-005 -7.3062896729E-002 +3.5060882568E-002
8127500000.000 -1.5725708008E-001 -2.8677368164E-001 -6.3176155090E-003 -7.3790550232E-004 +5.2141025662E-005 -5.9120357037E-006 -9.1453552246E-002 +3.9749145508E-002
8260000000.000 -1.6127014160E-001 -2.9023742676E-001 -5.7139396667E-003 +2.9816627502E-003 -9.0472400188E-005 -1.1950731277E-005 -9.5500946045E-002 +3.4381866455E-002
8392500000.000 -1.6253662109E-001 -2.9306030273E-001 -3.1263828278E-003 +5.7621002197E-003 +8.2876533270E-005 -6.2696635723E-006 -1.0977172852E-001 +1.8474578857E-002
8525000000.000 -1.6337585449E-001 -2.9672241211E-001 +5.9223175049E-004 +6.4127445221E-003 +3.0228868127E-005 +5.1274895668E-005 -1.2195205688E-001 +1.5060424805E-002
8657500000.000 -1.6540527344E-001 -3.0084228516E-001 +4.2889118195E-003 +5.0408840179E-003 +6.1467289925E-008 +4.8074871302E-005 -1.1785125732E-001 +4.1542053223E-003
8790000000.000 -1.6831970215E-001 -3.0435180664E-001 +6.3221454620E-003 +1.7452239990E-003 -3.3233314753E-005 -2.8977170587E-005 -1.1956787109E-001 -1.7375946045E-002
8922500000.000 -1.6973876953E-001 -3.0558776855E-001 +6.2012672424E-003 -2.0010471344E-003 -6.6838692874E-006 +6.3728075475E-006 -1.2232208252E-001 -3.0418395996E-002
9055000000.000 -1.7098999023E-001 -3.0905151367E-001 +4.0221214294E-003 -5.2261352539E-003 -8.0596655607E-006 +5.0641596317E-005 -1.1099243164E-001 -4.3964385986E-002
9187500000.000 -1.7317199707E-001 -3.1176757813E-001 +4.0698051453E-004 -6.4754486084E-003 +3.5677105188E-005 -8.1099569798E-006 -1.0029220581E-001 -6.6696166992E-002
9320000000.000 -1.7752075195E-001 -3.1307983398E-001 -3.4303665161E-003 -5.6691169739E-003 -1.2720003724E-005 -2.7539208531E-005 -9.3734741211E-002 -7.9467773438E-002
9452500000.000 -1.7929077148E-001 -3.1448364258E-001 -5.9103965759E-003 -2.8455257416E-003 -1.7668120563E-005 -8.2068145275E-006 -7.4283599854E-002 -8.6593627930E-002
9585000000.000 -1.8148803711E-001 -3.1695556641E-001 -6.4754486084E-003 +1.0302066803E-003 -1.9074417651E-005 -6.5788626671E-006 -5.4401397705E-002 -1.0114669800E-001
9717500000.000 -1.8605041504E-001 -3.2023620605E-001 -4.7390460968E-003 +4.5609474182E-003 +6.4041465521E-005 -3.0994415283E-006 -4.1389465332E-002 -1.0692214966E-001
9850000000.000 -1.9073486328E-001 -3.1991577148E-001 -1.3935565948E-003 +6.4318180084E-003 -1.2774020433E-005 +5.2003189921E-005 -1.9092559814E-002 -1.0227203369E-001
9982500000.000 -1.9178771973E-001 -3.2234191895E-001 +2.5050640106E-003 +6.1690807343E-003 -5.2005052567E-005 -2.3838132620E-005 +6.3552856445E-003 -1.0332870483E-001
10115000000.000 -1.9497680664E-001 -3.2559204102E-001 +5.4352283478E-003 +3.6692619324E-003 +4.1041523218E-005 -1.4642253518E-005 +1.9126892090E-002 -9.9067687988E-002
10247500000.000 -2.0057678223E-001 -3.2749938965E-001 +6.5579414368E-003 +4.1961669922E-005 +2.9622577131E-005 -2.5546178222E-006 +3.5602569580E-002 -8.0085754395E-002
10380000000.000 -2.0347595215E-001 -3.2832336426E-001 +5.3780078888E-003 -3.7136077881E-003 -3.0361115932E-006 +7.2721391916E-005 +5.6980133057E-002 -6.7741394043E-002
10512500000.000 -2.0623779297E-001 -3.3035278320E-001 +2.4008750916E-003 -6.0911178589E-003 -2.7652829885E-005 -2.8070062399E-005 +6.2530517578E-002 -5.6167602539E-002
10645000000.000 -2.0962524414E-001 -3.3279418945E-001 -1.4827251434E-003 -6.4847469330E-003 +4.6094879508E-005 -2.0388513803E-005 +6.6116333008E-002 -2.9277801514E-002
10777500000.000 -2.1371459961E-001 -3.3512878418E-001 -4.8596858978E-003 -4.4679641724E-003 -1.6634352505E-005 +8.2701444626E-006 +7.7194213867E-002 -8.0757141113E-003
10910000000.000 -2.1725463867E-001 -3.3715820313E-001 -6.4797401428E-003 -9.1600418091E-004 -9.1465190053E-006 +2.6203691959E-005 +7.2380065918E-002 +5.3901672363E-003
11042500000.000 -2.2138977051E-001 -3.3924865723E-001 -5.9905052185E-003 +2.8007030487E-003 +1.4087185264E-005 +1.0142102838E-006 +5.9637069702E-002 +3.1127929688E-002
11175000000.000 -2.2433471680E-001 -3.4252929688E-001 -3.3452510834E-003 +5.6972503662E-003 -6.0576945543E-005 +1.3707205653E-005 +5.6667327881E-002 +5.2373886108E-002
11307500000.000 -2.2647094727E-001 -3.4466552734E-001 +5.4717063904E-004 +6.6838264465E-003 -2.1755695343E-006 -3.1320378184E-005 +4.3785095215E-002 +5.8338165283E-002
11440000000.000 -2.3088073730E-001 -3.4721374512E-001 +4.1210651398E-003 +5.1529407501E-003 -4.7128647566E-005 +3.4544616938E-005 +1.8272399902E-002 +7.2040557861E-002
11572500000.000 -2.3226928711E-001 -3.5063171387E-001 +6.3631534576E-003 +1.9767284393E-003 -2.8382986784E-005 +5.3614377975E-005 +4.5776367188E-003 +8.7272644043E-002
11705000000.000 -2.3466491699E-001 -3.5292053223E-001 +6.3567161560E-003 -2.0215511322E-003 -3.3074989915E-005 -3.1478703022E-007 -9.9411010742E-003 +8.0997467041E-002
11837500000.000 -2.3802185059E-001 -3.5531616211E-001 +4.1501522064E-003 -5.1765441895E-003 -1.1753290892E-005 -7.2192400694E-005 -4.2907714844E-002 +7.6660156250E-002
11970000000.000 -2.3928833008E-001 -3.5630798340E-001 +4.1007995605E-004 -6.5844058990E-003 +9.1005116701E-005 +3.9629638195E-005 -5.9146881104E-002 +8.3187103271E-002
12102500000.000 -2.3918151855E-001 -3.5902404785E-001 -3.2901763916E-003 -5.7139396667E-003 +1.0491348803E-006 +9.3015842140E-006 -6.5280914307E-002 +6.4517974854E-002
12235000000.000 -2.4453735352E-001 -3.6003112793E-001 -5.9802532196E-003 -2.8154850006E-003 +4.6141445637E-005 -6.5781176090E-005 -9.2655181885E-002 +4.4239044189E-002
12367500000.000 -2.4450683594E-001 -3.6047363281E-001 -6.4735412598E-003 +1.0428428650E-003 +4.1401013732E-005 -6.0852617025E-006 -1.0534286499E-001 +4.2953491211E-002
12500000000.000 -2.4786376953E-001 -3.6073303223E-001 -4.7860145569E-003 +4.5406818390E-003 -7.1302056313E-005 +8.1285834312E-005 -9.7202301025E-002 +2.0656585693E-002
12632500000.000 -2.4966430664E-001 -3.6352539063E-001 -1.3480186462E-003 +6.4675807953E-003 -1.4204531908E-005 -2.5451183319E-005 -1.0930633545E-001 -1.3271331787E-002
12765000000.000 -2.5195312500E-001 -3.6381530762E-001 +2.5577545166E-003 +6.1211585999E-003 +1.3299286366E-006 +3.0186958611E-005 -1.1737823486E-001 -1.7673492432E-002
12897500000.000 -2.5437927246E-001 -3.6320495605E-001 +5.4633617401E-003 +3.6063194275E-003 -3.0264258385E-005 +3.6055222154E-005 -9.2330932617E-002 -3.4492492676E-002
13030000000.000 -2.5622558594E-001 -3.6405944824E-001 +6.4699649811E-003 -7.2002410889E-005 +2.7235597372E-005 -5.3148716688E-005 -8.9660644531E-002 -7.0934295654E-002
13162500000.000 -2.5881958008E-001 -3.6569213867E-001 +5.2165985107E-003 -3.7522315979E-003 +2.9047951102E-005 -8.8801607490E-006 -9.1869354248E-002 -7.2544097900E-002
13295000000.000 -2.6164245605E-001 -3.6656188965E-001 +2.2480487823E-003 -6.1254501343E-003 -2.0019710064E-005 +1.0614842176E-004 -6.1283111572E-002 -7.8563690186E-002
13427500000.000 -2.6542663574E-001 -3.6578369141E-001 -1.5861988068E-003 -6.3374042511E-003 +4.0370970964E-005 -9.0319663286E-006 -4.6993255615E-002 -1.0423278809E-001
13560000000.000 -2.6586914063E-001 -3.6602783203E-001 -4.8892498016E-003 -4.3087005615E-003 +3.1381845474E-005 -6.7438930273E-005 -4.6821594238E-002 -1.0154724121E-001
13692500000.000 -2.6823425293E-001 -3.6874389648E-001 -6.4094066620E-003 -7.5364112854E-004 +9.4622373581E-006 +7.8491866589E-005 -1.8077850342E-002 -8.9221954346E-002
13825000000.000 -2.7281188965E-001 -3.6994934082E-001 -5.8298110962E-003 +3.0086040497E-003 -5.0658360124E-005 -5.8298930526E-005 +4.1007995605E-003 -1.0340118408E-001
13957500000.000 -2.7572631836E-001 -3.6846923828E-001 -2.9981136322E-003 +5.6352615356E-003 -1.1357478797E-005 -2.0122155547E-005 -4.0435791016E-004 -9.5886230469E-002
14090000000.000 -2.7645874023E-001 -3.6959838867E-001 +7.5149536133E-004 +6.4115524292E-003 +1.0615214705E-005 -9.4939023256E-006 +2.1858215332E-002 -7.0457458496E-002
14222500000.000 -2.7784729004E-001 -3.7324523926E-001 +4.3756961823E-003 +4.8151016235E-003 +2.2757798433E-005 +1.6840174794E-005 +4.3945312500E-002 -7.4390411377E-002
14355000000.000 -2.8269958496E-001 -3.7388610840E-001 +6.1914920807E-003 +1.6279220581E-003 -8.1593170762E-006 -1.4320481569E-005 +3.3241271973E-002 -6.7356109619E-002
14487500000.000 -2.8509521484E-001 -3.7409973145E-001 +5.9182643890E-003 -2.1131038666E-003 +6.4451247454E-005 -9.8761171103E-005 +4.0233612061E-002 -3.4297943115E-002
14620000000.000 -2.8518676758E-001 -3.7603759766E-001 +3.6592483521E-003 -5.0382614136E-003 -1.2570619583E-004 +1.1630356312E-005 +6.0903549194E-002 -3.1631469727E-002
14752500000.000 -2.8848266602E-001 -3.8034057617E-001 +1.5020370483E-005 -6.3328742981E-003 -5.3672119975E-005 +8.0391764641E-006 +4.3355941772E-002 -3.2281875610E-002
14885000000.000 -2.9139709473E-001 -3.8172912598E-001 -3.6172866821E-003 -5.2590370178E-003 -2.0997598767E-005 -3.3419579268E-005 +3.5804748535E-002 +1.4724731445E-003
15017500000.000 -2.9208374023E-001 -3.8290405273E-001 -5.7129859924E-003 -2.2060871124E-003 -3.8368627429E-005 +5.6399032474E-005 +5.3232192993E-002 +8.6231231689E-003
15150000000.000 -2.9315185547E-001 -3.8708496094E-001 -5.9199333191E-003 +1.3833045959E-003 +3.6101788282E-005 +2.7883797884E-005 +3.5175323486E-002 -1.4381408691E-003
15282500000.000 -2.9431152344E-001 -3.8980102539E-001 -4.0793418884E-003 +4.4374465942E-003 +1.2122094631E-004 -7.8842043877E-005 +1.4814376831E-002 +2.3550033569E-002
