!  2-Port S-parameters saved by WinCal
! VAR MeasName=S-Parameters (CALIBRATED_DATA) read from VNA (C)
! VAR MeasDate=10/16/2015 1:57:32 PM
! VAR NAME=M6082_13_17_2_2_20C_10.4mA_-17.5dBm
! VAR FILENAME=M6082_13_17_2_2_20C_10.4mA_-17.5dBm.S2P
! VAR DATE=10/16/2015 1:57:32 PM
! VAR PHYS_PORTS=2,1
! VAR ObjTypeName=DATASET
! VAR IndexType=Frequency
!
# Hz S RI R 50
45000000.000 -9.9857330322E-002 -5.7220458984E-005 -2.1491050720E-003 +7.0416927338E-003 +5.6955218315E-004 -3.3479928970E-004 +2.8521537781E-002 +1.5926361084E-003
177500000.000 -9.8701477051E-002 -4.9018859863E-003 +2.3055076599E-003 +6.1001777649E-003 -1.4759600163E-005 +1.6243755817E-004 +1.6045570374E-002 +1.6729354858E-002
310000000.000 -9.8331451416E-002 -9.7007751465E-003 +5.1162242889E-003 +4.2395591736E-003 -6.0815364122E-007 -2.4262815714E-005 +2.9207229614E-002 +6.1620712280E-002
442500000.000 -9.8114013672E-002 -1.4446258545E-002 +7.2770118713E-003 +1.9288063049E-004 +2.1594576538E-005 -1.9026920199E-006 +7.2586059570E-002 +2.2644042969E-002
575000000.000 -9.8255157471E-002 -1.9905090332E-002 +5.6812763214E-003 -4.0130615234E-003 -9.1064721346E-006 +3.2369047403E-005 +2.7281761169E-002 +1.1383056641E-002
707500000.000 -9.8617553711E-002 -2.4406433105E-002 +2.4065971375E-003 -6.1776638031E-003 -1.1967495084E-005 -2.9881484807E-005 +2.1343231201E-003 +1.8655776978E-002
840000000.000 -9.8331451416E-002 -2.9811859131E-002 -1.4998912811E-003 -6.5310001373E-003 +3.3834949136E-005 -1.7600134015E-005 -1.9834518433E-002 +2.5997161865E-002
972500000.000 -9.8281860352E-002 -3.4984588623E-002 -4.8437118530E-003 -4.5640468597E-003 -4.6424567699E-005 +5.3640455008E-005 -3.5875320435E-002 +3.5449981689E-002
1105000000.000 -9.8934173584E-002 -4.0222167969E-002 -6.3621997833E-003 -1.0070800781E-003 -9.2759728432E-005 -5.8695673943E-005 -4.6892166138E-002 +3.8309097290E-002
1237500000.000 -9.9437713623E-002 -4.5001983643E-002 -5.9049129486E-003 +2.6829242706E-003 +3.5641714931E-005 -4.6538189054E-005 -5.8521270752E-002 +3.3803939819E-002
1370000000.000 -1.0012435913E-001 -4.9728393555E-002 -3.4315586090E-003 +5.6214332581E-003 +3.1702220440E-006 +5.7233497500E-005 -7.3993682861E-002 +2.7011871338E-002
1502500000.000 -1.0047912598E-001 -5.4527282715E-002 +2.9754638672E-004 +6.4465999603E-003 -5.1748007536E-005 -5.2936375141E-005 -8.7936401367E-002 +2.1327972412E-002
1635000000.000 -1.0060501099E-001 -6.0047149658E-002 +3.8177967072E-003 +5.2657127380E-003 -1.8170103431E-005 -4.1713938117E-006 -9.9048614502E-002 +1.1680603027E-002
1767500000.000 -1.0157012939E-001 -6.5071105957E-002 +6.1604976654E-003 +2.2301673889E-003 +2.1429732442E-005 +3.4203752875E-005 -1.1190795898E-001 +2.9029846191E-003
1900000000.000 -1.0177230835E-001 -6.9255828857E-002 +6.2046051025E-003 -1.5912055969E-003 -8.1457197666E-005 -2.5108456612E-005 -1.1384963989E-001 -3.4523010254E-003
2032500000.000 -1.0247421265E-001 -7.3829650879E-002 +4.2593479156E-003 -4.8251152039E-003 -1.6105361283E-005 -1.2256205082E-005 -1.1366653442E-001 -2.4433135986E-002
2165000000.000 -1.0279464722E-001 -7.9273223877E-002 +8.7165832520E-004 -6.2584877014E-003 +7.9281628132E-005 +3.9219856262E-005 -1.2259674072E-001 -4.2366027832E-002
2297500000.000 -1.0337066650E-001 -8.3534240723E-002 -2.8202533722E-003 -5.7373046875E-003 -7.9989433289E-005 +8.4649771452E-005 -1.2654113770E-001 -5.3436279297E-002
2430000000.000 -1.0396957397E-001 -8.7974548340E-002 -5.5859088898E-003 -3.1726360321E-003 +1.1920928955E-005 +7.8078359365E-005 -1.2636566162E-001 -6.4849853516E-002
2562500000.000 -1.0482025146E-001 -9.3006134033E-002 -6.0942173004E-003 +3.4713745117E-004 +4.5251101255E-005 +1.0244548321E-007 -1.2515258789E-001 -7.0945739746E-002
2695000000.000 -1.0684204102E-001 -9.6591949463E-002 -4.8711299896E-003 +3.9000511169E-003 -1.2592971325E-004 -6.9506466389E-005 -1.1370086670E-001 -7.3379516602E-002
2827500000.000 -1.0829925537E-001 -9.9456787109E-002 -1.8990039825E-003 +5.8553218842E-003 +1.8703751266E-005 +2.2818334401E-005 -9.8640441895E-002 -8.1836700439E-002
2960000000.000 -1.0870742798E-001 -1.0372161865E-001 +1.7349720001E-003 +5.8839321136E-003 -7.8678131104E-006 +4.9389898777E-005 -8.8157653809E-002 -8.6902618408E-002
3092500000.000 -1.1063766479E-001 -1.0903549194E-001 +4.8751831055E-003 +3.9846897125E-003 -8.3964318037E-005 +1.1393427849E-004 -7.0453643799E-002 -8.6017608643E-002
3225000000.000 -1.1356735229E-001 -1.1308670044E-001 +6.1888694763E-003 +6.4969062805E-004 -7.7039003372E-005 -1.2932717800E-004 -5.2017211914E-002 -9.0969085693E-002
3357500000.000 -1.1503982544E-001 -1.1580276489E-001 +5.3362846375E-003 -2.7439594269E-003 +1.2943893671E-004 -2.8438866138E-005 -4.1328430176E-002 -9.1594696045E-002
3490000000.000 -1.1624908447E-001 -1.2115097046E-001 +2.9261112213E-003 -5.3615570068E-003 +8.0872327089E-005 +2.4303793907E-005 -2.8106689453E-002 -8.3099365234E-002
3622500000.000 -1.1824798584E-001 -1.2642669678E-001 -4.1699409485E-004 -5.9938430786E-003 -8.1546604633E-006 -5.5458396673E-005 -1.1333465576E-002 -7.9116821289E-002
3755000000.000 -1.2092590332E-001 -1.3126373291E-001 -3.8635730743E-003 -4.8854351044E-003 +8.1516802311E-005 +8.7954103947E-006 -6.0005187988E-003 -7.3005676270E-002
3887500000.000 -1.2253570557E-001 -1.3534545898E-001 -6.0141086578E-003 -1.8918514252E-003 +9.3504786491E-005 +5.5592507124E-005 +2.0771026611E-003 -5.5971145630E-002
4020000000.000 -1.2401580811E-001 -1.3939666748E-001 -5.9714317322E-003 +1.8358230591E-003 -1.0159239173E-004 -5.7440251112E-005 +1.3425827026E-002 -4.4456481934E-002
4152500000.000 -1.2531280518E-001 -1.4467620850E-001 -3.7703514099E-003 +4.8465728760E-003 +7.8815966845E-005 -4.0125101805E-005 +1.5398025513E-002 -3.2642364502E-002
4285000000.000 -1.2752532959E-001 -1.4936065674E-001 -5.6815147400E-004 +6.0918331146E-003 +3.0135735869E-005 +5.3917989135E-005 +1.7023086548E-002 -1.3087272644E-002
4417500000.000 -1.2997436523E-001 -1.5343475342E-001 +2.9377937317E-003 +5.4526329041E-003 -1.1568889022E-004 -2.7034431696E-005 +2.5697708130E-002 +3.5820007324E-003
4550000000.000 -1.3092803955E-001 -1.5730285645E-001 +5.3238868713E-003 +2.7809143066E-003 +3.4969300032E-005 -7.0482492447E-006 +2.8992652893E-002 +9.4413757324E-003
4682500000.000 -1.3230133057E-001 -1.6255950928E-001 +5.8083534241E-003 -6.9403648376E-004 -4.0712766349E-006 +8.2263723016E-006 +2.5684356689E-002 +2.0639419556E-002
4815000000.000 -1.3465881348E-001 -1.6719818115E-001 +4.6174526215E-003 -3.7336349487E-003 +1.1367723346E-005 +9.8790042102E-006 +3.1269073486E-002 +2.7355194092E-002
4947500000.000 -1.3581848145E-001 -1.7087554932E-001 +1.8813610077E-003 -5.6657791138E-003 +5.1921233535E-007 -3.7137651816E-006 +2.7667045593E-002 +1.9856452942E-002
5080000000.000 -1.3644409180E-001 -1.7541503906E-001 -1.7187595367E-003 -5.8512687683E-003 +6.1105936766E-005 +4.5988708735E-005 +1.3540267944E-002 +2.0478248596E-002
5212500000.000 -1.3821411133E-001 -1.8008422852E-001 -4.7786235809E-003 -3.9610862732E-003 -3.4371390939E-005 +3.4216791391E-005 +9.3069076538E-003 +2.4787902832E-002
5345000000.000 -1.4031982422E-001 -1.8341064453E-001 -6.0796737671E-003 -6.7973136902E-004 -1.9737519324E-005 -1.6811303794E-005 +5.5904388428E-003 +1.6200065613E-002
5477500000.000 -1.4028930664E-001 -1.8650054932E-001 -5.4688453674E-003 +2.8872489929E-003 -1.3934448361E-005 +5.1174312830E-005 -8.9559555054E-003 +1.0292053223E-002
5610000000.000 -1.4125061035E-001 -1.9126129150E-001 -2.8536319733E-003 +5.4361820221E-003 +5.9820711613E-005 +4.2589381337E-005 -1.4740943909E-002 +1.4512538910E-002
5742500000.000 -1.4365386963E-001 -1.9441223145E-001 +6.5946578979E-004 +6.1602592468E-003 -5.4977834225E-005 -5.4348260164E-005 -1.1321067810E-002 +5.9380531311E-003
5875000000.000 -1.4543914795E-001 -1.9590759277E-001 +4.0197372437E-003 +4.7471523285E-003 -1.0162591934E-005 -3.3695250750E-005 -2.0178794861E-002 -3.2777786255E-003
6007500000.000 -1.4587402344E-001 -1.9882965088E-001 +5.9921741486E-003 +1.6736984253E-003 -7.6442956924E-006 +6.9692730904E-005 -2.3076057434E-002 +2.7561187744E-004
6140000000.000 -1.4764404297E-001 -2.0319366455E-001 +5.8364868164E-003 -2.0172595978E-003 -5.9001147747E-005 -1.1049211025E-005 -1.5313148499E-002 -2.6626586914E-003
6272500000.000 -1.5176391602E-001 -2.0601654053E-001 +3.6888122559E-003 -4.9550533295E-003 +1.3286247849E-005 -2.4979934096E-005 -1.6341209412E-002 -1.1634826660E-002
6405000000.000 -1.5433502197E-001 -2.0668792725E-001 +3.1423568726E-004 -6.1016082764E-003 +3.8139522076E-005 +5.9960409999E-005 -1.9369125366E-002 -6.1845779419E-003
6537500000.000 -1.5473175049E-001 -2.0988464355E-001 -3.2064914703E-003 -5.2671432495E-003 -1.0310672224E-005 +2.8679147363E-005 -9.3002319336E-003 -3.1166076660E-003
6670000000.000 -1.5729522705E-001 -2.1527862549E-001 -5.6273937225E-003 -2.5548934937E-003 -4.5938417315E-005 -1.8125399947E-005 -7.8740119934E-003 -7.1144104004E-003
6802500000.000 -1.6235351563E-001 -2.1817779541E-001 -5.9809684753E-003 +1.0087490082E-003 +4.9218535423E-005 -2.7008354664E-006 -1.1454582214E-002 +2.2697448730E-004
6935000000.000 -1.6485595703E-001 -2.1862792969E-001 -4.4672489166E-003 +4.1995048523E-003 +1.5819445252E-005 +3.2812356949E-005 -6.4082145691E-003 +9.9539756775E-003
7067500000.000 -1.6476440430E-001 -2.2222900391E-001 -1.3449192047E-003 +6.0122013092E-003 -1.0723248124E-005 +1.1171214283E-005 -4.6644210815E-003 +1.0206699371E-002
7200000000.000 -1.6821289063E-001 -2.2772979736E-001 +2.1700859070E-003 +5.6586265564E-003 -4.8942863941E-005 +2.2932887077E-005 -1.5177726746E-002 +1.6988754272E-002
7332500000.000 -1.7297363281E-001 -2.3001098633E-001 +5.0075054169E-003 +3.4239292145E-003 -6.3255429268E-006 +3.7869438529E-005 -1.7244338989E-002 +3.0734062195E-002
7465000000.000 -1.7486572266E-001 -2.3189544678E-001 +6.1249732971E-003 +9.5844268799E-005 -3.7904828787E-005 -4.2205676436E-005 -1.9824028015E-002 +3.1165122986E-002
7597500000.000 -1.7632293701E-001 -2.3637390137E-001 +5.0840377808E-003 -3.2770633698E-003 +1.8113292754E-005 -9.7053125501E-006 -3.6403656006E-002 +3.3317565918E-002
7730000000.000 -1.7964935303E-001 -2.4138641357E-001 +2.3772716522E-003 -5.3527355194E-003 -4.0400773287E-006 -1.7503276467E-005 -4.8286437988E-002 +4.3657302856E-002
7862500000.000 -1.8240356445E-001 -2.4430847168E-001 -1.1832714081E-003 -5.8758258820E-003 -8.2328915596E-005 -1.0184943676E-005 -5.3649902344E-002 +4.2676925659E-002
7995000000.000 -1.8343353271E-001 -2.4702453613E-001 -4.1103363037E-003 -4.1911602020E-003 +1.4370307326E-006 +2.1524727345E-005 -7.2910308838E-002 +3.5186767578E-002
8127500000.000 -1.8489074707E-001 -2.5267028809E-001 -5.8028697968E-003 -1.1432170868E-003 -6.0461461544E-006 +4.7018751502E-005 -9.1430664063E-002 +3.9779663086E-002
8260000000.000 -1.8820190430E-001 -2.5595092773E-001 -5.5029392242E-003 +2.2048950195E-003 +3.2158568501E-006 -9.1134570539E-006 -9.5546722412E-002 +3.4427642822E-002
8392500000.000 -1.8908691406E-001 -2.5875854492E-001 -3.3338069916E-003 +5.0508975983E-003 -1.1790543795E-005 -3.5889446735E-005 -1.0971450806E-001 +1.8604278564E-002
8525000000.000 -1.8933105469E-001 -2.6246643066E-001 -8.3446502686E-006 +5.9361457825E-003 +3.3203512430E-005 +1.9542872906E-005 -1.2189483643E-001 +1.5151977539E-002
8657500000.000 -1.9079589844E-001 -2.6664733887E-001 +3.2367706299E-003 +4.8441886902E-003 -2.9338523746E-005 -3.3522024751E-005 -1.1780548096E-001 +4.2228698730E-003
8790000000.000 -1.9309997559E-001 -2.7001953125E-001 +5.5582523346E-003 +2.2375583649E-003 +1.1036172509E-006 -2.5142915547E-005 -1.1963653564E-001 -1.7326354980E-002
8922500000.000 -1.9412231445E-001 -2.7119445801E-001 +5.7716369629E-003 -1.1887550354E-003 +4.1157007217E-005 -2.5039538741E-005 -1.2231445313E-001 -3.0414581299E-002
9055000000.000 -1.9474792480E-001 -2.7464294434E-001 +4.1863918304E-003 -4.2626857758E-003 -4.9464404583E-005 +3.4382566810E-005 -1.1105728149E-001 -4.3933868408E-002
9187500000.000 -1.9644165039E-001 -2.7726745605E-001 +1.0318756104E-003 -5.8915615082E-003 -5.1405280828E-005 -1.8239021301E-005 -1.0025024414E-001 -6.6741943359E-002
9320000000.000 -2.0025634766E-001 -2.7845764160E-001 -2.4261474609E-003 -5.4380893707E-003 +5.3996220231E-005 +1.7877668142E-005 -9.3780517578E-002 -7.9399108887E-002
9452500000.000 -2.0161437988E-001 -2.7987670898E-001 -5.0327777863E-003 -3.0992031097E-003 -7.7821314335E-006 +1.0254606605E-004 -7.4390411377E-002 -8.6536407471E-002
9585000000.000 -2.0327758789E-001 -2.8233337402E-001 -5.9101581573E-003 +1.8811225891E-004 -4.8890709877E-005 -1.0197982192E-005 -5.4473876953E-002 -1.0105133057E-001
9717500000.000 -2.0724487305E-001 -2.8569030762E-001 -4.7931671143E-003 +3.5328865051E-003 -8.8210217655E-006 -1.4402903616E-005 -4.1374206543E-002 -1.0683822632E-001
9850000000.000 -2.1150207520E-001 -2.8540039063E-001 -1.9419193268E-003 +5.6941509247E-003 +2.4132430553E-005 +6.1213970184E-005 -1.9256591797E-002 -1.0217285156E-001
9982500000.000 -2.1195983887E-001 -2.8781127930E-001 +1.3923645020E-003 +5.6631565094E-003 -4.0508806705E-005 -5.7276338339E-006 +6.2332153320E-003 -1.0326004028E-001
10115000000.000 -2.1469116211E-001 -2.9112243652E-001 +4.4922828674E-003 +3.9570331573E-003 +6.0100108385E-005 -5.0516799092E-005 +1.8993377686E-002 -9.9132537842E-002
10247500000.000 -2.1969604492E-001 -2.9301452637E-001 +5.7454109192E-003 +7.9441070557E-004 +6.2581151724E-005 +1.2161955237E-004 +3.5507202148E-002 -8.0112457275E-002
10380000000.000 -2.2198486328E-001 -2.9391479492E-001 +5.3164958954E-003 -2.6144981384E-003 -1.5107914805E-005 +1.8253922462E-005 +5.6854248047E-002 -6.7852020264E-002
10512500000.000 -2.2424316406E-001 -2.9600524902E-001 +2.8669834137E-003 -5.1343441010E-003 +1.2803822756E-005 -6.6790729761E-005 +6.2488555908E-002 -5.6268692017E-002
10645000000.000 -2.2700500488E-001 -2.9841613770E-001 -3.6334991455E-004 -5.7287216187E-003 +3.7057325244E-005 +4.9665570259E-005 +6.6024780273E-002 -2.9388427734E-002
10777500000.000 -2.3065185547E-001 -3.0087280273E-001 -3.6427974701E-003 -4.6460628510E-003 +2.3612752557E-005 +2.5621615350E-005 +7.7140808105E-002 -8.1062316895E-003
10910000000.000 -2.3385620117E-001 -3.0291748047E-001 -5.6552886963E-003 -1.7902851105E-003 +1.4245510101E-005 -7.9233199358E-005 +7.2330474854E-002 +5.1803588867E-003
11042500000.000 -2.3747253418E-001 -3.0523681641E-001 -5.7017803192E-003 +1.5945434570E-003 +3.2581388950E-005 +2.0110979676E-005 +5.9606552124E-002 +3.0998229980E-002
11175000000.000 -2.3986816406E-001 -3.0853271484E-001 -3.7291049957E-003 +4.5471191406E-003 +1.6288831830E-006 +2.1786428988E-005 +5.6722640991E-002 +5.2255630493E-002
11307500000.000 -2.4163818359E-001 -3.1059265137E-001 -6.6113471985E-004 +5.8650970459E-003 -4.0208920836E-005 -2.7004629374E-005 +4.3741226196E-002 +5.8322906494E-002
11440000000.000 -2.4560546875E-001 -3.1335449219E-001 +2.6769638062E-003 +5.1710605621E-003 +2.3432075977E-005 -4.2892992496E-005 +1.8402099609E-002 +7.1994781494E-002
11572500000.000 -2.4656677246E-001 -3.1692504883E-001 +5.1753520966E-003 +2.8128623962E-003 -6.4823776484E-005 +6.3095241785E-005 +4.7416687012E-003 +8.7284088135E-002
11705000000.000 -2.4859619141E-001 -3.1935119629E-001 +5.7642459869E-003 -7.0858001709E-004 -4.5811757445E-005 -1.1734664440E-006 -9.7694396973E-003 +8.0902099609E-002
11837500000.000 -2.5141906738E-001 -3.2194519043E-001 +4.4417381287E-003 -3.7264823914E-003 -1.4242716134E-005 -7.5269490480E-006 -4.2762756348E-002 +7.6690673828E-002
11970000000.000 -2.5221252441E-001 -3.2290649414E-001 +1.5618801117E-003 -5.6452751160E-003 -1.8248334527E-005 +3.4423545003E-005 -5.9104919434E-002 +8.3240509033E-002
12102500000.000 -2.5166320801E-001 -3.2582092285E-001 -1.9083023071E-003 -5.5017471313E-003 -7.9859048128E-005 -3.9685517550E-005 -6.5128326416E-002 +6.4559936523E-002
12235000000.000 -2.5642395020E-001 -3.2698059082E-001 -4.6195983887E-003 -3.4453868866E-003 -5.3811818361E-006 -3.7515535951E-005 -9.2601776123E-002 +4.4284820557E-002
12367500000.000 -2.5610351563E-001 -3.2751464844E-001 -5.7747364044E-003 -4.2891502380E-004 +9.2994421721E-005 +9.5739960670E-006 -1.0527420044E-001 +4.2957305908E-002
12500000000.000 -2.5904846191E-001 -3.2788085938E-001 -4.9498081207E-003 +2.9537677765E-003 -9.5739960670E-006 +5.9191137552E-005 -9.7175598145E-002 +2.0721435547E-002
12632500000.000 -2.6043701172E-001 -3.3078002930E-001 -2.4213790894E-003 +5.1720142365E-003 +5.5592507124E-005 -3.2480806112E-005 -1.0928344727E-001 -1.3130187988E-002
12765000000.000 -2.6239013672E-001 -3.3116149902E-001 +8.0537796021E-004 +5.6278705597E-003 -5.4021365941E-006 +1.2430828065E-005 -1.1728668213E-001 -1.7486572266E-002
12897500000.000 -2.6432800293E-001 -3.3074951172E-001 +3.8986206055E-003 +4.1339397430E-003 +5.2573159337E-006 +2.3679807782E-005 -9.2292785645E-002 -3.4370422363E-002
13030000000.000 -2.6589965820E-001 -3.3171081543E-001 +5.6402683258E-003 +1.2431144714E-003 +1.2986361980E-005 +1.6387552023E-005 -8.9660644531E-002 -7.0919036865E-002
13162500000.000 -2.6811218262E-001 -3.3370971680E-001 +5.3229331970E-003 -2.0320415497E-003 +6.4365565777E-005 -3.1810253859E-005 -9.1918945313E-002 -7.2391510010E-002
13295000000.000 -2.7038574219E-001 -3.3488464355E-001 +3.2432079315E-003 -4.6577453613E-003 +5.1151961088E-005 -2.3124739528E-005 -6.1317443848E-002 -7.8620910645E-002
13427500000.000 -2.7391052246E-001 -3.3410644531E-001 +1.2660026550E-004 -5.7177543640E-003 -9.2800706625E-005 -2.0932406187E-005 -4.7096252441E-002 -1.0426330566E-001
13560000000.000 -2.7362060547E-001 -3.3491516113E-001 -3.0615329742E-003 -4.6529769897E-003 +2.1523796022E-005 -6.9346278906E-006 -4.7088623047E-002 -1.0153579712E-001
13692500000.000 -2.7577209473E-001 -3.3770751953E-001 -5.2266120911E-003 -2.2153854370E-003 +3.0010938644E-005 +5.3517520428E-005 -1.8112182617E-002 -8.9279174805E-002
13825000000.000 -2.8004455566E-001 -3.3906555176E-001 -5.5193901062E-003 +1.0824203491E-003 -4.8138201237E-005 -1.3113021851E-004 +4.0473937988E-003 -1.0335922241E-001
13957500000.000 -2.8240966797E-001 -3.3778381348E-001 -3.9713382721E-003 +3.9772987366E-003 -1.3830140233E-006 +2.8581358492E-005 -4.3487548828E-004 -9.5867156982E-002
14090000000.000 -2.8277587891E-001 -3.3915710449E-001 -1.0709762573E-003 +5.5327415466E-003 -4.2039901018E-005 -3.4580007195E-005 +2.1694183350E-002 -7.0449829102E-002
14222500000.000 -2.8381347656E-001 -3.4294128418E-001 +2.2573471069E-003 +5.1705837250E-003 -4.6068802476E-005 -3.5056844354E-005 +4.3807983398E-002 -7.4466705322E-002
14355000000.000 -2.8863525391E-001 -3.4376525879E-001 +4.7228336334E-003 +2.9318332672E-003 +4.6053901315E-005 -5.0136819482E-005 +3.3256530762E-002 -6.7386627197E-002
14487500000.000 -2.9067993164E-001 -3.4428405762E-001 +5.7365894318E-003 -1.7452239990E-004 +1.0756030679E-004 +1.1771917343E-005 +4.0344238281E-002 -3.4397125244E-002
14620000000.000 -2.9032897949E-001 -3.4645080566E-001 +4.4662952423E-003 -3.3667087555E-003 +3.8936734200E-005 +2.6771798730E-005 +6.0930252075E-002 -3.1650543213E-002
14752500000.000 -2.9341125488E-001 -3.5113525391E-001 +1.9121170044E-003 -5.2027702332E-003 -8.3595514297E-006 -1.7763115466E-005 +4.3395996094E-002 -3.2339096069E-002
14885000000.000 -2.9602050781E-001 -3.5289001465E-001 -1.2931823730E-003 -5.2874088287E-003 +4.8177316785E-006 +9.7160227597E-006 +3.5654067993E-002 +1.4076232910E-003
15017500000.000 -2.9661560059E-001 -3.5443115234E-001 -4.3010711670E-003 -3.6160945892E-003 -1.7985701561E-005 +1.0540708899E-004 +5.3308486938E-002 +8.5811614990E-003
15150000000.000 -2.9714965820E-001 -3.5885620117E-001 -5.4171085358E-003 -6.5875053406E-004 -3.2251700759E-005 +3.4878030419E-005 +3.5276412964E-002 -1.5544891357E-003
15282500000.000 -2.9795837402E-001 -3.6187744141E-001 -4.7929286957E-003 +2.3949146271E-003 +1.0783970356E-004 -4.6860426664E-005 +1.4774322510E-002 +2.3480415344E-002
