!  2-Port S-parameters saved by WinCal
! VAR MeasName=S-Parameters (CALIBRATED_DATA) read from VNA (C)
! VAR MeasDate=10/16/2015 1:40:11 PM
! VAR NAME=M6082_13_17_2_2_20C_1.8mA_-17.5dBm
! VAR FILENAME=M6082_13_17_2_2_20C_1.8mA_-17.5dBm.S2P
! VAR DATE=10/16/2015 1:40:11 PM
! VAR PHYS_PORTS=2,1
! VAR ObjTypeName=DATASET
! VAR IndexType=Frequency
!
# Hz S RI R 50
45000000.000 +1.3601684570E-001 -3.0975341797E-003 -1.3055801392E-003 +5.8567523956E-003 +8.9979171753E-004 -1.4340877533E-004 +2.8468132019E-002 +2.0904541016E-003
177500000.000 +1.3217163086E-001 -1.5907287598E-002 +1.9791126251E-003 +4.9378871918E-003 -1.1875107884E-004 +1.7013400793E-005 +1.6051292419E-002 +1.6722679138E-002
310000000.000 +1.2940979004E-001 -2.9037475586E-002 +4.1649341583E-003 +2.9704570770E-003 -1.1603161693E-004 -1.0851770639E-004 +2.9317855835E-002 +6.1428070068E-002
442500000.000 +1.2683105469E-001 -3.5942077637E-002 +6.0393810272E-003 -2.8371810913E-004 +2.6976689696E-005 -9.7183510661E-006 +7.2475433350E-002 +2.2541046143E-002
575000000.000 +1.2193298340E-001 -4.3987274170E-002 +4.2817592621E-003 -3.7324428558E-003 -2.6080757380E-005 +7.5254589319E-005 +2.7251243591E-002 +1.1261940002E-002
707500000.000 +1.2019729614E-001 -5.3451538086E-002 +1.3029575348E-003 -5.3951740265E-003 -5.3923577070E-006 -5.8051198721E-005 +2.0465850830E-003 +1.8689155579E-002
840000000.000 +1.1640548706E-001 -6.1061859131E-002 -2.0160675049E-003 -5.2473545074E-003 +1.0133534670E-004 +3.2473355532E-005 -1.9852638245E-002 +2.6089668274E-002
972500000.000 +1.1634826660E-001 -7.1071624756E-002 -4.6007633209E-003 -3.0286312103E-003 -2.3802742362E-005 +1.5649944544E-005 -3.5821914673E-002 +3.5486221313E-002
1105000000.000 +1.1368179321E-001 -8.0055236816E-002 -5.5403709412E-003 +8.7738037109E-005 -2.6661902666E-005 -5.0166621804E-005 -4.6888351440E-002 +3.8267135620E-002
1237500000.000 +1.1198425293E-001 -8.9012145996E-002 -4.3511390686E-003 +3.2684803009E-003 +2.3718923330E-005 -7.8272074461E-005 -5.8620452881E-002 +3.3960342407E-002
1370000000.000 +1.1004638672E-001 -9.8739624023E-002 -1.6715526581E-003 +5.1643848419E-003 -3.5572797060E-005 +8.5175037384E-005 -7.4016571045E-002 +2.7004241943E-002
1502500000.000 +1.0589981079E-001 -1.0449218750E-001 +1.5754699707E-003 +5.3343772888E-003 -5.7330355048E-005 +6.9271773100E-006 -8.8001251221E-002 +2.1366119385E-002
1635000000.000 +1.0560989380E-001 -1.1535644531E-001 +4.2746067047E-003 +3.3199787140E-003 +3.1512230635E-005 -6.2566250563E-006 -9.9067687988E-002 +1.1688232422E-002
1767500000.000 +1.0258102417E-001 -1.2417984009E-001 +5.5558681488E-003 +2.7561187744E-004 +4.7117471695E-005 +5.5074691772E-005 -1.1189270020E-001 +2.9182434082E-003
1900000000.000 +9.8098754883E-002 -1.2730407715E-001 +5.0027370453E-003 -3.0767917633E-003 +1.9476283342E-006 -7.5628049672E-006 -1.1391448975E-001 -3.5018920898E-003
2032500000.000 +9.4505310059E-002 -1.3385772705E-001 +2.3968219757E-003 -5.4016113281E-003 +5.4582953453E-005 -8.0581754446E-005 -1.1367034912E-001 -2.4284362793E-002
2165000000.000 +9.1346740723E-002 -1.4109039307E-001 -9.0074539185E-004 -5.8450698853E-003 +1.6050785780E-004 -2.8200447559E-005 -1.2255096436E-001 -4.2201995850E-002
2297500000.000 +8.5723876953E-002 -1.4710998535E-001 -4.0111541748E-003 -4.5251846313E-003 +4.7087669373E-006 +1.2249499559E-004 -1.2655639648E-001 -5.3565979004E-002
2430000000.000 +8.1970214844E-002 -1.5353393555E-001 -5.6273937225E-003 -1.5454292297E-003 +3.7631019950E-005 -4.8350542784E-005 -1.2657928467E-001 -6.4971923828E-002
2562500000.000 +8.0200195313E-002 -1.6114044189E-001 -5.7022571564E-003 +2.1595954895E-003 -2.7763657272E-005 +3.0450522900E-005 -1.2525939941E-001 -7.1006774902E-002
2695000000.000 +7.4813842773E-002 -1.6770172119E-001 -3.6215782166E-003 +4.9147605896E-003 -4.7849491239E-005 +4.9304217100E-005 -1.1354064941E-001 -7.3280334473E-002
2827500000.000 +7.1075439453E-002 -1.7343902588E-001 +4.0531158447E-005 +6.1931610107E-003 -9.8619610071E-005 +8.7805092335E-005 -9.8663330078E-002 -8.1840515137E-002
2960000000.000 +6.9618225098E-002 -1.8105316162E-001 +3.3771991730E-003 +5.0275325775E-003 -5.1010400057E-005 -1.1311843991E-005 -8.8298797607E-002 -8.6727142334E-002
3092500000.000 +6.5437316895E-002 -1.8927001953E-001 +5.7423114777E-003 +2.1562576294E-003 +1.6698613763E-005 +5.1157549024E-005 -7.0396423340E-002 -8.5914611816E-002
3225000000.000 +5.9745788574E-002 -1.9589233398E-001 +5.9552192688E-003 -1.4693737030E-003 +1.1024996638E-005 +1.9213184714E-006 -5.2024841309E-002 -9.1186523438E-002
3357500000.000 +5.5671691895E-002 -2.0161437988E-001 +4.0769577026E-003 -4.5740604401E-003 +1.6029924154E-005 -7.0646405220E-005 -4.1244506836E-002 -9.1697692871E-002
3490000000.000 +5.2253723145E-002 -2.0933532715E-001 +7.5936317444E-004 -6.1700344086E-003 +5.4098665714E-005 +1.1764466763E-005 -2.8007507324E-002 -8.3354949951E-002
3622500000.000 +4.7645568848E-002 -2.1666717529E-001 -2.8669834137E-003 -5.6023597717E-003 -1.5341490507E-004 +9.1642141342E-007 -1.1245727539E-002 -7.9151153564E-002
3755000000.000 +4.2671203613E-002 -2.2392272949E-001 -5.7213306427E-003 -2.9971599579E-003 +9.8388642073E-005 -2.5164335966E-005 -5.7983398438E-003 -7.2875976563E-002
3887500000.000 +3.9634704590E-002 -2.3085784912E-001 -6.4132213593E-003 +9.8776817322E-004 +3.5464763641E-005 -1.6408041120E-005 +2.1247863770E-003 -5.5843353271E-002
4020000000.000 +3.6422729492E-002 -2.3687744141E-001 -4.7681331635E-003 +4.6162605286E-003 -1.8597580492E-005 -1.0120682418E-005 +1.3298034668E-002 -4.4464111328E-002
4152500000.000 +3.3706665039E-002 -2.4517059326E-001 -9.4318389893E-004 +6.7582130432E-003 +2.1592713892E-005 -1.1615455151E-005 +1.5464782715E-002 -3.2629013062E-002
4285000000.000 +3.0838012695E-002 -2.5447082520E-001 +3.6664009094E-003 +5.8875083923E-003 +6.6760927439E-005 +5.6739896536E-005 +1.7026901245E-002 -1.3105392456E-002
4417500000.000 +2.7114868164E-002 -2.6408386230E-001 +6.6325664520E-003 +2.1550655365E-003 -8.4344297647E-005 +8.0071389675E-005 +2.5706291199E-002 +3.5409927368E-003
4550000000.000 +2.4337768555E-002 -2.7366638184E-001 +6.4027309418E-003 -2.5691986084E-003 -3.8556754589E-006 -2.6356428862E-005 +2.8863906860E-002 +9.5281600952E-003
4682500000.000 +1.8371582031E-002 -2.8892517090E-001 +2.4905204773E-003 -6.2115192413E-003 +4.5320019126E-005 -2.8206035495E-005 +2.5586128235E-002 +2.0670890808E-002
4815000000.000 +1.1062622070E-002 -2.9904174805E-001 -2.0503997803E-003 -6.1545372009E-003 -3.0431896448E-005 +8.1162899733E-005 +3.1120300293E-002 +2.7453422546E-002
4947500000.000 +5.1574707031E-003 -3.0613708496E-001 -5.3906440735E-003 -3.6940574646E-003 -2.4819746614E-005 -5.6466087699E-005 +2.7590751648E-002 +1.9914627075E-002
5080000000.000 -2.3651123047E-003 -3.1477355957E-001 -6.2799453735E-003 +7.5459480286E-004 +2.4537555873E-005 +2.5261193514E-005 +1.3341903687E-002 +2.0503997803E-002
5212500000.000 -1.0284423828E-002 -3.2167053223E-001 -4.2533874512E-003 +4.4088363647E-003 -5.0488859415E-005 +8.6408108473E-005 +9.3107223511E-003 +2.4811744690E-002
5345000000.000 -1.6159057617E-002 -3.2597351074E-001 -9.6535682678E-004 +6.2055587769E-003 -2.9327347875E-005 -4.4209882617E-005 +5.4655075073E-003 +1.6168594360E-002
5477500000.000 -2.1835327148E-002 -3.3035278320E-001 +3.0777454376E-003 +5.2921772003E-003 +4.2894855142E-005 +9.0152025223E-007 -9.1686248779E-003 +1.0293483734E-002
5610000000.000 -2.8976440430E-002 -3.3557128906E-001 +5.3763389587E-003 +2.1493434906E-003 +2.3245811462E-005 +6.4503401518E-005 -1.4844894409E-002 +1.4532089233E-002
5742500000.000 -3.5202026367E-002 -3.3901977539E-001 +5.6755542755E-003 -1.5110969543E-003 -5.5022537708E-005 -2.2884458303E-005 -1.1451244354E-002 +5.9852600098E-003
5875000000.000 -4.0573120117E-002 -3.4080505371E-001 +3.8182735443E-003 -4.5206546783E-003 -1.9743107259E-005 -3.6964192986E-006 -2.0227432251E-002 -3.3073425293E-003
6007500000.000 -4.6173095703E-002 -3.4321594238E-001 +2.5439262390E-004 -5.6726932526E-003 +1.1261552572E-005 -3.8150697947E-005 -2.3158073425E-002 +3.0136108398E-004
6140000000.000 -5.2474975586E-002 -3.4722900391E-001 -3.0477046967E-003 -4.5578479767E-003 -3.1534582376E-005 -1.6091391444E-005 -1.5346527100E-002 -2.6640892029E-003
6272500000.000 -5.9295654297E-002 -3.5017395020E-001 -5.2094459534E-003 -2.0840167999E-003 -2.6188790798E-006 -6.3411891460E-005 -1.6500473022E-002 -1.1808395386E-002
6405000000.000 -6.6085815430E-002 -3.5018920898E-001 -5.2735805511E-003 +1.4529228210E-003 +1.8795952201E-005 -1.9986182451E-006 -1.9413948059E-002 -6.2770843506E-003
6537500000.000 -7.0678710938E-002 -3.5211181641E-001 -3.2229423523E-003 +4.0647983551E-003 -2.3920089006E-005 +1.3232231140E-005 -9.3002319336E-003 -3.2382011414E-003
6670000000.000 -7.5897216797E-002 -3.5725402832E-001 -3.9291381836E-004 +5.3422451019E-003 +1.8642283976E-005 -2.0536594093E-005 -7.8878402710E-003 -7.1821212769E-003
6802500000.000 -8.4777832031E-002 -3.5908508301E-001 +2.7375221252E-003 +4.4360160828E-003 +2.6140362024E-005 -3.5082921386E-005 -1.1433601379E-002 +1.5640258789E-004
6935000000.000 -9.1445922852E-002 -3.5708618164E-001 +4.4193267822E-003 +1.7001628876E-003 -3.5364180803E-005 +1.4901161194E-007 -6.3686370850E-003 +9.8958015442E-003
7067500000.000 -9.3902587891E-002 -3.6019897461E-001 +4.6803951263E-003 -1.1227130890E-003 -4.6109780669E-005 +1.7244368792E-005 -4.6634674072E-003 +1.0191440582E-002
7200000000.000 -9.9578857422E-002 -3.6518859863E-001 +3.4054517746E-003 -3.6387443542E-003 +8.2701444626E-005 -5.5767595768E-005 -1.5097618103E-002 +1.7024040222E-002
7332500000.000 -1.0771179199E-001 -3.6555480957E-001 +5.1021575928E-004 -4.6765804291E-003 -2.2414140403E-005 +1.5011988580E-005 -1.7088890076E-002 +3.0748367310E-002
7465000000.000 -1.1231994629E-001 -3.6602783203E-001 -2.1774768829E-003 -4.0180683136E-003 -7.9009681940E-005 -4.4014304876E-005 -1.9824981689E-002 +3.1183242798E-002
7597500000.000 -1.1558532715E-001 -3.7022399902E-001 -4.2517185211E-003 -2.2344589233E-003 +5.4622069001E-005 -2.8152018785E-005 -3.6357879639E-002 +3.3246994019E-002
7730000000.000 -1.2155151367E-001 -3.7284851074E-001 -4.3907165527E-003 +5.5217742920E-004 +5.0906091928E-005 +4.6603381634E-006 -4.8255920410E-002 +4.3672561646E-002
7862500000.000 -1.2695312500E-001 -3.7341308594E-001 -2.9658079147E-003 +2.8252601624E-003 -6.3288956881E-005 -3.3397227526E-005 -5.3667068481E-002 +4.2568206787E-002
7995000000.000 -1.2959289551E-001 -3.7574768066E-001 -9.3817710876E-004 +4.1170120239E-003 -3.9814040065E-005 +1.2736767530E-005 -7.2872161865E-002 +3.5198211670E-002
8127500000.000 -1.3319396973E-001 -3.7997436523E-001 +1.4321804047E-003 +3.8692951202E-003 +8.1593170762E-006 +2.7182511985E-005 -9.1335296631E-002 +3.9783477783E-002
8260000000.000 -1.3867187500E-001 -3.8102722168E-001 +3.2093524933E-003 +2.1185874939E-003 -3.5790726542E-006 -8.6855143309E-006 -9.5531463623E-002 +3.4400939941E-002
8392500000.000 -1.4134216309E-001 -3.8262939453E-001 +3.8684606552E-003 +7.2598457336E-005 -1.9341707230E-005 -4.6018511057E-005 -1.0987091064E-001 +1.8466949463E-002
8525000000.000 -1.4308166504E-001 -3.8528442383E-001 +3.0996799469E-003 -2.1094083786E-003 +8.9113600552E-006 +8.0200843513E-006 -1.2198257446E-001 +1.5090942383E-002
8657500000.000 -1.4645385742E-001 -3.8742065430E-001 +1.2305974960E-003 -3.2982826233E-003 -4.9132853746E-005 +1.0926276445E-005 -1.1782836914E-001 +4.2419433594E-003
8790000000.000 -1.5046691895E-001 -3.8934326172E-001 -8.2945823669E-004 -3.3137798309E-003 -2.9645860195E-005 -8.9585781097E-005 -1.1958694458E-001 -1.7398834229E-002
8922500000.000 -1.5286254883E-001 -3.8963317871E-001 -2.5213956833E-003 -2.3624897003E-003 +8.8721513748E-005 -7.5362622738E-006 -1.2229537964E-001 -3.0471801758E-002
9055000000.000 -1.5498352051E-001 -3.9164733887E-001 -3.2174587250E-003 -4.2724609375E-004 -2.6267021894E-005 +4.0771439672E-005 -1.1100006104E-001 -4.3991088867E-002
9187500000.000 -1.5792846680E-001 -3.9289855957E-001 -2.8021335602E-003 +1.3784170151E-003 -3.8376078010E-005 -6.0662627220E-005 -1.0026168823E-001 -6.6799163818E-002
9320000000.000 -1.6331481934E-001 -3.9300537109E-001 -1.5443563461E-003 +2.5545358658E-003 +7.1916729212E-006 -3.3015385270E-005 -9.3692779541E-002 -7.9570770264E-002
9452500000.000 -1.6577148438E-001 -3.9320373535E-001 +1.9812583923E-004 +2.9976367950E-003 +9.7975134850E-006 +3.2067298889E-005 -7.4245452881E-002 -8.6627960205E-002
9585000000.000 -1.6874694824E-001 -3.9422607422E-001 +1.6988515854E-003 +2.2009611130E-003 -4.2632222176E-005 +4.8205256462E-006 -5.4168701172E-002 -1.0122680664E-001
9717500000.000 -1.7414855957E-001 -3.9659118652E-001 +2.6687383652E-003 +8.1837177277E-004 +4.8469752073E-005 -1.5584751964E-005 -4.1381835938E-002 -1.0695266724E-001
9850000000.000 -1.7970275879E-001 -3.9494323730E-001 +2.5111436844E-003 -8.3231925964E-004 +5.1958486438E-005 +1.9047409296E-005 -1.9023895264E-002 -1.0223388672E-001
9982500000.000 -1.8132019043E-001 -3.9602661133E-001 +1.5827417374E-003 -2.0381212234E-003 +3.2518059015E-005 +2.0070001483E-005 +6.5307617188E-003 -1.0328292847E-001
10115000000.000 -1.8524169922E-001 -3.9823913574E-001 +1.7702579498E-004 -2.5212764740E-003 +4.3008476496E-005 -1.6912817955E-005 +1.9134521484E-002 -9.9132537842E-002
10247500000.000 -1.9152832031E-001 -3.9883422852E-001 -1.1664628983E-003 -2.1179914474E-003 +3.8385391235E-005 +3.8502737880E-005 +3.5705566406E-002 -7.9967498779E-002
10380000000.000 -1.9517517090E-001 -3.9831542969E-001 -2.0455121994E-003 -9.8764896393E-004 -2.7295202017E-005 +3.1901523471E-005 +5.7102203369E-002 -6.7558288574E-002
10512500000.000 -1.9848632813E-001 -3.9938354492E-001 -2.2315979004E-003 +2.7287006378E-004 -3.0880793929E-005 -6.0364603996E-005 +6.2557220459E-002 -5.6007385254E-002
10645000000.000 -2.0246887207E-001 -4.0075683594E-001 -1.6770362854E-003 +1.4370083809E-003 +6.8441033363E-005 +1.4215707779E-005 +6.6101074219E-002 -2.9266357422E-002
10777500000.000 -2.0697021484E-001 -4.0202331543E-001 -4.8899650574E-004 +1.9738674164E-003 -7.7188014984E-005 +4.6815723181E-005 +7.7262878418E-002 -7.7934265137E-003
10910000000.000 -2.1092224121E-001 -4.0280151367E-001 +6.9022178650E-004 +1.8830895424E-003 -2.0042061806E-005 -4.5822933316E-005 +7.2299957275E-002 +5.5465698242E-003
11042500000.000 -2.1565246582E-001 -4.0385437012E-001 +1.5860199928E-003 +1.0854601860E-003 -2.9587186873E-005 +7.3676928878E-006 +5.9490203857E-002 +3.1383514404E-002
11175000000.000 -2.1888732910E-001 -4.0620422363E-001 +1.8025040627E-003 +5.5849552155E-005 -3.9111822844E-005 +2.8785318136E-005 +5.6463241577E-002 +5.2536010742E-002
11307500000.000 -2.2128295898E-001 -4.0713500977E-001 +1.5335083008E-003 -8.9293718338E-004 -5.4348260164E-005 +4.8223882914E-006 +4.3601989746E-002 +5.8559417725E-002
11440000000.000 -2.2607421875E-001 -4.0864562988E-001 +6.8932771683E-004 -1.5732049942E-003 +3.0541792512E-005 -3.4388154745E-005 +1.8188476563E-002 +7.2124481201E-002
11572500000.000 -2.2782897949E-001 -4.1113281250E-001 -1.7696619034E-004 -1.6389489174E-003 +3.6450102925E-005 +5.6326389313E-005 +4.2495727539E-003 +8.7387084961E-002
11705000000.000 -2.3042297363E-001 -4.1236877441E-001 -1.0753273964E-003 -1.1753439903E-003 -9.6108764410E-005 -6.0703605413E-005 -1.0246276855E-002 +8.0986022949E-002
11837500000.000 -2.3419189453E-001 -4.1384887695E-001 -1.4914274216E-003 -3.9726495743E-004 -6.5583735704E-006 -9.4152055681E-006 -4.3212890625E-002 +7.6644897461E-002
11970000000.000 -2.3567199707E-001 -4.1377258301E-001 -1.4695525169E-003 +3.9446353912E-004 -2.8619542718E-005 +5.6926161051E-005 -5.9413909912E-002 +8.3076477051E-002
12102500000.000 -2.3567199707E-001 -4.1555786133E-001 -9.7489356995E-004 +1.0526776314E-003 -1.9002705812E-005 -2.8964132071E-007 -6.5467834473E-002 +6.4277648926E-002
12235000000.000 -2.4124145508E-001 -4.1587829590E-001 -1.1557340622E-004 +1.4427900314E-003 -2.5314278901E-005 -1.5062279999E-005 -9.2853546143E-002 +4.3983459473E-002
12367500000.000 -2.4148559570E-001 -4.1546630859E-001 +7.3480606079E-004 +1.1761784554E-003 +7.3079019785E-005 +7.7832490206E-005 -1.0549926758E-001 +4.2617797852E-002
12500000000.000 -2.4508666992E-001 -4.1494750977E-001 +1.2339949608E-003 +5.0497055054E-004 +7.8566372395E-006 +6.2581151724E-005 -9.7358703613E-002 +2.0332336426E-002
12632500000.000 -2.4696350098E-001 -4.1676330566E-001 +1.3349652290E-003 -1.7309188843E-004 +1.5120953321E-005 +3.9821490645E-005 -1.0929107666E-001 -1.3618469238E-002
12765000000.000 -2.4943542480E-001 -4.1641235352E-001 +9.4905495644E-004 -8.7162852287E-004 +9.6932053566E-005 -5.6844204664E-005 -1.1734008789E-001 -1.7951965332E-002
12897500000.000 -2.5199890137E-001 -4.1484069824E-001 +2.9587745667E-004 -1.1711716652E-003 -1.6774982214E-005 +6.7697837949E-006 -9.2201232910E-002 -3.4633636475E-002
13030000000.000 -2.5387573242E-001 -4.1473388672E-001 -3.9726495743E-004 -1.1249780655E-003 -1.6586855054E-005 -2.8195790946E-005 -8.9401245117E-002 -7.1231842041E-002
13162500000.000 -2.5640869141E-001 -4.1561889648E-001 -9.4980001450E-004 -7.2428584099E-004 +3.9573758841E-005 -1.6270205379E-005 -9.1670989990E-002 -7.2578430176E-002
13295000000.000 -2.5944519043E-001 -4.1606140137E-001 -1.1782646179E-003 -7.1108341217E-005 +3.4295022488E-005 +1.7220154405E-005 -6.0951232910E-002 -7.8701019287E-002
13427500000.000 -2.6354980469E-001 -4.1419982910E-001 -9.0193748474E-004 +4.9126148224E-004 -1.9522383809E-005 -3.3248215914E-007 -4.6745300293E-002 -1.0422515869E-001
13560000000.000 -2.6377868652E-001 -4.1372680664E-001 -5.1498413086E-004 +9.7954273224E-004 +4.0158629417E-006 +4.6424567699E-005 -4.6516418457E-002 -1.0157775879E-001
13692500000.000 -2.6629638672E-001 -4.1600036621E-001 +1.6957521439E-004 +9.8305940628E-004 +1.2858770788E-005 +1.9006431103E-005 -1.7745971680E-002 -8.9130401611E-002
13825000000.000 -2.7099609375E-001 -4.1627502441E-001 +6.8804621696E-004 +6.8446993828E-004 +1.3813376427E-005 +4.7279521823E-005 +4.3983459473E-003 -1.0309219360E-001
13957500000.000 -2.7365112305E-001 -4.1416931152E-001 +9.4237923622E-004 +2.8070807457E-004 -6.1184167862E-005 +5.3633004427E-005 -3.8146972656E-005 -9.5722198486E-002
14090000000.000 -2.7453613281E-001 -4.1505432129E-001 +8.9481472969E-004 -2.8622150421E-004 -4.4576823711E-005 -3.0400231481E-005 +2.2006988525E-002 -7.0243835449E-002
14222500000.000 -2.7577209473E-001 -4.1792297363E-001 +5.5092573166E-004 -6.4527988434E-004 +2.6131048799E-005 -3.9717182517E-005 +4.4139862061E-002 -7.4089050293E-002
14355000000.000 -2.8065490723E-001 -4.1804504395E-001 -1.2278556824E-005 -8.3124637604E-004 -8.2418322563E-005 +5.2601099014E-006 +3.3325195313E-002 -6.7153930664E-002
14487500000.000 -2.8288269043E-001 -4.1755676270E-001 -3.8760900497E-004 -7.5817108154E-004 -6.0664489865E-005 +1.0835006833E-005 +4.0315628052E-002 -3.4023284912E-002
14620000000.000 -2.8283691406E-001 -4.1885375977E-001 -7.7968835831E-004 -4.8115849495E-004 -8.8536180556E-006 +1.3804528862E-005 +6.0886383057E-002 -3.1383514404E-002
14752500000.000 -2.8599548340E-001 -4.2272949219E-001 -7.7745318413E-004 -8.1121921539E-005 -9.6503645182E-005 -7.0229172707E-005 +4.3329238892E-002 -3.2176971436E-002
14885000000.000 -2.8878784180E-001 -4.2359924316E-001 -7.2610378265E-004 +4.7585368156E-004 +3.0435621738E-005 -5.6019052863E-006 +3.5686492920E-002 +1.4533996582E-003
15017500000.000 -2.8959655762E-001 -4.2401123047E-001 -2.2628903389E-004 +8.0120563507E-004 +1.7009675503E-005 +1.5246123075E-004 +5.2982330322E-002 +8.6078643799E-003
15150000000.000 -2.9023742676E-001 -4.2768859863E-001 +1.1837482452E-004 +7.2744488716E-004 -3.3080577850E-006 -8.8885426521E-005 +3.5100936890E-002 -1.5316009521E-003
15282500000.000 -2.9139709473E-001 -4.3013000488E-001 +5.4693222046E-004 +5.2130222321E-004 +8.1889331341E-005 +1.2144446373E-006 +1.4697074890E-002 +2.3517608643E-002
