!  2-Port S-parameters saved by WinCal
! VAR MeasName=S-Parameters (CALIBRATED_DATA) read from VNA (C)
! VAR MeasDate=10/16/2015 3:56:28 PM
! VAR NAME=M6082_10_17_2_2_20C_8.3mA_-17.5dBm
! VAR FILENAME=M6082_10_17_2_2_20C_8.3mA_-17.5dBm.S2P
! VAR DATE=10/16/2015 3:56:28 PM
! VAR PHYS_PORTS=2,1
! VAR ObjTypeName=DATASET
! VAR IndexType=Frequency
!
# Hz S RI R 50
45000000.000 -1.0031890869E-001 -1.2474060059E-003 -3.2756328583E-003 +7.1535110474E-003 +4.8325955868E-004 +4.0929019451E-004 +2.8744697571E-002 +4.1418075562E-003
177500000.000 -9.9372863770E-002 -1.1554718018E-002 +2.7434825897E-003 +6.7756175995E-003 +2.2720545530E-004 +2.3145973682E-004 +1.5909194946E-002 +1.6834259033E-002
310000000.000 -9.9433898926E-002 -2.1583557129E-002 +5.5975914001E-003 +4.5552253723E-003 -1.3107061386E-004 +1.1228024960E-004 +2.8959274292E-002 +6.1405181885E-002
442500000.000 -9.9956512451E-002 -3.1391143799E-002 +8.0957412720E-003 +5.7220458984E-005 +5.7127326727E-005 +1.0092183948E-004 +7.2532653809E-002 +2.2472381592E-002
575000000.000 -1.0101318359E-001 -4.1843414307E-002 +6.2496662140E-003 -4.3933391571E-003 -2.6949681342E-005 +5.5488198996E-006 +2.7100563049E-002 +1.1358261108E-002
707500000.000 -1.0258102417E-001 -5.1136016846E-002 +2.6743412018E-003 -7.0347785950E-003 -9.3139708042E-005 -4.1179358959E-005 +2.1018981934E-003 +1.8711090088E-002
840000000.000 -1.0369110107E-001 -6.1229705811E-002 -1.7721652985E-003 -7.2348117828E-003 -3.0992552638E-005 -3.3853575587E-005 -1.9852638245E-002 +2.6136398315E-002
972500000.000 -1.0479736328E-001 -7.1037292480E-002 -5.5105686188E-003 -5.0289630890E-003 -3.1359493732E-005 +6.0126185417E-006 -3.5873413086E-002 +3.5379409790E-002
1105000000.000 -1.0694885254E-001 -8.1073760986E-002 -7.3754787445E-003 -1.0044574738E-003 -3.7895515561E-005 +6.6161155701E-006 -4.6852111816E-002 +3.8299560547E-002
1237500000.000 -1.0916519165E-001 -9.0286254883E-002 -6.6642761230E-003 +3.3159255981E-003 +1.3397075236E-005 -2.0381994545E-005 -5.8607101440E-002 +3.3880233765E-002
1370000000.000 -1.1174774170E-001 -9.9555969238E-002 -3.6163330078E-003 +6.4144134521E-003 +4.0085986257E-005 +2.9576942325E-005 -7.3966979980E-002 +2.6931762695E-002
1502500000.000 -1.1411285400E-001 -1.0872268677E-001 +6.4682960510E-004 +7.3685646057E-003 +1.5196390450E-005 -2.0906329155E-005 -8.7959289551E-002 +2.1301269531E-002
1635000000.000 -1.1631393433E-001 -1.1863327026E-001 +4.6501159668E-003 +5.6800842285E-003 +2.8633512557E-005 +1.1641532183E-006 -9.9029541016E-002 +1.1623382568E-002
1767500000.000 -1.1975860596E-001 -1.2780761719E-001 +7.0188045502E-003 +2.0668506622E-003 +1.4129560441E-005 +1.4253892004E-006 -1.1186218262E-001 +2.9525756836E-003
1900000000.000 -1.2252807617E-001 -1.3619232178E-001 +6.9472789764E-003 -2.3136138916E-003 +1.4366582036E-005 -4.9885362387E-005 -1.1381149292E-001 -3.5476684570E-003
2032500000.000 -1.2571716309E-001 -1.4470672607E-001 +4.3737888336E-003 -5.7415962219E-003 +5.8500096202E-005 -5.5879354477E-006 -1.1373901367E-001 -2.4387359619E-002
2165000000.000 -1.2879180908E-001 -1.5400695801E-001 +3.8337707520E-004 -7.1337223053E-003 -1.7108395696E-005 +3.9407983422E-005 -1.2250900269E-001 -4.2282104492E-002
2297500000.000 -1.3240051270E-001 -1.6197967529E-001 -3.6389827728E-003 -6.1185359955E-003 -2.9284507036E-005 -6.4745545387E-006 -1.2647247314E-001 -5.3497314453E-002
2430000000.000 -1.3587188721E-001 -1.6990661621E-001 -6.5665245056E-003 -2.8536319733E-003 -5.0291419029E-007 -6.8567693233E-005 -1.2654113770E-001 -6.5025329590E-002
2562500000.000 -1.3979339600E-001 -1.7842102051E-001 -7.1420669556E-003 +1.2111663818E-003 +8.8725239038E-005 +7.3347240686E-005 -1.2519836426E-001 -7.1067810059E-002
2695000000.000 -1.4516448975E-001 -1.8519592285E-001 -5.0711631775E-003 +4.9073696136E-003 +1.7687678337E-005 +7.6051801443E-005 -1.1364364624E-001 -7.3478698730E-002
2827500000.000 -1.4995574951E-001 -1.9138336182E-001 -1.3763904572E-003 +6.9246292114E-003 -4.0236860514E-005 +9.0230256319E-005 -9.8735809326E-002 -8.1920623779E-002
2960000000.000 -1.5350341797E-001 -1.9860076904E-001 +2.4638175964E-003 +6.4008235931E-003 +1.4229863882E-004 -6.3702464104E-005 -8.7997436523E-002 -8.6750030518E-002
3092500000.000 -1.5896606445E-001 -2.0664215088E-001 +5.6574344635E-003 +3.8990974426E-003 -4.7128647566E-005 +1.2019276619E-004 -7.0358276367E-002 -8.6132049561E-002
3225000000.000 -1.6551971436E-001 -2.1309661865E-001 +6.8724155426E-003 +3.8862228394E-005 -5.5672600865E-005 -5.6380406022E-005 -5.2055358887E-002 -9.1079711914E-002
3357500000.000 -1.7044067383E-001 -2.1820831299E-001 +5.7280063629E-003 -3.7436485291E-003 +1.5395879745E-004 +5.3942203522E-005 -4.1217803955E-002 -9.1541290283E-002
3490000000.000 -1.7543029785E-001 -2.2611236572E-001 +2.3870468140E-003 -6.2322616577E-003 -1.1272728443E-005 +1.1753663421E-004 -2.7725219727E-002 -8.3347320557E-002
3622500000.000 -1.8102264404E-001 -2.3365020752E-001 -1.3902187347E-003 -6.6313743591E-003 -1.2350082397E-004 +1.8633902073E-005 -1.1474609375E-002 -7.9265594482E-002
3755000000.000 -1.8741607666E-001 -2.4032592773E-001 -4.8115253448E-003 -4.7333240509E-003 +5.0147995353E-005 -7.4338167906E-006 -5.8746337891E-003 -7.2956085205E-002
3887500000.000 -1.9275665283E-001 -2.4623107910E-001 -6.5245628357E-003 -1.0881423950E-003 -2.0094215870E-005 +4.3220818043E-005 +2.1820068359E-003 -5.5910110474E-002
4020000000.000 -1.9795227051E-001 -2.5207519531E-001 -6.1900615692E-003 +2.7623176575E-003 -4.1594728827E-005 -5.5272132158E-005 +1.3391494751E-002 -4.4527053833E-002
4152500000.000 -2.0295715332E-001 -2.5883483887E-001 -3.4353733063E-003 +5.7380199432E-003 +8.7358057499E-005 -9.6149742603E-006 +1.5270233154E-002 -3.2657623291E-002
4285000000.000 -2.0878601074E-001 -2.6490783691E-001 +3.7980079651E-004 +6.6747665405E-003 -9.8850578070E-006 +4.2343512177E-005 +1.6989707947E-002 -1.3113021851E-002
4417500000.000 -2.1522521973E-001 -2.7029418945E-001 +3.9656162262E-003 +5.2480697632E-003 -7.6182186604E-006 +6.3419342041E-005 +2.5707244873E-002 +3.5648345947E-003
4550000000.000 -2.1986389160E-001 -2.7529907227E-001 +6.0675144196E-003 +1.9986629486E-003 +1.7523765564E-005 -6.9126486778E-005 +2.8898239136E-002 +9.5195770264E-003
4682500000.000 -2.2471618652E-001 -2.8144836426E-001 +6.2103271484E-003 -1.6779899597E-003 +1.1350959539E-005 +3.1260773540E-005 +2.5656700134E-002 +2.0590782166E-002
4815000000.000 -2.3080444336E-001 -2.8718566895E-001 +4.3067932129E-003 -4.7695636749E-003 -3.1433999538E-005 +5.4948031902E-007 +3.1251907349E-002 +2.7418136597E-002
4947500000.000 -2.3594665527E-001 -2.9161071777E-001 +8.5973739624E-004 -6.2918663025E-003 -3.2981857657E-005 -3.1888484955E-005 +2.7595520020E-002 +1.9782066345E-002
5080000000.000 -2.4000549316E-001 -2.9687500000E-001 -2.7556419373E-003 -5.8393478394E-003 +6.4194202423E-005 +3.1184405088E-005 +1.3354301453E-002 +2.0423889160E-002
5212500000.000 -2.4526977539E-001 -3.0212402344E-001 -5.5222511292E-003 -3.3230781555E-003 -8.6210668087E-005 +5.4180622101E-005 +9.1667175293E-003 +2.4753570557E-002
5345000000.000 -2.5106811523E-001 -3.0606079102E-001 -6.4342021942E-003 +3.8647651672E-004 -3.8407742977E-006 -3.9305537939E-005 +5.5284500122E-003 +1.6155242920E-002
5477500000.000 -2.5448608398E-001 -3.0950927734E-001 -5.2204132080E-003 +4.0156841278E-003 +4.7961249948E-005 +6.1821192503E-006 -9.0217590332E-003 +1.0293483734E-002
5610000000.000 -2.5894165039E-001 -3.1434631348E-001 -2.0205974579E-003 +6.2606334686E-003 -9.5088034868E-006 +2.5068409741E-005 -1.4831066132E-002 +1.4446735382E-002
5742500000.000 -2.6496887207E-001 -3.1793212891E-001 +1.8198490143E-003 +6.2742233276E-003 -3.0416995287E-005 -6.8809837103E-005 -1.1490345001E-002 +5.9652328491E-003
5875000000.000 -2.7035522461E-001 -3.1936645508E-001 +5.0134658813E-003 +4.1475296021E-003 +3.3017247915E-005 +1.8673017621E-005 -2.0152091980E-002 -3.2434463501E-003
6007500000.000 -2.7426147461E-001 -3.2211303711E-001 +6.4904689789E-003 +5.6147575378E-004 +1.2407079339E-005 -3.6513432860E-005 -2.3030281067E-002 +1.9359588623E-004
6140000000.000 -2.7946472168E-001 -3.2640075684E-001 +5.6457519531E-003 -3.1239986420E-003 -4.9965456128E-005 -2.5369226933E-006 -1.5380382538E-002 -2.7995109558E-003
6272500000.000 -2.8677368164E-001 -3.2885742188E-001 +2.8462409973E-003 -5.7971477509E-003 +4.1196122766E-005 -4.1043385863E-005 -1.6448020935E-002 -1.1736869812E-002
6405000000.000 -2.9302978516E-001 -3.2896423340E-001 -9.1099739075E-004 -6.3645839691E-003 +3.4624710679E-005 -3.1124800444E-006 -1.9339561462E-002 -6.2189102173E-003
6537500000.000 -2.9672241211E-001 -3.3213806152E-001 -4.2190551758E-003 -4.6560764313E-003 +8.3195045590E-006 -1.6826204956E-005 -9.2320442200E-003 -3.2973289490E-003
6670000000.000 -3.0224609375E-001 -3.3694458008E-001 -6.0610771179E-003 -1.4481544495E-003 +2.3534521461E-005 -2.7885660529E-005 -7.8482627869E-003 -7.2631835938E-003
6802500000.000 -3.1044006348E-001 -3.3885192871E-001 -5.8355331421E-003 +2.1576881409E-003 +3.1223520637E-005 +2.7433037758E-005 -1.1451721191E-002 +1.6593933105E-004
6935000000.000 -3.1605529785E-001 -3.3863830566E-001 -3.5731792450E-003 +5.0239562988E-003 -3.3378601074E-005 +1.0514631867E-005 -6.3419342041E-003 +9.9143981934E-003
7067500000.000 -3.1875610352E-001 -3.4164428711E-001 -1.7094612122E-004 +6.1984062195E-003 -4.4289976358E-005 -2.3135915399E-005 -4.6291351318E-003 +1.0171890259E-002
7200000000.000 -3.2473754883E-001 -3.4608459473E-001 +3.2408237457E-003 +5.1698684692E-003 +7.7951699495E-005 -4.5888125896E-005 -1.5161514282E-002 +1.7066955566E-002
7332500000.000 -3.3238220215E-001 -3.4730529785E-001 +5.6078433990E-003 +2.4349689484E-003 +4.4668093324E-005 +3.3099204302E-006 -1.7164230347E-002 +3.0855178833E-002
7465000000.000 -3.3708190918E-001 -3.4817504883E-001 +5.9115886688E-003 -1.1830329895E-003 -4.6757981181E-005 +8.8792294264E-006 -1.9744873047E-002 +3.1297683716E-002
7597500000.000 -3.4074401855E-001 -3.5145568848E-001 +4.3103694916E-003 -4.2653083801E-003 +9.3434937298E-006 +6.7055225372E-008 -3.6331176758E-002 +3.3229827881E-002
7730000000.000 -3.4672546387E-001 -3.5560607910E-001 +1.2605190277E-003 -5.8763027191E-003 -3.7185847759E-005 +4.2537227273E-005 -4.8423767090E-002 +4.3638229370E-002
7862500000.000 -3.5223388672E-001 -3.5743713379E-001 -2.3121833801E-003 -5.4759979248E-003 -1.0907649994E-005 -1.0818243027E-005 -5.3705215454E-002 +4.2760848999E-002
7995000000.000 -3.5574340820E-001 -3.5893249512E-001 -4.8632621765E-003 -3.2777786255E-003 +3.3680349588E-005 +2.4126842618E-005 -7.2898864746E-002 +3.5110473633E-002
8127500000.000 -3.5922241211E-001 -3.6364746094E-001 -5.8989524841E-003 -2.8371810913E-005 +2.9368326068E-005 +1.8446706235E-005 -9.1533660889E-002 +3.9653778076E-002
8260000000.000 -3.6524963379E-001 -3.6589050293E-001 -4.8878192902E-003 +3.2875537872E-003 -1.7312355340E-005 -2.2445805371E-005 -9.5661163330E-002 +3.4400939941E-002
8392500000.000 -3.6824035645E-001 -3.6724853516E-001 -2.2165775299E-003 +5.5339336395E-003 -2.5760382414E-006 -4.2416155338E-005 -1.0971069336E-001 +1.8489837646E-002
8525000000.000 -3.7063598633E-001 -3.7008666992E-001 +1.1470317841E-003 +5.8243274689E-003 +7.8853219748E-005 +3.1400471926E-005 -1.2182998657E-001 +1.4926910400E-002
8657500000.000 -3.7417602539E-001 -3.7316894531E-001 +4.2266845703E-003 +4.1313171387E-003 -4.0041282773E-005 +2.3368746042E-005 -1.1788940430E-001 +4.2037963867E-003
8790000000.000 -3.7915039063E-001 -3.7510681152E-001 +5.7315826416E-003 +1.0983943939E-003 -5.6272372603E-005 -2.2431835532E-005 -1.1963653564E-001 -1.7429351807E-002
8922500000.000 -3.8188171387E-001 -3.7501525879E-001 +5.3322315216E-003 -2.2981166840E-003 +4.4697895646E-005 +9.3076378107E-006 -1.2224197388E-001 -3.0498504639E-002
9055000000.000 -3.8479614258E-001 -3.7736511230E-001 +3.0660629272E-003 -4.8944950104E-003 -5.8278441429E-005 +5.0714239478E-005 -1.1090469360E-001 -4.4094085693E-002
9187500000.000 -3.8865661621E-001 -3.7884521484E-001 -2.0384788513E-004 -5.8817863464E-003 -1.7091631889E-005 -5.0466507673E-005 -1.0009765625E-001 -6.6833496094E-002
9320000000.000 -3.9505004883E-001 -3.7828063965E-001 -3.4396648407E-003 -4.7163963318E-003 +3.1167641282E-005 -1.7339363694E-005 -9.3631744385E-002 -7.9658508301E-002
9452500000.000 -3.9845275879E-001 -3.7820434570E-001 -5.4965019226E-003 -1.9459724426E-003 -8.0773606896E-006 -2.8465874493E-005 -7.4256896973E-002 -8.6566925049E-002
9585000000.000 -4.0229797363E-001 -3.7905883789E-001 -5.6488513947E-003 +1.4734268188E-003 -4.4120475650E-005 -1.8095597625E-005 -5.4183959961E-002 -1.0122299194E-001
9717500000.000 -4.0780639648E-001 -3.8098144531E-001 -3.8361549377E-003 +4.3447017670E-003 +4.4481828809E-005 -9.4622373581E-006 -4.1278839111E-002 -1.0707092285E-001
9850000000.000 -4.1413879395E-001 -3.7843322754E-001 -7.2431564331E-004 +5.6743621826E-003 -3.7375837564E-005 +4.7471374273E-005 -1.9283294678E-002 -1.0221099854E-001
9982500000.000 -4.1636657715E-001 -3.7968444824E-001 +2.5780200958E-003 +5.1708221436E-003 -6.4186751842E-006 -2.2508203983E-005 +6.4315795898E-003 -1.0316085815E-001
10115000000.000 -4.2031860352E-001 -3.8130187988E-001 +4.9805641174E-003 +2.7792453766E-003 +6.6347420216E-005 +1.6663223505E-005 +1.9149780273E-002 -9.9205017090E-002
10247500000.000 -4.2692565918E-001 -3.8151550293E-001 +5.6633949280E-003 -4.8065185547E-004 -2.2351741791E-005 +2.0740553737E-006 +3.5461425781E-002 -8.0200195313E-002
10380000000.000 -4.3115234375E-001 -3.8015747070E-001 +4.3792724609E-003 -3.5521984100E-003 -4.6100467443E-006 +4.3246895075E-005 +5.6926727295E-002 -6.7489624023E-002
10512500000.000 -4.3426513672E-001 -3.8026428223E-001 +1.5971660614E-003 -5.4175853729E-003 +5.1259994507E-005 +2.3132190108E-005 +6.2717437744E-002 -5.5946350098E-002
10645000000.000 -4.3817138672E-001 -3.8139343262E-001 -1.6460418701E-003 -5.4295063019E-003 +1.0170042515E-005 +4.3448060751E-005 +6.6169738770E-002 -2.9415130615E-002
10777500000.000 -4.4357299805E-001 -3.8208007813E-001 -4.3652057648E-003 -3.5078525543E-003 +1.2069940567E-006 +4.5482069254E-005 +7.6934814453E-002 -7.8964233398E-003
10910000000.000 -4.4821166992E-001 -3.8179016113E-001 -5.5058002472E-003 -4.9638748169E-004 -5.2955001593E-006 -3.2536685467E-005 +7.2322845459E-002 +5.6381225586E-003
11042500000.000 -4.5254516602E-001 -3.8192749023E-001 -4.8298835754E-003 +2.6507377625E-003 +2.0571053028E-005 -2.0762905478E-005 +5.9715270996E-002 +3.1028747559E-002
11175000000.000 -4.5594787598E-001 -3.8412475586E-001 -2.5732517242E-003 +4.9839019775E-003 -2.9115006328E-005 +8.7078660727E-007 +5.6463241577E-002 +5.2221298218E-002
11307500000.000 -4.5921325684E-001 -3.8467407227E-001 +5.9413909912E-004 +5.4848194122E-003 -3.5030767322E-005 -4.1779130697E-005 +4.3489456177E-002 +5.8588027954E-002
11440000000.000 -4.6385192871E-001 -3.8536071777E-001 +3.6432743073E-003 +4.1284561157E-003 +4.9019232392E-005 -2.0621344447E-005 +1.8318176270E-002 +7.2082519531E-002
11572500000.000 -4.6565246582E-001 -3.8746643066E-001 +5.3009986877E-003 +1.4414787292E-003 +1.5852972865E-005 +1.6491860151E-005 +4.4860839844E-003 +8.7265014648E-002
11705000000.000 -4.6824645996E-001 -3.8861083984E-001 +5.1352977753E-003 -1.8088817596E-003 +4.8838555813E-005 -3.6424025893E-005 -1.0196685791E-002 +8.0951690674E-002
11837500000.000 -4.7187805176E-001 -3.8964843750E-001 +3.2925605774E-003 -4.3804645538E-003 -7.2699040174E-006 -2.9521062970E-005 -4.3182373047E-002 +7.6633453369E-002
11970000000.000 -4.7354125977E-001 -3.8870239258E-001 +1.7809867859E-004 -5.4166316986E-003 +1.6916543245E-005 +9.0580433607E-006 -5.9318542480E-002 +8.3065032959E-002
12102500000.000 -4.7373962402E-001 -3.9009094238E-001 -2.8352737427E-003 -4.6122074127E-003 -4.1207298636E-005 +3.3764168620E-005 -6.5368652344E-002 +6.4361572266E-002
12235000000.000 -4.7909545898E-001 -3.8960266113E-001 -4.9250125885E-003 -2.2261142731E-003 -1.4509074390E-005 +1.8180347979E-005 -9.2700958252E-002 +4.3979644775E-002
12367500000.000 -4.8020935059E-001 -3.8856506348E-001 -5.2876472473E-003 +8.5878372192E-004 +4.8337504268E-005 +1.6193836927E-005 -1.0556793213E-001 +4.2530059814E-002
12500000000.000 -4.8388671875E-001 -3.8674926758E-001 -3.8874149323E-003 +3.8003921509E-003 +5.3606927395E-005 +1.3655051589E-005 -9.7206115723E-002 +2.0450592041E-002
12632500000.000 -4.8568725586E-001 -3.8783264160E-001 -1.1606216431E-003 +5.2495002747E-003 +1.3496726751E-005 -5.4918229580E-005 -1.0911178589E-001 -1.3431549072E-002
12765000000.000 -4.8880004883E-001 -3.8700866699E-001 +2.0668506622E-003 +4.9107074738E-003 +2.5143846869E-005 +6.7064538598E-006 -1.1718368530E-001 -1.8070220947E-002
12897500000.000 -4.9131774902E-001 -3.8514709473E-001 +4.3330192566E-003 +2.8519630432E-003 -8.8322907686E-005 +6.6135078669E-005 -9.2361450195E-002 -3.4553527832E-002
13030000000.000 -4.9343872070E-001 -3.8424682617E-001 +5.2936077118E-003 -3.5524368286E-005 -7.4040144682E-005 -1.8507242203E-005 -8.9302062988E-002 -7.0835113525E-002
13162500000.000 -4.9580383301E-001 -3.8499450684E-001 +4.3866634369E-003 -2.9869079590E-003 -1.0146759450E-006 +1.1569820344E-005 -9.1396331787E-002 -7.2883605957E-002
13295000000.000 -4.9833679199E-001 -3.8502502441E-001 +1.8749237061E-003 -4.9173831940E-003 -5.7537108660E-006 +3.9380043745E-005 -6.1393737793E-002 -7.8861236572E-002
13427500000.000 -5.0180053711E-001 -3.8250732422E-001 -1.2080669403E-003 -5.0926208496E-003 -1.1514872313E-005 -1.8782913685E-005 -4.6833038330E-002 -1.0397338867E-001
13560000000.000 -5.0204467773E-001 -3.8186645508E-001 -3.8826465607E-003 -3.5800933838E-003 -5.2811577916E-005 -3.0603259802E-006 -4.6287536621E-002 -1.0133743286E-001
13692500000.000 -5.0418090820E-001 -3.8314819336E-001 -5.1169395447E-003 -8.7404251099E-004 -8.5830688477E-005 +4.0631741285E-005 -1.7917633057E-002 -8.9405059814E-002
13825000000.000 -5.0863647461E-001 -3.8259887695E-001 -4.7049522400E-003 +2.1355152130E-003 -7.8525394201E-005 +2.7921050787E-005 +4.1198730469E-003 -1.0298156738E-001
13957500000.000 -5.1113891602E-001 -3.7954711914E-001 -2.6316642761E-003 +4.3842792511E-003 +6.1608850956E-005 -6.4421445131E-005 -3.8146972656E-005 -9.5508575439E-002
14090000000.000 -5.1196289063E-001 -3.7951660156E-001 +2.4104118347E-004 +5.2018165588E-003 -1.2163072824E-006 -3.3654272556E-005 +2.2117614746E-002 -7.0266723633E-002
14222500000.000 -5.1336669922E-001 -3.8174438477E-001 +3.1847953796E-003 +4.0535926819E-003 +3.2093375921E-005 -1.8741935492E-005 +4.3964385986E-002 -7.4310302734E-002
14355000000.000 -5.1834106445E-001 -3.8122558594E-001 +4.8456192017E-003 +1.6427040100E-003 +1.9576400518E-005 -1.1302903295E-004 +3.3176422119E-002 -6.7104339600E-002
14487500000.000 -5.2038574219E-001 -3.8122558594E-001 +4.9879550934E-003 -1.3828277588E-003 +3.4850090742E-005 +1.1185929179E-004 +4.0220260620E-002 -3.3979415894E-002
14620000000.000 -5.2056884766E-001 -3.8195800781E-001 +3.2954216003E-003 -3.8937330246E-003 -2.2426247597E-006 +2.7691945434E-005 +6.1168670654E-002 -3.1438827515E-002
14752500000.000 -5.2301025391E-001 -3.8610839844E-001 +4.5752525330E-004 -5.0423145294E-003 -3.7513673306E-005 -4.7538429499E-005 +4.3294906616E-002 -3.2520294189E-002
14885000000.000 -5.2597045898E-001 -3.8760375977E-001 -2.4652481079E-003 -4.5261383057E-003 +7.4468553066E-005 -7.5060874224E-005 +3.5413742065E-002 +1.5411376953E-003
15017500000.000 -5.2673339844E-001 -3.8821411133E-001 -4.4670104980E-003 -2.3303031921E-003 +1.9818544388E-005 +1.7797574401E-005 +5.3155899048E-002 +8.7871551514E-003
15150000000.000 -5.2706909180E-001 -3.9120483398E-001 -4.9695968628E-003 +6.7615509033E-004 +2.6598572731E-005 -6.1493366957E-005 +3.5284042358E-002 -1.7204284668E-003
15282500000.000 -5.2789306641E-001 -3.9382934570E-001 -3.6922693253E-003 +3.3663511276E-003 +3.9430335164E-005 -4.0978193283E-005 +1.4322280884E-002 +2.3012161255E-002
