!  2-Port S-parameters saved by WinCal
! VAR MeasName=S-Parameters (CALIBRATED_DATA) read from VNA (C)
! VAR MeasDate=10/16/2015 2:41:28 PM
! VAR NAME=M6082_10_13_2_2_20C_10.4mA_-17.5dBm
! VAR FILENAME=M6082_10_13_2_2_20C_10.4mA_-17.5dBm.S2P
! VAR DATE=10/16/2015 2:41:28 PM
! VAR PHYS_PORTS=2,1
! VAR ObjTypeName=DATASET
! VAR IndexType=Frequency
!
# Hz S RI R 50
45000000.000 -1.0691070557E-001 -7.5531005859E-004 -2.5968551636E-003 +8.1372261047E-003 -1.6955286264E-004 -1.3890117407E-004 +2.8302192688E-002 +3.8099288940E-003
177500000.000 -1.0585403442E-001 -4.4021606445E-003 +2.9525756836E-003 +6.7229270935E-003 -7.6834112406E-006 +4.9710273743E-005 +1.5896797180E-002 +1.6713142395E-002
310000000.000 -1.0492706299E-001 -9.5214843750E-003 +5.4476261139E-003 +4.4596195221E-003 +7.5064599514E-006 -1.0443851352E-004 +2.9016494751E-002 +6.1603546143E-002
442500000.000 -1.0432052612E-001 -1.4965057373E-002 +7.9679489136E-003 +7.5817108154E-005 +5.9951096773E-005 +6.8247318268E-005 +7.2628021240E-002 +2.2666931152E-002
575000000.000 -1.0438156128E-001 -2.1038055420E-002 +6.1266422272E-003 -4.2381286621E-003 +3.4980475903E-005 -7.3626637459E-005 +2.7211189270E-002 +1.1284828186E-002
707500000.000 -1.0437774658E-001 -2.5913238525E-002 +2.7070045471E-003 -6.9146156311E-003 -2.8012320399E-005 -5.5639073253E-005 +2.0532608032E-003 +1.8655776978E-002
840000000.000 -1.0408401489E-001 -3.2032012939E-002 -1.5776157379E-003 -7.0931911469E-003 +1.5619210899E-005 -1.5813857317E-006 -1.9900321960E-002 +2.6144027710E-002
972500000.000 -1.0391616821E-001 -3.7780761719E-002 -5.1755905151E-003 -5.0189495087E-003 +4.9615278840E-005 +8.9854001999E-006 -3.5804748535E-002 +3.5463333130E-002
1105000000.000 -1.0441970825E-001 -4.3758392334E-002 -7.1551799774E-003 -1.2154579163E-003 -1.2690573931E-004 +4.8875808716E-006 -4.6890258789E-002 +3.8190841675E-002
1237500000.000 -1.0483932495E-001 -4.9167633057E-002 -6.5946578979E-003 +3.0233860016E-003 +5.1051378250E-005 -9.3393027782E-006 -5.8610916138E-002 +3.3948898315E-002
1370000000.000 -1.0564804077E-001 -5.4576873779E-002 -3.8008689880E-003 +6.1106681824E-003 -4.2289495468E-005 -1.0482966900E-005 -7.3936462402E-002 +2.6920318604E-002
1502500000.000 -1.0596847534E-001 -5.9993743896E-002 +2.9635429382E-004 +7.1370601654E-003 -2.8235837817E-005 +2.7688220143E-005 -8.8035583496E-002 +2.1316528320E-002
1635000000.000 -1.0600662231E-001 -6.6196441650E-002 +4.2123794556E-003 +5.7370662689E-003 +6.0712918639E-005 -3.6491081119E-005 -9.8953247070E-002 +1.1657714844E-002
1767500000.000 -1.0724639893E-001 -7.1788787842E-002 +6.7341327667E-003 +2.3877620697E-003 -1.0238029063E-005 +7.6657161117E-006 -1.1189270020E-001 +2.9182434082E-003
1900000000.000 -1.0756301880E-001 -7.6740264893E-002 +6.9208145142E-003 -1.9736289978E-003 -6.0336664319E-005 +3.2169744372E-005 -1.1380004883E-001 -3.4828186035E-003
2032500000.000 -1.0832977295E-001 -8.1821441650E-002 +4.6622753143E-003 -5.3250789642E-003 +4.1715800762E-005 -4.0281563997E-005 -1.1360931396E-001 -2.4372100830E-002
2165000000.000 -1.0865020752E-001 -8.7985992432E-002 +8.3732604980E-004 -6.8922042847E-003 -8.8885426521E-006 +7.4166804552E-005 -1.2254333496E-001 -4.2278289795E-002
2297500000.000 -1.0960769653E-001 -9.2823028564E-002 -3.0071735382E-003 -6.2470436096E-003 -1.5157461166E-004 -3.9726495743E-005 -1.2648773193E-001 -5.3504943848E-002
2430000000.000 -1.1055374146E-001 -9.7938537598E-002 -6.0706138611E-003 -3.2072067261E-003 -5.7775527239E-005 -3.6880373955E-005 -1.2635803223E-001 -6.4903259277E-002
2562500000.000 -1.1143493652E-001 -1.0364913940E-001 -6.9916248322E-003 +6.1988830566E-004 -2.2610649467E-005 +2.7325004339E-005 -1.2517547607E-001 -7.1075439453E-002
2695000000.000 -1.1393356323E-001 -1.0789489746E-001 -5.4106712341E-003 +4.3206214905E-003 +2.1655112505E-005 -6.8247318268E-005 -1.1351013184E-001 -7.3356628418E-002
2827500000.000 -1.1542892456E-001 -1.1153411865E-001 -2.0363330841E-003 +6.6194534302E-003 +5.1857903600E-005 -4.9840658903E-005 -9.8503112793E-002 -8.1752777100E-002
2960000000.000 -1.1615371704E-001 -1.1632537842E-001 +1.9059181213E-003 +6.5274238586E-003 +6.0820952058E-005 +4.5178458095E-005 -8.8085174561E-002 -8.6597442627E-002
3092500000.000 -1.1853408813E-001 -1.2210083008E-001 +5.2607059479E-003 +4.3823719025E-003 +4.5411288738E-006 +9.8038464785E-005 -7.0396423340E-002 -8.5865020752E-002
3225000000.000 -1.2167358398E-001 -1.2680053711E-001 +6.8743228912E-003 +6.5207481384E-004 +9.6075236797E-006 -7.6767057180E-005 -5.2085876465E-002 -9.1022491455E-002
3357500000.000 -1.2351226807E-001 -1.3005065918E-001 +6.0405731201E-003 -2.9361248016E-003 +4.4550746679E-005 -5.8243051171E-005 -4.1164398193E-002 -9.1472625732E-002
3490000000.000 -1.2512969971E-001 -1.3592529297E-001 +3.1898021698E-003 -6.0315132141E-003 -3.6045908928E-005 +1.6208738089E-005 -2.7885437012E-002 -8.3244323730E-002
3622500000.000 -1.2732696533E-001 -1.4170837402E-001 -6.3681602478E-004 -6.8597793579E-003 +6.2994658947E-006 -1.0790675879E-004 -1.1394500732E-002 -7.9227447510E-002
3755000000.000 -1.3061523438E-001 -1.4698028564E-001 -4.2374134064E-003 -5.3277015686E-003 +2.0002946258E-005 -4.6556815505E-005 -5.9165954590E-003 -7.2937011719E-002
3887500000.000 -1.3258361816E-001 -1.5161132813E-001 -6.4964294434E-003 -1.9946098328E-003 -3.6068260670E-005 +1.1453405023E-005 +2.1476745605E-003 -5.5772781372E-002
4020000000.000 -1.3452911377E-001 -1.5599822998E-001 -6.4973831177E-003 +1.9907951355E-003 -1.5953928232E-004 +1.4632940292E-005 +1.3381958008E-002 -4.4483184814E-002
4152500000.000 -1.3626098633E-001 -1.6187286377E-001 -4.1997432709E-003 +5.2981376648E-003 +1.4776829630E-005 +1.1676456779E-005 +1.5264511108E-002 -3.2455444336E-002
4285000000.000 -1.3896179199E-001 -1.6697692871E-001 -3.9839744568E-004 +6.6809654236E-003 +1.9853003323E-005 +3.0364841223E-005 +1.7001152039E-002 -1.3054847717E-002
4417500000.000 -1.4189910889E-001 -1.7141723633E-001 +3.2787322998E-003 +5.9332847595E-003 -7.4941664934E-005 -8.2477927208E-006 +2.5685310364E-002 +3.6544799805E-003
4550000000.000 -1.4335632324E-001 -1.7577362061E-001 +5.8946609497E-003 +3.0210018158E-003 -4.1300430894E-005 -7.2903931141E-006 +2.8991699219E-002 +9.6111297607E-003
4682500000.000 -1.4520263672E-001 -1.8139648438E-001 +6.5097808838E-003 -7.4791908264E-004 -1.1022202671E-005 +3.0059367418E-005 +2.5527000427E-002 +2.0620346069E-002
4815000000.000 -1.4810180664E-001 -1.8643951416E-001 +4.9905776978E-003 -4.1422843933E-003 +1.7968937755E-005 -3.2663345337E-005 +3.1178474426E-002 +2.7439117432E-002
4947500000.000 -1.4990997314E-001 -1.9047546387E-001 +1.9259452820E-003 -6.2859058380E-003 +2.9914081097E-006 -6.0852617025E-005 +2.7599334717E-002 +1.9832611084E-002
5080000000.000 -1.5094757080E-001 -1.9534301758E-001 -1.8141269684E-003 -6.3576698303E-003 +4.6694651246E-005 +2.3195520043E-005 +1.3285636902E-002 +2.0533561707E-002
5212500000.000 -1.5317535400E-001 -2.0043182373E-001 -5.1717758179E-003 -4.2669773102E-003 +1.3297423720E-005 +2.2758729756E-005 +9.2964172363E-003 +2.4752616882E-002
5345000000.000 -1.5586090088E-001 -2.0406341553E-001 -6.7305564880E-003 -6.7925453186E-004 -4.1175633669E-005 +2.9798597097E-005 +5.5866241455E-003 +1.6334533691E-002
5477500000.000 -1.5618133545E-001 -2.0748138428E-001 -5.9709548950E-003 +3.2885074615E-003 +3.4615397453E-005 -4.1397288442E-005 -9.1509819031E-003 +1.0318279266E-002
5610000000.000 -1.5776824951E-001 -2.1244049072E-001 -3.0593872070E-003 +6.0317516327E-003 +3.3024698496E-006 +3.0988827348E-005 -1.4853000641E-002 +1.4508724213E-002
5742500000.000 -1.6061401367E-001 -2.1591186523E-001 +8.4614753723E-004 +6.6907405853E-003 -1.1330470443E-005 -4.6139582992E-005 -1.1497020721E-002 +5.9947967529E-003
5875000000.000 -1.6308593750E-001 -2.1758270264E-001 +4.5351982117E-003 +5.1083564758E-003 -1.3196840882E-006 -1.8385238945E-005 -2.0282745361E-002 -3.3159255981E-003
6007500000.000 -1.6408538818E-001 -2.2081756592E-001 +6.6146850586E-003 +1.6033649445E-003 +2.0885840058E-005 +5.1047652960E-005 -2.3155212402E-002 +1.4877319336E-004
6140000000.000 -1.6638183594E-001 -2.2530364990E-001 +6.3762664795E-003 -2.3171901703E-003 +2.5610439479E-005 +1.1343508959E-006 -1.5375137329E-002 -2.8381347656E-003
6272500000.000 -1.7108154297E-001 -2.2837066650E-001 +3.9181709290E-003 -5.5706501007E-003 +5.4618343711E-005 -4.4180080295E-005 -1.6480445862E-002 -1.1719703674E-002
6405000000.000 -1.7430877686E-001 -2.2919464111E-001 +1.3732910156E-004 -6.7067146301E-003 +3.7914142013E-005 +3.0836090446E-005 -1.9406318665E-002 -6.2417984009E-003
6537500000.000 -1.7524719238E-001 -2.3268890381E-001 -3.5784244537E-003 -5.6085586548E-003 -7.6513737440E-005 -1.8987804651E-005 -9.2725753784E-003 -3.2582283020E-003
6670000000.000 -1.7833709717E-001 -2.3824310303E-001 -6.1573982239E-003 -2.6333332062E-003 -2.5089830160E-005 +7.5399875641E-006 -7.9069137573E-003 -7.2631835938E-003
6802500000.000 -1.8393707275E-001 -2.4127960205E-001 -6.5588951111E-003 +1.2481212616E-003 +6.6127628088E-005 +4.7594308853E-005 -1.1398792267E-002 +1.6832351685E-004
6935000000.000 -1.8698120117E-001 -2.4181365967E-001 -4.6908855438E-003 +4.6720504761E-003 -1.9017606974E-005 -1.1418014765E-006 -6.4296722412E-003 +9.8476409912E-003
7067500000.000 -1.8731689453E-001 -2.4565887451E-001 -1.2593269348E-003 +6.4959526062E-003 -5.2440911531E-005 -1.3515353203E-005 -4.6620368958E-003 +1.0159015656E-002
7200000000.000 -1.9117736816E-001 -2.5122070313E-001 +2.5730133057E-003 +6.0334205627E-003 +3.9538368583E-005 +2.7634203434E-005 -1.5056610107E-002 +1.7055511475E-002
7332500000.000 -1.9656372070E-001 -2.5349426270E-001 +5.4502487183E-003 +3.6058425903E-003 +1.0526739061E-005 +1.0868534446E-006 -1.7115592957E-002 +3.0762672424E-002
7465000000.000 -1.9905090332E-001 -2.5541687012E-001 +6.5164566040E-003 -2.5749206543E-005 +4.1717663407E-005 -1.5845522285E-005 -1.9889831543E-002 +3.1284332275E-002
7597500000.000 -2.0088195801E-001 -2.5985717773E-001 +5.3243637085E-003 -3.6234855652E-003 +6.6760927439E-005 -1.0482966900E-005 -3.6338806152E-002 +3.3321380615E-002
7730000000.000 -2.0471191406E-001 -2.6481628418E-001 +2.4344921112E-003 -6.0105323792E-003 +4.7743320465E-005 +3.0970200896E-005 -4.8345565796E-002 +4.3622970581E-002
7862500000.000 -2.0806884766E-001 -2.6780700684E-001 -1.2886524200E-003 -6.3652992249E-003 -6.7111104727E-005 -3.9223581553E-005 -5.3552627563E-002 +4.2713165283E-002
7995000000.000 -2.0976257324E-001 -2.7059936523E-001 -4.5151710510E-003 -4.3928623199E-003 +5.7192519307E-005 -2.8554350138E-005 -7.2898864746E-002 +3.5121917725E-002
8127500000.000 -2.1163940430E-001 -2.7630615234E-001 -6.3552856445E-003 -1.2011528015E-003 -2.0930543542E-005 +2.9395334423E-005 -9.1384887695E-002 +3.9752960205E-002
8260000000.000 -2.1560668945E-001 -2.7957153320E-001 -5.9251785278E-003 +2.5711059570E-003 -5.4154545069E-005 +2.1800398827E-005 -9.5558166504E-002 +3.4389495850E-002
8392500000.000 -2.1676635742E-001 -2.8240966797E-001 -3.4878253937E-003 +5.3813457489E-003 -1.5184283257E-005 -1.0461360216E-004 -1.0978317261E-001 +1.8413543701E-002
8525000000.000 -2.1736145020E-001 -2.8617858887E-001 +1.3494491577E-004 +6.4346790314E-003 +3.0348077416E-005 -4.1060149670E-005 -1.2189865112E-001 +1.4987945557E-002
8657500000.000 -2.1925354004E-001 -2.9043579102E-001 +3.6704540253E-003 +5.2549839020E-003 -1.5794299543E-005 +2.2201798856E-005 -1.1780929565E-001 +4.2915344238E-003
8790000000.000 -2.2221374512E-001 -2.9357910156E-001 +5.9881210327E-003 +2.3000240326E-003 +1.0075047612E-005 -4.0233135223E-005 -1.1961746216E-001 -1.7398834229E-002
8922500000.000 -2.2357177734E-001 -2.9475402832E-001 +6.2336921692E-003 -1.4483928680E-003 +7.2602182627E-005 +3.3713877201E-006 -1.2233352661E-001 -3.0433654785E-002
9055000000.000 -2.2470092773E-001 -2.9812622070E-001 +4.3892860413E-003 -4.7395229340E-003 -2.9984861612E-005 +2.4891458452E-005 -1.1103820801E-001 -4.4021606445E-002
9187500000.000 -2.2697448730E-001 -3.0075073242E-001 +9.4628334045E-004 -6.3114166260E-003 -2.0845793188E-005 -1.4671124518E-005 -1.0025405884E-001 -6.6722869873E-002
9320000000.000 -2.3135375977E-001 -3.0186462402E-001 -2.7065277100E-003 -5.7723522186E-003 +2.2838357836E-006 +6.3204206526E-006 -9.3727111816E-002 -7.9544067383E-002
9452500000.000 -2.3327636719E-001 -3.0303955078E-001 -5.4283142090E-003 -3.1976699829E-003 -7.6266005635E-006 +2.9837712646E-005 -7.4279785156E-002 -8.6635589600E-002
9585000000.000 -2.3544311523E-001 -3.0551147461E-001 -6.4008235931E-003 +3.6692619324E-004 -9.2200934887E-007 -5.7606026530E-005 -5.4328918457E-002 -1.0119247437E-001
9717500000.000 -2.3988342285E-001 -3.0886840820E-001 -5.0947666168E-003 +3.7922859192E-003 +3.4963712096E-005 -3.0903145671E-005 -4.1206359863E-002 -1.0699081421E-001
9850000000.000 -2.4459838867E-001 -3.0822753906E-001 -1.9946098328E-003 +6.0656070709E-003 -2.7365982533E-005 +6.1601400375E-005 -1.9176483154E-002 -1.0230636597E-001
9982500000.000 -2.4548339844E-001 -3.1076049805E-001 +1.7058849335E-003 +6.1805248260E-003 -7.9069286585E-006 +2.6278197765E-005 +6.3743591309E-003 -1.0327911377E-001
10115000000.000 -2.4835205078E-001 -3.1390380859E-001 +4.8425197601E-003 +4.1151046753E-003 +1.8166378140E-005 +3.7018209696E-005 +1.9126892090E-002 -9.9113464355E-002
10247500000.000 -2.5389099121E-001 -3.1578063965E-001 +6.2537193298E-003 +7.4148178101E-004 +4.3166801333E-006 -2.2403895855E-005 +3.5667419434E-002 -8.0078125000E-002
10380000000.000 -2.5675964355E-001 -3.1619262695E-001 +5.5322647095E-003 -2.8588771820E-003 -4.5970082283E-005 +3.0573457479E-005 +5.7018280029E-002 -6.7543029785E-002
10512500000.000 -2.5918579102E-001 -3.1797790527E-001 +2.9523372650E-003 -5.4674148560E-003 +3.1433999538E-005 -2.3668631911E-005 +6.2606811523E-002 -5.6030273438E-002
10645000000.000 -2.6237487793E-001 -3.2037353516E-001 -5.7554244995E-004 -6.2735080719E-003 +4.5405700803E-005 +1.0076910257E-006 +6.5994262695E-002 -2.9289245605E-002
10777500000.000 -2.6652526855E-001 -3.2263183594E-001 -3.8757324219E-003 -4.8103332520E-003 -3.5002827644E-005 +2.8328970075E-005 +7.7072143555E-002 -7.8849792480E-003
10910000000.000 -2.7030944824E-001 -3.2415771484E-001 -5.9390068054E-003 -1.7905235291E-003 +9.9497847259E-006 +5.5902637541E-006 +7.2299957275E-002 +5.5618286133E-003
11042500000.000 -2.7412414551E-001 -3.2620239258E-001 -5.9623718262E-003 +1.8339157104E-003 +7.4956566095E-005 +3.1713396311E-005 +5.9539794922E-002 +3.1236648560E-002
11175000000.000 -2.7697753906E-001 -3.2966613770E-001 -3.9200782776E-003 +4.7447681427E-003 -6.1713159084E-005 +1.2249499559E-004 +5.6507110596E-002 +5.2349090576E-002
11307500000.000 -2.7920532227E-001 -3.3157348633E-001 -5.3477287292E-004 +6.2665939331E-003 -2.6989728212E-005 -3.3738091588E-005 +4.3605804443E-002 +5.8538436890E-002
11440000000.000 -2.8335571289E-001 -3.3419799805E-001 +3.0245780945E-003 +5.4535865784E-003 +4.4573098421E-005 +4.2336061597E-005 +1.8115997314E-002 +7.2097778320E-002
11572500000.000 -2.8448486328E-001 -3.3769226074E-001 +5.5251121521E-003 +2.8717517853E-003 -3.1501054764E-005 +5.3474679589E-005 +4.4479370117E-003 +8.7192535400E-002
11705000000.000 -2.8671264648E-001 -3.3992004395E-001 +6.1588287354E-003 -7.2956085205E-004 -7.7050179243E-005 +4.0024518967E-005 -9.9906921387E-003 +8.0871582031E-002
11837500000.000 -2.8988647461E-001 -3.4236145020E-001 +4.6310424805E-003 -3.9620399475E-003 +6.3203275204E-005 -7.6971948147E-005 -4.3033599854E-002 +7.6572418213E-002
11970000000.000 -2.9081726074E-001 -3.4298706055E-001 +1.5823841095E-003 -6.0095787048E-003 +4.3997541070E-005 +4.9825757742E-006 -5.9242248535E-002 +8.2981109619E-002
12102500000.000 -2.9043579102E-001 -3.4556579590E-001 -2.0165443420E-003 -5.7828426361E-003 -9.1433525085E-005 +3.7252902985E-006 -6.5341949463E-002 +6.4247131348E-002
12235000000.000 -2.9570007324E-001 -3.4655761719E-001 -4.9896240234E-003 -3.6401748657E-003 +8.5309147835E-006 -3.0849128962E-005 -9.2697143555E-002 +4.3949127197E-002
12367500000.000 -2.9577636719E-001 -3.4678649902E-001 -6.1845779419E-003 -2.1553039551E-004 +2.4475157261E-006 +3.4775584936E-005 -1.0549545288E-001 +4.2636871338E-002
12500000000.000 -2.9922485352E-001 -3.4684753418E-001 -5.1372051239E-003 +3.2126903534E-003 -4.4301152229E-005 +9.7371637821E-005 -9.7202301025E-002 +2.0397186279E-002
12632500000.000 -3.0111694336E-001 -3.4938049316E-001 -2.5045871735E-003 +5.6278705597E-003 +5.0798058510E-005 -6.2301754951E-005 -1.0909271240E-001 -1.3465881348E-002
12765000000.000 -3.0352783203E-001 -3.4973144531E-001 +1.0111331940E-003 +5.9876441956E-003 +1.5083700418E-005 +3.1227245927E-005 -1.1714935303E-001 -1.8081665039E-002
12897500000.000 -3.0584716797E-001 -3.4915161133E-001 +4.1444301605E-003 +4.3163299561E-003 +5.8729201555E-006 +3.8487836719E-005 -9.2201232910E-002 -3.4626007080E-002
13030000000.000 -3.0769348145E-001 -3.4989929199E-001 +5.8567523956E-003 +1.3127326965E-003 +9.1269612312E-006 -3.2151117921E-005 -8.9332580566E-002 -7.0949554443E-002
13162500000.000 -3.0995178223E-001 -3.5174560547E-001 +5.5444240570E-003 -2.3131370544E-003 +6.7401677370E-005 -3.0126422644E-005 -9.1384887695E-002 -7.2551727295E-002
13295000000.000 -3.1230163574E-001 -3.5273742676E-001 +3.3903121948E-003 -4.9390792847E-003 -4.0533021092E-005 +3.4693628550E-005 -6.1149597168E-002 -7.8586578369E-002
13427500000.000 -3.1567382813E-001 -3.5183715820E-001 -1.5020370483E-005 -6.0355663300E-003 +4.2750034481E-006 -7.2536058724E-006 -4.6611785889E-002 -1.0398864746E-001
13560000000.000 -3.1558227539E-001 -3.5214233398E-001 -3.2987594604E-003 -4.9815177917E-003 -5.7127326727E-006 -5.8559700847E-005 -4.6428680420E-002 -1.0127258301E-001
13692500000.000 -3.1782531738E-001 -3.5458374023E-001 -5.4652690887E-003 -2.2714138031E-003 +2.7666799724E-005 -4.0857121348E-006 -1.7795562744E-002 -8.9160919189E-002
13825000000.000 -3.2209777832E-001 -3.5534667969E-001 -5.8779716492E-003 +1.1646747589E-003 -5.0548464060E-005 -8.8263303041E-005 +4.1580200195E-003 -1.0290908813E-001
13957500000.000 -3.2492065430E-001 -3.5369873047E-001 -4.1449069977E-003 +4.2650699615E-003 +2.5603920221E-005 -1.1364743114E-004 -1.8692016602E-004 -9.5352172852E-002
14090000000.000 -3.2574462891E-001 -3.5449218750E-001 -1.0049343109E-003 +5.8872699738E-003 +3.6120414734E-005 -2.5011599064E-005 +2.1800994873E-002 -7.0018768311E-002
14222500000.000 -3.2717895508E-001 -3.5803222656E-001 +2.4027824402E-003 +5.3467750549E-003 -8.6743384600E-006 -9.5320865512E-006 +4.3891906738E-002 -7.4123382568E-002
14355000000.000 -3.3230590820E-001 -3.5877990723E-001 +4.9927234650E-003 +3.0879974365E-003 -8.7443739176E-005 +2.3849308491E-005 +3.3111572266E-002 -6.7104339600E-002
14487500000.000 -3.3480834961E-001 -3.5906982422E-001 +5.9280395508E-003 -2.3198127747E-004 +8.0488622189E-005 +8.4061175585E-005 +4.0054321289E-002 -3.4042358398E-002
14620000000.000 -3.3453369141E-001 -3.6097717285E-001 +4.6625137329E-003 -3.5574436188E-003 -2.1170824766E-005 +7.8175216913E-005 +6.0972213745E-002 -3.1396865845E-002
14752500000.000 -3.3744812012E-001 -3.6593627930E-001 +1.8708705902E-003 -5.5494308472E-003 +1.2964010239E-006 -7.1838498116E-005 +4.3115615845E-002 -3.2274246216E-002
14885000000.000 -3.4013366699E-001 -3.6795043945E-001 -1.3093948364E-003 -5.6018829346E-003 +6.0997903347E-005 -4.0305778384E-005 +3.5366058350E-002 +1.5277862549E-003
15017500000.000 -3.4054565430E-001 -3.6941528320E-001 -4.4586658478E-003 -3.7240982056E-003 -2.8759241104E-006 +8.4791332483E-005 +5.2839279175E-002 +8.8615417480E-003
15150000000.000 -3.4118652344E-001 -3.7356567383E-001 -5.7194232941E-003 -6.8926811218E-004 +4.1592866182E-005 -1.1435896158E-004 +3.5024642944E-002 -1.6345977783E-003
15282500000.000 -3.4165954590E-001 -3.7614440918E-001 -5.0749778748E-003 +2.6397705078E-003 -2.4098902941E-005 -8.5428357124E-005 +1.4429092407E-002 +2.3187637329E-002
