!  2-Port S-parameters saved by WinCal
! VAR MeasName=S-Parameters (CALIBRATED_DATA) read from VNA (C)
! VAR MeasDate=10/16/2015 11:01:16 AM
! VAR NAME=M6082_13_13_2_2_20C_8.3mA_-17.5dBm
! VAR FILENAME=M6082_13_13_2_2_20C_8.3mA_-17.5dBm_1_1.S2P
! VAR DATE=10/16/2015 11:01:16 AM
! VAR PHYS_PORTS=2,1
! VAR ObjTypeName=DATASET
! VAR IndexType=Frequency
!
# Hz S RI R 50
45000000.000 +1.3709259033E-001 +1.1672973633E-003 -2.1524429321E-003 +8.0003738403E-003 +5.0148367882E-004 +4.8205256462E-004 +2.8127670288E-002 +3.9119720459E-003
177500000.000 +1.3858795166E-001 -3.6849975586E-003 +2.4862289429E-003 +6.6130161285E-003 -6.7558139563E-005 +7.7899545431E-005 +1.6390800476E-002 +1.7067909241E-002
310000000.000 +1.3972473145E-001 -8.6898803711E-003 +5.2080154419E-003 +4.2860507965E-003 -1.2622028589E-004 -4.7132372856E-005 +2.9432296753E-002 +6.1592102051E-002
442500000.000 +1.4008331299E-001 -1.4495849609E-002 +7.7619552612E-003 +2.0623207092E-004 +2.8500333428E-005 -3.7606805563E-005 +7.3070526123E-002 +2.3433685303E-002
575000000.000 +1.3993835449E-001 -2.0378112793E-002 +6.0184001923E-003 -4.1770935059E-003 +2.2284686565E-005 -6.9055706263E-005 +2.7711868286E-002 +1.1692047119E-002
707500000.000 +1.3947296143E-001 -2.5444030762E-002 +2.6922225952E-003 -6.7169666290E-003 +1.9799917936E-006 -4.2319297791E-005 +2.4976730347E-003 +1.8870353699E-002
840000000.000 +1.3948059082E-001 -3.1181335449E-002 -1.4803409576E-003 -6.9558620453E-003 -9.9185854197E-006 +7.1185640991E-006 -1.9681930542E-002 +2.6128768921E-002
972500000.000 +1.3937377930E-001 -3.6636352539E-002 -5.0990581512E-003 -5.0525665283E-003 -4.0140002966E-005 +1.3152137399E-005 -3.5825729370E-002 +3.5757064819E-002
1105000000.000 +1.3838958740E-001 -4.2289733887E-002 -6.9515705109E-003 -1.2443065643E-003 +4.9680471420E-005 -7.9549849033E-005 -4.6859741211E-002 +3.8541793823E-002
1237500000.000 +1.3772583008E-001 -4.7210693359E-002 -6.4566135406E-003 +2.7880668640E-003 +5.7907775044E-005 -1.3180077076E-005 -5.8515548706E-002 +3.4105300903E-002
1370000000.000 +1.3701629639E-001 -5.2558898926E-002 -3.7300586700E-003 +5.8474540710E-003 +5.4833944887E-006 -4.8102810979E-006 -7.4077606201E-002 +2.7301788330E-002
1502500000.000 +1.3617706299E-001 -5.7693481445E-002 +1.4400482178E-004 +6.9005489349E-003 +2.1843239665E-005 -5.1004812121E-005 -8.8066101074E-002 +2.1663665771E-002
1635000000.000 +1.3605499268E-001 -6.2736511230E-002 +4.0576457977E-003 +5.6934356689E-003 +4.7817826271E-005 +1.7156824470E-005 -9.9113464355E-002 +1.1917114258E-002
1767500000.000 +1.3510131836E-001 -6.8695068359E-002 +6.4260959625E-003 +2.5300979614E-003 -3.2348558307E-005 +1.3450160623E-005 -1.1209106445E-001 +3.2234191895E-003
1900000000.000 +1.3442230225E-001 -7.3272705078E-002 +6.8078041077E-003 -1.6534328461E-003 -3.5315752029E-005 -4.8745423555E-005 -1.1397933960E-001 -3.1623840332E-003
2032500000.000 +1.3327026367E-001 -7.7705383301E-002 +4.7314167023E-003 -5.1350593567E-003 +3.2093375921E-005 -7.4367970228E-005 -1.1397171021E-001 -2.4257659912E-002
2165000000.000 +1.3338470459E-001 -8.3236694336E-002 +1.0561943054E-003 -6.7498683929E-003 +8.4336847067E-005 +3.2193958759E-005 -1.2282180786E-001 -4.1996002197E-002
2297500000.000 +1.3246154785E-001 -8.7959289551E-002 -2.9044151306E-003 -6.2286853790E-003 -4.3530017138E-005 +6.0183927417E-005 -1.2670898438E-001 -5.3421020508E-002
2430000000.000 +1.3120269775E-001 -9.2185974121E-002 -5.8302879333E-003 -3.6330223083E-003 +1.7300248146E-005 +2.4435110390E-005 -1.2689971924E-001 -6.4926147461E-002
2562500000.000 +1.3029479980E-001 -9.7167968750E-002 -6.8526268005E-003 +2.5868415833E-004 +8.3785504103E-005 -6.5490603447E-006 -1.2572479248E-001 -7.0724487305E-002
2695000000.000 +1.2802886963E-001 -1.0124969482E-001 -5.5160522461E-003 +3.9935112000E-003 -9.2983245850E-006 +8.8386237621E-005 -1.1417007446E-001 -7.3299407959E-002
2827500000.000 +1.2629699707E-001 -1.0435485840E-001 -2.2397041321E-003 +6.3943862915E-003 -5.9910118580E-005 -1.2642890215E-004 -9.8800659180E-002 -8.1729888916E-002
2960000000.000 +1.2554931641E-001 -1.0836029053E-001 +1.5580654144E-003 +6.5083503723E-003 +1.9934028387E-005 +7.6554715633E-005 -8.8718414307E-002 -8.6688995361E-002
3092500000.000 +1.2362670898E-001 -1.1371612549E-001 +4.8267841339E-003 +4.5676231384E-003 -6.6984444857E-005 +5.9653073549E-005 -7.0766448975E-002 -8.5727691650E-002
3225000000.000 +1.2041854858E-001 -1.1770629883E-001 +6.5717697144E-003 +1.0418891907E-003 -3.5386532545E-005 -6.6354870796E-005 -5.2249908447E-002 -9.1018676758E-002
3357500000.000 +1.1871719360E-001 -1.2063217163E-001 +6.0641765594E-003 -2.8376579285E-003 +1.2402236462E-004 +8.8118016720E-005 -4.1652679443E-002 -9.1747283936E-002
3490000000.000 +1.1743927002E-001 -1.2611389160E-001 +3.5181045532E-003 -5.6610107422E-003 +7.3570758104E-005 +3.4555792809E-005 -2.8388977051E-002 -8.3259582520E-002
3622500000.000 +1.1515808105E-001 -1.3127136230E-001 -1.9192695618E-004 -6.7431926727E-003 -7.9557299614E-005 -3.5125762224E-005 -1.1592864990E-002 -7.9078674316E-002
3755000000.000 +1.1245727539E-001 -1.3602447510E-001 -3.9849281311E-003 -5.4492950439E-003 -2.3886561394E-005 -4.9628317356E-005 -5.8708190918E-003 -7.3253631592E-002
3887500000.000 +1.1066436768E-001 -1.4037322998E-001 -6.2198638916E-003 -2.3553371429E-003 +5.6173652411E-005 +8.1665813923E-005 +1.9893646240E-003 -5.6194305420E-002
4020000000.000 +1.0863494873E-001 -1.4449310303E-001 -6.6039562225E-003 +1.5060901642E-003 +5.9828162193E-005 -8.6549669504E-005 +1.3134002686E-002 -4.4612884521E-002
4152500000.000 +1.0702514648E-001 -1.4919281006E-001 -4.5671463013E-003 +5.0926208496E-003 +4.6804547310E-005 +6.3367187977E-005 +1.5714645386E-002 -3.2787322998E-002
4285000000.000 +1.0492706299E-001 -1.5409088135E-001 -9.7203254700E-004 +6.6626071930E-003 +7.8730285168E-005 -2.5294721127E-006 +1.7252922058E-002 -1.3582229614E-002
4417500000.000 +1.0218811035E-001 -1.5837860107E-001 +2.9153823853E-003 +6.0024261475E-003 -3.9871782064E-005 +5.4175034165E-005 +2.5733947754E-002 +3.2854080200E-003
4550000000.000 +1.0085296631E-001 -1.6249847412E-001 +5.7001113892E-003 +3.4255981445E-003 -1.6421079636E-005 -5.5246055126E-006 +2.9500007629E-002 +9.3679428101E-003
4682500000.000 +9.9189758301E-002 -1.6773986816E-001 +6.5066814423E-003 -2.1481513977E-004 -6.3814222813E-006 +4.5564025640E-005 +2.6233673096E-002 +2.0207405090E-002
4815000000.000 +9.6664428711E-002 -1.7208099365E-001 +5.3489208221E-003 -3.8640499115E-003 -5.2433460951E-006 +2.9537826777E-005 +3.1764984131E-002 +2.7078628540E-002
4947500000.000 +9.5626831055E-002 -1.7574310303E-001 +2.4487972260E-003 -6.1397552490E-003 -2.4717301130E-006 -2.6638619602E-005 +2.8337478638E-002 +1.9568443298E-002
5080000000.000 +9.4833374023E-002 -1.8038940430E-001 -1.3554096222E-003 -6.5474510193E-003 +5.3605064750E-005 +2.5676563382E-005 +1.4068603516E-002 +2.0339965820E-002
5212500000.000 +9.2697143555E-002 -1.8486785889E-001 -4.8096179962E-003 -4.7538280487E-003 -2.8464011848E-005 -4.6100467443E-006 +9.9554061890E-003 +2.4569511414E-002
5345000000.000 +9.0835571289E-002 -1.8792724609E-001 -6.7253112793E-003 -1.1425018311E-003 -6.5349042416E-005 +9.1083347797E-006 +6.3276290894E-003 +1.6133308411E-002
5477500000.000 +9.1117858887E-002 -1.9136810303E-001 -6.3111782074E-003 +2.8605461121E-003 -4.5623164624E-006 -2.0558945835E-007 -8.4452629089E-003 +1.0095119476E-002
5610000000.000 +8.9622497559E-002 -1.9603729248E-001 -3.6604404449E-003 +5.8517456055E-003 -4.5403838158E-005 +3.5062432289E-005 -1.4157772064E-002 +1.4673233032E-002
5742500000.000 +8.7112426758E-002 -1.9854736328E-001 +3.1566619873E-004 +6.9003105164E-003 -1.4467164874E-005 -1.9096769392E-005 -1.0612964630E-002 +6.3319206238E-003
5875000000.000 +8.5784912109E-002 -2.0001983643E-001 +4.1346549988E-003 +5.5942535400E-003 +3.6712735891E-005 -6.4190477133E-005 -1.9557952881E-002 -3.1690597534E-003
6007500000.000 +8.5266113281E-002 -2.0359802246E-001 +6.5629482269E-003 +2.3019313812E-003 +3.0685216188E-005 +6.8597495556E-005 -2.2892951965E-002 +5.6743621826E-004
6140000000.000 +8.2946777344E-002 -2.0758056641E-001 +6.7553520203E-003 -1.8358230591E-003 -2.3679807782E-005 -1.4687888324E-005 -1.4817714691E-002 -2.0699501038E-003
6272500000.000 +7.8765869141E-002 -2.1016693115E-001 +4.5781135559E-003 -5.2986145020E-003 -3.0532479286E-005 -6.2890350819E-005 -1.5841484070E-002 -1.1225700378E-002
6405000000.000 +7.6461791992E-002 -2.1115112305E-001 +9.0217590332E-004 -6.8862438202E-003 +6.2234699726E-005 +4.4584274292E-005 -1.9311904907E-002 -5.8231353760E-003
6537500000.000 +7.6171875000E-002 -2.1432495117E-001 -3.2138824463E-003 -6.2000751495E-003 -6.5844506025E-005 -3.2652169466E-005 -9.4146728516E-003 -2.4580955505E-003
6670000000.000 +7.3501586914E-002 -2.1988677979E-001 -6.0799121857E-003 -3.2820701599E-003 -5.4800882936E-005 -4.0933489799E-005 -7.8377723694E-003 -6.4120292664E-003
6802500000.000 +6.8534851074E-002 -2.2290802002E-001 -6.8659782410E-003 +5.9390068054E-004 -1.8755905330E-005 +1.7830170691E-005 -1.1497974396E-002 +6.0129165649E-004
6935000000.000 +6.6055297852E-002 -2.2344207764E-001 -5.3126811981E-003 +4.3609142303E-003 -1.7418526113E-005 -1.9099563360E-005 -6.8101882935E-003 +1.0240554810E-002
7067500000.000 +6.6024780273E-002 -2.2679138184E-001 -1.9991397858E-003 +6.6676139832E-003 -1.5901401639E-005 -6.0802325606E-005 -5.0764083862E-003 +1.0671138763E-002
7200000000.000 +6.2171936035E-002 -2.3210144043E-001 +1.9795894623E-003 +6.6051483154E-003 +5.3487718105E-005 -8.1025063992E-006 -1.5419006348E-002 +1.7393112183E-002
7332500000.000 +5.7533264160E-002 -2.3475646973E-001 +5.3327083588E-003 +4.3406486511E-003 -8.2302838564E-005 -4.9844384193E-006 -1.7417907715E-002 +3.0730247498E-002
7465000000.000 +5.5763244629E-002 -2.3670959473E-001 +6.9420337677E-003 +6.2966346741E-004 -8.7894499302E-005 +2.5406479836E-006 -2.0455360413E-002 +3.1113624573E-002
7597500000.000 +5.3535461426E-002 -2.4165344238E-001 +5.9850215912E-003 -3.3288002014E-003 +7.2300434113E-005 -4.2270869017E-005 -3.6767959595E-002 +3.3485412598E-002
7730000000.000 +5.0247192383E-002 -2.4603271484E-001 +3.1707286835E-003 -6.1409473419E-003 +3.9767473936E-006 +4.0542334318E-005 -4.8397064209E-002 +4.3663024902E-002
7862500000.000 +4.7561645508E-002 -2.4898529053E-001 -7.3313713074E-004 -6.8655014038E-003 -6.5110623837E-005 +3.8787722588E-005 -5.3857803345E-002 +4.2163848877E-002
7995000000.000 +4.6417236328E-002 -2.5215148926E-001 -4.3981075287E-003 -5.2380561829E-003 +6.6846609116E-005 -3.5215169191E-005 -7.3375701904E-002 +3.4832000732E-002
8127500000.000 +4.4448852539E-002 -2.5779724121E-001 -6.5956115723E-003 -1.8761157990E-003 -3.2637268305E-005 +2.5043264031E-005 -9.1426849365E-002 +3.9943695068E-002
8260000000.000 +4.1595458984E-002 -2.6115417480E-001 -6.5801143646E-003 +2.1164417267E-003 -3.8614496589E-005 +1.5899538994E-005 -9.5230102539E-002 +3.4301757813E-002
8392500000.000 +4.0893554688E-002 -2.6438903809E-001 -4.2467117310E-003 +5.4454803467E-003 +1.6950070858E-006 -7.9806894064E-005 -1.0998535156E-001 +1.8451690674E-002
8525000000.000 +4.0130615234E-002 -2.6774597168E-001 -5.6934356689E-004 +6.8955421448E-003 +7.9967081547E-005 +1.0441988707E-005 -1.2216567993E-001 +1.5392303467E-002
8657500000.000 +3.9154052734E-002 -2.7124023438E-001 +3.4673213959E-003 +6.1233043671E-003 -3.4829601645E-005 -1.9390136003E-006 -1.1787414551E-001 +4.7454833984E-003
8790000000.000 +3.7551879883E-002 -2.7484130859E-001 +6.2587261200E-003 +3.0703544617E-003 -3.1599774957E-005 -1.7940998077E-005 -1.1969757080E-001 -1.6944885254E-002
8922500000.000 +3.6224365234E-002 -2.7656555176E-001 +7.0176124573E-003 -9.2506408691E-004 -1.3429671526E-006 -2.4389475584E-005 -1.2257385254E-001 -3.0025482178E-002
9055000000.000 +3.4835815430E-002 -2.7932739258E-001 +5.2728652954E-003 -4.7218799591E-003 -3.4747645259E-005 +2.1385028958E-005 -1.1119079590E-001 -4.3457031250E-002
9187500000.000 +3.3630371094E-002 -2.8132629395E-001 +1.7709732056E-003 -6.8726539612E-003 -7.2669237852E-005 -3.6060810089E-006 -1.0068893433E-001 -6.6082000732E-002
9320000000.000 +3.0715942383E-002 -2.8314208984E-001 -2.4003982544E-003 -6.6514015198E-003 +3.2542273402E-005 -1.7011538148E-005 -9.4120025635E-002 -7.8769683838E-002
9452500000.000 +2.9113769531E-002 -2.8520202637E-001 -5.6705474854E-003 -4.0750503540E-003 +4.8689544201E-006 +3.6185607314E-005 -7.4775695801E-002 -8.6311340332E-002
9585000000.000 +2.7084350586E-002 -2.8759765625E-001 -7.0791244507E-003 -2.2435188293E-004 +8.4326602519E-006 +1.4919787645E-006 -5.5301666260E-002 -1.0097885132E-001
9717500000.000 +2.3056030273E-002 -2.9096984863E-001 -5.9728622437E-003 +3.7631988525E-003 +4.1566789150E-005 -1.3299286366E-006 -4.2346954346E-002 -1.0638809204E-001
9850000000.000 +1.9897460938E-002 -2.9167175293E-001 -2.8750896454E-003 +6.4923763275E-003 -1.2509990484E-006 -7.1809627116E-006 -1.9733428955E-002 -1.0214233398E-001
9982500000.000 +1.8997192383E-002 -2.9435729980E-001 +1.2376308441E-003 +6.9999694824E-003 -8.0872327089E-005 -3.5054981709E-005 +5.2642822266E-003 -1.0392761230E-001
10115000000.000 +1.5670776367E-002 -2.9750061035E-001 +4.9948692322E-003 +5.0683021545E-003 +1.8797814846E-005 -1.0168179870E-004 +1.7688751221E-002 -9.9346160889E-002
10247500000.000 +1.1581420898E-002 -2.9891967773E-001 +6.9208145142E-003 +1.4126300812E-003 +5.4016709328E-006 +5.3735449910E-005 +3.4957885742E-002 -8.0333709717E-002
10380000000.000 +1.0147094727E-002 -3.0137634277E-001 +6.5543651581E-003 -2.7093887329E-003 -5.6045129895E-005 +4.7506764531E-005 +5.6678771973E-002 -6.8973541260E-002
10512500000.000 +6.2866210938E-003 -3.0410766602E-001 +3.9656162262E-003 -5.9325695038E-003 +5.6110322475E-005 -8.6847692728E-005 +6.1803817749E-002 -5.7664871216E-002
10645000000.000 +2.3803710938E-003 -3.0517578125E-001 -9.0360641479E-005 -7.1284770966E-003 +5.3998082876E-005 +5.5879354477E-006 +6.5643310547E-002 -2.9964447021E-002
10777500000.000 +5.1879882813E-004 -3.0731201172E-001 -4.0850639343E-003 -5.8593750000E-003 -1.0728463531E-004 +1.4662742615E-005 +7.7686309814E-002 -9.2239379883E-003
10910000000.000 -2.0904541016E-003 -3.1129455566E-001 -6.6545009613E-003 -2.6257038116E-003 -3.5328790545E-005 -3.8350000978E-005 +7.2734832764E-002 +3.3340454102E-003
11042500000.000 -7.8430175781E-003 -3.1465148926E-001 -6.9243907928E-003 +1.5492439270E-003 +4.4444575906E-005 -5.0310045481E-006 +6.0089111328E-002 +2.9787063599E-002
11175000000.000 -1.0803222656E-002 -3.1703186035E-001 -4.8263072968E-003 +5.2394866943E-003 +3.6735087633E-005 +3.3546239138E-005 +5.7909011841E-002 +5.1858901978E-002
11307500000.000 -1.1734008789E-002 -3.1904602051E-001 -1.1091232300E-003 +7.0922374725E-003 -2.6471912861E-005 -3.9638951421E-005 +4.5328140259E-002 +5.7458877563E-002
11440000000.000 -1.5304565430E-002 -3.2339477539E-001 +3.1433105469E-003 +6.5584182739E-003 -4.2853876948E-005 +1.4513731003E-005 +1.9580841064E-002 +7.1174621582E-002
11572500000.000 -1.7181396484E-002 -3.2702636719E-001 +6.3116550446E-003 +3.6063194275E-003 -9.7826123238E-006 -2.0748004317E-005 +5.9776306152E-003 +8.7329864502E-002
11705000000.000 -1.9317626953E-002 -3.2922363281E-001 +7.1144104004E-003 -4.5347213745E-004 -1.4860183001E-005 -2.4742446840E-005 -8.1291198730E-003 +8.1275939941E-002
11837500000.000 -2.1743774414E-002 -3.3200073242E-001 +5.7284832001E-003 -4.4767856598E-003 +5.1487237215E-005 -6.6675245762E-005 -4.1194915771E-002 +7.6980590820E-002
11970000000.000 -2.2613525391E-002 -3.3329772949E-001 +2.1560192108E-003 -6.8080425262E-003 -4.4643878937E-005 +1.5284866095E-005 -5.7655334473E-002 +8.4117889404E-002
12102500000.000 -2.2384643555E-002 -3.3630371094E-001 -2.0213127136E-003 -6.8321228027E-003 -4.0387734771E-005 +4.3775886297E-005 -6.4155578613E-002 +6.5650939941E-002
12235000000.000 -2.7786254883E-002 -3.3674621582E-001 -5.5699348450E-003 -4.6310424805E-003 +1.3906508684E-005 -6.6678971052E-005 -9.1785430908E-002 +4.5810699463E-002
12367500000.000 -2.6855468750E-002 -3.3749389648E-001 -7.1709156036E-003 -6.7782402039E-004 -3.0061230063E-005 +3.0830502510E-005 -1.0443496704E-001 +4.4849395752E-002
12500000000.000 -3.0334472656E-002 -3.3895874023E-001 -6.2592029572E-003 +3.4766197205E-003 -6.2271952629E-005 -1.1127442122E-005 -9.6851348877E-002 +2.2163391113E-002
12632500000.000 -3.3248901367E-002 -3.4233093262E-001 -3.2336711884E-003 +6.3753128052E-003 +1.6767531633E-005 +1.9769184291E-005 -1.1030578613E-001 -1.1665344238E-002
12765000000.000 -3.5385131836E-002 -3.4175109863E-001 +9.5582008362E-004 +7.0197582245E-003 +6.9137662649E-005 +4.8886984587E-005 -1.1797332764E-001 -1.5544891357E-002
12897500000.000 -3.7368774414E-002 -3.4156799316E-001 +4.7440528870E-003 +5.3071975708E-003 -4.8318877816E-005 +4.7108158469E-005 -9.2323303223E-002 -3.3176422119E-002
13030000000.000 -3.8726806641E-002 -3.4403991699E-001 +6.8991184235E-003 +1.7111301422E-003 +1.0263174772E-006 -2.7170404792E-005 -9.1491699219E-002 -7.0331573486E-002
13162500000.000 -4.1442871094E-002 -3.4643554688E-001 +6.6301822662E-003 -2.4435520172E-003 +1.8917024136E-005 +5.2150338888E-005 -9.4406127930E-002 -7.1128845215E-002
13295000000.000 -4.4250488281E-002 -3.4779357910E-001 +4.1091442108E-003 -5.7494640350E-003 -3.1687319279E-005 +8.0239027739E-005 -6.2564849854E-002 -7.7781677246E-002
13427500000.000 -4.8049926758E-002 -3.4706115723E-001 +1.9073486328E-004 -7.0400238037E-003 -5.5460259318E-006 -1.7693266273E-005 -4.8507690430E-002 -1.0535812378E-001
13560000000.000 -4.7576904297E-002 -3.4725952148E-001 -3.8089752197E-003 -5.9297084808E-003 +2.2538937628E-005 +3.0364841223E-005 -4.9331665039E-002 -1.0217666626E-001
13692500000.000 -4.8965454102E-002 -3.5076904297E-001 -6.6745281219E-003 -2.8247833252E-003 -3.6869198084E-005 +6.8027526140E-005 -1.9557952881E-002 -8.9393615723E-002
13825000000.000 -5.4138183594E-002 -3.5212707520E-001 -6.9134235382E-003 +1.4100074768E-003 -4.8315152526E-005 -4.7290697694E-005 +3.5362243652E-003 -1.0448837280E-001
13957500000.000 -5.7418823242E-002 -3.5090637207E-001 -5.0001144409E-003 +5.0780773163E-003 +8.2764774561E-005 -8.3845108747E-005 -1.4877319336E-003 -9.7640991211E-002
14090000000.000 -5.8395385742E-002 -3.5214233398E-001 -1.2736320496E-003 +7.0049762726E-003 +8.3930790424E-006 +6.0165300965E-005 +2.0744323730E-002 -7.1552276611E-002
14222500000.000 -6.0653686523E-002 -3.5618591309E-001 +2.8324127197E-003 +6.3619613647E-003 -8.5085630417E-005 +7.2270631790E-006 +4.4002532959E-002 -7.5687408447E-002
14355000000.000 -6.5322875977E-002 -3.5681152344E-001 +5.9659481049E-003 +3.5195350647E-003 -3.2803043723E-005 -6.1007216573E-005 +3.3950805664E-002 -6.8752288818E-002
14487500000.000 -6.7825317383E-002 -3.5740661621E-001 +7.0405006409E-003 -3.6787986755E-004 -2.2752210498E-005 +6.0098245740E-005 +4.0946960449E-002 -3.5751342773E-002
14620000000.000 -6.8298339844E-002 -3.6094665527E-001 +5.4817199707E-003 -4.2166709900E-003 -2.0647421479E-005 +6.0094520450E-005 +6.1214447021E-002 -3.2623291016E-002
14752500000.000 -7.2738647461E-002 -3.6560058594E-001 +2.2206306458E-003 -6.5870285034E-003 -9.4156712294E-006 -5.1001086831E-005 +4.3855667114E-002 -3.2291412354E-002
14885000000.000 -7.5027465820E-002 -3.6671447754E-001 -1.8949508667E-003 -6.6175460815E-003 +4.7370791435E-005 -7.9881399870E-005 +3.7464141846E-002 +1.1901855469E-003
15017500000.000 -7.4264526367E-002 -3.6749267578E-001 -5.3501129150E-003 -4.4889450073E-003 +1.1626631021E-005 +6.9338828325E-005 +5.3977966309E-002 +7.5054168701E-003
15150000000.000 -7.4371337891E-002 -3.7301635742E-001 -6.8316459656E-003 -5.4669380188E-004 -1.0685063899E-005 -1.6999430954E-005 +3.5114288330E-002 -9.8609924316E-004
15282500000.000 -7.5851440430E-002 -3.7617492676E-001 -5.9106349945E-003 +3.2045841217E-003 +4.7538429499E-005 -2.1368265152E-005 +1.5810966492E-002 +2.5014877319E-002
