!  2-Port S-parameters saved by WinCal
! VAR MeasName=S-Parameters (CALIBRATED_DATA) read from VNA (C)
! VAR MeasDate=10/16/2015 3:49:27 PM
! VAR NAME=M6082_10_17_2_2_20C_3.5mA_-17.5dBm
! VAR FILENAME=M6082_10_17_2_2_20C_3.5mA_-17.5dBm.S2P
! VAR DATE=10/16/2015 3:49:27 PM
! VAR PHYS_PORTS=2,1
! VAR ObjTypeName=DATASET
! VAR IndexType=Frequency
!
# Hz S RI R 50
45000000.000 -9.8748207092E-003 -2.5196075439E-003 -5.6004524231E-004 +7.2944164276E-003 +1.3102889061E-003 -1.0381340981E-003 +2.8862953186E-002 +2.4232864380E-003
177500000.000 -8.8586807251E-003 -1.6103744507E-002 +2.7925968170E-003 +6.8831443787E-003 +1.1742115021E-005 +2.9526650906E-004 +1.5668869019E-002 +1.6955375671E-002
310000000.000 -8.9664459229E-003 -2.9476165771E-002 +5.6517124176E-003 +4.4229030609E-003 +3.9160251617E-005 -7.5686722994E-005 +2.9197692871E-002 +6.1525344849E-002
442500000.000 -9.7370147705E-003 -4.2745590210E-002 +8.1372261047E-003 -2.8944015503E-004 +2.3756176233E-005 -3.2151117921E-005 +7.2402954102E-002 +2.2487640381E-002
575000000.000 -1.1404037476E-002 -5.6674957275E-002 +5.9762001038E-003 -4.6434402466E-003 +1.0026618838E-005 +9.0529210865E-006 +2.7081489563E-002 +1.1203765869E-002
707500000.000 -1.3732910156E-002 -6.9557189941E-002 +2.2377967834E-003 -7.1921348572E-003 +6.7114830017E-005 -3.7435442209E-005 +1.9407272339E-003 +1.8670082092E-002
840000000.000 -1.6010284424E-002 -8.2885742188E-002 -2.0558834076E-003 -6.9694519043E-003 +4.3801963329E-005 +2.6492401958E-005 -1.9866943359E-002 +2.5981903076E-002
972500000.000 -1.8295288086E-002 -9.5893859863E-002 -5.7020187378E-003 -4.5034885406E-003 -1.0101124644E-005 +6.1132013798E-006 -3.5816192627E-002 +3.5377502441E-002
1105000000.000 -2.1915435791E-002 -1.0913085938E-001 -7.2324275970E-003 -4.8804283142E-004 -1.2654811144E-005 -9.3575567007E-005 -4.7019958496E-002 +3.8223266602E-002
1237500000.000 -2.5733947754E-002 -1.2141418457E-001 -6.1864852905E-003 +3.5245418549E-003 +7.5716525316E-005 -2.8133392334E-005 -5.8555603027E-002 +3.3868789673E-002
1370000000.000 -3.0075073242E-002 -1.3378143311E-001 -3.0813217163E-003 +6.4616203308E-003 -1.1682510376E-005 +2.9887072742E-005 -7.3966979980E-002 +2.6897430420E-002
1502500000.000 -3.4538269043E-002 -1.4562225342E-001 +1.1813640594E-003 +6.8747997284E-003 +1.6894191504E-005 +8.1956386566E-007 -8.8020324707E-002 +2.1247863770E-002
1635000000.000 -3.8604736328E-002 -1.5795135498E-001 +4.8658847809E-003 +5.0704479218E-003 -4.8805028200E-005 +1.5687197447E-005 -9.8968505859E-002 +1.1676788330E-002
1767500000.000 -4.4242858887E-002 -1.6976165771E-001 +6.9169998169E-003 +1.5103816986E-003 +3.4244731069E-005 -2.3504719138E-005 -1.1188888550E-001 +2.8953552246E-003
1900000000.000 -4.9407958984E-002 -1.8027496338E-001 +6.4611434937E-003 -2.6879310608E-003 -2.7939677238E-005 +3.8590282202E-005 -1.1386871338E-001 -3.3836364746E-003
2032500000.000 -5.4992675781E-002 -1.9087982178E-001 +3.7577152252E-003 -5.9139728546E-003 -1.4618039131E-005 -1.3767182827E-004 -1.1368942261E-001 -2.4375915527E-002
2165000000.000 -6.0180664063E-002 -2.0223236084E-001 -2.5272369385E-004 -6.8335533142E-003 +9.7807496786E-005 +1.8574297428E-005 -1.2251281738E-001 -4.2377471924E-002
2297500000.000 -6.6276550293E-002 -2.1200561523E-001 -4.0102005005E-003 -5.4183006287E-003 -8.8490545750E-005 -5.8934092522E-006 -1.2657928467E-001 -5.3596496582E-002
2430000000.000 -7.2387695313E-002 -2.2130584717E-001 -6.2670707703E-003 -2.3109912872E-003 +1.5912577510E-005 +4.6983361244E-005 -1.2652587891E-001 -6.4994812012E-002
2562500000.000 -7.8353881836E-002 -2.3146057129E-001 -6.4387321472E-003 +1.7635822296E-003 +5.7332217693E-006 +1.1810287833E-004 -1.2528991699E-001 -7.1060180664E-002
2695000000.000 -8.6471557617E-002 -2.3974609375E-001 -4.3654441833E-003 +4.9951076508E-003 -1.8396228552E-004 +2.1569430828E-005 -1.1389923096E-001 -7.3421478271E-002
2827500000.000 -9.3772888184E-002 -2.4697113037E-001 -6.9069862366E-004 +6.5054893494E-003 +3.9611011744E-005 -6.5185129642E-005 -9.8442077637E-002 -8.1745147705E-002
2960000000.000 -9.9700927734E-002 -2.5514221191E-001 +3.0345916748E-003 +5.7678222656E-003 -4.1015446186E-006 +7.3637813330E-005 -8.8012695313E-002 -8.6811065674E-002
3092500000.000 -1.0768127441E-001 -2.6422119141E-001 +5.7244300842E-003 +3.0975341797E-003 -6.8560242653E-005 +1.8708407879E-005 -7.0320129395E-002 -8.6071014404E-002
3225000000.000 -1.1685180664E-001 -2.7171325684E-001 +6.4089298248E-003 -6.6137313843E-004 -1.8779188395E-005 -7.9568475485E-005 -5.1918029785E-002 -9.1148376465E-002
3357500000.000 -1.2419128418E-001 -2.7740478516E-001 +4.7097206116E-003 -4.1329860687E-003 +1.4405697584E-004 +2.6382505894E-005 -4.1263580322E-002 -9.1617584229E-002
3490000000.000 -1.3133239746E-001 -2.8594970703E-001 +1.7423629761E-003 -6.0658454895E-003 +1.1431053281E-005 +3.5980716348E-005 -2.7832031250E-002 -8.3320617676E-002
3622500000.000 -1.3938903809E-001 -2.9400634766E-001 -2.0856857300E-003 -6.0341358185E-003 -1.0779872537E-004 -3.2480806112E-005 -1.1379241943E-002 -7.9288482666E-002
3755000000.000 -1.4830017090E-001 -3.0097961426E-001 -5.1133632660E-003 -3.9207935333E-003 +6.3344836235E-005 -1.9408762455E-006 -5.8975219727E-003 -7.2658538818E-002
3887500000.000 -1.5565490723E-001 -3.0715942383E-001 -6.3626766205E-003 -2.2935867310E-004 +3.2588839531E-005 -2.6106834412E-005 +2.1400451660E-003 -5.5767059326E-002
4020000000.000 -1.6299438477E-001 -3.1335449219E-001 -5.5119991302E-003 +3.3180713654E-003 +2.5447458029E-005 -1.0180845857E-004 +1.3338088989E-002 -4.4443130493E-002
4152500000.000 -1.7022705078E-001 -3.2017517090E-001 -2.6867389679E-003 +5.9294700623E-003 +1.5910714865E-005 -7.0925801992E-005 +1.5296936035E-002 -3.2524108887E-002
4285000000.000 -1.7825317383E-001 -3.2615661621E-001 +1.2190341949E-003 +6.2587261200E-003 -4.4072046876E-005 +1.2546777725E-005 +1.6947746277E-002 -1.2996673584E-002
4417500000.000 -1.8682861328E-001 -3.3157348633E-001 +4.4312477112E-003 +4.5871734619E-003 -4.5645982027E-005 +6.0835853219E-005 +2.5559425354E-002 +3.6134719849E-003
4550000000.000 -1.9340515137E-001 -3.3639526367E-001 +6.1199665070E-003 +1.2176036835E-003 +1.6890466213E-005 -3.4103170037E-005 +2.8716087341E-002 +9.6273422241E-003
4682500000.000 -2.0019531250E-001 -3.4236145020E-001 +5.7868957520E-003 -2.3570060730E-003 +4.9913302064E-005 +1.9827857614E-005 +2.5485038757E-002 +2.0666122437E-002
4815000000.000 -2.0802307129E-001 -3.4774780273E-001 +3.4990310669E-003 -5.1586627960E-003 -1.5365891159E-005 -7.1711838245E-008 +3.1020164490E-002 +2.7455329895E-002
4947500000.000 -2.1507263184E-001 -3.5203552246E-001 +2.4795532227E-005 -6.2210559845E-003 -2.6250258088E-005 +8.2179903984E-006 +2.7392387390E-002 +1.9838333130E-002
5080000000.000 -2.2096252441E-001 -3.5679626465E-001 -3.4391880035E-003 -5.2614212036E-003 +1.0281801224E-006 +1.4241784811E-005 +1.3175964355E-002 +2.0549774170E-002
5212500000.000 -2.2776794434E-001 -3.6174011230E-001 -5.8627128601E-003 -2.4209022522E-003 +1.4447141439E-005 +5.0305388868E-006 +9.0456008911E-003 +2.4723052979E-002
5345000000.000 -2.3526000977E-001 -3.6523437500E-001 -6.2241554260E-003 +1.2929439545E-003 -1.1553987861E-005 +1.3050623238E-005 +5.3462982178E-003 +1.6195297241E-002
5477500000.000 -2.4032592773E-001 -3.6822509766E-001 -4.3818950653E-003 +4.7111511230E-003 +3.5127624869E-005 +4.8039481044E-005 -9.2272758484E-003 +1.0221481323E-002
5610000000.000 -2.4624633789E-001 -3.7266540527E-001 -1.0290145874E-003 +6.3498020172E-003 -3.5479664803E-005 +1.3634562492E-006 -1.4912128448E-002 +1.4481067657E-002
5742500000.000 -2.5361633301E-001 -3.7570190430E-001 +2.8803348541E-003 +5.8391094208E-003 -6.1344355345E-005 +1.8067657948E-006 -1.1632442474E-002 +5.8903694153E-003
5875000000.000 -2.6065063477E-001 -3.7649536133E-001 +5.6579113007E-003 +3.2045841217E-003 +5.1930546761E-006 -5.0731003284E-005 -2.0282745361E-002 -3.3464431763E-003
6007500000.000 -2.6591491699E-001 -3.7869262695E-001 +6.4380168915E-003 -5.9127807617E-004 -7.2875991464E-007 -1.0989606380E-005 -2.3167610168E-002 +9.6321105957E-005
6140000000.000 -2.7226257324E-001 -3.8253784180E-001 +4.9698352814E-003 -4.1189193726E-003 -2.7109868824E-005 +8.3427876234E-006 -1.5405178070E-002 -2.9540061951E-003
6272500000.000 -2.8097534180E-001 -3.8436889648E-001 +1.7557144165E-003 -6.2437057495E-003 -8.8661909103E-007 -7.7567994595E-005 -1.6512870789E-002 -1.1824607849E-002
6405000000.000 -2.8852844238E-001 -3.8392639160E-001 -2.0649433136E-003 -6.1271190643E-003 +3.5753473639E-005 +3.0882656574E-006 -1.9324302673E-002 -6.3514709473E-003
6537500000.000 -2.9333496094E-001 -3.8639831543E-001 -5.2177906036E-003 -3.8967132568E-003 +4.8633664846E-006 +3.9104372263E-005 -9.2515945435E-003 -3.4079551697E-003
6670000000.000 -3.0014038086E-001 -3.9039611816E-001 -6.3769817352E-003 -2.1600723267E-004 -6.7250803113E-006 -2.2039748728E-005 -7.8411102295E-003 -7.4148178101E-003
6802500000.000 -3.0932617188E-001 -3.9169311523E-001 -5.4824352264E-003 +3.3915042877E-003 +3.5759061575E-005 +5.1708891988E-005 -1.1342525482E-002 +5.7220458984E-005
6935000000.000 -3.1597900391E-001 -3.9080810547E-001 -2.4979114532E-003 +5.9037208557E-003 +1.6409903765E-006 -8.1919133663E-006 -6.2870979309E-003 +9.8886489868E-003
7067500000.000 -3.1973266602E-001 -3.9321899414E-001 +1.1425018311E-003 +6.2882900238E-003 +2.8633512557E-005 -3.3751130104E-006 -4.5728683472E-003 +1.0193824768E-002
7200000000.000 -3.2646179199E-001 -3.9666748047E-001 +4.5573711395E-003 +4.5099258423E-003 -1.1130236089E-005 +7.1199610829E-006 -1.4952659607E-002 +1.6977310181E-002
7332500000.000 -3.3515930176E-001 -3.9724731445E-001 +6.3562393188E-003 +1.1460781097E-003 -7.7400356531E-005 +2.7157366276E-006 -1.7020225525E-002 +3.0714035034E-002
7465000000.000 -3.4068298340E-001 -3.9759826660E-001 +5.8498382568E-003 -2.7055740356E-003 -6.6105276346E-005 -1.7214566469E-005 -1.9708633423E-002 +3.1253814697E-002
7597500000.000 -3.4518432617E-001 -4.0000915527E-001 +3.3969879150E-003 -5.4905414581E-003 +1.4677178115E-005 -3.5353004932E-006 -3.6188125610E-002 +3.3212661743E-002
7730000000.000 -3.5177612305E-001 -4.0348815918E-001 -3.3187866211E-004 -6.5224170685E-003 +5.2027404308E-005 +7.6144933701E-005 -4.8364639282E-002 +4.3655395508E-002
7862500000.000 -3.5813903809E-001 -4.0463256836E-001 -3.9308071136E-003 -5.1229000092E-003 -4.9702823162E-005 -3.2581388950E-005 -5.3632736206E-002 +4.2751312256E-002
7995000000.000 -3.6239624023E-001 -4.0550231934E-001 -6.1004161835E-003 -2.0432472229E-003 +2.8105452657E-005 -5.9949234128E-006 -7.2818756104E-002 +3.5163879395E-002
8127500000.000 -3.6642456055E-001 -4.0953063965E-001 -6.1464309692E-003 +1.7488002777E-003 +4.8343092203E-005 -1.1362135410E-005 -9.1453552246E-002 +3.9653778076E-002
8260000000.000 -3.7318420410E-001 -4.1120910645E-001 -4.0655136108E-003 +5.0041675568E-003 -7.2577968240E-006 -1.6030855477E-005 -9.5687866211E-002 +3.4465789795E-002
8392500000.000 -3.7672424316E-001 -4.1183471680E-001 -5.0067901611E-004 +6.5214633942E-003 -4.7646462917E-006 -5.6039541960E-005 -1.0965728760E-001 +1.8550872803E-002
8525000000.000 -3.7963867188E-001 -4.1419982910E-001 +3.2527446747E-003 +5.7425498962E-003 +5.6656077504E-005 -2.2593885660E-006 -1.2190628052E-001 +1.4911651611E-002
8657500000.000 -3.8371276855E-001 -4.1665649414E-001 +5.8777332306E-003 +2.8226375580E-003 -3.8351863623E-005 -4.4144690037E-005 -1.1786651611E-001 +4.2762756348E-003
8790000000.000 -3.8940429688E-001 -4.1812133789E-001 +6.4914226532E-003 -1.0495185852E-003 +2.9187649488E-006 -2.9123388231E-005 -1.1955261230E-001 -1.7482757568E-002
8922500000.000 -3.9273071289E-001 -4.1752624512E-001 +4.6925544739E-003 -4.4939517975E-003 +3.7517398596E-005 -4.4574961066E-005 -1.2222671509E-001 -3.0536651611E-002
9055000000.000 -3.9620971680E-001 -4.1944885254E-001 +1.3248920441E-003 -6.5686702728E-003 -2.7474015951E-005 +3.0970200896E-005 -1.1093139648E-001 -4.4162750244E-002
9187500000.000 -4.0065002441E-001 -4.2053222656E-001 -2.7465820313E-003 -6.0932636261E-003 +4.2160972953E-006 -1.7181038857E-005 -1.0013198853E-001 -6.6905975342E-002
9320000000.000 -4.0763854980E-001 -4.1921997070E-001 -5.7632923126E-003 -3.4496784210E-003 +4.0849670768E-005 +2.7911737561E-005 -9.3669891357E-002 -7.9616546631E-002
9452500000.000 -4.1157531738E-001 -4.1854858398E-001 -6.6940784454E-003 +4.2605400085E-004 -1.4737248421E-005 +3.7016347051E-005 -7.4260711670E-002 -8.6559295654E-002
9585000000.000 -4.1601562500E-001 -4.1908264160E-001 -5.2607059479E-003 +4.2376518250E-003 -1.9421800971E-005 -3.3328309655E-005 -5.4138183594E-002 -1.0113525391E-001
9717500000.000 -4.2225646973E-001 -4.2036437988E-001 -1.8842220306E-003 +6.4866542816E-003 +2.6589259505E-005 +1.8670223653E-005 -4.1133880615E-002 -1.0706710815E-001
9850000000.000 -4.2930603027E-001 -4.1728210449E-001 +2.2966861725E-003 +6.4251422882E-003 +4.3258070946E-005 +4.8780813813E-005 -1.9199371338E-002 -1.0234451294E-001
9982500000.000 -4.3186950684E-001 -4.1795349121E-001 +5.4614543915E-003 +3.9641857147E-003 -5.9077516198E-005 +1.5590339899E-006 +6.5269470215E-003 -1.0302734375E-001
10115000000.000 -4.3641662598E-001 -4.1917419434E-001 +6.8025588989E-003 -3.3378601074E-006 -8.0130994320E-006 -6.4648687840E-005 +1.9535064697E-002 -9.9124908447E-002
10247500000.000 -4.4351196289E-001 -4.1856384277E-001 +5.5608749390E-003 -3.7419795990E-003 +2.4631619453E-005 +5.2889809012E-005 +3.5743713379E-002 -8.0146789551E-002
10380000000.000 -4.4850158691E-001 -4.1679382324E-001 +2.3102760315E-003 -6.3776969910E-003 -2.8815120459E-005 +1.9402243197E-005 +5.7022094727E-002 -6.7291259766E-002
10512500000.000 -4.5199584961E-001 -4.1638183594E-001 -1.7566680908E-003 -6.5350532532E-003 +7.1480870247E-005 -9.7341835499E-006 +6.2770843506E-002 -5.5828094482E-002
10645000000.000 -4.5622253418E-001 -4.1673278809E-001 -5.0225257874E-003 -4.3866634369E-003 +3.0240043998E-005 -1.7403624952E-005 +6.6169738770E-002 -2.9205322266E-002
10777500000.000 -4.6237182617E-001 -4.1699218750E-001 -6.6094398499E-003 -5.8746337891E-004 -3.6612153053E-005 +1.9060447812E-005 +7.6957702637E-002 -7.7476501465E-003
10910000000.000 -4.6768188477E-001 -4.1578674316E-001 -5.7342052460E-003 +3.3109188080E-003 -1.2192409486E-005 -7.1981921792E-006 +7.2280883789E-002 +5.9547424316E-003
11042500000.000 -4.7236633301E-001 -4.1516113281E-001 -2.7766227722E-003 +6.0639381409E-003 +8.3278864622E-005 +1.2703239918E-005 +5.9625625610E-002 +3.1305313110E-002
11175000000.000 -4.7611999512E-001 -4.1671752930E-001 +1.1818408966E-003 +6.4873695374E-003 -4.6445056796E-005 +5.7360157371E-005 +5.6293487549E-002 +5.2324295044E-002
11307500000.000 -4.7993469238E-001 -4.1682434082E-001 +4.7259330750E-003 +4.4281482697E-003 -6.6533684731E-005 -5.3703784943E-005 +4.3306350708E-002 +5.8631896973E-002
11440000000.000 -4.8492431641E-001 -4.1673278809E-001 +6.4258575439E-003 +9.4151496887E-004 +1.0809674859E-004 -5.3942203522E-005 +1.8070220947E-002 +7.2200775146E-002
11572500000.000 -4.8684692383E-001 -4.1822814941E-001 +5.8419704437E-003 -2.8452873230E-003 +3.0510127544E-006 +7.1339309216E-005 +4.1885375977E-003 +8.7333679199E-002
11705000000.000 -4.8997497559E-001 -4.1871643066E-001 +2.9535293579E-003 -5.5370330811E-003 -6.2892213464E-006 -2.0910054445E-005 -1.0406494141E-002 +8.0795288086E-002
11837500000.000 -4.9404907227E-001 -4.1905212402E-001 -8.4662437439E-004 -6.2820911407E-003 +4.3723732233E-005 +8.5327774286E-006 -4.3296813965E-002 +7.6564788818E-002
11970000000.000 -4.9601745605E-001 -4.1744995117E-001 -4.2266845703E-003 -4.5983791351E-003 +6.3572078943E-005 +1.7903745174E-005 -5.9520721436E-002 +8.2923889160E-002
12102500000.000 -4.9642944336E-001 -4.1809082031E-001 -5.9819221497E-003 -1.2946128845E-003 -5.4767355323E-005 -1.6901642084E-005 -6.5544128418E-002 +6.4186096191E-002
12235000000.000 -5.0219726563E-001 -4.1656494141E-001 -5.5859088898E-003 +2.4149417877E-003 +4.1941180825E-005 +1.4184042811E-005 -9.2884063721E-002 +4.3754577637E-002
12367500000.000 -5.0357055664E-001 -4.1510009766E-001 -3.1375885010E-003 +5.1102638245E-003 +5.1010400057E-005 +2.1001324058E-005 -1.0563278198E-001 +4.2419433594E-002
12500000000.000 -5.0750732422E-001 -4.1244506836E-001 +4.3559074402E-004 +5.8805942535E-003 -6.0483813286E-005 +7.5288116932E-005 -9.7316741943E-002 +2.0332336426E-002
12632500000.000 -5.0936889648E-001 -4.1265869141E-001 +3.6430358887E-003 +4.4245719910E-003 +4.3317675591E-005 -7.9981982708E-005 -1.0896301270E-001 -1.3664245605E-002
12765000000.000 -5.1272583008E-001 -4.1116333008E-001 +5.4082870483E-003 +1.5058517456E-003 +2.5518238544E-007 +6.2347389758E-006 -1.1716461182E-001 -1.8291473389E-002
12897500000.000 -5.1538085938E-001 -4.0856933594E-001 +5.2058696747E-003 -1.8072128296E-003 -1.3703480363E-005 +3.1488016248E-005 -9.2292785645E-002 -3.4660339355E-002
13030000000.000 -5.1766967773E-001 -4.0686035156E-001 +3.1106472015E-003 -4.4715404510E-003 -2.0837411284E-005 -1.6298145056E-006 -8.9118957520E-002 -7.0999145508E-002
13162500000.000 -5.2005004883E-001 -4.0676879883E-001 -3.0279159546E-005 -5.2986145020E-003 +2.8776936233E-005 +1.4591030777E-005 -9.1236114502E-002 -7.2830200195E-002
13295000000.000 -5.2264404297E-001 -4.0618896484E-001 -2.9852390289E-003 -4.1999816895E-003 -2.2184103727E-005 +6.5553933382E-005 -6.1153411865E-002 -7.8788757324E-002
13427500000.000 -5.2615356445E-001 -4.0283203125E-001 -4.7574043274E-003 -1.6949176788E-003 -6.1355531216E-005 -3.6612153053E-005 -4.6585083008E-002 -1.0402297974E-001
13560000000.000 -5.2636718750E-001 -4.0118408203E-001 -4.8165321350E-003 +1.2969970703E-003 +6.7818909883E-005 +7.4420124292E-005 -4.6188354492E-002 -1.0130691528E-001
13692500000.000 -5.2850341797E-001 -4.0240478516E-001 -3.1683444977E-003 +3.6460161209E-003 -6.7492946982E-006 -7.3071569204E-006 -1.7604827881E-002 -8.9244842529E-002
13825000000.000 -5.3265380859E-001 -4.0090942383E-001 -3.1495094299E-004 +4.6718120575E-003 -7.7061355114E-005 -8.1025063992E-006 +4.2572021484E-003 -1.0291671753E-001
13957500000.000 -5.3518676758E-001 -3.9739990234E-001 +2.4685859680E-003 +3.9355754852E-003 -4.7753565013E-006 -8.1551261246E-006 -3.4332275391E-005 -9.5382690430E-002
14090000000.000 -5.3607177734E-001 -3.9657592773E-001 +4.0152072906E-003 +1.8992424011E-003 +1.8011778593E-005 +1.7726793885E-005 +2.2098541260E-002 -7.0129394531E-002
14222500000.000 -5.3710937500E-001 -3.9831542969E-001 +4.4376850128E-003 -6.4563751221E-004 -2.3096799850E-007 -6.2298029661E-005 +4.3880462646E-002 -7.4115753174E-002
14355000000.000 -5.4183959961E-001 -3.9706420898E-001 +3.1522512436E-003 -2.9639005661E-003 -2.6818364859E-005 -1.0422989726E-004 +3.3100128174E-002 -6.6986083984E-002
14487500000.000 -5.4373168945E-001 -3.9654541016E-001 +9.1218948364E-004 -4.0869712830E-003 +9.7569078207E-005 -4.7720968723E-005 +4.0069580078E-002 -3.3817291260E-002
14620000000.000 -5.4370117188E-001 -3.9682006836E-001 -1.4842748642E-003 -3.6876201630E-003 -5.0950795412E-005 +1.8369406462E-005 +6.0903549194E-002 -3.1225204468E-002
14752500000.000 -5.4611206055E-001 -4.0051269531E-001 -3.3243894577E-003 -2.2267103195E-003 -4.1756778955E-005 -3.5692006350E-005 +4.3027877808E-002 -3.2299041748E-002
14885000000.000 -5.4873657227E-001 -4.0164184570E-001 -3.8535594940E-003 +1.8870830536E-004 +4.6640634537E-006 +9.3687325716E-005 +3.5223007202E-002 +1.5201568604E-003
15017500000.000 -5.4943847656E-001 -4.0167236328E-001 -3.0652284622E-003 +2.2021532059E-003 -3.6656856537E-005 +8.7723135948E-005 +5.3125381470E-002 +8.9530944824E-003
15150000000.000 -5.4946899414E-001 -4.0423583984E-001 -1.1835098267E-003 +3.5225152969E-003 -6.1601400375E-005 -1.1759623885E-004 +3.5182952881E-002 -1.6517639160E-003
15282500000.000 -5.5020141602E-001 -4.0664672852E-001 +9.4664096832E-004 +3.4389495850E-003 +1.0050460696E-004 -3.6608427763E-005 +1.4351844788E-002 +2.2980690002E-002
