!  2-Port S-parameters saved by WinCal
! VAR MeasName=S-Parameters (CALIBRATED_DATA) read from VNA (C)
! VAR MeasDate=10/16/2015 10:57:27 AM
! VAR NAME=M6082_13_13_2_2_20C_4.8mA_-17.5dBm
! VAR FILENAME=M6082_13_13_2_2_20C_4.8mA_-17.5dBm_1_1.S2P
! VAR DATE=10/16/2015 10:57:27 AM
! VAR PHYS_PORTS=2,1
! VAR ObjTypeName=DATASET
! VAR IndexType=Frequency
!
# Hz S RI R 50
45000000.000 +2.4237823486E-001 -5.9509277344E-004 -8.1086158752E-004 +7.6146125793E-003 +1.4114975929E-003 +5.8400630951E-004 +2.6765823364E-002 +4.1980743408E-003
177500000.000 +2.4195861816E-001 -7.3699951172E-003 +2.5393962860E-003 +6.2477588654E-003 +7.4654817581E-006 +2.5214254856E-004 +1.6335487366E-002 +1.7047882080E-002
310000000.000 +2.4195861816E-001 -1.3839721680E-002 +5.0549507141E-003 +4.1368007660E-003 -3.9525330067E-005 -6.2290579081E-005 +2.9706954956E-002 +6.1687469482E-002
442500000.000 +2.4129486084E-001 -2.1255493164E-002 +7.5204372406E-003 +7.7724456787E-005 +3.6854296923E-005 -4.0527433157E-005 +7.3143005371E-002 +2.3357391357E-002
575000000.000 +2.4046325684E-001 -2.8472900391E-002 +5.8212280273E-003 -4.0678977966E-003 -5.6298449636E-005 -2.8623268008E-005 +2.7768135071E-002 +1.1574745178E-002
707500000.000 +2.3945617676E-001 -3.4851074219E-002 +2.5200843811E-003 -6.4451694489E-003 -3.2991170883E-005 -6.1418861151E-005 +2.5482177734E-003 +1.8877029419E-002
840000000.000 +2.3865509033E-001 -4.1831970215E-002 -1.4472007751E-003 -6.5975189209E-003 -1.3485550880E-005 -7.0832669735E-005 -1.9667625427E-002 +2.6125907898E-002
972500000.000 +2.3799896240E-001 -4.8217773438E-002 -4.8313140869E-003 -4.6343803406E-003 -3.1981617212E-005 -1.9142404199E-005 -3.5797119141E-002 +3.5861968994E-002
1105000000.000 +2.3640441895E-001 -5.5023193359E-002 -6.5977573395E-003 -1.1401176453E-003 -1.5446916223E-005 -1.7563812435E-005 -4.6730041504E-002 +3.8509368896E-002
1237500000.000 +2.3507690430E-001 -6.1073303223E-002 -6.1047077179E-003 +2.7523040771E-003 +2.0444393158E-005 +6.8094581366E-005 -5.8534622192E-002 +3.4074783325E-002
1370000000.000 +2.3371124268E-001 -6.7481994629E-002 -3.6363601685E-003 +5.6319236755E-003 +7.9907476902E-007 +4.2116269469E-005 -7.4062347412E-002 +2.7301788330E-002
1502500000.000 +2.3208618164E-001 -7.3722839355E-002 +2.8061866760E-004 +6.5584182739E-003 -2.8407201171E-005 +5.2815303206E-005 -8.8031768799E-002 +2.1667480469E-002
1635000000.000 +2.3150634766E-001 -7.9719543457E-002 +3.8452148438E-003 +5.3524971008E-003 -5.8165751398E-006 -2.7008354664E-008 -9.9071502686E-002 +1.1928558350E-002
1767500000.000 +2.2991943359E-001 -8.6746215820E-002 +6.2103271484E-003 +2.3207664490E-003 +6.2495470047E-005 +2.7429312468E-005 -1.1205291748E-001 +3.2310485840E-003
1900000000.000 +2.2838592529E-001 -9.2407226563E-002 +6.4673423767E-003 -1.5830993652E-003 -4.1278079152E-005 -3.7588179111E-005 -1.1404418945E-001 -3.1547546387E-003
2032500000.000 +2.2660064697E-001 -9.7663879395E-002 +4.4145584106E-003 -4.8570632935E-003 +5.0472095609E-005 -1.6428530216E-006 -1.1407089233E-001 -2.4192810059E-002
2165000000.000 +2.2587585449E-001 -1.0398864746E-001 +9.3340873718E-004 -6.4115524292E-003 +9.3009322882E-005 +8.2105398178E-006 -1.2279129028E-001 -4.1938781738E-002
2297500000.000 +2.2426605225E-001 -1.0958862305E-001 -2.8362274170E-003 -5.9139728546E-003 -9.9189579487E-005 -1.7981976271E-005 -1.2688446045E-001 -5.3390502930E-002
2430000000.000 +2.2227478027E-001 -1.1450195313E-001 -5.5491924286E-003 -3.2460689545E-003 +1.8408894539E-004 +1.9446015358E-005 -1.2715148926E-001 -6.4872741699E-002
2562500000.000 +2.2087097168E-001 -1.2011718750E-001 -6.4740180969E-003 +3.0875205994E-004 +7.4453651905E-005 -1.2726336718E-004 -1.2599182129E-001 -7.0785522461E-002
2695000000.000 +2.1761322021E-001 -1.2505340576E-001 -5.2163600922E-003 +3.9746761322E-003 -3.4028664231E-005 -1.6381964087E-005 -1.1425018311E-001 -7.3371887207E-002
2827500000.000 +2.1537780762E-001 -1.2865447998E-001 -2.1514892578E-003 +6.1657428741E-003 -1.3179332018E-004 +1.2658536434E-005 -9.9037170410E-002 -8.1977844238E-002
2960000000.000 +2.1398925781E-001 -1.3344573975E-001 +1.7666816711E-003 +6.3328742981E-003 +2.0633637905E-004 -4.0791928768E-005 -8.8954925537E-002 -8.6776733398E-002
3092500000.000 +2.1125030518E-001 -1.3976287842E-001 +4.7898292542E-003 +4.3225288391E-003 -1.8492341042E-005 +1.0625272989E-004 -7.0907592773E-002 -8.5727691650E-002
3225000000.000 +2.0746612549E-001 -1.4428710938E-001 +6.4082145691E-003 +8.5902214050E-004 -2.9653310776E-005 -1.1926889420E-004 -5.2394866943E-002 -9.0980529785E-002
3357500000.000 +2.0513916016E-001 -1.4807128906E-001 +5.7411193848E-003 -2.7825832367E-003 +2.3424625397E-005 +1.1263787746E-004 -4.1931152344E-002 -9.1594696045E-002
3490000000.000 +2.0314025879E-001 -1.5396881104E-001 +3.3266544342E-003 -5.5932998657E-003 +6.7532062531E-005 -1.4927238226E-005 -2.8442382813E-002 -8.3263397217E-002
3622500000.000 +2.0018768311E-001 -1.5983581543E-001 -4.9662590027E-004 -6.4272880554E-003 -2.9690563679E-005 -1.2591481209E-004 -1.1539459229E-002 -7.9250335693E-002
3755000000.000 +1.9696044922E-001 -1.6523742676E-001 -3.9451122284E-003 -5.0971508026E-003 +7.6729804277E-005 -7.9300254583E-005 -5.9165954590E-003 -7.3253631592E-002
3887500000.000 +1.9441986084E-001 -1.7021942139E-001 -6.2174797058E-003 -2.1743774414E-003 +5.4333359003E-005 +8.3595514297E-005 +1.9378662109E-003 -5.6211471558E-002
4020000000.000 +1.9174194336E-001 -1.7475891113E-001 -6.3657760620E-003 +1.7952919006E-003 +3.5725533962E-006 -2.8072856367E-005 +1.3223648071E-002 -4.4490814209E-002
4152500000.000 +1.8952178955E-001 -1.8016815186E-001 -4.3239593506E-003 +4.9996376038E-003 +1.4232844114E-004 -5.8054924011E-005 +1.5636444092E-002 -3.2827377319E-002
4285000000.000 +1.8666839600E-001 -1.8557739258E-001 -7.3981285095E-004 +6.5286159515E-003 -1.3737007976E-005 +4.4150277972E-005 +1.7225265503E-002 -1.3621330261E-002
4417500000.000 +1.8331909180E-001 -1.9030761719E-001 +3.0901432037E-003 +5.8057308197E-003 -1.4412403107E-004 -1.6562640667E-005 +2.5761604309E-002 +3.3397674561E-003
4550000000.000 +1.8130493164E-001 -1.9485473633E-001 +5.7528018951E-003 +3.0691623688E-003 +5.3457915783E-005 -1.8309801817E-005 +2.9448509216E-002 +9.3955993652E-003
4682500000.000 +1.7894744873E-001 -2.0062255859E-001 +6.4275264740E-003 -4.1747093201E-004 +3.3574178815E-006 -2.0070932806E-005 +2.6234626770E-002 +2.0252227783E-002
4815000000.000 +1.7578125000E-001 -2.0534515381E-001 +5.1336288452E-003 -3.9813518524E-003 -3.3631920815E-005 +1.1544674635E-005 +3.1795501709E-002 +2.7027130127E-002
4947500000.000 +1.7405700684E-001 -2.0947265625E-001 +2.1517276764E-003 -6.1450004578E-003 +1.4426186681E-006 -2.8815120459E-005 +2.8286933899E-002 +1.9518852234E-002
5080000000.000 +1.7279815674E-001 -2.1459960938E-001 -1.5931129456E-003 -6.4032077789E-003 +2.0689330995E-005 -1.5030615032E-005 +1.4051437378E-002 +2.0201683044E-002
5212500000.000 +1.6989898682E-001 -2.1940612793E-001 -5.0439834595E-003 -4.4815540314E-003 -1.0232906789E-005 +5.5427663028E-006 +9.9563598633E-003 +2.4552345276E-002
5345000000.000 +1.6731262207E-001 -2.2280120850E-001 -6.7598819733E-003 -8.9025497437E-004 -1.6069039702E-005 -4.5021995902E-005 +6.3285827637E-003 +1.6044616699E-002
5477500000.000 +1.6710662842E-001 -2.2664642334E-001 -6.1731338501E-003 +3.0114650726E-003 +6.4417719841E-005 -2.7477741241E-005 -8.4323883057E-003 +1.0006427765E-002
5610000000.000 +1.6499328613E-001 -2.3158264160E-001 -3.3245086670E-003 +6.0853958130E-003 +2.1022744477E-005 +1.7009675503E-005 -1.4195442200E-002 +1.4608383179E-002
5742500000.000 +1.6183471680E-001 -2.3442840576E-001 +5.9771537781E-004 +6.8650245667E-003 -3.7657096982E-005 +6.3478946686E-006 -1.0549545288E-002 +6.3071250916E-003
5875000000.000 +1.6001892090E-001 -2.3632049561E-001 +4.4476985931E-003 +5.4154396057E-003 -2.9318034649E-006 -5.0961971283E-005 -1.9436836243E-002 -3.1633377075E-003
6007500000.000 +1.5884399414E-001 -2.4010467529E-001 +6.6921710968E-003 +1.9245147705E-003 +3.7703663111E-005 +4.4498592615E-005 -2.2862434387E-002 +5.3787231445E-004
6140000000.000 +1.5592956543E-001 -2.4454498291E-001 +6.6535472870E-003 -2.1865367889E-003 -2.9595568776E-005 +2.3795291781E-005 -1.4885902405E-002 -2.0060539246E-003
6272500000.000 +1.5111541748E-001 -2.4740600586E-001 +4.3160915375E-003 -5.5887699127E-003 -3.8377940655E-005 -6.8973749876E-005 -1.5788078308E-002 -1.1258125305E-002
6405000000.000 +1.4840698242E-001 -2.4874877930E-001 +4.4965744019E-004 -7.0543289185E-003 +3.6021694541E-005 +1.2721866369E-005 -1.9328117371E-002 -5.8002471924E-003
6537500000.000 +1.4756774902E-001 -2.5215148926E-001 -3.6451816559E-003 -6.0548782349E-003 -5.0550326705E-005 -1.0183081031E-005 -9.3336105347E-003 -2.5548934937E-003
6670000000.000 +1.4422607422E-001 -2.5804138184E-001 -6.3443183899E-003 -2.9814243317E-003 -3.2148091123E-006 -2.0473962650E-006 -7.7357292175E-003 -6.4556598663E-003
6802500000.000 +1.3880920410E-001 -2.6139831543E-001 -6.9701671600E-003 +1.1258125305E-003 +6.8254768848E-005 -7.1115791798E-006 -1.1482238770E-002 +5.9223175049E-004
6935000000.000 +1.3589477539E-001 -2.6234436035E-001 -5.1646232605E-003 +4.8995018005E-003 +7.4389390647E-006 -1.0536517948E-005 -6.8759918213E-003 +1.0281562805E-002
7067500000.000 +1.3514709473E-001 -2.6577758789E-001 -1.5559196472E-003 +6.9622993469E-003 +1.1789612472E-005 -8.8708475232E-007 -5.1541328430E-003 +1.0748863220E-002
7200000000.000 +1.3059997559E-001 -2.7137756348E-001 +2.6724338531E-003 +6.6330432892E-003 +1.7470680177E-005 -2.2673979402E-005 -1.5458106995E-002 +1.7493247986E-002
7332500000.000 +1.2556457520E-001 -2.7444458008E-001 +5.9638023376E-003 +4.0733814240E-003 +1.4308840036E-005 +5.2666291595E-005 -1.7486572266E-002 +3.0799865723E-002
7465000000.000 +1.2294006348E-001 -2.7651977539E-001 +7.2948932648E-003 +9.5367431641E-007 -1.3351440430E-005 -5.1468610764E-005 -2.0494461060E-002 +3.1048774719E-002
7597500000.000 +1.2023925781E-001 -2.8163146973E-001 +5.9814453125E-003 -3.9582252502E-003 +2.8110109270E-005 +3.7718564272E-007 -3.6813735962E-002 +3.3443450928E-002
7730000000.000 +1.1628723145E-001 -2.8631591797E-001 +2.6957988739E-003 -6.7040920258E-003 -2.9561109841E-005 +1.7495825887E-005 -4.8480987549E-002 +4.3716430664E-002
7862500000.000 +1.1322021484E-001 -2.8950500488E-001 -1.5423297882E-003 -7.0533752441E-003 -4.0663406253E-005 +2.3858621716E-005 -5.3926467896E-002 +4.2230606079E-002
7995000000.000 +1.1134338379E-001 -2.9281616211E-001 -5.2299499512E-003 -5.0492286682E-003 +4.2375177145E-006 +3.9065256715E-005 -7.3379516602E-002 +3.4870147705E-002
8127500000.000 +1.0874938965E-001 -2.9875183105E-001 -7.1396827698E-003 -1.2681484222E-003 +2.1075829864E-005 +4.6938657761E-007 -9.1342926025E-002 +3.9855957031E-002
8260000000.000 +1.0566711426E-001 -3.0226135254E-001 -6.7238807678E-003 +3.0651092529E-003 +6.9662928581E-007 +4.9320980906E-005 -9.5195770264E-002 +3.4301757813E-002
8392500000.000 +1.0409545898E-001 -3.0557250977E-001 -3.8759708405E-003 +6.2432289124E-003 -3.5557895899E-005 -2.1371990442E-005 -1.0992431641E-001 +1.8573760986E-002
8525000000.000 +1.0284423828E-001 -3.0923461914E-001 +2.9516220093E-004 +7.4043273926E-003 +5.6225806475E-005 +7.0042908192E-005 -1.2216567993E-001 +1.5583038330E-002
8657500000.000 +1.0154724121E-001 -3.1266784668E-001 +4.4796466827E-003 +5.9766769409E-003 -2.4951994419E-005 +3.4848228097E-005 -1.1786270142E-001 +4.6577453613E-003
8790000000.000 +9.9380493164E-002 -3.1657409668E-001 +7.1196556091E-003 +2.4600028992E-003 -2.5531277061E-005 -4.4209882617E-005 -1.1960983276E-001 -1.7078399658E-002
8922500000.000 +9.7473144531E-002 -3.1849670410E-001 +7.2445869446E-003 -1.9769668579E-003 +4.9481168389E-005 +1.6082078218E-005 -1.2242889404E-001 -3.0109405518E-002
9055000000.000 +9.5779418945E-002 -3.2135009766E-001 +4.9457550049E-003 -5.8233737946E-003 -9.6615403891E-005 -1.5851110220E-005 -1.1113357544E-001 -4.3457031250E-002
9187500000.000 +9.4100952148E-002 -3.2345581055E-001 +8.1515312195E-004 -7.6379776001E-003 +6.8051740527E-006 +1.7108395696E-006 -1.0063171387E-001 -6.6070556641E-002
9320000000.000 +9.0621948242E-002 -3.2562255859E-001 -3.6253929138E-003 -6.6618919373E-003 +5.1597133279E-005 +4.6569854021E-005 -9.4036102295E-002 -7.8777313232E-002
9452500000.000 +8.8562011719E-002 -3.2786560059E-001 -6.8774223328E-003 -3.4697055817E-003 +8.3376653492E-006 -6.3995830715E-006 -7.4737548828E-002 -8.6364746094E-002
9585000000.000 +8.6196899414E-002 -3.3038330078E-001 -7.6785087585E-003 +1.0170936584E-003 +5.3972005844E-005 +3.0847266316E-005 -5.5320739746E-002 -1.0099411011E-001
9717500000.000 +8.1481933594E-002 -3.3410644531E-001 -5.7859420776E-003 +5.1689147949E-003 -1.8845312297E-005 +6.8247318268E-006 -4.2240142822E-002 -1.0641860962E-001
9850000000.000 +7.7743530273E-002 -3.3497619629E-001 -1.7902851105E-003 +7.6205730438E-003 +2.6237219572E-005 +5.6572258472E-005 -1.9550323486E-002 -1.0221099854E-001
9982500000.000 +7.6293945313E-002 -3.3781433105E-001 +2.8223991394E-003 +7.3955059052E-003 +3.4594908357E-005 -3.2080337405E-005 +5.3367614746E-003 -1.0395431519E-001
10115000000.000 +7.2479248047E-002 -3.4124755859E-001 +6.4735412598E-003 +4.4372081757E-003 +6.0293823481E-005 -1.0604783893E-004 +1.7692565918E-002 -9.9266052246E-002
10247500000.000 +6.7886352539E-002 -3.4277343750E-001 +7.9870223999E-003 -3.8146972656E-006 +1.2457836419E-005 +1.1426396668E-005 +3.5095214844E-002 -8.0249786377E-002
10380000000.000 +6.5902709961E-002 -3.4552001953E-001 +6.5100193024E-003 -4.4980049133E-003 -2.6585534215E-005 +2.4385750294E-005 +5.6732177734E-002 -6.9072723389E-002
10512500000.000 +6.1325073242E-002 -3.4844970703E-001 +2.8457641602E-003 -7.4028968811E-003 +3.3529475331E-005 -2.4460256100E-005 +6.1784744263E-002 -5.7651519775E-002
10645000000.000 +5.7037353516E-002 -3.4951782227E-001 -1.8453598022E-003 -7.7853202820E-003 +3.4609809518E-005 +4.6677887440E-005 +6.5738677979E-002 -2.9808044434E-002
10777500000.000 +5.4656982422E-002 -3.5195922852E-001 -5.9952735901E-003 -5.2783489227E-003 -2.7772039175E-006 +4.9443915486E-005 +7.7896118164E-002 -9.0103149414E-003
10910000000.000 +5.1376342773E-002 -3.5603332520E-001 -7.9908370972E-003 -9.8800659180E-004 -3.6642886698E-006 -1.0991469026E-005 +7.2746276855E-002 +3.4980773926E-003
11042500000.000 +4.4906616211E-002 -3.5940551758E-001 -7.1201324463E-003 +3.7233829498E-003 +7.4226409197E-005 +1.9289553165E-005 +6.0003280640E-002 +2.9947280884E-002
11175000000.000 +4.1290283203E-002 -3.6219787598E-001 -3.7355422974E-003 +7.1780681610E-003 +2.4599954486E-005 -3.4203752875E-005 +5.7929992676E-002 +5.1958084106E-002
11307500000.000 +4.0069580078E-002 -3.6431884766E-001 +9.2887878418E-004 +8.0976486206E-003 -2.1912157536E-005 -3.7036836147E-005 +4.5307159424E-002 +5.7611465454E-002
11440000000.000 +3.5705566406E-002 -3.6854553223E-001 +5.4066181183E-003 +6.1004161835E-003 +3.9584934711E-005 +2.9828399420E-005 +1.9527435303E-002 +7.1212768555E-002
11572500000.000 +3.3203125000E-002 -3.7237548828E-001 +7.8310966492E-003 +1.9659996033E-003 +1.7518177629E-005 +4.6493485570E-005 +5.8288574219E-003 +8.7390899658E-002
11705000000.000 +3.0487060547E-002 -3.7458801270E-001 +7.5619220734E-003 -2.9387474060E-003 +3.1532719731E-005 -6.2175095081E-006 -8.1672668457E-003 +8.1436157227E-002
11837500000.000 +2.7343750000E-002 -3.7731933594E-001 +4.5228004456E-003 -6.6924095154E-003 -1.5949830413E-005 -4.0367245674E-005 -4.1313171387E-002 +7.7171325684E-002
11970000000.000 +2.5878906250E-002 -3.7878417969E-001 -3.5285949707E-005 -8.0990791321E-003 -3.1646341085E-005 -9.2368572950E-006 -5.7838439941E-002 +8.4102630615E-002
12102500000.000 +2.5726318359E-002 -3.8183593750E-001 -4.6858787537E-003 -6.4914226532E-003 -7.5943768024E-005 -1.4699995518E-005 -6.4289093018E-002 +6.5631866455E-002
12235000000.000 +1.9744873047E-002 -3.8233947754E-001 -7.5805187225E-003 -2.7084350586E-003 -1.1552125216E-005 -8.2284212112E-005 -9.1964721680E-002 +4.5837402344E-002
12367500000.000 +1.9943237305E-002 -3.8320922852E-001 -7.7817440033E-003 +2.1226406097E-003 +3.1439587474E-005 -3.5211443901E-005 -1.0446166992E-001 +4.4761657715E-002
12500000000.000 +1.5975952148E-002 -3.8462829590E-001 -5.0861835480E-003 +6.2024593353E-003 -6.1422586441E-005 +6.6790729761E-005 -9.7007751465E-002 +2.2026062012E-002
12632500000.000 +1.2359619141E-002 -3.8792419434E-001 -7.1144104004E-004 +8.0661773682E-003 -2.7317553759E-005 -5.9433281422E-005 -1.1032867432E-001 -1.1680603027E-002
12765000000.000 +9.5977783203E-003 -3.8745117188E-001 +3.9398670197E-003 +6.9582462311E-003 +3.5816803575E-005 -2.8980895877E-005 -1.1803054810E-001 -1.5575408936E-002
12897500000.000 +7.2021484375E-003 -3.8719177246E-001 +7.1561336517E-003 +3.4062862396E-003 -9.7587704659E-005 -1.2818723917E-005 -9.2536926270E-002 -3.3363342285E-002
13030000000.000 +4.9896240234E-003 -3.8957214355E-001 +7.6832771301E-003 -1.3117790222E-003 -5.7244673371E-005 -1.7279759049E-005 -9.1510772705E-002 -7.0526123047E-002
13162500000.000 +1.7395019531E-003 -3.9184570313E-001 +5.5449008942E-003 -5.5365562439E-003 +3.5356730223E-005 +4.1853636503E-005 -9.4497680664E-002 -7.1247100830E-002
13295000000.000 -1.6326904297E-003 -3.9308166504E-001 +1.4033317566E-003 -7.6940059662E-003 +4.8136338592E-005 +3.3687800169E-005 -6.2526702881E-002 -7.7838897705E-002
13427500000.000 -5.9814453125E-003 -3.9225769043E-001 -3.2041072845E-003 -7.0719718933E-003 +1.7249025404E-005 +2.4971552193E-005 -4.8374176025E-002 -1.0544204712E-001
13560000000.000 -6.0729980469E-003 -3.9237976074E-001 -6.5951347351E-003 -3.9947032928E-003 +7.0083886385E-005 +4.1645020247E-005 -4.9510955811E-002 -1.0220718384E-001
13692500000.000 -8.0718994141E-003 -3.9587402344E-001 -7.6978206635E-003 +5.0163269043E-004 -2.3214146495E-005 +4.6072527766E-005 -1.9485473633E-002 -8.9332580566E-002
13825000000.000 -1.3916015625E-002 -3.9706420898E-001 -5.8836936951E-003 +4.6870708466E-003 -3.5697594285E-005 +3.9450824261E-006 +3.8032531738E-003 -1.0464859009E-001
13957500000.000 -1.7578125000E-002 -3.9559936523E-001 -2.1283626556E-003 +7.2844028473E-003 +3.0212104321E-005 +6.5043568611E-006 -1.4114379883E-003 -9.7904205322E-002
14090000000.000 -1.9256591797E-002 -3.9677429199E-001 +2.2878646851E-003 +7.0815086365E-003 +9.7621232271E-006 +5.6393444538E-005 +2.0736694336E-002 -7.1743011475E-002
14222500000.000 -2.2125244141E-002 -4.0055847168E-001 +5.8937072754E-003 +4.3272972107E-003 -4.2777508497E-005 -3.4114345908E-005 +4.4052124023E-002 -7.5630187988E-002
14355000000.000 -2.7191162109E-002 -4.0087890625E-001 +7.3699951172E-003 +1.5473365784E-004 +3.5634264350E-005 -3.6539509892E-005 +3.4004211426E-002 -6.8641662598E-002
14487500000.000 -3.0181884766E-002 -4.0116882324E-001 +5.9537887573E-003 -3.9243698120E-003 +2.0815990865E-005 -7.0612877607E-006 +4.1055679321E-002 -3.5963058472E-002
14620000000.000 -3.1234741211E-002 -4.0452575684E-001 +2.6247501373E-003 -6.5810680389E-003 +5.7578086853E-005 +2.3096799850E-006 +6.1389923096E-002 -3.2674789429E-002
14752500000.000 -3.6148071289E-002 -4.0887451172E-001 -1.5056133270E-003 -6.7780017853E-003 -7.2341412306E-005 -6.7502260208E-006 +4.4105529785E-002 -3.2083511353E-002
14885000000.000 -3.8711547852E-002 -4.0959167480E-001 -5.0756931305E-003 -4.5719146729E-003 +1.0264664888E-004 -5.8773905039E-005 +3.7580490112E-002 +1.1005401611E-003
15017500000.000 -3.8421630859E-002 -4.1007995605E-001 -6.8981647491E-003 -8.4948539734E-004 -2.4471431971E-005 +9.5795840025E-005 +5.4073333740E-002 +7.4539184570E-003
15150000000.000 -3.8940429688E-002 -4.1532897949E-001 -5.9733390808E-003 +2.9594898224E-003 -4.7750771046E-005 -1.1591613293E-004 +3.5190582275E-002 -7.8201293945E-004
15282500000.000 -4.0786743164E-002 -4.1816711426E-001 -3.1754970551E-003 +5.8083534241E-003 +4.0687620640E-005 -7.4505805969E-006 +1.5810012817E-002 +2.5215148926E-002
