!  2-Port S-parameters saved by WinCal
! VAR MeasName=S-Parameters (CALIBRATED_DATA) read from VNA (C)
! VAR MeasDate=10/16/2015 12:56:34 PM
! VAR NAME=M6082_13_15_2_2_20C_15.6mA_-17.5dBm
! VAR FILENAME=M6082_13_15_2_2_20C_15.6mA_-17.5dBm.S2P
! VAR DATE=10/16/2015 12:56:34 PM
! VAR PHYS_PORTS=2,1
! VAR ObjTypeName=DATASET
! VAR IndexType=Frequency
!
# Hz S RI R 50
45000000.000 -1.1280441284E-001 -1.6937255859E-003 -1.1262893677E-003 +5.1553249359E-003 +1.4252066612E-003 +1.5276670456E-004 +2.8997421265E-002 +4.0664672852E-003
177500000.000 -1.1255264282E-001 -3.2882690430E-003 +1.4920234680E-003 +5.1069259644E-003 +4.5023858547E-005 +1.1174753308E-004 +1.5912055969E-002 +1.6735076904E-002
310000000.000 -1.1196899414E-001 -6.4888000488E-003 +3.9629936218E-003 +3.3960342407E-003 +2.0667910576E-005 -1.3647973537E-004 +2.8892517090E-002 +6.1321258545E-002
442500000.000 -1.1120986938E-001 -9.7923278809E-003 +5.9149265289E-003 +2.3341178894E-004 +9.8299235106E-005 -3.2939016819E-005 +7.2521209717E-002 +2.2518157959E-002
575000000.000 -1.1117553711E-001 -1.3923645020E-002 +4.6026706696E-003 -3.2143592834E-003 -1.1427327991E-005 +5.6358054280E-005 +2.7079582214E-002 +1.1176109314E-002
707500000.000 -1.1109161377E-001 -1.7147064209E-002 +1.9650459290E-003 -5.0485134125E-003 -2.3040920496E-006 -4.0821731091E-005 +1.9989013672E-003 +1.8593788147E-002
840000000.000 -1.1044311523E-001 -2.1366119385E-002 -1.1007785797E-003 -5.2075386047E-003 +4.8948451877E-005 -5.2742660046E-005 -1.9919395447E-002 +2.6041984558E-002
972500000.000 -1.0983657837E-001 -2.5318145752E-002 -3.8231611252E-003 -3.6519765854E-003 -1.0691583157E-006 +4.1119754314E-005 -3.5747528076E-002 +3.5415649414E-002
1105000000.000 -1.1016082764E-001 -2.9388427734E-002 -5.3262710571E-003 -9.6154212952E-004 -5.7417899370E-005 -2.3549422622E-005 -4.6882629395E-002 +3.8183212280E-002
1237500000.000 -1.1032485962E-001 -3.3012390137E-002 -4.8148632050E-003 +2.1886825562E-003 -2.3416243494E-005 +2.2903084755E-005 -5.8502197266E-002 +3.3815383911E-002
1370000000.000 -1.1075592041E-001 -3.6624908447E-002 -2.8145313263E-003 +4.4527053833E-003 -4.8574060202E-005 +9.3143433332E-005 -7.3993682861E-002 +2.7004241943E-002
1502500000.000 -1.1068344116E-001 -4.0271759033E-002 +1.7070770264E-004 +5.2623748779E-003 -4.8719346523E-005 -2.2932887077E-005 -8.7951660156E-002 +2.1369934082E-002
1635000000.000 -1.1030197144E-001 -4.4784545898E-002 +3.0555725098E-003 +4.1828155518E-003 +3.6928802729E-005 -1.8276274204E-005 -9.8945617676E-002 +1.1604309082E-002
1767500000.000 -1.1085128784E-001 -4.8641204834E-002 +4.9283504486E-003 +1.8343925476E-003 +5.3821131587E-006 +2.1701678634E-005 -1.1184692383E-001 +2.8800964355E-003
1900000000.000 -1.1064529419E-001 -5.1876068115E-002 +5.1264762878E-003 -1.3370513916E-003 -5.0758942962E-005 -5.3990632296E-005 -1.1376190186E-001 -3.4790039063E-003
2032500000.000 -1.1093521118E-001 -5.5526733398E-002 +3.3621788025E-003 -3.9250850677E-003 +4.2399391532E-005 +1.6938894987E-005 -1.1373138428E-001 -2.4368286133E-002
2165000000.000 -1.1059951782E-001 -5.9795379639E-002 +7.1430206299E-004 -5.0601959229E-003 +3.7422403693E-005 +7.3034316301E-006 -1.2248992920E-001 -4.2289733887E-002
2297500000.000 -1.1079788208E-001 -6.2995910645E-002 -2.3033618927E-003 -4.5325756073E-003 -2.4454668164E-005 +2.6190653443E-005 -1.2638854980E-001 -5.3535461426E-002
2430000000.000 -1.1071395874E-001 -6.6570281982E-002 -4.4054985046E-003 -2.4249553680E-003 -5.7518482208E-005 -9.5143914223E-005 -1.2668609619E-001 -6.4971923828E-002
2562500000.000 -1.1120986938E-001 -7.0587158203E-002 -5.0702095032E-003 +4.0411949158E-004 +2.0762532949E-004 +3.4965574741E-005 -1.2516021729E-001 -7.1014404297E-002
2695000000.000 -1.1274719238E-001 -7.3242187500E-002 -3.9591789246E-003 +3.1099319458E-003 +2.3096799850E-007 +6.1716884375E-005 -1.1361694336E-001 -7.3326110840E-002
2827500000.000 -1.1356353760E-001 -7.5325012207E-002 -1.4593601227E-003 +4.8747062683E-003 -2.3424625397E-005 -1.6723573208E-004 -9.8453521729E-002 -8.1874847412E-002
2960000000.000 -1.1354446411E-001 -7.8716278076E-002 +1.4686584473E-003 +4.8799514771E-003 +9.4957649708E-005 +5.0853937864E-005 -8.8130950928E-002 -8.6708068848E-002
3092500000.000 -1.1485671997E-001 -8.2893371582E-002 +3.8948059082E-003 +3.2916069031E-003 -1.4162063599E-004 +1.3792514801E-004 -7.0411682129E-002 -8.5922241211E-002
3225000000.000 -1.1713790894E-001 -8.6147308350E-002 +4.9812793732E-003 +5.5265426636E-004 +6.8675726652E-006 -5.0803646445E-005 -5.1780700684E-002 -9.1121673584E-002
3357500000.000 -1.1823272705E-001 -8.8195800781E-002 +4.3711662292E-003 -2.2642612457E-003 +8.1405043602E-005 -1.6696751118E-005 -4.1351318359E-002 -9.1564178467E-002
3490000000.000 -1.1878204346E-001 -9.2403411865E-002 +2.2566318512E-003 -4.3056011200E-003 -1.5503726900E-005 +1.5603378415E-005 -2.7801513672E-002 -8.3202362061E-002
3622500000.000 -1.2012481689E-001 -9.7038269043E-002 -4.1484832764E-004 -4.9304962158E-003 -9.0755522251E-005 -5.0555914640E-005 -1.1245727539E-002 -7.9029083252E-002
3755000000.000 -1.2211990356E-001 -1.0108184814E-001 -3.0720233917E-003 -3.9541721344E-003 +1.1543184519E-004 -4.8045068979E-005 -5.8021545410E-003 -7.2963714600E-002
3887500000.000 -1.2316131592E-001 -1.0424423218E-001 -4.7528743744E-003 -1.5189647675E-003 +4.6459957957E-005 +5.9982761741E-005 +2.0599365234E-003 -5.5822372437E-002
4020000000.000 -1.2374496460E-001 -1.0754013062E-001 -4.6608448029E-003 +1.3396739960E-003 -9.3240290880E-005 -4.2729079723E-005 +1.3471603394E-002 -4.4448852539E-002
4152500000.000 -1.2437057495E-001 -1.1209869385E-001 -3.2157897949E-003 +3.8319826126E-003 +6.6492706537E-005 -1.9855797291E-005 +1.5468597412E-002 -3.2526016235E-002
4285000000.000 -1.2602233887E-001 -1.1598205566E-001 -4.6229362488E-004 +4.9288272858E-003 -8.0648809671E-005 +4.7590583563E-005 +1.7025947571E-002 -1.2957572937E-002
4417500000.000 -1.2767791748E-001 -1.1923980713E-001 +2.4383068085E-003 +4.2574405670E-003 -7.8864395618E-005 +1.6611069441E-005 +2.5659561157E-002 +3.6392211914E-003
4550000000.000 -1.2792205811E-001 -1.2242126465E-001 +4.2850971222E-003 +2.2654533386E-003 +2.1381303668E-005 -3.9437785745E-005 +2.8935432434E-002 +9.6645355225E-003
4682500000.000 -1.2865447998E-001 -1.2699127197E-001 +4.7824382782E-003 -5.6099891663E-004 +6.3341110945E-005 +5.5506825447E-006 +2.5671958923E-002 +2.0670890808E-002
4815000000.000 -1.3027191162E-001 -1.3091278076E-001 +3.8318634033E-003 -3.0652284622E-003 -2.3251399398E-005 +4.9712136388E-005 +3.1111717224E-002 +2.7504920959E-002
4947500000.000 -1.3074493408E-001 -1.3393402100E-001 +1.4824867249E-003 -4.5731067657E-003 -3.6235898733E-005 -1.9337981939E-005 +2.7462959290E-002 +2.0021438599E-002
5080000000.000 -1.3066101074E-001 -1.3771057129E-001 -1.3608932495E-003 -4.7411918640E-003 -8.0298632383E-006 +8.5746869445E-006 +1.3205528259E-002 +2.0749092102E-002
5212500000.000 -1.3152313232E-001 -1.4181518555E-001 -3.6571025848E-003 -3.2066106796E-003 -6.9070607424E-005 +3.8027763367E-005 +9.1686248779E-003 +2.4923324585E-002
5345000000.000 -1.3296508789E-001 -1.4458465576E-001 -4.9722194672E-003 -5.3334236145E-004 -3.8335099816E-005 -1.9792467356E-005 +5.4187774658E-003 +1.6378402710E-002
5477500000.000 -1.3217163086E-001 -1.4710235596E-001 -4.4438838959E-003 +2.3427009583E-003 +3.8322061300E-005 +4.2729079723E-006 -9.2883110046E-003 +1.0337829590E-002
5610000000.000 -1.3223266602E-001 -1.5110778809E-001 -2.3488998413E-003 +4.4159889221E-003 +4.7326087952E-005 +6.8578869104E-005 -1.4920234680E-002 +1.4604568481E-002
5742500000.000 -1.3386535645E-001 -1.5366363525E-001 +5.9628486633E-004 +5.0501823425E-003 -4.1183084249E-005 -3.7180259824E-005 -1.1669635773E-002 +5.9618949890E-003
5875000000.000 -1.3504791260E-001 -1.5460968018E-001 +3.3086538315E-003 +3.8141012192E-003 +3.2892450690E-005 -5.3348019719E-005 -2.0327568054E-002 -3.4017562866E-003
6007500000.000 -1.3457489014E-001 -1.5690612793E-001 +4.8406124115E-003 +1.3241767883E-003 -2.6205554605E-005 +5.9461221099E-005 -2.3376464844E-002 +2.1743774414E-004
6140000000.000 -1.3554382324E-001 -1.6082763672E-001 +4.7643184662E-003 -1.6160011292E-003 +5.0736125559E-006 -5.0184316933E-006 -1.5470504761E-002 -2.7947425842E-003
6272500000.000 -1.3892364502E-001 -1.6312408447E-001 +3.0181407928E-003 -4.0528774261E-003 +7.6517462730E-006 -5.6885182858E-005 -1.6490936279E-002 -1.1839866638E-002
6405000000.000 -1.4070892334E-001 -1.6322326660E-001 +2.3484230042E-004 -5.0094127655E-003 +3.5958364606E-005 +6.1914324760E-006 -1.9481658936E-002 -6.3905715942E-003
6537500000.000 -1.4019775391E-001 -1.6613006592E-001 -2.5601387024E-003 -4.2552947998E-003 -6.6369771957E-005 +2.1729618311E-005 -9.4060897827E-003 -3.3364295959E-003
6670000000.000 -1.4207458496E-001 -1.7108917236E-001 -4.5571327209E-003 -2.0680427551E-003 +1.0751187801E-005 -4.2226165533E-005 -7.9073905945E-003 -7.3614120483E-003
6802500000.000 -1.4615631104E-001 -1.7348480225E-001 -4.8604011536E-003 +8.4114074707E-004 +1.0387971997E-005 -8.3493068814E-006 -1.1341094971E-002 -1.8596649170E-005
6935000000.000 -1.4767456055E-001 -1.7362213135E-001 -3.5665035248E-003 +3.3857822418E-003 +1.0031275451E-005 +2.6619061828E-005 -6.3509941101E-003 +9.7260475159E-003
7067500000.000 -1.4710235596E-001 -1.7704010010E-001 -1.1022090912E-003 +4.8210620880E-003 -1.0729767382E-005 -2.3898668587E-005 -4.6715736389E-003 +1.0128974915E-002
7200000000.000 -1.4978027344E-001 -1.8185424805E-001 +1.7726421356E-003 +4.5409202576E-003 -2.9049813747E-005 +3.8033351302E-005 -1.4986991882E-002 +1.6918182373E-002
7332500000.000 -1.5349578857E-001 -1.8397521973E-001 +4.0037631989E-003 +2.7630329132E-003 -4.7303736210E-005 +4.1434541345E-005 -1.6913414001E-002 +3.0616760254E-002
7465000000.000 -1.5450286865E-001 -1.8568420410E-001 +4.8801898956E-003 +6.6995620728E-005 +2.6531517506E-005 -7.6830387115E-005 -1.9776344299E-002 +3.1158447266E-002
7597500000.000 -1.5534973145E-001 -1.8984985352E-001 +4.1272640228E-003 -2.5968551636E-003 +2.7418136597E-006 +1.1376105249E-005 -3.6251068115E-002 +3.3309936523E-002
7730000000.000 -1.5788269043E-001 -1.9426727295E-001 +1.9059181213E-003 -4.3389797211E-003 -3.1610950828E-005 -7.6051801443E-006 -4.8276901245E-002 +4.3645858765E-002
7862500000.000 -1.5960693359E-001 -1.9700622559E-001 -8.5186958313E-004 -4.7352313995E-003 +2.0433217287E-005 -6.4652413130E-005 -5.3634643555E-002 +4.2472839355E-002
7995000000.000 -1.5993499756E-001 -1.9948577881E-001 -3.3141374588E-003 -3.4580230713E-003 -1.1555384845E-005 -1.7280690372E-006 -7.2990417480E-002 +3.4957885742E-002
8127500000.000 -1.6056823730E-001 -2.0497131348E-001 -4.7049522400E-003 -1.0142326355E-003 +1.5558674932E-005 +3.0227936804E-005 -9.1335296631E-002 +3.9764404297E-002
8260000000.000 -1.6316223145E-001 -2.0798492432E-001 -4.4589042664E-003 +1.7881393433E-003 -3.8921833038E-005 +1.4442950487E-005 -9.5516204834E-002 +3.4286499023E-002
8392500000.000 -1.6307830811E-001 -2.1063995361E-001 -2.5830268860E-003 +3.9987564087E-003 +2.8174370527E-005 -8.2887709141E-005 -1.0987091064E-001 +1.8333435059E-002
8525000000.000 -1.6260528564E-001 -2.1401977539E-001 -2.3126602173E-005 +4.8255920410E-003 +3.2845884562E-005 +2.6859343052E-005 -1.2196350098E-001 +1.5022277832E-002
8657500000.000 -1.6337585449E-001 -2.1800994873E-001 +2.7253627777E-003 +4.0004253387E-003 -4.2280182242E-005 +9.7937881947E-006 -1.1774826050E-001 +4.1084289551E-003
8790000000.000 -1.6492462158E-001 -2.2111511230E-001 +4.5228004456E-003 +1.8050670624E-003 -4.4753775001E-005 -5.2746385336E-005 -1.1954498291E-001 -1.7509460449E-002
8922500000.000 -1.6500854492E-001 -2.2222900391E-001 +4.7438144684E-003 -9.8204612732E-004 +3.8389116526E-005 -3.1534582376E-006 -1.2234497070E-001 -3.0529022217E-002
9055000000.000 -1.6506195068E-001 -2.2546386719E-001 +3.3184289932E-003 -3.4672021866E-003 +2.6538036764E-005 +2.5677494705E-005 -1.1099243164E-001 -4.4116973877E-002
9187500000.000 -1.6602325439E-001 -2.2791290283E-001 +8.8500976563E-004 -4.7862529755E-003 +2.8824433684E-006 -2.2836029530E-005 -1.0018539429E-001 -6.6917419434E-002
9320000000.000 -1.6884613037E-001 -2.2893524170E-001 -2.0263195038E-003 -4.4493675232E-003 -5.3299590945E-005 +4.5957043767E-005 -9.3585968018E-002 -7.9639434814E-002
9452500000.000 -1.6922760010E-001 -2.3023223877E-001 -4.1348934174E-003 -2.5460720062E-003 +1.5143305063E-005 +1.6643665731E-005 -7.3982238770E-002 -8.6750030518E-002
9585000000.000 -1.7013549805E-001 -2.3258972168E-001 -4.8608779907E-003 +2.5534629822E-004 -4.5614317060E-005 -2.3169443011E-005 -5.4271697998E-002 -1.0130310059E-001
9717500000.000 -1.7347717285E-001 -2.3590087891E-001 -3.8640499115E-003 +2.8715133667E-003 +3.5129487514E-005 -5.4221600294E-006 -4.1187286377E-002 -1.0688400269E-001
9850000000.000 -1.7659759521E-001 -2.3548126221E-001 -1.5504360199E-003 +4.5244693756E-003 -1.6264617443E-005 -3.7601217628E-005 -1.8775939941E-002 -1.0230255127E-001
9982500000.000 -1.7637634277E-001 -2.3797607422E-001 +1.1999607086E-003 +4.6913623810E-003 -6.1884522438E-005 +3.7778168917E-005 +6.6261291504E-003 -1.0340499878E-001
10115000000.000 -1.7841339111E-001 -2.4113464355E-001 +3.5986900330E-003 +3.1392574310E-003 +1.0764226317E-005 -4.3915584683E-005 +1.9332885742E-002 -9.8983764648E-002
10247500000.000 -1.8261718750E-001 -2.4303436279E-001 +4.7504901886E-003 +5.8937072754E-004 +3.2432377338E-005 +9.2215836048E-005 +3.6052703857E-002 -7.9811096191E-002
10380000000.000 -1.8411254883E-001 -2.4418640137E-001 +4.3017864227E-003 -2.1510124207E-003 -3.3605843782E-005 +5.6322664022E-005 +5.7403564453E-002 -6.7432403564E-002
10512500000.000 -1.8580627441E-001 -2.4642944336E-001 +2.3126602173E-003 -4.1878223419E-003 +1.7285346985E-006 -8.6533837020E-006 +6.2614440918E-002 -5.5767059326E-002
10645000000.000 -1.8780517578E-001 -2.4877929688E-001 -4.1460990906E-004 -4.7845840454E-003 +3.7830322981E-005 +7.3369592428E-005 +6.6131591797E-002 -2.8869628906E-002
10777500000.000 -1.9058227539E-001 -2.5111389160E-001 -2.9246807098E-003 -3.7462711334E-003 -6.1694532633E-005 +4.7586858273E-005 +7.7335357666E-002 -7.7209472656E-003
10910000000.000 -1.9284057617E-001 -2.5355529785E-001 -4.5061111450E-003 -1.4057159424E-003 +6.0755759478E-005 -2.7321279049E-005 +7.2338104248E-002 +5.7907104492E-003
11042500000.000 -1.9590759277E-001 -2.5601196289E-001 -4.5604705811E-003 +1.3144016266E-003 +5.5735930800E-005 -1.1883676052E-005 +5.9307098389E-002 +3.1595230103E-002
11175000000.000 -1.9760131836E-001 -2.5961303711E-001 -3.1162500381E-003 +3.7004947662E-003 -1.2381933630E-005 +2.0434148610E-005 +5.6325912476E-002 +5.2736282349E-002
11307500000.000 -1.9873046875E-001 -2.6164245605E-001 -3.7145614624E-004 +4.6916007996E-003 -2.3938715458E-005 -2.1508894861E-005 +4.3436050415E-002 +5.8660507202E-002
11440000000.000 -2.0173645020E-001 -2.6448059082E-001 +2.3140907288E-003 +4.2355060577E-003 +5.4542906582E-006 -1.3057608157E-005 +1.7875671387E-002 +7.2177886963E-002
11572500000.000 -2.0207214355E-001 -2.6817321777E-001 +4.1890144348E-003 +2.1712779999E-003 +8.0019235611E-006 +4.4727697968E-005 +4.0779113770E-003 +8.7551116943E-002
11705000000.000 -2.0338439941E-001 -2.7070617676E-001 +4.6951770782E-003 -6.0558319092E-004 -5.0652772188E-005 -6.0666352510E-006 -1.0494232178E-002 +8.0959320068E-002
11837500000.000 -2.0571899414E-001 -2.7348327637E-001 +3.5552978516E-003 -3.0382871628E-003 -4.9900263548E-005 -3.9413571358E-005 -4.3422698975E-002 +7.6583862305E-002
11970000000.000 -2.0588684082E-001 -2.7445983887E-001 +1.1868476868E-003 -4.4808387756E-003 +1.1323019862E-005 -1.5695579350E-005 -5.9734344482E-002 +8.2893371582E-002
12102500000.000 -2.0474243164E-001 -2.7772521973E-001 -1.5342235565E-003 -4.4522285461E-003 -3.1646341085E-006 +5.8585777879E-005 -6.5765380859E-002 +6.4208984375E-002
12235000000.000 -2.0893859863E-001 -2.7902221680E-001 -3.7517547607E-003 -2.7633905411E-003 -7.7551230788E-006 -1.6952864826E-005 -9.3109130859E-002 +4.3750762939E-002
12367500000.000 -2.0803833008E-001 -2.7970886230E-001 -4.6181678772E-003 -1.7762184143E-004 +3.1743198633E-005 +4.5606866479E-005 -1.0559463501E-001 +4.2308807373E-002
12500000000.000 -2.1026611328E-001 -2.8042602539E-001 -4.0035247803E-003 +2.4492740631E-003 -5.5413693190E-005 +8.7637454271E-006 -9.7316741943E-002 +1.9874572754E-002
12632500000.000 -2.1124267578E-001 -2.8355407715E-001 -1.8651485443E-003 +4.2319297791E-003 +2.0895153284E-005 +7.5422227383E-005 -1.0927963257E-001 -1.3919830322E-002
12765000000.000 -2.1237182617E-001 -2.8402709961E-001 +8.1706047058E-004 +4.5096874237E-003 +1.1017546058E-005 -1.1545140296E-005 -1.1711883545E-001 -1.8058776855E-002
12897500000.000 -2.1383666992E-001 -2.8370666504E-001 +3.2167434692E-003 +3.2995939255E-003 +2.7231872082E-006 +8.1125646830E-005 -9.1957092285E-002 -3.4946441650E-002
13030000000.000 -2.1461486816E-001 -2.8488159180E-001 +4.5263767242E-003 +9.6869468689E-004 -4.2881816626E-005 -3.5373494029E-005 -8.9233398438E-002 -7.1414947510E-002
13162500000.000 -2.1630859375E-001 -2.8691101074E-001 +4.1975975037E-003 -1.6813278198E-003 +3.3542513847E-005 -5.9679150581E-006 -9.1232299805E-002 -7.2666168213E-002
13295000000.000 -2.1835327148E-001 -2.8842163086E-001 +2.4707317352E-003 -3.7462711334E-003 -3.1515955925E-005 +8.7436288595E-005 -6.0504913330E-002 -7.8613281250E-002
13427500000.000 -2.2132873535E-001 -2.8765869141E-001 -4.4107437134E-005 -4.5821666718E-003 -7.4017792940E-005 -3.3907592297E-005 -4.6367645264E-002 -1.0424804688E-001
13560000000.000 -2.2079467773E-001 -2.8845214844E-001 -2.5800466537E-003 -3.7946701050E-003 +6.6902488470E-005 +6.3635408878E-005 -4.6348571777E-002 -1.0138320923E-001
13692500000.000 -2.2207641602E-001 -2.9173278809E-001 -4.2824745178E-003 -1.7728805542E-003 +4.1678547859E-005 +7.5493007898E-005 -1.7467498779E-002 -8.8836669922E-002
13825000000.000 -2.2608947754E-001 -2.9351806641E-001 -4.3709278107E-003 +9.6964836121E-004 -6.4171850681E-005 +2.6002526283E-006 +4.6272277832E-003 -1.0295486450E-001
13957500000.000 -2.2830200195E-001 -2.9244995117E-001 -3.0863285065E-003 +3.3257007599E-003 +1.2134388089E-004 -2.9914081097E-005 +6.1035156250E-005 -9.5535278320E-002
14090000000.000 -2.2807312012E-001 -2.9417419434E-001 -5.9127807617E-004 +4.4960975647E-003 -7.4915587902E-006 +2.0589679480E-005 +2.2182464600E-002 -6.9911956787E-002
14222500000.000 -2.2868347168E-001 -2.9838562012E-001 +1.8908977509E-003 +4.0566921234E-003 -4.6409666538E-005 -3.7010759115E-005 +4.4010162354E-002 -7.3875427246E-002
14355000000.000 -2.3275756836E-001 -2.9956054688E-001 +3.8799047470E-003 +2.3283958435E-003 +3.5354867578E-005 -2.6866793633E-005 +3.3370971680E-002 -6.6875457764E-002
14487500000.000 -2.3423767090E-001 -3.0007934570E-001 +4.4987201691E-003 -3.5643577576E-004 +7.9192221165E-005 -8.7115913630E-005 +4.0187835693E-002 -3.3802032471E-002
14620000000.000 -2.3355102539E-001 -3.0259704590E-001 +3.5165548325E-003 -2.7534961700E-003 -2.6803463697E-005 +1.0823458433E-004 +6.0752868652E-002 -3.1221389771E-002
14752500000.000 -2.3657226563E-001 -3.0747985840E-001 +1.2111663818E-003 -4.1987895966E-003 -4.5288354158E-005 -3.0701979995E-005 +4.3157577515E-002 -3.2024383545E-002
14885000000.000 -2.3878479004E-001 -3.0911254883E-001 -1.3473033905E-003 -4.2200088501E-003 -5.4035335779E-005 -1.3323500752E-005 +3.5638809204E-002 +1.6193389893E-003
15017500000.000 -2.3854064941E-001 -3.1039428711E-001 -3.3466815948E-003 -2.8014183044E-003 -1.0233744979E-004 +6.1020255089E-005 +5.2886962891E-002 +8.6402893066E-003
15150000000.000 -2.3876953125E-001 -3.1524658203E-001 -4.3437480927E-003 -4.2152404785E-004 +3.4518539906E-005 +4.2896717787E-006 +3.4759521484E-002 -1.4839172363E-003
15282500000.000 -2.3956298828E-001 -3.1832885742E-001 -3.8338899612E-003 +2.1032094955E-003 -6.8712979555E-005 +2.7369707823E-005 +1.4658927917E-002 +2.3499488831E-002
