!  2-Port S-parameters saved by WinCal
! VAR MeasName=S-Parameters (CALIBRATED_DATA) read from VNA (C)
! VAR MeasDate=10/16/2015 3:17:06 PM
! VAR NAME=M6082_10_15_2_2_20C_10.4mA_-17.5dBm
! VAR FILENAME=M6082_10_15_2_2_20C_10.4mA_-17.5dBm.S2P
! VAR DATE=10/16/2015 3:17:06 PM
! VAR PHYS_PORTS=2,1
! VAR ObjTypeName=DATASET
! VAR IndexType=Frequency
!
# Hz S RI R 50
45000000.000 -1.1399078369E-001 -5.9127807617E-004 -2.0852088928E-003 +6.6664218903E-003 +4.4779479504E-004 +1.5245378017E-004 +2.8880119324E-002 +4.1103363037E-003
177500000.000 -1.1300659180E-001 -6.5917968750E-003 +2.6037693024E-003 +6.7973136902E-003 +1.1883676052E-004 +1.8909573555E-004 +1.5846252441E-002 +1.6951560974E-002
310000000.000 -1.1206817627E-001 -1.3744354248E-002 +5.5711269379E-003 +4.4116973877E-003 -1.1143088341E-004 +5.3755939007E-005 +2.8818130493E-002 +6.1410903931E-002
442500000.000 -1.1153411865E-001 -2.0656585693E-002 +7.8997612000E-003 +3.6239624023E-005 -7.6629221439E-006 +4.7629699111E-005 +7.2586059570E-002 +2.2666931152E-002
575000000.000 -1.1183547974E-001 -2.8423309326E-002 +5.9542655945E-003 -4.2471885681E-003 -4.0091574192E-005 +4.6089291573E-005 +2.7196884155E-002 +1.1323928833E-002
707500000.000 -1.1231994629E-001 -3.5198211670E-002 +2.5975704193E-003 -6.9627761841E-003 -1.1965632439E-005 -5.4465606809E-005 +2.0065307617E-003 +1.8712043762E-002
840000000.000 -1.1224365234E-001 -4.2797088623E-002 -1.6639232635E-003 -6.9525241852E-003 +1.8409918994E-006 -1.5054829419E-006 -1.9906997681E-002 +2.6007652283E-002
972500000.000 -1.1244201660E-001 -5.0262451172E-002 -5.3296089172E-003 -4.8561096191E-003 -6.1649829149E-005 +5.5193901062E-005 -3.5835266113E-002 +3.5348892212E-002
1105000000.000 -1.1347579956E-001 -5.7720184326E-002 -6.9789886475E-003 -9.8276138306E-004 +3.5248696804E-005 +3.5369768739E-005 -4.6876907349E-002 +3.8230895996E-002
1237500000.000 -1.1448287964E-001 -6.4731597900E-002 -6.4384937286E-003 +2.9845237732E-003 +3.7962570786E-005 -6.5378844738E-007 -5.8584213257E-002 +3.3811569214E-002
1370000000.000 -1.1588668823E-001 -7.1704864502E-002 -3.5793781281E-003 +6.0546398163E-003 +2.9429793358E-007 +7.4360519648E-005 -7.3951721191E-002 +2.6931762695E-002
1502500000.000 -1.1685562134E-001 -7.8598022461E-002 +4.5967102051E-004 +7.0443153381E-003 +5.6605786085E-006 -5.7715922594E-005 -8.7917327881E-002 +2.1236419678E-002
1635000000.000 -1.1766815186E-001 -8.6341857910E-002 +4.3222904205E-003 +5.5224895477E-003 +5.7583674788E-006 +1.9651837647E-005 -9.8941802979E-002 +1.1665344238E-002
1767500000.000 -1.1954498291E-001 -9.3498229980E-002 +6.7200660706E-003 +2.1414756775E-003 -3.3332034945E-005 +2.0686537027E-005 -1.1182403564E-001 +2.7885437012E-003
1900000000.000 -1.2068176270E-001 -9.9708557129E-002 +6.6742897034E-003 -2.0263195038E-003 +1.8553808331E-005 +4.1648745537E-006 -1.1376571655E-001 -3.4599304199E-003
2032500000.000 -1.2228393555E-001 -1.0634613037E-001 +4.4102668762E-003 -5.4152011871E-003 +2.4802982807E-005 -1.4807097614E-005 -1.1359405518E-001 -2.4375915527E-002
2165000000.000 -1.2352371216E-001 -1.1396026611E-001 +5.9747695923E-004 -6.8147182465E-003 -5.4538249969E-005 +1.5161931515E-006 -1.2252807617E-001 -4.2274475098E-002
2297500000.000 -1.2536621094E-001 -1.2002563477E-001 -3.2825469971E-003 -5.9778690338E-003 -1.0408461094E-004 -2.9847025871E-005 -1.2654876709E-001 -5.3466796875E-002
2430000000.000 -1.2706756592E-001 -1.2636566162E-001 -6.1469078064E-003 -3.0651092529E-003 +4.9360096455E-005 -3.7059187889E-005 -1.2651824951E-001 -6.4888000488E-002
2562500000.000 -1.2912750244E-001 -1.3326263428E-001 -6.8545341492E-003 +8.0275535583E-004 +1.6444921494E-004 -9.0971589088E-005 -1.2506866455E-001 -7.1151733398E-002
2695000000.000 -1.3269805908E-001 -1.3862609863E-001 -5.0003528595E-003 +4.4250488281E-003 +4.6901404858E-006 +9.7300857306E-005 -1.1372375488E-001 -7.3486328125E-002
2827500000.000 -1.3528442383E-001 -1.4326477051E-001 -1.8041133881E-003 +6.5174102783E-003 -8.1062316895E-006 -1.5160441399E-004 -9.8556518555E-002 -8.1680297852E-002
2960000000.000 -1.3692474365E-001 -1.4934539795E-001 +2.2165775299E-003 +6.4697265625E-003 +1.3996660709E-004 +8.5547566414E-005 -8.8073730469E-002 -8.6658477783E-002
3092500000.000 -1.4043426514E-001 -1.5624237061E-001 +5.2790641785E-003 +4.1208267212E-003 -4.3338164687E-005 +6.0655176640E-005 -7.0449829102E-002 -8.6025238037E-002
3225000000.000 -1.4497375488E-001 -1.6178894043E-001 +6.6714286804E-003 +2.6988983154E-004 -6.1929225922E-005 -9.6555799246E-005 -5.1986694336E-002 -9.1114044189E-002
3357500000.000 -1.4780426025E-001 -1.6594696045E-001 +5.7227611542E-003 -3.3338069916E-003 +1.3681501150E-004 -3.4146010876E-005 -4.1370391846E-002 -9.1445922852E-002
3490000000.000 -1.5080261230E-001 -1.7295074463E-001 +2.8238296509E-003 -5.9728622437E-003 +2.7579255402E-005 +2.2816471756E-005 -2.7820587158E-002 -8.3316802979E-002
3622500000.000 -1.5408325195E-001 -1.7954254150E-001 -1.0592937469E-003 -6.4904689789E-003 -5.7058408856E-005 +5.2364543080E-005 -1.1402130127E-002 -7.9154968262E-002
3755000000.000 -1.5855407715E-001 -1.8562316895E-001 -4.3640136719E-003 -4.8604011536E-003 +8.8412314653E-005 +2.8878450394E-005 -5.9509277344E-003 -7.2879791260E-002
3887500000.000 -1.6176605225E-001 -1.9097900391E-001 -6.4320564270E-003 -1.5838146210E-003 -9.2767179012E-005 +9.2159956694E-005 +2.3040771484E-003 -5.5915832520E-002
4020000000.000 -1.6492462158E-001 -1.9618225098E-001 -6.0877799988E-003 +2.3372173309E-003 -6.2599778175E-005 -6.2059611082E-005 +1.3301849365E-002 -4.4481277466E-002
4152500000.000 -1.6792297363E-001 -2.0257568359E-001 -3.7739276886E-003 +5.3513050079E-003 +1.1023506522E-004 +1.4029443264E-005 +1.5350341797E-002 -3.2526016235E-002
4285000000.000 -1.7182159424E-001 -2.0831298828E-001 -6.2942504883E-005 +6.4194202423E-003 +2.5191344321E-005 +1.5248544514E-005 +1.7062187195E-002 -1.2994766235E-002
4417500000.000 -1.7616271973E-001 -2.1337127686E-001 +3.4642219543E-003 +5.3355693817E-003 +7.4505805969E-007 -3.0837953091E-005 +2.5598526001E-002 +3.6344528198E-003
4550000000.000 -1.7878723145E-001 -2.1822357178E-001 +5.9723854065E-003 +2.4840831757E-003 -3.0247494578E-005 +7.6517462730E-006 +2.8851509094E-002 +9.4757080078E-003
4682500000.000 -1.8177795410E-001 -2.2435760498E-001 +6.2468051910E-003 -1.2238025665E-003 +3.3535063267E-005 +1.7667189240E-005 +2.5650978088E-002 +2.0757675171E-002
4815000000.000 -1.8600463867E-001 -2.2991943359E-001 +4.5342445374E-003 -4.3544769287E-003 -9.1090798378E-005 +1.2982636690E-005 +3.1169891357E-002 +2.7410507202E-002
4947500000.000 -1.8901062012E-001 -2.3436737061E-001 +1.3182163239E-003 -6.1497688293E-003 -4.1432678699E-005 -1.0528415442E-004 +2.7656555176E-002 +1.9900321960E-002
5080000000.000 -1.9139099121E-001 -2.3975372314E-001 -2.2742748260E-003 -5.9790611267E-003 +2.4707987905E-005 -4.0041282773E-005 +1.3313293457E-002 +2.0546913147E-002
5212500000.000 -1.9490051270E-001 -2.4505615234E-001 -5.1920413971E-003 -3.7555694580E-003 -7.7720731497E-005 +6.4224004745E-005 +9.1876983643E-003 +2.4754524231E-002
5345000000.000 -1.9882965088E-001 -2.4906921387E-001 -6.4487457275E-003 -1.9669532776E-004 -2.3732893169E-005 -1.2218952179E-005 +5.5799484253E-003 +1.6252517700E-002
5477500000.000 -2.0053100586E-001 -2.5276184082E-001 -5.4595470428E-003 +3.6098957062E-003 +3.6139041185E-005 -2.1429732442E-005 -9.1218948364E-003 +1.0309219360E-002
5610000000.000 -2.0326232910E-001 -2.5794982910E-001 -2.5641918182E-003 +5.9943199158E-003 -2.2966414690E-006 +5.0606206059E-005 -1.4830589294E-002 +1.4464378357E-002
5742500000.000 -2.0742797852E-001 -2.6165771484E-001 +1.3599395752E-003 +6.3400268555E-003 +2.2746622562E-005 +3.1676143408E-005 -1.1602401733E-002 +5.8956146240E-003
5875000000.000 -2.1121215820E-001 -2.6348876953E-001 +4.6584606171E-003 +4.5762062073E-003 +3.9113685489E-005 +9.9111348391E-006 -2.0251274109E-002 -3.3149719238E-003
6007500000.000 -2.1351623535E-001 -2.6678466797E-001 +6.3967704773E-003 +1.0950565338E-003 -1.0782852769E-005 +4.9008056521E-005 -2.3097038269E-002 +1.6689300537E-004
6140000000.000 -2.1699523926E-001 -2.7140808105E-001 +5.8653354645E-003 -2.7565956116E-003 -1.4221295714E-005 -2.6380643249E-005 -1.5373706818E-002 -2.8543472290E-003
6272500000.000 -2.2280883789E-001 -2.7455139160E-001 +3.3180713654E-003 -5.4502487183E-003 +2.1034851670E-005 -3.3406540751E-006 -1.6444206238E-002 -1.1721611023E-002
6405000000.000 -2.2732543945E-001 -2.7537536621E-001 -3.4451484680E-004 -6.4113140106E-003 +1.5750527382E-005 +2.6659108698E-005 -1.9348144531E-002 -6.1702728271E-003
6537500000.000 -2.2959899902E-001 -2.7886962891E-001 -3.8685798645E-003 -5.0816535950E-003 -1.8276274204E-005 +3.8955360651E-005 -9.2439651489E-003 -3.2858848572E-003
6670000000.000 -2.3377990723E-001 -2.8436279297E-001 -5.9978961945E-003 -2.0709037781E-003 -8.5378997028E-006 -4.3483451009E-006 -7.9536437988E-003 -7.2746276855E-003
6802500000.000 -2.4044799805E-001 -2.8720092773E-001 -6.1280727386E-003 +1.6782283783E-003 +7.6894648373E-006 +1.4470424503E-005 -1.1419296265E-002 +7.6293945313E-005
6935000000.000 -2.4468994141E-001 -2.8758239746E-001 -4.0717124939E-003 +4.7819614410E-003 -9.1772526503E-006 +5.4333359003E-005 -6.3199996948E-003 +9.8171234131E-003
7067500000.000 -2.4617004395E-001 -2.9129028320E-001 -6.4992904663E-004 +6.1936378479E-003 +6.2906183302E-006 +1.5161931515E-005 -4.5323371887E-003 +1.0128974915E-002
7200000000.000 -2.5106811523E-001 -2.9649353027E-001 +2.8448104858E-003 +5.4709911346E-003 +1.3712793589E-005 +5.4061412811E-005 -1.5088081360E-002 +1.7001152039E-002
7332500000.000 -2.5746154785E-001 -2.9864501953E-001 +5.4674148560E-003 +2.9327869415E-003 -5.5387616158E-005 +1.7564743757E-006 -1.7135620117E-002 +3.0806541443E-002
7465000000.000 -2.6092529297E-001 -3.0038452148E-001 +6.1249732971E-003 -6.2680244446E-004 -7.3917210102E-005 -2.8125941753E-005 -1.9710540771E-002 +3.1251907349E-002
7597500000.000 -2.6367187500E-001 -3.0444335938E-001 +4.6827793121E-003 -3.7908554077E-003 +4.0072947741E-005 -5.3321942687E-005 -3.6262512207E-002 +3.3262252808E-002
7730000000.000 -2.6869201660E-001 -3.0926513672E-001 +1.7831325531E-003 -5.7995319366E-003 -2.9355287552E-006 +3.0257739127E-005 -4.8305511475E-002 +4.3619155884E-002
7862500000.000 -2.7304077148E-001 -3.1199645996E-001 -1.8146038055E-003 -5.8760643005E-003 -2.6149675250E-005 -7.1730464697E-006 -5.3627014160E-002 +4.2728424072E-002
7995000000.000 -2.7566528320E-001 -3.1449890137E-001 -4.7044754028E-003 -3.8063526154E-003 +2.4742446840E-005 -5.9707090259E-006 -7.2872161865E-002 +3.5133361816E-002
8127500000.000 -2.7838134766E-001 -3.1993103027E-001 -5.9440135956E-003 -5.7053565979E-004 +1.0544061661E-004 +1.1352449656E-004 -9.1415405273E-002 +3.9592742920E-002
8260000000.000 -2.8327941895E-001 -3.2292175293E-001 -5.2845478058E-003 +2.9163360596E-003 -3.3029355109E-006 +7.2186812758E-006 -9.5600128174E-002 +3.4362792969E-002
8392500000.000 -2.8540039063E-001 -3.2533264160E-001 -2.7534961700E-003 +5.2332878113E-003 +2.6427209377E-005 +2.2089108825E-005 -1.0973358154E-001 +1.8505096436E-002
8525000000.000 -2.8692626953E-001 -3.2879638672E-001 +7.1787834167E-004 +5.9261322021E-003 +2.9777176678E-005 +8.4415078163E-006 -1.2186431885E-001 +1.4911651611E-002
8657500000.000 -2.8970336914E-001 -3.3265686035E-001 +3.7870407104E-003 +4.5292377472E-003 -1.7761252820E-005 -2.2114254534E-005 -1.1777877808E-001 +4.1465759277E-003
8790000000.000 -2.9365539551E-001 -3.3560180664E-001 +5.7625770569E-003 +1.5676021576E-003 -3.6220997572E-005 -9.3858689070E-006 -1.1954879761E-001 -1.7452239990E-002
8922500000.000 -2.9588317871E-001 -3.3638000488E-001 +5.6276321411E-003 -1.8537044525E-003 +4.1337683797E-005 -2.1189451218E-005 -1.2229919434E-001 -3.0445098877E-002
9055000000.000 -2.9794311523E-001 -3.3935546875E-001 +3.6082267761E-003 -4.7042369843E-003 -2.3306347430E-005 +7.2922557592E-006 -1.1102294922E-001 -4.3998718262E-002
9187500000.000 -3.0088806152E-001 -3.4164428711E-001 +3.0755996704E-004 -5.9335231781E-003 +3.7314370275E-005 +8.9555978775E-006 -1.0013961792E-001 -6.6890716553E-002
9320000000.000 -3.0650329590E-001 -3.4217834473E-001 -3.0322074890E-003 -5.0919055939E-003 +4.3123960495E-005 +5.0295144320E-005 -9.3631744385E-002 -7.9654693604E-002
9452500000.000 -3.0909729004E-001 -3.4295654297E-001 -5.4302215576E-003 -2.5277137756E-003 -1.5723519027E-005 +2.9951334000E-005 -7.4172973633E-002 -8.6616516113E-002
9585000000.000 -3.1211853027E-001 -3.4475708008E-001 -5.8336257935E-003 +9.0289115906E-004 -2.4953857064E-005 -3.9394944906E-005 -5.4237365723E-002 -1.0114669800E-001
9717500000.000 -3.1738281250E-001 -3.4773254395E-001 -4.3649673462E-003 +4.0292739868E-003 +2.7451664209E-005 -4.9745664001E-005 -4.1282653809E-002 -1.0708236694E-001
9850000000.000 -3.2301330566E-001 -3.4640502930E-001 -1.2264251709E-003 +5.7313442230E-003 +1.3192184269E-005 -1.2792646885E-005 -1.9279479980E-002 -1.0223388672E-001
9982500000.000 -3.2447814941E-001 -3.4834289551E-001 +2.1896362305E-003 +5.4843425751E-003 -2.2750347853E-005 -1.7220154405E-006 +6.4697265625E-003 -1.0311508179E-001
10115000000.000 -3.2812500000E-001 -3.5107421875E-001 +4.7478675842E-003 +3.4463405609E-003 +8.3569437265E-005 -2.4981796741E-005 +1.9248962402E-002 -9.9266052246E-002
10247500000.000 -3.3433532715E-001 -3.5220336914E-001 +5.7375431061E-003 +1.2278556824E-004 +4.0177255869E-006 +3.7770718336E-005 +3.5545349121E-002 -8.0081939697E-002
10380000000.000 -3.3796691895E-001 -3.5188293457E-001 +4.8739910126E-003 -3.1878948212E-003 -5.3267925978E-005 -1.6577541828E-006 +5.6953430176E-002 -6.7352294922E-002
10512500000.000 -3.4088134766E-001 -3.5314941406E-001 +2.2714138031E-003 -5.3172111511E-003 -2.0094215870E-005 -7.0642679930E-005 +6.2717437744E-002 -5.5969238281E-002
10645000000.000 -3.4448242188E-001 -3.5498046875E-001 -1.0499954224E-003 -5.6469440460E-003 -9.6983276308E-006 +1.2017320842E-005 +6.6043853760E-002 -2.9357910156E-002
10777500000.000 -3.4941101074E-001 -3.5652160645E-001 -4.0738582611E-003 -4.1112899780E-003 -6.6175125539E-006 -1.2582167983E-005 +7.6953887939E-002 -7.8353881836E-003
10910000000.000 -3.5379028320E-001 -3.5734558105E-001 -5.6965351105E-003 -1.1174678802E-003 -1.6505829990E-005 -1.8470920622E-005 +7.2319030762E-002 +5.6686401367E-003
11042500000.000 -3.5795593262E-001 -3.5855102539E-001 -5.3470134735E-003 +2.1576881409E-003 +2.4586915970E-006 +3.0688941479E-005 +5.9631347656E-002 +3.1244277954E-002
11175000000.000 -3.6132812500E-001 -3.6149597168E-001 -3.0832290649E-003 +4.7700405121E-003 -2.3003667593E-006 +1.9820407033E-005 +5.6318283081E-002 +5.2381515503E-002
11307500000.000 -3.6412048340E-001 -3.6293029785E-001 +7.9631805420E-005 +5.7168006897E-003 +1.8291175365E-006 -1.4291610569E-005 +4.3478012085E-002 +5.8588027954E-002
11440000000.000 -3.6868286133E-001 -3.6466979980E-001 +3.3297538757E-003 +4.6930313110E-003 +6.1791390181E-005 -5.7805329561E-005 +1.8245697021E-002 +7.2059631348E-002
11572500000.000 -3.7036132813E-001 -3.6752319336E-001 +5.3427219391E-003 +2.0527839661E-003 +2.8453767300E-005 +9.6861273050E-005 +4.3449401855E-003 +8.7257385254E-002
11705000000.000 -3.7269592285E-001 -3.6944580078E-001 +5.5325031281E-003 -1.2252330780E-003 -2.9131770134E-005 +6.1836093664E-005 -1.0120391846E-002 +8.0863952637E-002
11837500000.000 -3.7632751465E-001 -3.7129211426E-001 +3.8070678711E-003 -4.2080879211E-003 +1.1054798961E-006 +1.0711140931E-005 -4.3170928955E-002 +7.6549530029E-002
11970000000.000 -3.7791442871E-001 -3.7113952637E-001 +9.2625617981E-004 -5.6092739105E-003 +1.7394195311E-006 +6.3795596361E-008 -5.9387207031E-002 +8.3042144775E-002
12102500000.000 -3.7782287598E-001 -3.7333679199E-001 -2.5546550751E-003 -5.0492286682E-003 -4.5685097575E-005 +7.1581453085E-006 -6.5402984619E-002 +6.4296722412E-002
12235000000.000 -3.8328552246E-001 -3.7347412109E-001 -4.7533512115E-003 -2.8667449951E-003 +3.1920149922E-005 -4.7869980335E-005 -9.2651367188E-002 +4.3865203857E-002
12367500000.000 -3.8397216797E-001 -3.7315368652E-001 -5.6090354919E-003 +3.7837028503E-004 -7.6554715633E-006 +3.6755576730E-005 -1.0553741455E-001 +4.2469024658E-002
12500000000.000 -3.8764953613E-001 -3.7239074707E-001 -4.3714046478E-003 +3.3776760101E-003 -2.3497268558E-006 +1.9524246454E-005 -9.7171783447E-002 +2.0431518555E-002
12632500000.000 -3.8964843750E-001 -3.7431335449E-001 -1.7254352570E-003 +5.3136348724E-003 -4.5839697123E-005 -7.7988952398E-005 -1.0903167725E-001 -1.3587951660E-002
12765000000.000 -3.9270019531E-001 -3.7419128418E-001 +1.4615058899E-003 +5.3236484528E-003 +5.9474259615E-006 -3.3920630813E-005 -1.1716461182E-001 -1.8192291260E-002
12897500000.000 -3.9530944824E-001 -3.7301635742E-001 +4.2221546173E-003 +3.5617351532E-003 -7.5783580542E-005 +5.4899603128E-005 -9.2338562012E-002 -3.4610748291E-002
13030000000.000 -3.9721679688E-001 -3.7297058105E-001 +5.3918361664E-003 +5.5503845215E-004 -3.1109899282E-005 -6.3404440880E-006 -8.9199066162E-002 -7.0846557617E-002
13162500000.000 -3.9994812012E-001 -3.7431335449E-001 +4.8851966858E-003 -2.5701522827E-003 +7.4364244938E-005 +6.3918530941E-005 -9.1270446777E-002 -7.2689056396E-002
13295000000.000 -4.0242004395E-001 -3.7490844727E-001 +2.5067329407E-003 -4.7302246094E-003 +9.4976276159E-006 +5.1574781537E-005 -6.1187744141E-002 -7.8605651855E-002
13427500000.000 -4.0588378906E-001 -3.7316894531E-001 -5.7601928711E-004 -5.4185390472E-003 -9.4071030617E-005 -8.1919133663E-006 -4.6600341797E-002 -1.0376358032E-001
13560000000.000 -4.0620422363E-001 -3.7316894531E-001 -3.4673213959E-003 -4.2808055878E-003 -3.5567209125E-006 +5.6212302297E-006 -4.6360015869E-002 -1.0124206543E-001
13692500000.000 -4.0841674805E-001 -3.7503051758E-001 -5.1801204681E-003 -1.5063285828E-003 +6.8839639425E-005 +8.5059553385E-005 -1.7761230469E-002 -8.9138031006E-002
13825000000.000 -4.1285705566E-001 -3.7519836426E-001 -5.0907135010E-003 +1.5926361084E-003 -4.5180320740E-005 +4.2591243982E-005 +4.2190551758E-003 -1.0285568237E-001
13957500000.000 -4.1584777832E-001 -3.7295532227E-001 -3.3061504364E-003 +4.2214393616E-003 +6.3959509134E-005 +1.7713755369E-005 -1.2969970703E-004 -9.5333099365E-002
14090000000.000 -4.1674804688E-001 -3.7330627441E-001 -2.8800964355E-004 +5.2914619446E-003 +6.2189996243E-005 +3.9987266064E-005 +2.2071838379E-002 -7.0163726807E-002
14222500000.000 -4.1818237305E-001 -3.7615966797E-001 +2.6631355286E-003 +4.7423839569E-003 -7.6964497566E-005 -6.0170888901E-005 +4.3956756592E-002 -7.4081420898E-002
14355000000.000 -4.2346191406E-001 -3.7635803223E-001 +4.8179626465E-003 +2.2876262665E-003 +3.7338584661E-005 -5.0447881222E-005 +3.3134460449E-002 -6.6955566406E-002
14487500000.000 -4.2579650879E-001 -3.7632751465E-001 +5.3043365479E-003 -7.9941749573E-004 +2.4476088583E-005 +1.7890706658E-005 +3.9894104004E-002 -3.3939361572E-002
14620000000.000 -4.2576599121E-001 -3.7762451172E-001 +3.8484334946E-003 -3.5700798035E-003 -2.4598091841E-005 +2.2710300982E-005 +6.1037063599E-002 -3.1373977661E-002
14752500000.000 -4.2880249023E-001 -3.8252258301E-001 +1.0733604431E-003 -5.1662921906E-003 -2.8077512980E-005 -5.5382028222E-005 +4.3149948120E-002 -3.2493591309E-002
14885000000.000 -4.3141174316E-001 -3.8392639160E-001 -1.8901824951E-003 -4.9500465393E-003 +4.8903748393E-005 -2.0306557417E-005 +3.5245895386E-002 +1.5525817871E-003
15017500000.000 -4.3205261230E-001 -3.8514709473E-001 -4.2979717255E-003 -2.9885768890E-003 +4.4584274292E-005 +9.7256153822E-005 +5.3012847900E-002 +8.7623596191E-003
15150000000.000 -4.3273925781E-001 -3.8876342773E-001 -5.2003860474E-003 -8.7499618530E-005 -4.5012682676E-005 -7.0836395025E-006 +3.5203933716E-002 -1.7833709717E-003
15282500000.000 -4.3371582031E-001 -3.9115905762E-001 -4.4624805450E-003 +2.8753280640E-003 +8.1785023212E-005 -7.8897923231E-005 +1.4357566833E-002 +2.3028373718E-002
