!  2-Port S-parameters saved by WinCal
! VAR MeasName=S-Parameters (CALIBRATED_DATA) read from VNA (C)
! VAR MeasDate=10/16/2015 3:06:08 PM
! VAR NAME=M6082_10_15_2_2_20C_2.5mA_-17.5dBm
! VAR FILENAME=M6082_10_15_2_2_20C_2.5mA_-17.5dBm.S2P
! VAR DATE=10/16/2015 3:06:08 PM
! VAR PHYS_PORTS=2,1
! VAR ObjTypeName=DATASET
! VAR IndexType=Frequency
!
# Hz S RI R 50
45000000.000 +4.3422698975E-002 -2.1018981934E-003 -6.9999694824E-004 +6.7727565765E-003 +9.9122524261E-004 -2.2065639496E-004 +2.7324676514E-002 +1.7108917236E-003
177500000.000 +4.2074203491E-002 -1.3677597046E-002 +2.4406909943E-003 +5.6109428406E-003 +1.6957521439E-005 +1.6587972641E-004 +1.5869140625E-002 +1.6825675964E-002
310000000.000 +4.2156219482E-002 -2.5066375732E-002 +5.0859451294E-003 +3.7667751312E-003 -1.0919570923E-004 -8.5014849901E-005 +2.9148101807E-002 +6.1445236206E-002
442500000.000 +4.1584014893E-002 -3.7075042725E-002 +6.8931579590E-003 -2.7155876160E-004 +1.4356523752E-004 -9.5009803772E-005 +7.2299957275E-002 +2.2186279297E-002
575000000.000 +4.0620803833E-002 -4.9446105957E-002 +4.9576759338E-003 -4.0771961212E-003 +4.7877430916E-005 +1.4482438564E-004 +2.7016639709E-002 +1.1157035828E-002
707500000.000 +3.8736343384E-002 -6.0808181763E-002 +1.7886161804E-003 -6.0880184174E-003 -2.9604882002E-005 -3.1251460314E-005 +1.9340515137E-003 +1.8593788147E-002
840000000.000 +3.7284851074E-002 -7.2887420654E-002 -1.9099712372E-003 -5.9676170349E-003 +3.2754614949E-005 +5.1669776440E-006 -1.9952774048E-002 +2.5869369507E-002
972500000.000 +3.5575866699E-002 -8.4144592285E-002 -4.8942565918E-003 -3.8127899170E-003 -7.1261078119E-005 +4.6875327826E-005 -3.5840988159E-002 +3.5221099854E-002
1105000000.000 +3.2817840576E-002 -9.6149444580E-002 -6.1357021332E-003 -3.0970573425E-004 -6.0513615608E-005 +2.1329149604E-005 -4.6903610229E-002 +3.8084030151E-002
1237500000.000 +2.9895782471E-002 -1.0724258423E-001 -5.2211284637E-003 +3.1912326813E-003 +8.5216015577E-008 -1.1742115021E-005 -5.8532714844E-002 +3.3630371094E-002
1370000000.000 +2.6508331299E-002 -1.1841583252E-001 -2.5005340576E-003 +5.4631233215E-003 +4.0769577026E-005 +7.7914446592E-005 -7.3963165283E-002 +2.6885986328E-002
1502500000.000 +2.2781372070E-002 -1.2955474854E-001 +1.0786056519E-003 +5.8734416962E-003 +4.2131170630E-005 +5.5469572544E-005 -8.7963104248E-002 +2.1244049072E-002
1635000000.000 +1.9882202148E-002 -1.4043426514E-001 +4.2293071747E-003 +4.2164325714E-003 +5.3763389587E-005 -2.6052817702E-005 -9.8926544189E-002 +1.1615753174E-002
1767500000.000 +1.5373229980E-002 -1.5122222900E-001 +5.9177875519E-003 +1.0652542114E-003 -1.0032206774E-005 -2.6079826057E-005 -1.1176300049E-001 +2.7389526367E-003
1900000000.000 +1.0955810547E-002 -1.6162109375E-001 +5.4705142975E-003 -2.4874210358E-003 -2.5329180062E-005 -1.3678334653E-005 -1.1376190186E-001 -3.5324096680E-003
2032500000.000 +6.4926147461E-003 -1.7147827148E-001 +3.0829906464E-003 -4.9767494202E-003 +1.6501173377E-005 +4.7044828534E-005 -1.1352920532E-001 -2.4482727051E-002
2165000000.000 +2.4642944336E-003 -1.8225860596E-001 -2.7179718018E-004 -5.8171749115E-003 +3.0849128962E-005 +3.1482428312E-005 -1.2237167358E-001 -4.2316436768E-002
2297500000.000 -3.2043457031E-003 -1.9172668457E-001 -3.5028457642E-003 -4.5707225800E-003 -7.8823417425E-005 -2.4847686291E-006 -1.2640380859E-001 -5.3558349609E-002
2430000000.000 -8.3923339844E-003 -2.0026397705E-001 -5.3575038910E-003 -1.7127990723E-003 -2.5629997253E-006 -1.2955628335E-005 -1.2629699707E-001 -6.4781188965E-002
2562500000.000 -1.3320922852E-002 -2.0962524414E-001 -5.4190158844E-003 +1.3554096222E-003 +6.1858445406E-005 -5.2623450756E-005 -1.2498092651E-001 -7.0896148682E-002
2695000000.000 -2.0339965820E-002 -2.1746063232E-001 -3.6857128143E-003 +4.3408870697E-003 -1.3233721256E-004 +9.0360641479E-005 -1.1362075806E-001 -7.3505401611E-002
2827500000.000 -2.6695251465E-002 -2.2416687012E-001 -6.9165229797E-004 +5.6247711182E-003 -8.3703547716E-005 -5.6713819504E-005 -9.8434448242E-002 -8.1699371338E-002
2960000000.000 -3.1341552734E-002 -2.3150634766E-001 +2.5782585144E-003 +4.9831867218E-003 +1.0618939996E-005 +3.4522265196E-005 -8.7955474854E-002 -8.6856842041E-002
3092500000.000 -3.7834167480E-002 -2.4024963379E-001 +4.9135684967E-003 +2.6102066040E-003 -7.9050660133E-006 +1.3945251703E-004 -7.0278167725E-002 -8.6021423340E-002
3225000000.000 -4.5700073242E-002 -2.4711608887E-001 +5.5503845215E-003 -5.0711631775E-004 -3.4345313907E-005 -4.1136518121E-005 -5.1944732666E-002 -9.1121673584E-002
3357500000.000 -5.1574707031E-002 -2.5212097168E-001 +4.3022632599E-003 -3.6189556122E-003 +1.2595951557E-004 +5.9776008129E-005 -4.1263580322E-002 -9.1503143311E-002
3490000000.000 -5.6747436523E-002 -2.6025390625E-001 +1.6005039215E-003 -5.4910182953E-003 -5.0954520702E-005 +1.5988200903E-004 -2.7900695801E-002 -8.3152770996E-002
3622500000.000 -6.3201904297E-002 -2.6795959473E-001 -1.7888545990E-003 -5.5689811707E-003 +3.5405158997E-005 -3.4477561712E-005 -1.1505126953E-002 -7.9284667969E-002
3755000000.000 -7.0083618164E-002 -2.7510070801E-001 -4.5015811920E-003 -3.6692619324E-003 +1.7434358597E-004 +7.0475041866E-005 -5.8517456055E-003 -7.2864532471E-002
3887500000.000 -7.5485229492E-002 -2.8157043457E-001 -6.0102939606E-003 -2.9110908508E-004 +5.0920993090E-005 +7.4353069067E-005 +2.1533966064E-003 -5.5871963501E-002
4020000000.000 -8.1237792969E-002 -2.8788757324E-001 -5.1250457764E-003 +3.1199455261E-003 -1.0090321302E-004 -4.1350722313E-006 +1.3273239136E-002 -4.4466018677E-002
4152500000.000 -8.7020874023E-002 -2.9524230957E-001 -2.3713111877E-003 +5.5952072144E-003 +2.7580186725E-005 -1.6069971025E-005 +1.5319824219E-002 -3.2627105713E-002
4285000000.000 -9.3475341797E-002 -3.0221557617E-001 +1.2762546539E-003 +5.9356689453E-003 +4.3142586946E-005 +7.7877193689E-006 +1.6960144043E-002 -1.2933731079E-002
4417500000.000 -1.0070800781E-001 -3.0822753906E-001 +4.4422149658E-003 +4.1010379791E-003 -4.5947730541E-005 -6.2305480242E-006 +2.5620460510E-002 +3.7202835083E-003
4550000000.000 -1.0610961914E-001 -3.1364440918E-001 +5.9642791748E-003 +8.7881088257E-004 -5.2833929658E-006 -3.0473805964E-005 +2.8721809387E-002 +9.5176696777E-003
4682500000.000 -1.1186218262E-001 -3.2063293457E-001 +5.2738189697E-003 -2.6755332947E-003 +6.5740197897E-005 +6.1217695475E-005 +2.5496482849E-002 +2.0653724670E-002
4815000000.000 -1.1865234375E-001 -3.2679748535E-001 +3.0355453491E-003 -5.2483081818E-003 -2.2322870791E-005 -1.0364688933E-005 +3.0975341797E-002 +2.7481079102E-002
4947500000.000 -1.2448120117E-001 -3.3164978027E-001 -4.3177604675E-004 -6.0930252075E-003 +3.2136216760E-005 +1.8525868654E-005 +2.7382850647E-002 +1.9910812378E-002
5080000000.000 -1.2919616699E-001 -3.3729553223E-001 -3.8340091705E-003 -4.8642158508E-003 +5.1438808441E-005 +2.0289793611E-005 +1.3184547424E-002 +2.0584106445E-002
5212500000.000 -1.3528442383E-001 -3.4300231934E-001 -6.0791969299E-003 -1.7766952515E-003 -8.6463987827E-006 +2.5508925319E-006 +9.1037750244E-003 +2.4729728699E-002
5345000000.000 -1.4164733887E-001 -3.4719848633E-001 -6.0245990753E-003 +2.0058155060E-003 -1.5569850802E-005 -5.4469332099E-005 +5.3386688232E-003 +1.6201972961E-002
5477500000.000 -1.4562988281E-001 -3.5110473633E-001 -3.8805007935E-003 +5.2528381348E-003 +6.5211206675E-005 +2.9373914003E-005 -9.2964172363E-003 +1.0313510895E-002
5610000000.000 -1.5066528320E-001 -3.5653686523E-001 -1.2207031250E-004 +6.6256523132E-003 -2.2755935788E-005 +3.3561140299E-005 -1.4955520630E-002 +1.4440059662E-002
5742500000.000 -1.5707397461E-001 -3.6039733887E-001 +3.7386417389E-003 +5.5224895477E-003 -4.5808032155E-005 -3.0348077416E-005 -1.1608123779E-002 +5.9103965759E-003
5875000000.000 -1.6308593750E-001 -3.6210632324E-001 +6.3233375549E-003 +2.4058818817E-003 -3.4963712096E-005 -3.8871541619E-005 -2.0318031311E-002 -3.3788681030E-003
6007500000.000 -1.6766357422E-001 -3.6582946777E-001 +6.6187381744E-003 -1.7454624176E-003 -5.3979456425E-006 +4.7776848078E-005 -2.3257255554E-002 +9.5367431641E-007
6140000000.000 -1.7304992676E-001 -3.7112426758E-001 +4.3337345123E-003 -5.4807662964E-003 -9.8701566458E-005 +1.0434538126E-005 -1.5411376953E-002 -3.0808448792E-003
6272500000.000 -1.8125915527E-001 -3.7373352051E-001 +5.0806999207E-004 -6.9377422333E-003 +2.1617859602E-005 -3.7472695112E-005 -1.6502380371E-002 -1.1872291565E-002
6405000000.000 -1.8830871582E-001 -3.7483215332E-001 -3.6599636078E-003 -5.9416294098E-003 +4.9099326134E-005 -7.5343996286E-006 -1.9339561462E-002 -6.3467025757E-003
6537500000.000 -1.9247436523E-001 -3.7966918945E-001 -6.6516399384E-003 -2.4349689484E-003 -3.1124800444E-005 +3.7467107177E-005 -9.2258453369E-003 -3.4422874451E-003
6670000000.000 -1.9892883301E-001 -3.8450622559E-001 -6.8688392639E-003 +1.6710758209E-003 -7.0814043283E-005 -2.8610229492E-005 -7.8616142273E-003 -7.4152946472E-003
6802500000.000 -2.0809936523E-001 -3.8737487793E-001 -4.6484470367E-003 +5.3689479828E-003 +2.9304996133E-005 -3.0798837543E-006 -1.1431217194E-002 +6.2942504883E-005
6935000000.000 -2.1498107910E-001 -3.9016723633E-001 +7.2956085205E-005 +7.1172714233E-003 +2.5684013963E-005 +3.6397948861E-005 -6.2637329102E-003 +9.8304748535E-003
7067500000.000 -2.1864318848E-001 -3.9323425293E-001 +4.0738582611E-003 +5.9154033661E-003 -1.6767531633E-005 -1.6439706087E-005 -4.6362876892E-003 +1.0136127472E-002
7200000000.000 -2.2544860840E-001 -3.9640808105E-001 +6.5023899078E-003 +2.8398036957E-003 +1.3602897525E-005 +1.0098796338E-005 -1.5129089355E-002 +1.6929626465E-002
7332500000.000 -2.3478698730E-001 -3.9987182617E-001 +6.8318843842E-003 -1.9438266754E-003 +2.5708228350E-005 +8.8373199105E-006 -1.7006874084E-002 +3.0715942383E-002
7465000000.000 -2.4095153809E-001 -4.0216064453E-001 +4.2304992676E-003 -5.7556629181E-003 -2.1547079086E-005 -3.1856819987E-005 -1.9719123840E-002 +3.1248092651E-002
7597500000.000 -2.4494934082E-001 -4.0365600586E-001 +8.5997581482E-004 -7.0173740387E-003 +3.5619363189E-005 -3.2722949982E-005 -3.6287307739E-002 +3.3157348633E-002
7730000000.000 -2.5256347656E-001 -4.0940856934E-001 -3.8311481476E-003 -6.0067176819E-003 -1.5312805772E-005 +1.2399628758E-005 -4.8358917236E-002 +4.3582916260E-002
7862500000.000 -2.6138305664E-001 -4.1333007813E-001 -6.8147182465E-003 -1.8107891083E-003 -5.1112845540E-005 +1.3409182429E-005 -5.3688049316E-002 +4.2745590210E-002
7995000000.000 -2.6470947266E-001 -4.1423034668E-001 -6.9210529327E-003 +1.8794536591E-003 -5.3532421589E-006 -2.2978521883E-005 -7.2849273682E-002 +3.5099029541E-002
8127500000.000 -2.6910400391E-001 -4.1894531250E-001 -4.6024322510E-003 +5.6877136230E-003 +5.5238604546E-005 +6.7610293627E-005 -9.1407775879E-002 +3.9630889893E-002
8260000000.000 -2.7867126465E-001 -4.2210388184E-001 +2.9683113098E-004 +6.9639682770E-003 +1.0740943253E-005 -7.7923759818E-006 -9.5527648926E-002 +3.4477233887E-002
8392500000.000 -2.8228759766E-001 -4.2347717285E-001 +4.1627883911E-003 +5.6550502777E-003 +1.6416423023E-005 -6.3506886363E-006 -1.0969543457E-001 +1.8600463867E-002
8525000000.000 -2.8486633301E-001 -4.2675781250E-001 +6.9231987000E-003 +2.4168491364E-003 -3.8754194975E-005 +9.9074095488E-005 -1.2186813354E-001 +1.4949798584E-002
8657500000.000 -2.9154968262E-001 -4.2918395996E-001 +6.5283775330E-003 -2.4218559265E-003 -5.4366886616E-005 -9.8105520010E-006 -1.1789703369E-001 +4.2152404785E-003
8790000000.000 -2.9835510254E-001 -4.3104553223E-001 +3.5417079926E-003 -5.8073997498E-003 -7.6275318861E-006 -4.7000125051E-005 -1.1969757080E-001 -1.7360687256E-002
8922500000.000 -3.0151367188E-001 -4.3142700195E-001 -2.8967857361E-004 -7.0409774780E-003 +4.2933970690E-005 -8.5495412350E-007 -1.2233352661E-001 -3.0567169189E-002
9055000000.000 -3.0636596680E-001 -4.3310546875E-001 -4.4231414795E-003 -5.2394866943E-003 -3.6903657019E-006 +1.4824792743E-005 -1.1097717285E-001 -4.4158935547E-002
9187500000.000 -3.1176757813E-001 -4.3382263184E-001 -6.5293312073E-003 -1.5881061554E-003 -3.1627714634E-006 +6.0223974288E-006 -1.0014724731E-001 -6.6928863525E-002
9320000000.000 -3.1896972656E-001 -4.3319702148E-001 -6.2181949615E-003 +2.5207996368E-003 +1.5396624804E-005 -8.3182007074E-005 -9.3669891357E-002 -7.9681396484E-002
9452500000.000 -3.2348632813E-001 -4.3225097656E-001 -3.5352706909E-003 +5.5620670319E-003 -2.8523616493E-005 +2.5483779609E-005 -7.4165344238E-002 -8.6715698242E-002
9585000000.000 -3.2891845703E-001 -4.3197631836E-001 +5.7148933411E-004 +6.2043666840E-003 +2.0328909159E-005 -6.9990754128E-005 -5.4012298584E-002 -1.0126876831E-001
9717500000.000 -3.3517456055E-001 -4.3345642090E-001 +3.9355754852E-003 +4.9765110016E-003 -3.0204653740E-005 -4.4701620936E-005 -4.1202545166E-002 -1.0708618164E-001
9850000000.000 -3.4257507324E-001 -4.2996215820E-001 +5.8488845825E-003 +1.4891624451E-003 +7.0072710514E-006 +6.7431479692E-005 -1.9115447998E-002 -1.0228347778E-001
9982500000.000 -3.4550476074E-001 -4.3008422852E-001 +5.3501129150E-003 -2.1317005157E-003 -2.2811815143E-005 -3.9372593164E-005 +6.5917968750E-003 -1.0313034058E-001
10115000000.000 -3.5012817383E-001 -4.3098449707E-001 +3.0622482300E-003 -4.6873092651E-003 +3.8869678974E-005 -1.7547979951E-005 +1.9428253174E-002 -9.9147796631E-002
10247500000.000 -3.5733032227E-001 -4.3022155762E-001 -1.1658668518E-004 -5.6021213531E-003 +3.9521604776E-005 +6.7874789238E-006 +3.5682678223E-002 -7.9994201660E-002
10380000000.000 -3.6218261719E-001 -4.2781066895E-001 -3.1204223633E-003 -4.0850639343E-003 -1.9487924874E-007 +5.2175018936E-006 +5.7029724121E-002 -6.7314147949E-002
10512500000.000 -3.6570739746E-001 -4.2726135254E-001 -4.8658847809E-003 -1.5449523926E-003 -1.4892779291E-005 -2.8504058719E-005 +6.2759399414E-002 -5.5862426758E-002
10645000000.000 -3.7002563477E-001 -4.2741394043E-001 -4.8110485077E-003 +1.4128684998E-003 +3.3220276237E-005 -4.3306499720E-006 +6.6127777100E-002 -2.9163360596E-002
10777500000.000 -3.7576293945E-001 -4.2720031738E-001 -2.8898715973E-003 +3.7056207657E-003 -3.0826777220E-006 +5.5905431509E-005 +7.6961517334E-002 -7.8392028809E-003
10910000000.000 -3.8070678711E-001 -4.2596435547E-001 -2.0837783813E-004 +4.4417381287E-003 +2.2338703275E-005 +3.7143006921E-005 +7.2246551514E-002 +5.8212280273E-003
11042500000.000 -3.8540649414E-001 -4.2564392090E-001 +2.3072957993E-003 +3.7360191345E-003 +4.1564926505E-005 -1.5750527382E-005 +5.9564590454E-002 +3.1358718872E-002
11175000000.000 -3.8905334473E-001 -4.2692565918E-001 +3.8577318192E-003 +1.7426013947E-003 -6.3693150878E-006 +2.9534101486E-005 +5.6241989136E-002 +5.2486419678E-002
11307500000.000 -3.9247131348E-001 -4.2663574219E-001 +3.9560794830E-003 -8.4137916565E-004 -4.2784959078E-006 -2.6745721698E-005 +4.3365478516E-002 +5.8614730835E-002
11440000000.000 -3.9729309082E-001 -4.2669677734E-001 +2.8066635132E-003 -2.7655363083E-003 +3.0603259802E-005 -3.2445415854E-005 +1.8028259277E-002 +7.2227478027E-002
11572500000.000 -3.9898681641E-001 -4.2835998535E-001 +6.2561035156E-004 -3.6749839783E-003 -2.8612092137E-005 +1.8595717847E-005 +4.2457580566E-003 +8.7295532227E-002
11705000000.000 -4.0159606934E-001 -4.2858886719E-001 -1.4793872833E-003 -3.3382177353E-003 -4.9933791161E-005 +1.0194256902E-005 -1.0322570801E-002 +8.0856323242E-002
11837500000.000 -4.0545654297E-001 -4.2906188965E-001 -2.9592514038E-003 -1.7468929291E-003 +3.8493424654E-005 -8.9269131422E-005 -4.3334960938E-002 +7.6545715332E-002
11970000000.000 -4.0704345703E-001 -4.2778015137E-001 -3.4129619598E-003 +1.7774105072E-004 +6.6179782152E-005 +1.7147511244E-005 -5.9429168701E-002 +8.2935333252E-002
12102500000.000 -4.0702819824E-001 -4.2837524414E-001 -2.6055574417E-003 +2.0164251328E-003 -2.2495165467E-005 +1.2847594917E-005 -6.5483093262E-002 +6.4186096191E-002
12235000000.000 -4.1270446777E-001 -4.2752075195E-001 -9.9539756775E-004 +3.0640363693E-003 +2.2607855499E-005 -2.0273029804E-005 -9.2807769775E-002 +4.3754577637E-002
12367500000.000 -4.1355895996E-001 -4.2623901367E-001 +7.1763992310E-004 +2.9950141907E-003 +9.1794878244E-005 -1.2721866369E-005 -1.0555267334E-001 +4.2301177979E-002
12500000000.000 -4.1741943359E-001 -4.2396545410E-001 +2.2218227386E-003 +1.9234418869E-003 -6.8332999945E-005 +3.3810734749E-005 -9.7209930420E-002 +2.0328521729E-002
12632500000.000 -4.1932678223E-001 -4.2480468750E-001 +2.8312206268E-003 +2.6988983154E-004 -2.2146850824E-006 -5.4869800806E-005 -1.0894775391E-001 -1.3736724854E-002
12765000000.000 -4.2231750488E-001 -4.2369079590E-001 +2.4832487106E-003 -1.2662410736E-003 +5.7874247432E-005 +2.1567568183E-005 -1.1710357666E-001 -1.8291473389E-002
12897500000.000 -4.2498779297E-001 -4.2121887207E-001 +1.2923479080E-003 -2.3955106735E-003 -4.3272972107E-005 +4.0542334318E-005 -9.2243194580E-002 -3.4698486328E-002
13030000000.000 -4.2703247070E-001 -4.2027282715E-001 -3.0851364136E-004 -2.5782585144E-003 +2.6486814022E-005 -4.8013404012E-005 -8.9019775391E-002 -7.0964813232E-002
13162500000.000 -4.2941284180E-001 -4.2057800293E-001 -1.6292929649E-003 -1.9158720970E-003 +4.7417357564E-005 -2.1995976567E-005 -9.1049194336E-002 -7.2891235352E-002
13295000000.000 -4.3205261230E-001 -4.2019653320E-001 -2.2972822189E-003 -6.7818164825E-004 +5.2086543292E-006 +4.9525406212E-006 -6.0909271240E-002 -7.8590393066E-002
13427500000.000 -4.3542480469E-001 -4.1751098633E-001 -2.2000074387E-003 +7.0798397064E-004 -1.3085082173E-005 -5.9649348259E-005 -4.6531677246E-002 -1.0383987427E-001
13560000000.000 -4.3544006348E-001 -4.1642761230E-001 -1.2938976288E-003 +1.8383860588E-003 +5.0909817219E-005 -4.8587098718E-005 -4.6016693115E-002 -1.0120773315E-001
13692500000.000 -4.3782043457E-001 -4.1737365723E-001 -6.0200691223E-005 +2.1876096725E-003 +1.4726072550E-005 +6.0597434640E-005 -1.7570495605E-002 -8.9202880859E-002
13825000000.000 -4.4198608398E-001 -4.1659545898E-001 +1.0067224503E-003 +1.6728043556E-003 -1.1549517512E-004 -1.0494142771E-005 +4.3220520020E-003 -1.0258102417E-001
13957500000.000 -4.4486999512E-001 -4.1348266602E-001 +1.9202232361E-003 +7.1084499359E-004 +1.1506304145E-004 -7.0653855801E-005 +5.3405761719E-005 -9.5252990723E-002
14090000000.000 -4.4575500488E-001 -4.1279602051E-001 +1.9567012787E-003 -2.0515918732E-004 -3.3065676689E-005 -4.6946108341E-005 +2.2155761719E-002 -6.9950103760E-002
14222500000.000 -4.4699096680E-001 -4.1516113281E-001 +1.3182759285E-003 -1.3230443001E-003 -1.2030079961E-004 +3.8307160139E-005 +4.3960571289E-002 -7.3940277100E-002
14355000000.000 -4.5210266113E-001 -4.1442871094E-001 +3.8725137711E-004 -1.7160177231E-003 +5.3100287914E-005 -1.0082125664E-004 +3.3115386963E-002 -6.6852569580E-002
14487500000.000 -4.5419311523E-001 -4.1358947754E-001 -6.1225891113E-004 -1.7106533051E-003 +5.8803707361E-005 +6.1266124249E-005 +3.9945602417E-002 -3.3695220947E-002
14620000000.000 -4.5397949219E-001 -4.1445922852E-001 -1.4449954033E-003 -1.0121464729E-003 +1.0056421161E-005 +2.8881244361E-005 +6.0712814331E-002 -3.1118392944E-002
14752500000.000 -4.5677185059E-001 -4.1845703125E-001 -1.7189383507E-003 -1.1044740677E-004 +1.0829418898E-005 -8.3167105913E-005 +4.2922973633E-002 -3.2398223877E-002
14885000000.000 -4.5942687988E-001 -4.1938781738E-001 -1.3929605484E-003 +9.5802545547E-004 +1.1614710093E-004 +1.5236437321E-005 +3.5076141357E-002 +1.5125274658E-003
15017500000.000 -4.5954895020E-001 -4.2001342773E-001 -7.6532363892E-004 +1.4142394066E-003 -3.2361596823E-005 +9.6317380667E-006 +5.2867889404E-002 +8.7776184082E-003
15150000000.000 -4.6028137207E-001 -4.2314147949E-001 +3.1590461731E-004 +1.6457438469E-003 -7.9996883869E-005 +7.8674405813E-005 +3.5062789917E-002 -1.7452239990E-003
15282500000.000 -4.6086120605E-001 -4.2512512207E-001 +1.0941624641E-003 +1.1212825775E-003 +1.1889263988E-005 -5.7727098465E-005 +1.4240264893E-002 +2.3023605347E-002
