!  2-Port S-parameters saved by WinCal
! VAR MeasName=S-Parameters (CALIBRATED_DATA) read from VNA (C)
! VAR MeasDate=10/16/2015 2:46:59 PM
! VAR NAME=M6082_10_13_2_2_20C_15.6mA_-17.5dBm
! VAR FILENAME=M6082_10_13_2_2_20C_15.6mA_-17.5dBm.S2P
! VAR DATE=10/16/2015 2:46:59 PM
! VAR PHYS_PORTS=2,1
! VAR ObjTypeName=DATASET
! VAR IndexType=Frequency
!
# Hz S RI R 50
45000000.000 -1.3797760010E-001 -2.0523071289E-003 -1.3172626495E-003 +6.3326358795E-003 +5.1516294479E-004 -4.4202804565E-004 +2.7343750000E-002 +2.3641586304E-003
177500000.000 -1.3668823242E-001 -4.0359497070E-003 +1.9645690918E-003 +5.3105354309E-003 -1.2303888798E-004 +1.3579428196E-004 +1.5641212463E-002 +1.6427993774E-002
310000000.000 -1.3579559326E-001 -8.1481933594E-003 +4.4653415680E-003 +3.9091110229E-003 -1.0694935918E-004 -1.0833889246E-004 +2.9045104980E-002 +6.1441421509E-002
442500000.000 -1.3499450684E-001 -1.2619018555E-002 +6.7343711853E-003 +1.5592575073E-004 +2.3172236979E-005 -3.0080787838E-005 +7.2601318359E-002 +2.2659301758E-002
575000000.000 -1.3473510742E-001 -1.7974853516E-002 +5.1231384277E-003 -3.5407543182E-003 -3.2383948565E-005 +1.0057166219E-004 +2.7140617371E-002 +1.1295318604E-002
707500000.000 -1.3462066650E-001 -2.2155761719E-002 +2.2563934326E-003 -5.6908130646E-003 +2.7476809919E-005 -8.5998326540E-006 +2.0503997803E-003 +1.8721580505E-002
840000000.000 -1.3397979736E-001 -2.7534484863E-002 -1.3287067413E-003 -6.0317516327E-003 +3.8873404264E-005 +1.8272548914E-005 -1.9877433777E-002 +2.6007652283E-002
972500000.000 -1.3354492188E-001 -3.2600402832E-002 -4.3520927429E-003 -4.0984153748E-003 +5.2694231272E-006 +3.7541612983E-005 -3.5816192627E-002 +3.5459518433E-002
1105000000.000 -1.3378143311E-001 -3.7956237793E-002 -5.7945251465E-003 -9.7370147705E-004 -8.3371996880E-005 -7.7597796917E-006 -4.6880722046E-002 +3.8274765015E-002
1237500000.000 -1.3395690918E-001 -4.2633056641E-002 -5.4318904877E-003 +2.4273395538E-003 +1.6512349248E-005 +1.1045485735E-005 -5.8603286743E-002 +3.3845901489E-002
1370000000.000 -1.3452148438E-001 -4.7523498535E-002 -3.1323432922E-003 +5.0065517426E-003 +2.5768764317E-005 +2.0855106413E-005 -7.3974609375E-002 +2.7027130127E-002
1502500000.000 -1.3449859619E-001 -5.2375793457E-002 +2.7155876160E-004 +5.8641433716E-003 +3.1685456634E-005 -4.8987567425E-007 -8.8031768799E-002 +2.1442413330E-002
1635000000.000 -1.3444519043E-001 -5.8044433594E-002 +3.4296512604E-003 +4.6947002411E-003 +5.6963413954E-005 -1.4564022422E-005 -9.8983764648E-002 +1.1692047119E-002
1767500000.000 -1.3523101807E-001 -6.3156127930E-002 +5.5274963379E-003 +1.9612312317E-003 +1.1166557670E-005 +3.9910897613E-005 -1.1199569702E-001 +2.8762817383E-003
1900000000.000 -1.3520812988E-001 -6.7459106445E-002 +5.7039260864E-003 -1.3804435730E-003 +6.2473118305E-005 +2.7250498533E-005 -1.1379623413E-001 -3.4790039063E-003
2032500000.000 -1.3564300537E-001 -7.2219848633E-002 +3.8311481476E-003 -4.4181346893E-003 +6.1459839344E-005 -1.8537044525E-005 -1.1355590820E-001 -2.4436950684E-002
2165000000.000 -1.3573455811E-001 -7.7774047852E-002 +7.7414512634E-004 -5.8064460754E-003 +1.1105835438E-004 +8.8922679424E-006 -1.2246704102E-001 -4.2358398438E-002
2297500000.000 -1.3621520996E-001 -8.2061767578E-002 -2.6931762695E-003 -5.1231384277E-003 -1.3214349747E-004 -9.0226531029E-006 -1.2643432617E-001 -5.3558349609E-002
2430000000.000 -1.3665771484E-001 -8.6860656738E-002 -4.9734115601E-003 -2.7964115143E-003 -1.2770295143E-005 -8.6884945631E-005 -1.2644195557E-001 -6.4819335938E-002
2562500000.000 -1.3744354248E-001 -9.2063903809E-002 -5.6986808777E-003 +4.1151046753E-004 +2.0410865545E-005 +2.1663494408E-005 -1.2511444092E-001 -7.0976257324E-002
2695000000.000 -1.3942718506E-001 -9.5619201660E-002 -4.6010017395E-003 +3.5181045532E-003 +8.5532665253E-006 +1.0206550360E-004 -1.1378097534E-001 -7.3429107666E-002
2827500000.000 -1.4070129395E-001 -9.8960876465E-002 -1.7869472504E-003 +5.2917003632E-003 -1.2065097690E-004 +1.3992190361E-005 -9.8480224609E-002 -8.1771850586E-002
2960000000.000 -1.4109039307E-001 -1.0326385498E-001 +1.5614032745E-003 +5.4306983948E-003 +9.8299235106E-005 +1.6242265701E-005 -8.7905883789E-002 -8.6742401123E-002
3092500000.000 -1.4291381836E-001 -1.0875701904E-001 +4.3339729309E-003 +3.4816265106E-003 -1.2905336916E-005 -2.4043023586E-005 -7.0404052734E-002 -8.6044311523E-002
3225000000.000 -1.4596557617E-001 -1.1302947998E-001 +5.6483745575E-003 +5.3596496582E-004 +4.2330473661E-005 +3.6077573895E-005 -5.1959991455E-002 -9.0999603271E-002
3357500000.000 -1.4743804932E-001 -1.1587524414E-001 +4.9490928650E-003 -2.5811195374E-003 +5.8157369494E-005 +1.2762844563E-005 -4.1378021240E-002 -9.1594696045E-002
3490000000.000 -1.4878082275E-001 -1.2145996094E-001 +2.6321411133E-003 -4.8065185547E-003 -7.1134418249E-005 +8.6426734924E-006 -2.7885437012E-002 -8.3343505859E-002
3622500000.000 -1.5054321289E-001 -1.2686920166E-001 -5.6624412537E-004 -5.6014060974E-003 -9.4883143902E-005 +4.5195221901E-005 -1.1249542236E-002 -7.9128265381E-002
3755000000.000 -1.5328979492E-001 -1.3187408447E-001 -3.5724639893E-003 -4.3818950653E-003 +4.4392421842E-005 -7.4431300163E-006 -6.0043334961E-003 -7.2925567627E-002
3887500000.000 -1.5482330322E-001 -1.3613891602E-001 -5.2633285522E-003 -1.5633106232E-003 +1.7657876015E-006 +7.7754259109E-005 +2.0141601563E-003 -5.5885314941E-002
4020000000.000 -1.5629577637E-001 -1.4012908936E-001 -5.4202079773E-003 +1.6338825226E-003 -1.3912096620E-005 +1.1102296412E-005 +1.3298034668E-002 -4.4429779053E-002
4152500000.000 -1.5768432617E-001 -1.4575958252E-001 -3.5028457642E-003 +4.4288635254E-003 +2.8798356652E-005 +4.0866434574E-005 +1.5336990356E-002 -3.2527923584E-002
4285000000.000 -1.5996551514E-001 -1.5048980713E-001 -4.0531158447E-004 +5.5685043335E-003 +4.1577965021E-005 +4.9812719226E-005 +1.7092704773E-002 -1.2986183167E-002
4417500000.000 -1.6268157959E-001 -1.5474700928E-001 +2.6886463165E-003 +4.7967433929E-003 -1.2479722500E-005 +2.3222528398E-006 +2.5726318359E-002 +3.6916732788E-003
4550000000.000 -1.6352081299E-001 -1.5870666504E-001 +4.8336982727E-003 +2.3961067200E-003 +2.7291476727E-005 -9.5535069704E-005 +2.8899192810E-002 +9.5491409302E-003
4682500000.000 -1.6493988037E-001 -1.6413116455E-001 +5.2080154419E-003 -7.1573257446E-004 +1.9952654839E-005 +3.5403296351E-005 +2.5566101074E-002 +2.0641326904E-002
4815000000.000 -1.6752624512E-001 -1.6886901855E-001 +4.0564537048E-003 -3.4446716309E-003 -2.6158057153E-005 -2.9923394322E-006 +3.1239509583E-002 +2.7400016785E-002
4947500000.000 -1.6876983643E-001 -1.7266845703E-001 +1.4810562134E-003 -5.1422119141E-003 -8.6892396212E-006 +3.5662204027E-005 +2.7675628662E-002 +1.9846916199E-002
5080000000.000 -1.6952514648E-001 -1.7736053467E-001 -1.6064643860E-003 -5.2368640900E-003 +1.2592412531E-005 +1.0722782463E-005 +1.3326644897E-002 +2.0528793335E-002
5212500000.000 -1.7131042480E-001 -1.8215942383E-001 -4.2283535004E-003 -3.4439563751E-003 -1.5965662897E-005 +1.4816410840E-005 +9.1714859009E-003 +2.4819374084E-002
5345000000.000 -1.7359161377E-001 -1.8553924561E-001 -5.5379867554E-003 -4.8661231995E-004 -3.0288472772E-005 -1.2842938304E-005 +5.5027008057E-003 +1.6251564026E-002
5477500000.000 -1.7362213135E-001 -1.8884277344E-001 -4.8761367798E-003 +2.7015209198E-003 +1.5413388610E-005 +1.6431324184E-005 -9.1819763184E-003 +1.0265350342E-002
5610000000.000 -1.7469024658E-001 -1.9358825684E-001 -2.4971961975E-003 +4.9426555634E-003 -2.4262815714E-005 +4.5549124479E-005 -1.4914035797E-002 +1.4399528503E-002
5742500000.000 -1.7718505859E-001 -1.9689178467E-001 +7.1525573730E-004 +5.4574012756E-003 -3.9525330067E-005 -1.4010816813E-005 -1.1454105377E-002 +5.9366226196E-003
5875000000.000 -1.7913818359E-001 -1.9835662842E-001 +3.7238597870E-003 +4.1456222534E-003 +3.6675482988E-006 +3.0843541026E-005 -2.0195960999E-002 -3.2882690430E-003
6007500000.000 -1.7984771729E-001 -2.0140075684E-001 +5.4380893707E-003 +1.3263225555E-003 +9.8980963230E-006 +8.8170170784E-005 -2.3138046265E-002 +1.0013580322E-004
6140000000.000 -1.8167877197E-001 -2.0577239990E-001 +5.2249431610E-003 -1.9385814667E-003 -2.3884698749E-005 +4.3146312237E-005 -1.5242099762E-002 -2.8343200684E-003
6272500000.000 -1.8589019775E-001 -2.0874786377E-001 +3.2486915588E-003 -4.4887065887E-003 +1.2801028788E-006 -1.2668780982E-005 -1.6507148743E-002 -1.1712074280E-002
6405000000.000 -1.8874359131E-001 -2.0951080322E-001 +5.8412551880E-005 -5.4931640625E-003 +1.5637837350E-005 +1.7917715013E-005 -1.9343376160E-002 -6.2971115112E-003
6537500000.000 -1.8926239014E-001 -2.1279144287E-001 -2.9082298279E-003 -4.5845508575E-003 -2.1973624825E-005 +1.4357268810E-005 -9.2172622681E-003 -3.3178329468E-003
6670000000.000 -1.9196319580E-001 -2.1824645996E-001 -5.0070285797E-003 -2.2034645081E-003 +3.9737671614E-005 -3.4883618355E-005 -7.8988075256E-003 -7.2817802429E-003
6802500000.000 -1.9712829590E-001 -2.2115325928E-001 -5.3424835205E-003 +1.0335445404E-003 -5.5152922869E-006 +3.8793310523E-005 -1.1461257935E-002 +1.5306472778E-004
6935000000.000 -1.9976043701E-001 -2.2163391113E-001 -3.8030147552E-003 +3.8541555405E-003 -3.4041702747E-005 +1.5987083316E-005 -6.2766075134E-003 +9.8657608032E-003
7067500000.000 -1.9979095459E-001 -2.2533416748E-001 -1.0933876038E-003 +5.2442550659E-003 -1.2245029211E-005 -6.4544379711E-005 -4.7359466553E-003 +1.0195255280E-002
7200000000.000 -2.0313262939E-001 -2.3088073730E-001 +2.0561218262E-003 +4.9428939819E-003 -2.4888664484E-005 -8.0000609159E-005 -1.5057563782E-002 +1.6952514648E-002
7332500000.000 -2.0810699463E-001 -2.3311614990E-001 +4.3690204620E-003 +2.9408931732E-003 -3.9201229811E-005 +6.8441033363E-005 -1.7146110535E-002 +3.0762672424E-002
7465000000.000 -2.1008300781E-001 -2.3495483398E-001 +5.2363872528E-003 -3.1709671021E-005 +2.0265579224E-005 +2.3320317268E-006 -1.9748687744E-002 +3.1144142151E-002
7597500000.000 -2.1175384521E-001 -2.3941040039E-001 +4.3005943298E-003 -3.0238628387E-003 -1.0016374290E-005 -2.8625130653E-005 -3.6306381226E-002 +3.3166885376E-002
7730000000.000 -2.1503448486E-001 -2.4444580078E-001 +1.8510818481E-003 -4.8923492432E-003 +5.6806951761E-005 +4.6046450734E-005 -4.8259735107E-002 +4.3659210205E-002
7862500000.000 -2.1802520752E-001 -2.4740600586E-001 -1.0952949524E-003 -5.0878524780E-003 -3.7103891373E-005 -7.8361481428E-006 -5.3543090820E-002 +4.2581558228E-002
7995000000.000 -2.1936035156E-001 -2.5010681152E-001 -3.7139654160E-003 -3.5929679871E-003 +2.6581808925E-005 -4.7096982598E-005 -7.2799682617E-002 +3.5121917725E-002
8127500000.000 -2.2093200684E-001 -2.5585937500E-001 -5.1481723785E-003 -9.8180770874E-004 +1.3951212168E-005 +4.3347477913E-005 -9.1407775879E-002 +3.9676666260E-002
8260000000.000 -2.2447204590E-001 -2.5909423828E-001 -4.8356056213E-003 +2.0868778229E-003 +2.7271918952E-005 +7.8184530139E-006 -9.5516204834E-002 +3.4404754639E-002
8392500000.000 -2.2529602051E-001 -2.6203918457E-001 -2.7275085449E-003 +4.3435096741E-003 +1.5329569578E-005 -6.4462423325E-005 -1.0964965820E-001 +1.8619537354E-002
8525000000.000 -2.2552490234E-001 -2.6565551758E-001 +1.1301040649E-004 +5.2082538605E-003 +3.6712735891E-005 +8.8423490524E-005 -1.2192153931E-001 +1.5045166016E-002
8657500000.000 -2.2718811035E-001 -2.6994323730E-001 +3.0002593994E-003 +4.2550563812E-003 -2.3554079235E-005 +2.5636516511E-005 -1.1786651611E-001 +4.2762756348E-003
8790000000.000 -2.2978210449E-001 -2.7323913574E-001 +4.8644542694E-003 +1.8918514252E-003 -2.7131289244E-005 -7.0277601480E-005 -1.1959838867E-001 -1.7368316650E-002
8922500000.000 -2.3072814941E-001 -2.7426147461E-001 +5.0556659698E-003 -1.2056827545E-003 +6.1307102442E-005 +4.1723251343E-007 -1.2224960327E-001 -3.0521392822E-002
9055000000.000 -2.3156738281E-001 -2.7767944336E-001 +3.5064220428E-003 -3.8865804672E-003 +7.6368451118E-007 +6.2290579081E-005 -1.1099243164E-001 -4.4021606445E-002
9187500000.000 -2.3353576660E-001 -2.8045654297E-001 +7.8368186951E-004 -5.1407814026E-003 +7.1367248893E-006 -2.5458633900E-005 -1.0021972656E-001 -6.6833496094E-002
9320000000.000 -2.3765563965E-001 -2.8147888184E-001 -2.2404193878E-003 -4.6646595001E-003 +6.7695975304E-005 +2.2612512112E-006 -9.3666076660E-002 -7.9605102539E-002
9452500000.000 -2.3907470703E-001 -2.8271484375E-001 -4.4620037079E-003 -2.6910305023E-003 -1.0449439287E-006 +5.7285651565E-005 -7.4214935303E-002 -8.6685180664E-002
9585000000.000 -2.4096679688E-001 -2.8512573242E-001 -5.1071643829E-003 +2.9850006104E-004 -3.9789825678E-005 -1.2340024114E-005 -5.4199218750E-002 -1.0124969482E-001
9717500000.000 -2.4510192871E-001 -2.8865051270E-001 -4.0795803070E-003 +3.0760765076E-003 +9.6522271633E-005 -3.0629336834E-005 -4.1263580322E-002 -1.0708236694E-001
9850000000.000 -2.4955749512E-001 -2.8810119629E-001 -1.6188621521E-003 +4.8882961273E-003 +3.5187229514E-005 +5.6250020862E-005 -1.9092559814E-002 -1.0219955444E-001
9982500000.000 -2.5004577637E-001 -2.9060363770E-001 +1.3389587402E-003 +4.9622058868E-003 -7.1071553975E-006 +6.1616301537E-006 +6.4582824707E-003 -1.0327529907E-001
10115000000.000 -2.5257873535E-001 -2.9386901855E-001 +3.8564205170E-003 +3.2268762589E-003 -1.8388964236E-005 -2.1209008992E-005 +1.9336700439E-002 -9.9151611328E-002
10247500000.000 -2.5781250000E-001 -2.9574584961E-001 +5.0699710846E-003 +5.4168701172E-004 +4.8400834203E-005 +2.4862587452E-005 +3.5648345947E-002 -8.0020904541E-002
10380000000.000 -2.6037597656E-001 -2.9632568359E-001 +4.4589042664E-003 -2.2997856140E-003 -2.3504719138E-005 +6.1299651861E-006 +5.7010650635E-002 -6.7493438721E-002
10512500000.000 -2.6245117188E-001 -2.9815673828E-001 +2.3977756500E-003 -4.4317245483E-003 -7.1715563536E-005 -1.0609626770E-005 +6.2705993652E-002 -5.6087493896E-002
10645000000.000 -2.6539611816E-001 -3.0073547363E-001 -4.2223930359E-004 -4.9495697021E-003 +4.5111402869E-005 -1.5899538994E-005 +6.6093444824E-002 -2.9212951660E-002
10777500000.000 -2.6930236816E-001 -3.0297851563E-001 -3.1573772430E-003 -3.9317607880E-003 -3.4553930163E-005 +4.0216371417E-005 +7.7037811279E-002 -7.7667236328E-003
10910000000.000 -2.7278137207E-001 -3.0473327637E-001 -4.7988891602E-003 -1.4927387238E-003 +2.4264678359E-005 -2.3433007300E-005 +7.2330474854E-002 +5.5885314941E-003
11042500000.000 -2.7635192871E-001 -3.0682373047E-001 -4.8115253448E-003 +1.4750957489E-003 +1.7202459276E-005 -1.6732141376E-005 +5.9566497803E-002 +3.1177520752E-002
11175000000.000 -2.7891540527E-001 -3.1051635742E-001 -3.2178163528E-003 +3.8607120514E-003 -6.1094760895E-007 -5.4426491261E-005 +5.6375503540E-002 +5.2339553833E-002
11307500000.000 -2.8079223633E-001 -3.1250000000E-001 -4.3272972107E-004 +5.0041675568E-003 -5.7077035308E-005 +9.4845890999E-006 +4.3437957764E-002 +5.8547973633E-002
11440000000.000 -2.8475952148E-001 -3.1517028809E-001 +2.4414062500E-003 +4.2769908905E-003 +8.1997364759E-005 -2.2415071726E-005 +1.8161773682E-002 +7.2044372559E-002
11572500000.000 -2.8575134277E-001 -3.1878662109E-001 +4.4364929199E-003 +2.3338794708E-003 -3.5341829062E-005 +4.9469992518E-005 +4.3678283691E-003 +8.7303161621E-002
11705000000.000 -2.8768920898E-001 -3.2112121582E-001 +4.9152374268E-003 -5.7482719421E-004 -3.3620744944E-006 -5.1813200116E-005 -1.0250091553E-002 +8.0890655518E-002
11837500000.000 -2.9051208496E-001 -3.2373046875E-001 +3.7198066711E-003 -3.2691955566E-003 +2.9304996133E-005 -3.2788142562E-005 -4.3205261230E-002 +7.6587677002E-002
11970000000.000 -2.9125976563E-001 -3.2437133789E-001 +1.2431144714E-003 -4.7595500946E-003 -6.0498714447E-006 +3.4222379327E-005 -5.9413909912E-002 +8.3061218262E-002
12102500000.000 -2.9067993164E-001 -3.2719421387E-001 -1.5668869019E-003 -4.6486854553E-003 -2.6524066925E-005 +3.8495287299E-005 -6.5433502197E-002 +6.4315795898E-002
12235000000.000 -2.9562377930E-001 -3.2824707031E-001 -3.9541721344E-003 -2.9661655426E-003 +1.9113533199E-005 -2.2005289793E-005 -9.2849731445E-002 +4.3907165527E-002
12367500000.000 -2.9562377930E-001 -3.2856750488E-001 -4.9293041229E-003 -1.8310546875E-004 +2.9388815165E-005 +3.7552788854E-005 -1.0546875000E-001 +4.2617797852E-002
12500000000.000 -2.9870605469E-001 -3.2864379883E-001 -4.1539669037E-003 +2.5963783264E-003 -1.1097639799E-005 -4.8095360398E-005 -9.7255706787E-002 +2.0381927490E-002
12632500000.000 -3.0044555664E-001 -3.3139038086E-001 -2.0258426666E-003 +4.5311450958E-003 -1.0669231415E-005 -6.4350664616E-005 -1.0904312134E-001 -1.3568878174E-002
12765000000.000 -3.0264282227E-001 -3.3195495605E-001 +7.0381164551E-004 +4.7132968903E-003 +1.5588477254E-005 -2.5022774935E-005 -1.1716842651E-001 -1.8127441406E-002
12897500000.000 -3.0476379395E-001 -3.3132934570E-001 +3.2985210419E-003 +3.4648180008E-003 -4.7925859690E-006 +4.4880434871E-005 -9.2281341553E-002 -3.4679412842E-002
13030000000.000 -3.0642700195E-001 -3.3229064941E-001 +4.6665668488E-003 +9.7680091858E-004 +3.2920390368E-005 -1.3783574104E-007 -8.9286804199E-002 -7.1121215820E-002
13162500000.000 -3.0853271484E-001 -3.3435058594E-001 +4.4465065002E-003 -1.6863346100E-003 +3.8469210267E-005 -3.7021934986E-005 -9.1445922852E-002 -7.2715759277E-002
13295000000.000 -3.1071472168E-001 -3.3543395996E-001 +2.7339458466E-003 -3.8834810257E-003 +3.1197443604E-005 -1.1462718248E-005 -6.1176300049E-002 -7.8712463379E-002
13427500000.000 -3.1387329102E-001 -3.3473205566E-001 +1.4328956604E-004 -4.7783851624E-003 -4.8197805882E-005 -4.1507184505E-005 -4.6669006348E-002 -1.0401916504E-001
13560000000.000 -3.1359863281E-001 -3.3525085449E-001 -2.5680065155E-003 -3.9234161377E-003 +4.2330473661E-005 -2.9508024454E-005 -4.6379089355E-002 -1.0121536255E-001
13692500000.000 -3.1565856934E-001 -3.3779907227E-001 -4.2850971222E-003 -1.9154548645E-003 -3.8079917431E-005 +7.5295567513E-005 -1.7673492432E-002 -8.9241027832E-002
13825000000.000 -3.1974792480E-001 -3.3877563477E-001 -4.5952796936E-003 +8.5449218750E-004 -8.1215053797E-005 -7.8123062849E-005 +4.3563842773E-003 -1.0293579102E-001
13957500000.000 -3.2235717773E-001 -3.3718872070E-001 -3.3179521561E-003 +3.2223463058E-003 +1.0671094060E-004 -2.1640211344E-005 +1.6403198242E-004 -9.5417022705E-002
14090000000.000 -3.2301330566E-001 -3.3819580078E-001 -8.5783004761E-004 +4.5545101166E-003 +1.7376244068E-004 +7.6696276665E-005 +2.2018432617E-002 -7.0007324219E-002
14222500000.000 -3.2429504395E-001 -3.4184265137E-001 +1.8484592438E-003 +4.3649673462E-003 -4.8227608204E-005 -1.8868595362E-006 +4.4025421143E-002 -7.4031829834E-002
14355000000.000 -3.2940673828E-001 -3.4266662598E-001 +3.9165019989E-003 +2.5579929352E-003 -6.6696666181E-006 -1.3180542737E-005 +3.3168792725E-002 -6.6986083984E-002
14487500000.000 -3.3160400391E-001 -3.4320068359E-001 +4.5614242554E-003 -9.4652175903E-005 +1.1716783047E-004 +1.4296919107E-004 +4.0138244629E-002 -3.3946990967E-002
14620000000.000 -3.3142089844E-001 -3.4536743164E-001 +3.7446022034E-003 -2.7204751968E-003 +3.9298087358E-005 +3.7146732211E-005 +6.0987472534E-002 -3.1352996826E-002
14752500000.000 -3.3409118652E-001 -3.5025024414E-001 +1.6579627991E-003 -4.1711330414E-003 +2.2478401661E-005 -1.1405348778E-004 +4.3224334717E-002 -3.2255172729E-002
14885000000.000 -3.3670043945E-001 -3.5241699219E-001 -1.0609626770E-003 -4.4021606445E-003 +7.4788928032E-005 -3.8947910070E-005 +3.5425186157E-002 +1.6040802002E-003
15017500000.000 -3.3683776855E-001 -3.5401916504E-001 -3.3980607986E-003 -3.0936002731E-003 +2.5700777769E-005 +4.6065077186E-005 +5.2972793579E-002 +8.8672637939E-003
15150000000.000 -3.3743286133E-001 -3.5830688477E-001 -4.5402050018E-003 -5.9747695923E-004 -5.0999224186E-005 -6.3218176365E-006 +3.5177230835E-002 -1.7032623291E-003
15282500000.000 -3.3795166016E-001 -3.6093139648E-001 -4.0483474731E-003 +1.9917488098E-003 +6.6027045250E-005 +4.8987567425E-005 +1.4430046082E-002 +2.3264884949E-002
