!  2-Port S-parameters saved by WinCal
! VAR MeasName=S-Parameters (CALIBRATED_DATA) read from VNA (C)
! VAR MeasDate=10/16/2015 10:52:13 AM
! VAR NAME=M6082_13_13_2_2_20C_2.5mA_-17.5dBm
! VAR FILENAME=M6082_13_13_2_2_20C_2.5mA_-17.5dBm_1_1.S2P
! VAR DATE=10/16/2015 10:52:13 AM
! VAR PHYS_PORTS=2,1
! VAR ObjTypeName=DATASET
! VAR IndexType=Frequency
!
# Hz S RI R 50
45000000.000 +3.6991882324E-001 -2.1057128906E-003 +1.3732910156E-004 +6.0148239136E-003 -8.0257654190E-005 -8.5139274597E-004 +2.7563095093E-002 +2.6578903198E-003
177500000.000 +3.6764526367E-001 -1.1840820313E-002 +2.0513534546E-003 +5.0532817841E-003 -8.5838139057E-005 +9.6615403891E-005 +1.6323089600E-002 +1.7090797424E-002
310000000.000 +3.6697387695E-001 -2.0187377930E-002 +4.4503211975E-003 +3.5250186920E-003 -8.7007880211E-005 -2.9668211937E-004 +2.9718399048E-002 +6.1613082886E-002
442500000.000 +3.6486816406E-001 -2.9586791992E-002 +6.3149929047E-003 -7.6770782471E-005 +5.9599056840E-005 +2.7753412724E-006 +7.3108673096E-002 +2.3250579834E-002
575000000.000 +3.6322021484E-001 -3.8513183594E-002 +4.6291351318E-003 -3.3667087555E-003 -3.0711293221E-005 +2.7315691113E-005 +2.7840614319E-002 +1.1624336243E-002
707500000.000 +3.6155700684E-001 -4.6585083008E-002 +1.9485950470E-003 -5.2745342255E-003 -3.2721087337E-005 -1.5469267964E-005 +2.6464462280E-003 +1.8938064575E-002
840000000.000 +3.5966491699E-001 -5.5099487305E-002 -1.3720989227E-003 -5.4564476013E-003 +1.4996621758E-005 +3.9124861360E-006 -1.9616127014E-002 +2.6165962219E-002
972500000.000 +3.5803222656E-001 -6.2835693359E-002 -4.1117668152E-003 -3.6840438843E-003 -3.3245887607E-006 +4.3902546167E-006 -3.5821914673E-002 +3.5863876343E-002
1105000000.000 +3.5568237305E-001 -7.1014404297E-002 -5.4705142975E-003 -7.8248977661E-004 -2.0086765289E-005 -7.9896301031E-005 -4.6867370605E-002 +3.8614273071E-002
1237500000.000 +3.5339355469E-001 -7.8475952148E-002 -4.9688816071E-003 +2.3870468140E-003 +3.8966536522E-005 -4.5925378799E-005 -5.8622360229E-002 +3.4164428711E-002
1370000000.000 +3.5089111328E-001 -8.6212158203E-002 -2.7453899384E-003 +4.6861171722E-003 +2.6099383831E-005 +2.0532868803E-005 -7.4092864990E-002 +2.7328491211E-002
1502500000.000 +3.4809875488E-001 -9.3566894531E-002 +2.9873847961E-004 +5.4962635040E-003 -5.7872384787E-005 -2.2795051336E-005 -8.8085174561E-002 +2.1831512451E-002
1635000000.000 +3.4690856934E-001 -1.0035705566E-001 +3.3328533173E-003 +4.3747425079E-003 +1.7904676497E-005 +1.2283213437E-005 -9.9250793457E-002 +1.2001037598E-002
1767500000.000 +3.4403991699E-001 -1.0855102539E-001 +5.1922798157E-003 +1.8031597137E-003 -2.0761042833E-005 +6.4443796873E-005 -1.1217880249E-001 +3.3149719238E-003
1900000000.000 +3.4111022949E-001 -1.1538696289E-001 +5.3925514221E-003 -1.4481544495E-003 -7.8301876783E-005 +2.3212283850E-005 -1.1408615112E-001 -3.2119750977E-003
2032500000.000 +3.3848571777E-001 -1.2138366699E-001 +3.5936832428E-003 -4.2028427124E-003 +8.7637454271E-005 -9.3370676041E-005 -1.1410140991E-001 -2.4120330811E-002
2165000000.000 +3.3659362793E-001 -1.2855529785E-001 +7.1287155151E-004 -5.3908824921E-003 +2.5535933673E-005 -1.0930001736E-005 -1.2282562256E-001 -4.2015075684E-002
2297500000.000 +3.3369445801E-001 -1.3497924805E-001 -2.3946762085E-003 -4.8980712891E-003 -2.2286549211E-005 -9.3504786491E-006 -1.2687683105E-001 -5.3428649902E-002
2430000000.000 +3.3076477051E-001 -1.4044189453E-001 -4.7538280487E-003 -2.7461051941E-003 -7.0501118898E-006 -5.5359676480E-005 -1.2705230713E-001 -6.4994812012E-002
2562500000.000 +3.2847595215E-001 -1.4648437500E-001 -5.5003166199E-003 +5.0210952759E-004 +1.5152245760E-004 +1.0109692812E-004 -1.2587738037E-001 -7.0823669434E-002
2695000000.000 +3.2427978516E-001 -1.5229797363E-001 -4.4291019440E-003 +3.3411979675E-003 -7.9452991486E-005 +1.8683820963E-004 -1.1420440674E-001 -7.3383331299E-002
2827500000.000 +3.2124328613E-001 -1.5643310547E-001 -1.7039775848E-003 +5.3625106812E-003 +9.2230737209E-005 -1.3760477304E-004 -9.9147796631E-002 -8.1848144531E-002
2960000000.000 +3.1903076172E-001 -1.6142272949E-001 +1.5554428101E-003 +5.4576396942E-003 +9.8552554846E-005 -1.0877847672E-005 -8.8939666748E-002 -8.6860656738E-002
3092500000.000 +3.1567382813E-001 -1.6839599609E-001 +4.3921470642E-003 +3.6435127258E-003 -1.3017654419E-004 +7.4297189713E-005 -7.1060180664E-002 -8.5784912109E-002
3225000000.000 +3.1092834473E-001 -1.7370605469E-001 +5.5923461914E-003 +6.5827369690E-004 +4.5425258577E-006 +5.6955032051E-006 -5.2352905273E-002 -9.1140747070E-002
3357500000.000 +3.0795288086E-001 -1.7753601074E-001 +5.1918029785E-003 -2.5856494904E-003 +2.0672380924E-004 -3.2655894756E-005 -4.1854858398E-002 -9.1838836670E-002
3490000000.000 +3.0560302734E-001 -1.8409729004E-001 +2.8584003448E-003 -5.0935745239E-003 -6.4037740231E-005 +6.6984444857E-005 -2.8495788574E-002 -8.3381652832E-002
3622500000.000 +3.0177307129E-001 -1.9047546387E-001 -5.1999092102E-004 -5.9032440186E-003 -4.2188912630E-005 -7.3999166489E-005 -1.1585235596E-002 -7.9223632813E-002
3755000000.000 +2.9794311523E-001 -1.9616699219E-001 -3.8144588470E-003 -4.5945644379E-003 +3.2756477594E-005 -2.6011839509E-005 -5.8326721191E-003 -7.3375701904E-002
3887500000.000 +2.9498291016E-001 -2.0170593262E-001 -5.9127807617E-003 -1.6605854034E-003 -1.2740492821E-005 +1.2698024511E-004 +1.9798278809E-003 -5.6463241577E-002
4020000000.000 +2.9179382324E-001 -2.0663452148E-001 -5.8562755585E-003 +1.8186569214E-003 -5.0174072385E-005 +3.9201229811E-005 +1.3172149658E-002 -4.4713973999E-002
4152500000.000 +2.8926086426E-001 -2.1264648438E-001 -3.7791728973E-003 +4.8944950104E-003 -5.2047893405E-005 -6.0729682446E-005 +1.5766143799E-002 -3.2951354980E-002
4285000000.000 +2.8587341309E-001 -2.1826171875E-001 -3.5667419434E-004 +6.3412189484E-003 +1.1045485735E-005 +1.0530278087E-004 +1.7237663269E-002 -1.3689041138E-002
4417500000.000 +2.8193664551E-001 -2.2370910645E-001 +3.4744739532E-003 +5.3050518036E-003 -5.5380165577E-005 +6.4931809902E-005 +2.5776863098E-002 +3.2548904419E-003
4550000000.000 +2.7949523926E-001 -2.2868347168E-001 +5.8214664459E-003 +2.6266574860E-003 +4.1374936700E-005 -1.0084360838E-005 +2.9560089111E-002 +9.2697143555E-003
4682500000.000 +2.7693176270E-001 -2.3500061035E-001 +6.2508583069E-003 -1.0986328125E-003 +8.4564089775E-005 +8.7808817625E-005 +2.6263237000E-002 +2.0242691040E-002
4815000000.000 +2.7301025391E-001 -2.4002075195E-001 +4.6291351318E-003 -4.3873786926E-003 -6.2018632889E-005 +1.8548220396E-005 +3.1848907471E-002 +2.7097702026E-002
4947500000.000 +2.7082824707E-001 -2.4465942383E-001 +1.3608932495E-003 -6.2727928162E-003 -2.0105391741E-005 -3.6481767893E-005 +2.8429031372E-002 +1.9572257996E-002
5080000000.000 +2.6943969727E-001 -2.5030517578E-001 -2.5234222412E-003 -6.0911178589E-003 +2.2200867534E-005 +4.5940279961E-005 +1.4214515686E-002 +2.0344734192E-002
5212500000.000 +2.6583862305E-001 -2.5535583496E-001 -5.6798458099E-003 -3.7221908569E-003 -5.0049275160E-005 +3.6245211959E-005 +1.0127067566E-002 +2.4550437927E-002
5345000000.000 +2.6258850098E-001 -2.5907897949E-001 -6.9751739502E-003 +1.2445449829E-004 -1.8496066332E-006 -3.1594187021E-005 +6.4811706543E-003 +1.6116142273E-002
5477500000.000 +2.6231384277E-001 -2.6344299316E-001 -5.6471824646E-003 +4.1501522064E-003 +6.5751373768E-007 -7.9926103354E-006 -8.4223747253E-003 +1.0109901428E-002
5610000000.000 +2.5990295410E-001 -2.6873779297E-001 -2.3024082184E-003 +6.8786144257E-003 -2.4870969355E-006 -1.0320451111E-005 -1.4111042023E-002 +1.4654636383E-002
5742500000.000 +2.5610351563E-001 -2.7198791504E-001 +1.9981861115E-003 +7.0221424103E-003 -2.6332214475E-005 -3.2121315598E-005 -1.0492801666E-002 +6.3815116882E-003
5875000000.000 +2.5407409668E-001 -2.7435302734E-001 +5.8016777039E-003 +4.6555995941E-003 +5.2610412240E-005 +6.0498714447E-006 -1.9403457642E-002 -3.0488967896E-003
6007500000.000 +2.5267028809E-001 -2.7850341797E-001 +7.5106620789E-003 +4.7945976257E-004 -5.3849071264E-006 +2.9277987778E-005 -2.2892951965E-002 +6.4277648926E-004
6140000000.000 +2.4917602539E-001 -2.8324890137E-001 +6.5441131592E-003 -3.9649009705E-003 -4.2986124754E-005 -1.1118128896E-005 -1.4896869659E-002 -1.9869804382E-003
6272500000.000 +2.4407958984E-001 -2.8666687012E-001 +3.0648708344E-003 -7.0860385895E-003 -3.3503398299E-005 -4.5161694288E-005 -1.5812873840E-002 -1.1098861694E-002
6405000000.000 +2.4128723145E-001 -2.8871154785E-001 -1.6162395477E-003 -7.6494216919E-003 +4.8946589231E-005 +5.0734728575E-005 -1.9354820251E-002 -5.8183670044E-003
6537500000.000 +2.4008178711E-001 -2.9263305664E-001 -5.8269500732E-003 -5.4056644440E-003 -2.1852552891E-005 -1.2488104403E-005 -9.3674659729E-003 -2.3961067200E-003
6670000000.000 +2.3620605469E-001 -2.9901123047E-001 -7.9870223999E-003 -1.0986328125E-003 +3.2484531403E-005 -7.3608011007E-005 -7.7421665192E-003 -6.3920021057E-003
6802500000.000 +2.3049926758E-001 -3.0340576172E-001 -7.0486068726E-003 +3.6909580231E-003 -1.6187317669E-005 +2.5847926736E-005 -1.1495113373E-002 +5.9652328491E-004
6935000000.000 +2.2705078125E-001 -3.0534362793E-001 -3.4916400909E-003 +7.1632862091E-003 -8.4750354290E-008 +2.8877519071E-005 -6.9050788879E-003 +1.0342121124E-002
7067500000.000 +2.2581481934E-001 -3.0882263184E-001 +1.2054443359E-003 +8.1396102905E-003 -2.2772699594E-005 -4.2436644435E-005 -5.1836967468E-003 +1.0710239410E-002
7200000000.000 +2.2055053711E-001 -3.1524658203E-001 +5.7468414307E-003 +5.9359073639E-003 +5.8434903622E-005 +1.4318153262E-005 -1.5439987183E-002 +1.7511367798E-002
7332500000.000 +2.1472167969E-001 -3.1941223145E-001 +7.9374313354E-003 +1.4352798462E-003 +1.3291835785E-005 +3.3298507333E-005 -1.7512321472E-002 +3.0708312988E-002
7465000000.000 +2.1185302734E-001 -3.2185363770E-001 +7.6134204865E-003 -3.5507678986E-003 -5.4694712162E-005 -3.9650127292E-005 -2.0471572876E-002 +3.0976295471E-002
7597500000.000 +2.0895385742E-001 -3.2800292969E-001 +4.1921138763E-003 -7.8053474426E-003 +1.0249763727E-004 -1.9542872906E-005 -3.6802291870E-002 +3.3487319946E-002
7730000000.000 +2.0315551758E-001 -3.3351135254E-001 -1.0914802551E-003 -8.0413818359E-003 +2.3161992431E-006 +2.0970590413E-005 -4.8370361328E-002 +4.3714523315E-002
7862500000.000 +1.9937133789E-001 -3.3775329590E-001 -5.5174827576E-003 -5.9144496918E-003 -4.2689964175E-005 -2.5646761060E-005 -5.3913116455E-002 +4.2167663574E-002
7995000000.000 +1.9775390625E-001 -3.4197998047E-001 -8.7928771973E-003 -1.5425682068E-003 +9.3456357718E-005 +1.0166317225E-005 -7.3471069336E-002 +3.4828186035E-002
8127500000.000 +1.9371032715E-001 -3.4843444824E-001 -7.7428817749E-003 +3.6697387695E-003 -4.3984502554E-005 -4.3902546167E-006 -9.1423034668E-002 +3.9810180664E-002
8260000000.000 +1.8917846680E-001 -3.5249328613E-001 -3.9951801300E-003 +7.2925090790E-003 -7.1454793215E-005 +8.2515180111E-006 -9.5256805420E-002 +3.4324645996E-002
8392500000.000 +1.8736267090E-001 -3.5746765137E-001 +1.4677047729E-003 +8.8391304016E-003 +4.5148655772E-005 +3.2335519791E-005 -1.0999298096E-001 +1.8501281738E-002
8525000000.000 +1.8499755859E-001 -3.6195373535E-001 +6.4802169800E-003 +6.1659812927E-003 +4.3712556362E-005 +3.4445896745E-005 -1.2218856812E-001 +1.5522003174E-002
8657500000.000 +1.8185424805E-001 -3.6553955078E-001 +8.3179473877E-003 +1.2135505676E-003 -6.3590705395E-005 +1.4156103134E-006 -1.1785507202E-001 +4.7683715820E-003
8790000000.000 +1.7895507813E-001 -3.7042236328E-001 +7.5366497040E-003 -4.3354034424E-003 +6.0833990574E-006 -3.8307160139E-005 -1.1970901489E-001 -1.7070770264E-002
8922500000.000 +1.7567443848E-001 -3.7333679199E-001 +3.4012794495E-003 -8.2788467407E-003 +8.3047896624E-005 -2.9988586903E-006 -1.2252426147E-001 -2.9972076416E-002
9055000000.000 +1.7266845703E-001 -3.7652587891E-001 -2.1319389343E-003 -8.3284378052E-003 -2.5659799576E-005 +5.3320080042E-005 -1.1115264893E-001 -4.3464660645E-002
9187500000.000 +1.6960144043E-001 -3.7898254395E-001 -6.7365169525E-003 -5.3083896637E-003 +2.3852102458E-005 -1.3877637684E-005 -1.0058975220E-001 -6.5979003906E-002
9320000000.000 +1.6485595703E-001 -3.8127136230E-001 -8.5873603821E-003 -4.3201446533E-004 -4.5951455832E-006 +4.8620626330E-005 -9.4078063965E-002 -7.8647613525E-002
9452500000.000 +1.6139221191E-001 -3.8372802734E-001 -6.9506168365E-003 +4.6646595001E-003 -1.2051314116E-005 +5.9898942709E-005 -7.4768066406E-002 -8.6376190186E-002
9585000000.000 +1.5766906738E-001 -3.8630676270E-001 -2.7124881744E-003 +7.6618194580E-003 -7.8510493040E-006 -4.0614977479E-005 -5.5374145508E-002 -1.0105514526E-001
9717500000.000 +1.5165710449E-001 -3.8963317871E-001 +2.1471977234E-003 +7.8253746033E-003 +2.1263957024E-005 -4.2997300625E-005 -4.2228698730E-002 -1.0626983643E-001
9850000000.000 +1.4680480957E-001 -3.9039611816E-001 +6.1440467834E-003 +4.8470497131E-003 +7.1845948696E-005 +4.3686479330E-005 -1.9515991211E-002 -1.0218811035E-001
9982500000.000 +1.4414978027E-001 -3.9280700684E-001 +7.5583457947E-003 +3.3354759216E-004 -4.9050897360E-005 -3.5598874092E-005 +5.3138732910E-003 -1.0404586792E-001
10115000000.000 +1.3897705078E-001 -3.9585876465E-001 +6.3068866730E-003 -4.0302276611E-003 +4.3252483010E-005 +7.1488320827E-006 +1.7543792725E-002 -9.9300384521E-002
10247500000.000 +1.3342285156E-001 -3.9707946777E-001 +2.5904178619E-003 -6.7045688629E-003 +9.8291784525E-006 +5.3144991398E-005 +3.5083770752E-002 -8.0200195313E-002
10380000000.000 +1.3049316406E-001 -3.9924621582E-001 -1.8148422241E-003 -6.6606998444E-003 -6.6481530666E-005 +9.3176960945E-005 +5.6735992432E-002 -6.9076538086E-002
10512500000.000 +1.2457275391E-001 -4.0182495117E-001 -5.1000118256E-003 -4.4960975647E-003 -2.0202249289E-005 -4.1153281927E-005 +6.1721801758E-002 -5.7727813721E-002
10645000000.000 +1.1936950684E-001 -4.0242004395E-001 -6.6299438477E-003 -6.7353248596E-004 +4.8082321882E-005 +3.5773962736E-005 +6.5685272217E-002 -2.9800415039E-002
10777500000.000 +1.1647033691E-001 -4.0409851074E-001 -5.4821968079E-003 +3.0848979950E-003 -2.9421411455E-005 +2.2995285690E-005 +7.7831268311E-002 -9.1018676758E-003
10910000000.000 +1.1238098145E-001 -4.0766906738E-001 -2.6376247406E-003 +5.6169033051E-003 -4.9510970712E-005 -6.8657100201E-006 +7.2769165039E-002 +3.4294128418E-003
11042500000.000 +1.0459899902E-001 -4.1075134277E-001 +9.4175338745E-004 +5.8395862579E-003 +6.6082924604E-005 +4.3496489525E-005 +5.9991836548E-002 +2.9937744141E-002
11175000000.000 +1.0069274902E-001 -4.1258239746E-001 +4.0433406830E-003 +4.0726661682E-003 -3.2955780625E-005 +3.7269666791E-005 +5.8063507080E-002 +5.1929473877E-002
11307500000.000 +9.9060058594E-002 -4.1406250000E-001 +5.3315162659E-003 +9.7894668579E-004 -1.7086975276E-005 +1.8811784685E-005 +4.5351028442E-002 +5.7559967041E-002
11440000000.000 +9.3795776367E-002 -4.1769409180E-001 +4.9204826355E-003 -2.2180080414E-003 +3.3982098103E-005 +5.3072348237E-005 +1.9489288330E-002 +7.1220397949E-002
11572500000.000 +9.0881347656E-002 -4.2097473145E-001 +2.6051998138E-003 -4.4243335724E-003 -1.8877908587E-006 +2.1597370505E-005 +6.0119628906E-003 +8.7356567383E-002
11705000000.000 +8.7936401367E-002 -4.2254638672E-001 -3.0255317688E-004 -4.9924850464E-003 -2.5248154998E-005 -3.4784898162E-005 -8.0108642578E-003 +8.1470489502E-002
11837500000.000 +8.4167480469E-002 -4.2456054688E-001 -2.9326677322E-003 -3.8002729416E-003 -7.0482492447E-006 -7.6454132795E-005 -4.1179656982E-002 +7.7178955078E-002
11970000000.000 +8.2321166992E-002 -4.2549133301E-001 -4.4696331024E-003 -1.3713836670E-003 +4.2131170630E-005 +2.5505200028E-005 -5.7811737061E-002 +8.4182739258E-002
12102500000.000 +8.2077026367E-002 -4.2793273926E-001 -4.3067932129E-003 +1.3434886932E-003 -1.3176351786E-005 +4.1653402150E-006 -6.4220428467E-002 +6.5666198730E-002
12235000000.000 +7.5714111328E-002 -4.2794799805E-001 -2.6769638062E-003 +3.3996105194E-003 +1.2331642210E-005 -2.4320557714E-005 -9.1930389404E-002 +4.5825958252E-002
12367500000.000 +7.5469970703E-002 -4.2816162109E-001 -3.7050247192E-004 +4.1942596436E-003 +9.1284513474E-005 +1.9047409296E-005 -1.0449218750E-001 +4.4902801514E-002
12500000000.000 +7.1426391602E-002 -4.2922973633E-001 +2.1182298660E-003 +3.5953521729E-003 -5.4564327002E-005 +7.9933553934E-005 -9.6908569336E-002 +2.2064208984E-002
12632500000.000 +6.7581176758E-002 -4.3194580078E-001 +3.5828351974E-003 +1.6794204712E-003 +2.4439767003E-005 -4.3358653784E-005 -1.1043548584E-001 -1.1627197266E-002
12765000000.000 +6.4682006836E-002 -4.3109130859E-001 +3.7865638733E-003 -5.2571296692E-004 +3.1072646379E-005 +2.3478642106E-005 -1.1813735962E-001 -1.5373229980E-002
12897500000.000 +6.2026977539E-002 -4.3045043945E-001 +2.7141571045E-003 -2.6500225067E-003 +7.3388218880E-006 +1.2154225260E-005 -9.2391967773E-002 -3.3279418945E-002
13030000000.000 +5.9951782227E-002 -4.3234252930E-001 +7.9488754272E-004 -3.5630464554E-003 -4.8484653234E-005 -5.0313770771E-005 -9.1621398926E-002 -7.0556640625E-002
13162500000.000 +5.6503295898E-002 -4.3424987793E-001 -1.2948513031E-003 -3.1821727753E-003 +5.2306801081E-005 +4.4722110033E-005 -9.4554901123E-002 -7.1132659912E-002
13295000000.000 +5.2947998047E-002 -4.3507385254E-001 -2.8457641602E-003 -1.8252134323E-003 -5.8645382524E-005 +4.1153281927E-005 -6.2465667725E-002 -7.7598571777E-002
13427500000.000 +4.8568725586E-002 -4.3403625488E-001 -3.2575130463E-003 -3.2305717468E-005 -9.4403512776E-006 -8.1565231085E-006 -4.8488616943E-002 -1.0540390015E-001
13560000000.000 +4.8324584961E-002 -4.3374633789E-001 -2.7006864548E-003 +1.8876791000E-003 +3.1484290957E-005 -5.3668394685E-005 -4.9594879150E-002 -1.0223770142E-001
13692500000.000 +4.6493530273E-002 -4.3695068359E-001 -1.1280775070E-003 +2.8005838394E-003 +3.5747885704E-005 +5.4730102420E-005 -1.9584655762E-002 -8.9282989502E-002
13825000000.000 +4.0451049805E-002 -4.3769836426E-001 +6.3323974609E-004 +2.9754638672E-003 -1.0105594993E-004 +3.9927661419E-005 +3.6659240723E-003 -1.0456466675E-001
13957500000.000 +3.6819458008E-002 -4.3626403809E-001 +1.9845962524E-003 +1.9592046738E-003 -1.8587335944E-005 -5.5415555835E-005 -1.4305114746E-003 -9.7904205322E-002
14090000000.000 +3.5186767578E-002 -4.3728637695E-001 +2.7490854263E-003 +5.5384635925E-004 -7.3246657848E-005 +1.1250376701E-005 +2.0809173584E-002 -7.1887969971E-002
14222500000.000 +3.2363891602E-002 -4.4079589844E-001 +2.5312900543E-003 -1.1292695999E-003 -6.1869621277E-005 +4.2654573917E-006 +4.4124603271E-002 -7.5729370117E-002
14355000000.000 +2.7114868164E-002 -4.4097900391E-001 +1.4070272446E-003 -2.3330450058E-003 +6.1254948378E-005 +6.4224004745E-006 +3.4038543701E-002 -6.8912506104E-002
14487500000.000 +2.3880004883E-002 -4.4105529785E-001 +4.5299530029E-005 -2.7168989182E-003 -2.7783215046E-005 +6.5825879574E-005 +4.1130065918E-002 -3.5806655884E-002
14620000000.000 +2.2888183594E-002 -4.4419860840E-001 -1.3419389725E-003 -2.0722150803E-003 +5.5097043514E-006 +9.2904083431E-006 +6.1279296875E-002 -3.2705307007E-002
14752500000.000 +1.7852783203E-002 -4.4847106934E-001 -2.3289918900E-003 -8.5997581482E-004 +3.9670616388E-005 -7.8503042459E-005 +4.4111251831E-002 -3.2112121582E-002
14885000000.000 +1.5243530273E-002 -4.4883728027E-001 -2.4387836456E-003 +4.7862529755E-004 -1.0884366930E-005 +2.0483508706E-005 +3.7752151489E-002 +1.1444091797E-003
15017500000.000 +1.5686035156E-002 -4.4917297363E-001 -1.6443729401E-003 +1.7407536507E-003 -2.1625310183E-006 +2.9281713068E-005 +5.4197311401E-002 +7.4100494385E-003
15150000000.000 +1.5258789063E-002 -4.5445251465E-001 -4.4429302216E-004 +2.2854804993E-003 +1.5981495380E-006 +2.9888004065E-005 +3.5085678101E-002 -8.6784362793E-004
15282500000.000 +1.3519287109E-002 -4.5713806152E-001 +1.0174512863E-003 +2.1600723267E-003 +6.2711536884E-005 -4.8168003559E-006 +1.5983581543E-002 +2.5197029114E-002
