!  2-Port S-parameters saved by WinCal
! VAR MeasName=S-Parameters (CALIBRATED_DATA) read from VNA (C)
! VAR MeasDate=10/16/2015 3:42:39 PM
! VAR NAME=M6082_10_17_2_2_20C_1.4mA_-17.5dBm
! VAR FILENAME=M6082_10_17_2_2_20C_1.4mA_-17.5dBm.S2P
! VAR DATE=10/16/2015 3:42:39 PM
! VAR PHYS_PORTS=2,1
! VAR ObjTypeName=DATASET
! VAR IndexType=Frequency
!
# Hz S RI R 50
45000000.000 +1.9476318359E-001 -1.4213562012E-002 -1.8317699432E-003 +5.9716701508E-003 +6.9200992584E-004 +7.5191259384E-005 +2.8300285339E-002 +1.2531280518E-003
177500000.000 +1.7404174805E-001 -4.2953491211E-002 +1.8718242645E-003 +4.0004253387E-003 +5.5506825447E-005 +8.5875391960E-005 +1.5674591064E-002 +1.6839027405E-002
310000000.000 +1.7308807373E-001 -7.4844360352E-002 +2.9236078262E-003 +2.0673274994E-003 -3.4868717194E-006 -8.5406005383E-005 +2.8978347778E-002 +6.1464309692E-002
442500000.000 +1.5116119385E-001 -9.3643188477E-002 +4.7218799591E-003 -6.5827369690E-004 +9.6675008535E-005 -2.8576701880E-005 +7.2284698486E-002 +2.2212982178E-002
575000000.000 +1.3670349121E-001 -1.1086273193E-001 +3.1899213791E-003 -3.3073425293E-003 +8.5681676865E-007 +2.2175721824E-005 +2.6947975159E-002 +1.1040687561E-002
707500000.000 +1.2580871582E-001 -1.2996673584E-001 +6.2012672424E-004 -4.3852329254E-003 -7.3094852269E-006 +2.2789463401E-006 +1.9321441650E-003 +1.8640518188E-002
840000000.000 +1.1583709717E-001 -1.4599609375E-001 -2.1891593933E-003 -3.8806200027E-003 +2.3772940040E-005 -1.1670403183E-005 -1.9959449768E-002 +2.5972366333E-002
972500000.000 +1.0681152344E-001 -1.6339111328E-001 -3.9603710175E-003 -1.7955303192E-003 +1.4271587133E-005 +8.3655118942E-005 -3.5840988159E-002 +3.5301208496E-002
1105000000.000 +9.6435546875E-002 -1.7823791504E-001 -4.2037963867E-003 +8.7690353394E-004 +9.5916911960E-006 -3.0200928450E-005 -4.6979904175E-002 +3.8114547729E-002
1237500000.000 +8.7577819824E-002 -1.9562530518E-001 -2.8103590012E-003 +3.1949281693E-003 +5.3098425269E-005 +1.2166798115E-005 -5.8576583862E-002 +3.3702850342E-002
1370000000.000 +7.7384948730E-002 -2.1127319336E-001 -3.0326843262E-004 +4.1737556458E-003 -4.9553811550E-005 +6.2853097916E-005 -7.3936462402E-002 +2.6859283447E-002
1502500000.000 +6.6734313965E-002 -2.2106170654E-001 +2.2022724152E-003 +3.6910772324E-003 -5.7762488723E-005 -1.5893951058E-005 -8.7944030762E-002 +2.1171569824E-002
1635000000.000 +5.8296203613E-002 -2.3789215088E-001 +3.8743019104E-003 +1.5810728073E-003 +8.3491206169E-005 +4.9173831940E-006 -9.9040985107E-002 +1.1631011963E-002
1767500000.000 +4.8065185547E-002 -2.5289916992E-001 +3.9346218109E-003 -1.0662078857E-003 -1.0513700545E-005 -7.1199610829E-007 -1.1185455322E-001 +2.8152465820E-003
1900000000.000 +3.7994384766E-002 -2.5924682617E-001 +2.7682781219E-003 -3.3854246140E-003 -3.0338764191E-005 +3.3700838685E-005 -1.1377716064E-001 -3.5400390625E-003
2032500000.000 +2.7618408203E-002 -2.6968383789E-001 +2.0074844360E-004 -4.5101642609E-003 +4.8607587814E-005 -2.2789463401E-005 -1.1362457275E-001 -2.4444580078E-002
2165000000.000 +1.8173217773E-002 -2.8172302246E-001 -2.4666786194E-003 -3.8611888885E-003 +3.7800520658E-005 +3.0092895031E-005 -1.2244796753E-001 -4.2324066162E-002
2297500000.000 +9.0332031250E-003 -2.8771972656E-001 -4.7004222870E-003 -2.0017623901E-003 -5.8650970459E-005 +2.4631619453E-005 -1.2646484375E-001 -5.3649902344E-002
2430000000.000 +1.0528564453E-003 -2.9521179199E-001 -5.1388740540E-003 +1.0874271393E-003 +3.1810253859E-005 -7.8544020653E-005 -1.2637329102E-001 -6.4941406250E-002
2562500000.000 -7.9650878906E-003 -3.0708312988E-001 -3.5008192062E-003 +3.8561820984E-003 +1.8591433764E-004 +1.5527009964E-005 -1.2511444092E-001 -7.1243286133E-002
2695000000.000 -1.7074584961E-002 -3.1474304199E-001 -6.1726570129E-004 +5.5606365204E-003 -3.5002827644E-005 +7.6122581959E-005 -1.1353683472E-001 -7.3574066162E-002
2827500000.000 -2.5604248047E-002 -3.2180786133E-001 +2.8879642487E-003 +5.2402019501E-003 +8.1133097410E-005 -8.4772706032E-005 -9.8342895508E-002 -8.1798553467E-002
2960000000.000 -3.4362792969E-002 -3.3581542969E-001 +5.4357051849E-003 +2.1383762360E-003 +2.7686357498E-005 +9.4259157777E-006 -8.7852478027E-002 -8.6780548096E-002
3092500000.000 -4.5471191406E-002 -3.5058593750E-001 +5.3534507751E-003 -2.0835399628E-003 -1.0892748833E-004 +3.8072466850E-005 -7.0129394531E-002 -8.5990905762E-002
3225000000.000 -5.7037353516E-002 -3.6114501953E-001 +3.2529830933E-003 -5.2080154419E-003 -9.1362744570E-005 -8.2157552242E-005 -5.1792144775E-002 -9.1133117676E-002
3357500000.000 -7.0343017578E-002 -3.7219238281E-001 -8.4757804871E-004 -5.6529045105E-003 +1.3138633221E-005 +1.2096948922E-005 -4.1252136230E-002 -9.1556549072E-002
3490000000.000 -8.4869384766E-002 -3.8511657715E-001 -4.1530132294E-003 -3.5185813904E-003 +3.7830322981E-005 +1.2132525444E-004 -2.7976989746E-002 -8.3396911621E-002
3622500000.000 -9.7686767578E-002 -3.9549255371E-001 -5.4991245270E-003 -1.2183189392E-004 +4.3375417590E-005 -2.6144087315E-005 -1.1398315430E-002 -7.9181671143E-002
3755000000.000 -1.1395263672E-001 -4.0425109863E-001 -4.2581558228E-003 +3.5390853882E-003 +6.2290579081E-005 +5.6486576796E-005 -5.8403015137E-003 -7.2826385498E-002
3887500000.000 -1.3011169434E-001 -4.1038513184E-001 -1.0528564453E-003 +4.8596858978E-003 +1.2461096048E-005 +8.7641179562E-005 +2.2659301758E-003 -5.5978775024E-002
4020000000.000 -1.4398193359E-001 -4.1603088379E-001 +2.3226737976E-003 +4.2235851288E-003 +5.9306621552E-006 -6.1277300119E-005 +1.3294219971E-002 -4.4437408447E-002
4152500000.000 -1.5679931641E-001 -4.2198181152E-001 +4.5335292816E-003 +1.9214153290E-003 +5.8334320784E-005 -3.9711594582E-005 +1.5256881714E-002 -3.2564163208E-002
4285000000.000 -1.7144775391E-001 -4.2491149902E-001 +4.2300224304E-003 -1.2841224670E-003 +6.0461461544E-006 +6.2946230173E-005 +1.7066001892E-002 -1.2989997864E-002
4417500000.000 -1.8551635742E-001 -4.2710876465E-001 +2.3534297943E-003 -3.4520626068E-003 -6.6421926022E-005 +1.0821968317E-005 +2.5544166565E-002 +3.6516189575E-003
4550000000.000 -1.9622802734E-001 -4.2959594727E-001 -2.5677680969E-004 -4.1291713715E-003 -3.3782795072E-005 -9.4175338745E-006 +2.8723716736E-002 +9.5930099487E-003
4682500000.000 -2.0712280273E-001 -4.3145751953E-001 -2.3337602615E-003 -2.8502941132E-003 +2.1699815989E-006 +7.9884193838E-006 +2.5482177734E-002 +2.0748138428E-002
4815000000.000 -2.1859741211E-001 -4.3296813965E-001 -3.3837556839E-003 -8.2337856293E-004 -5.5953860283E-005 +2.7138739824E-006 +3.1030654907E-002 +2.7528762817E-002
4947500000.000 -2.2825622559E-001 -4.3432617188E-001 -3.1701326370E-003 +1.2592077255E-003 -2.4711713195E-005 -5.4452568293E-005 +2.7432441711E-002 +1.9994735718E-002
5080000000.000 -2.3655700684E-001 -4.3577575684E-001 -1.6987323761E-003 +2.8294324875E-003 +5.3690746427E-005 -5.5547803640E-005 +1.3134002686E-002 +2.0628929138E-002
5212500000.000 -2.4513244629E-001 -4.3664550781E-001 +2.3508071899E-004 +3.0062198639E-003 -4.5763328671E-005 +2.1530315280E-005 +9.1342926025E-003 +2.4827003479E-002
5345000000.000 -2.5431823730E-001 -4.3772888184E-001 +1.9664764404E-003 +2.3307800293E-003 +9.4249844551E-007 -4.5537948608E-005 +5.3424835205E-003 +1.6302108765E-002
5477500000.000 -2.6083374023E-001 -4.3823242188E-001 +2.9621124268E-003 +7.9250335693E-004 -2.7833506465E-005 -4.0549784899E-006 -9.2349052429E-003 +1.0427951813E-002
5610000000.000 -2.6777648926E-001 -4.3933105469E-001 +2.5795698166E-003 -9.4234943390E-004 +1.2395903468E-006 +1.1093448848E-005 -1.5019416809E-002 +1.4569282532E-002
5742500000.000 -2.7600097656E-001 -4.3978881836E-001 +1.6161203384E-003 -2.1814107895E-003 -4.3651089072E-005 -3.8383528590E-005 -1.1635780334E-002 +6.0276985168E-003
5875000000.000 -2.8437805176E-001 -4.3905639648E-001 -4.1842460632E-005 -2.8134584427E-003 +2.3879110813E-006 -7.1454793215E-005 -2.0382881165E-002 -3.3578872681E-003
6007500000.000 -2.9014587402E-001 -4.3844604492E-001 -1.5312433243E-003 -2.1239519119E-003 +5.1632523537E-006 -2.6261433959E-005 -2.3226737976E-002 +1.2969970703E-004
6140000000.000 -2.9650878906E-001 -4.3922424316E-001 -2.1584033966E-003 -8.9240074158E-004 -2.9889866710E-005 -1.5084631741E-005 -1.5442848206E-002 -2.9258728027E-003
6272500000.000 -3.0673217773E-001 -4.3962097168E-001 -2.3769140244E-003 +6.1321258545E-004 +4.4465065002E-005 +3.3155083656E-007 -1.6574859619E-002 -1.1908531189E-002
6405000000.000 -3.1486511230E-001 -4.3713378906E-001 -1.5915036201E-003 +1.9099116325E-003 +3.2911077142E-005 +9.6093863249E-006 -1.9412040710E-002 -6.3495635986E-003
6537500000.000 -3.1921386719E-001 -4.3676757813E-001 -3.5464763641E-004 +2.1305084229E-003 -4.5027583838E-005 +1.6506761312E-005 -9.2916488647E-003 -3.3574104309E-003
6670000000.000 -3.2696533203E-001 -4.3940734863E-001 +1.1004209518E-003 +2.0431280136E-003 -1.5714205801E-005 -2.2444874048E-005 -7.8730583191E-003 -7.5368881226E-003
6802500000.000 -3.3700561523E-001 -4.3881225586E-001 +2.0830631256E-003 +1.0102987289E-003 +4.1425228119E-005 -2.7716159821E-006 -1.1360645294E-002 +1.5735626221E-005
6935000000.000 -3.4220886230E-001 -4.3515014648E-001 +1.8266439438E-003 -3.2782554626E-006 -1.8348917365E-005 +5.7892873883E-005 -6.2251091003E-003 +9.7579956055E-003
7067500000.000 -3.4652709961E-001 -4.3605041504E-001 +1.5252828598E-003 -1.1512637138E-003 -5.5540353060E-005 +8.0857425928E-006 -4.5685768127E-003 +1.0082244873E-002
7200000000.000 -3.5472106934E-001 -4.3859863281E-001 +4.6646595001E-004 -2.1817684174E-003 +1.7851591110E-005 +3.0878931284E-005 -1.4923095703E-002 +1.6988754272E-002
7332500000.000 -3.6286926270E-001 -4.3695068359E-001 -6.8932771683E-004 -1.8509030342E-003 +3.5740435123E-005 +4.2976811528E-005 -1.6955375671E-002 +3.0757904053E-002
7465000000.000 -3.6796569824E-001 -4.3556213379E-001 -1.4865994453E-003 -1.0941028595E-003 -3.5699922591E-006 -6.9106463343E-006 -1.9662857056E-002 +3.1169891357E-002
7597500000.000 -3.7341308594E-001 -4.3682861328E-001 -2.0310878754E-003 +2.0742416382E-005 +2.9723159969E-005 -1.9037164748E-005 -3.6226272583E-002 +3.3313751221E-002
7730000000.000 -3.7963867188E-001 -4.3858337402E-001 -1.4812350273E-003 +1.0744333267E-003 +5.8840960264E-006 +3.2139942050E-005 -4.8187255859E-002 +4.3725967407E-002
7862500000.000 -3.8510131836E-001 -4.3763732910E-001 -6.7222118378E-004 +1.4274120331E-003 +5.6098215282E-006 +5.0601083785E-006 -5.3514480591E-002 +4.2760848999E-002
7995000000.000 -3.8981628418E-001 -4.3745422363E-001 +3.7890672684E-004 +1.6784071922E-003 +5.8710575104E-005 +3.6992132664E-006 -7.2746276855E-002 +3.5205841064E-002
8127500000.000 -3.9373779297E-001 -4.4015502930E-001 +1.3072490692E-003 +1.1380910873E-003 +3.4430995584E-005 -3.8538128138E-005 -9.1434478760E-002 +3.9798736572E-002
8260000000.000 -4.0005493164E-001 -4.4026184082E-001 +1.4477968216E-003 +2.2208690643E-004 -8.4467232227E-005 +3.0808150768E-005 -9.5649719238E-002 +3.4461975098E-002
8392500000.000 -4.0347290039E-001 -4.3960571289E-001 +1.4002323151E-003 -6.2441825867E-004 +3.9380043745E-005 -3.2672658563E-005 -1.0973739624E-001 +1.8527984619E-002
8525000000.000 -4.0614318848E-001 -4.4093322754E-001 +7.2234869003E-004 -1.2558698654E-003 -1.3096258044E-005 +4.4694170356E-005 -1.2191390991E-001 +1.4961242676E-002
8657500000.000 -4.0998840332E-001 -4.4233703613E-001 -5.6922435760E-005 -1.3742446899E-003 -2.3487955332E-005 +4.0737912059E-005 -1.1789321899E-001 +4.1313171387E-003
8790000000.000 -4.1526794434E-001 -4.4253540039E-001 -7.7337026596E-004 -1.0834336281E-003 -2.4190172553E-005 -7.8519806266E-006 -1.1959838867E-001 -1.7391204834E-002
8922500000.000 -4.1833496094E-001 -4.4070434570E-001 -1.1929273605E-003 -4.0256977081E-004 +6.1014667153E-005 -2.9539689422E-005 -1.2228393555E-001 -3.0681610107E-002
9055000000.000 -4.2134094238E-001 -4.4169616699E-001 -1.2338757515E-003 +3.1119585037E-004 -4.3846666813E-005 -1.1127442122E-005 -1.1092376709E-001 -4.4174194336E-002
9187500000.000 -4.2530822754E-001 -4.4181823730E-001 -8.1935524940E-004 +8.9484453201E-004 +7.8780576587E-006 -9.2377886176E-006 -1.0016632080E-001 -6.6993713379E-002
9320000000.000 -4.3226623535E-001 -4.3927001953E-001 -1.6355514526E-004 +1.1729598045E-003 +6.1675906181E-005 +2.8107315302E-005 -9.3563079834E-002 -7.9803466797E-002
9452500000.000 -4.3562316895E-001 -4.3777465820E-001 +5.3232908249E-004 +1.0519027710E-003 +5.7891011238E-006 +5.3856521845E-005 -7.4066162109E-002 -8.6673736572E-002
9585000000.000 -4.3942260742E-001 -4.3722534180E-001 +9.9533796310E-004 +5.9980154037E-004 -4.4409185648E-005 -1.7197802663E-005 -5.4080963135E-002 -1.0123825073E-001
9717500000.000 -4.4549560547E-001 -4.3759155273E-001 +1.1407732964E-003 -7.4684619904E-005 +2.0790845156E-005 +1.8818303943E-005 -4.1099548340E-002 -1.0707092285E-001
9850000000.000 -4.5222473145E-001 -4.3345642090E-001 +7.9676508904E-004 -6.1261653900E-004 +6.5032392740E-005 +7.9762190580E-005 -1.8989562988E-002 -1.0234069824E-001
9982500000.000 -4.5411682129E-001 -4.3319702148E-001 +3.8862228394E-004 -1.0204911232E-003 +2.6243738830E-005 -3.6293640733E-006 +6.7176818848E-003 -1.0318756104E-001
10115000000.000 -4.5819091797E-001 -4.3365478516E-001 -2.7114152908E-004 -9.6929073334E-004 +4.0680170059E-005 -2.4419277906E-005 +1.9630432129E-002 -9.9056243896E-002
10247500000.000 -4.6498107910E-001 -4.3263244629E-001 -7.6663494110E-004 -6.2629580498E-004 -2.3767352104E-006 +3.2817944884E-005 +3.5797119141E-002 -7.9963684082E-002
10380000000.000 -4.6928405762E-001 -4.2976379395E-001 -9.4822049141E-004 -1.4469027519E-004 +4.8819929361E-006 +3.6334618926E-005 +5.7205200195E-002 -6.7146301270E-002
10512500000.000 -4.7232055664E-001 -4.2871093750E-001 -8.2254409790E-004 +4.5153498650E-004 -1.7197802663E-005 +1.3425946236E-005 +6.2839508057E-002 -5.5614471436E-002
10645000000.000 -4.7596740723E-001 -4.2889404297E-001 -4.0382146835E-004 +8.4447860718E-004 +9.9260360003E-005 -2.1543353796E-005 +6.6223144531E-002 -2.8961181641E-002
10777500000.000 -4.8139953613E-001 -4.2823791504E-001 +9.5158815384E-005 +8.5291266441E-004 -6.6570937634E-006 +4.2956322432E-005 +7.7026367188E-002 -7.5378417969E-003
10910000000.000 -4.8606872559E-001 -4.2649841309E-001 +5.1221251488E-004 +6.1315298080E-004 -1.5520490706E-005 -3.1227245927E-006 +7.2269439697E-002 +6.1607360840E-003
11042500000.000 -4.8997497559E-001 -4.2541503906E-001 +7.7620148659E-004 +1.9654631615E-004 +9.6019357443E-006 +3.1094998121E-005 +5.9392929077E-002 +3.1579971313E-002
11175000000.000 -4.9305725098E-001 -4.2663574219E-001 +6.6861510277E-004 -2.0867586136E-004 -3.0841678381E-005 +8.1997364759E-005 +5.6133270264E-002 +5.2671432495E-002
11307500000.000 -4.9629211426E-001 -4.2619323730E-001 +4.6455860138E-004 -5.4213404655E-004 -7.5485557318E-005 -9.4104558229E-005 +4.3155670166E-002 +5.8721542358E-002
11440000000.000 -5.0079345703E-001 -4.2562866211E-001 +1.0782480240E-004 -6.6196918488E-004 +4.2002648115E-005 -6.4544379711E-005 +1.7829895020E-002 +7.2387695313E-002
11572500000.000 -5.0225830078E-001 -4.2681884766E-001 -2.5340914726E-004 -6.2248110771E-004 -2.0194798708E-005 +6.5889209509E-005 +3.9863586426E-003 +8.7387084961E-002
11705000000.000 -5.0473022461E-001 -4.2718505859E-001 -5.2741169930E-004 -3.8558244705E-004 -9.7006559372E-006 -7.4367970228E-005 -1.0704040527E-002 +8.0867767334E-002
11837500000.000 -5.0848388672E-001 -4.2736816406E-001 -6.1848759651E-004 +5.6266784668E-005 +2.3787841201E-005 -3.2545998693E-005 -4.3518066406E-002 +7.6461791992E-002
11970000000.000 -5.1007080078E-001 -4.2541503906E-001 -5.5932998657E-004 +2.9325485229E-004 +6.9186091423E-005 +3.6604702473E-005 -5.9707641602E-002 +8.2866668701E-002
12102500000.000 -5.0988769531E-001 -4.2605590820E-001 -2.7009844780E-004 +5.1859021187E-004 -3.7435442209E-005 +5.8017671108E-005 -6.5792083740E-002 +6.4029693604E-002
12235000000.000 -5.1483154297E-001 -4.2471313477E-001 +2.9027462006E-005 +5.7980418205E-004 +8.7618827820E-006 -5.6162476540E-005 -9.3166351318E-002 +4.3510437012E-002
12367500000.000 -5.1574707031E-001 -4.2294311523E-001 +3.4086406231E-004 +4.3395161629E-004 +3.1545758247E-005 -1.8429011106E-005 -1.0575866699E-001 +4.2057037354E-002
12500000000.000 -5.1919555664E-001 -4.2016601563E-001 +5.7366490364E-004 +4.3511390686E-005 +1.3297423720E-005 -5.7572498918E-005 -9.7316741943E-002 +1.9977569580E-002
12632500000.000 -5.2041625977E-001 -4.2037963867E-001 +5.0503015518E-004 -2.1466612816E-004 +8.3185732365E-006 -3.1895935535E-005 -1.0897064209E-001 -1.4106750488E-002
12765000000.000 -5.2316284180E-001 -4.1903686523E-001 +2.4741888046E-004 -3.6104023457E-004 +1.9578263164E-005 +2.3263506591E-005 -1.1710357666E-001 -1.8707275391E-002
12897500000.000 -5.2575683594E-001 -4.1632080078E-001 -4.6387314796E-005 -4.8653781414E-004 -4.6193599701E-006 +6.9338828325E-005 -9.2193603516E-002 -3.4931182861E-002
13030000000.000 -5.2749633789E-001 -4.1439819336E-001 -2.6954710484E-004 -4.4082105160E-004 -2.4155713618E-005 -1.9821338356E-005 -8.8897705078E-002 -7.1372985840E-002
13162500000.000 -5.2978515625E-001 -4.1424560547E-001 -4.8333406448E-004 -1.5456974506E-004 +5.4948031902E-008 -1.7263926566E-005 -9.0831756592E-002 -7.2978973389E-002
13295000000.000 -5.3216552734E-001 -4.1369628906E-001 -4.7013163567E-004 +8.3237886429E-005 -6.5276399255E-006 -1.2858770788E-005 -6.0710906982E-002 -7.8845977783E-002
13427500000.000 -5.3561401367E-001 -4.1055297852E-001 -2.9440224171E-004 +4.5780837536E-004 -4.5904889703E-005 -1.3010576367E-005 -4.6226501465E-002 -1.0380554199E-001
13560000000.000 -5.3567504883E-001 -4.0890502930E-001 -1.0554492474E-004 +4.5415759087E-004 +8.9589506388E-005 +7.3097646236E-005 -4.5837402344E-002 -1.0121536255E-001
13692500000.000 -5.3778076172E-001 -4.0994262695E-001 +2.7088820934E-004 +3.8835406303E-004 +3.5403296351E-005 +3.2037496567E-007 -1.7387390137E-002 -8.9061737061E-002
13825000000.000 -5.4150390625E-001 -4.0884399414E-001 +3.6512315273E-004 +2.4980306625E-004 -1.2374017388E-005 -1.0516960174E-005 +4.4670104980E-003 -1.0265350342E-001
13957500000.000 -5.4406738281E-001 -4.0527343750E-001 +3.5347044468E-004 -5.3942203522E-006 +7.9929828644E-005 -5.9414654970E-005 +2.0599365234E-004 -9.5073699951E-002
14090000000.000 -5.4421997070E-001 -4.0457153320E-001 +3.1217932701E-004 -2.1345913410E-004 +8.5946172476E-005 -1.9513070583E-005 +2.2209167480E-002 -6.9747924805E-002
14222500000.000 -5.4489135742E-001 -4.0643310547E-001 +1.2327730656E-004 -2.4704635143E-004 -6.0208141804E-005 +8.3405524492E-005 +4.3983459473E-002 -7.3692321777E-002
14355000000.000 -5.4965209961E-001 -4.0521240234E-001 -2.1602213383E-004 -2.6468932629E-004 +3.9411708713E-005 +2.0805746317E-006 +3.3054351807E-002 -6.6635131836E-002
14487500000.000 -5.5136108398E-001 -4.0472412109E-001 -2.1702051163E-004 -2.4797022343E-004 -6.7781656981E-005 +1.7415732145E-005 +4.0073394775E-002 -3.3617019653E-002
14620000000.000 -5.5099487305E-001 -4.0478515625E-001 -4.3602287769E-004 -1.3360381126E-004 +3.4436583519E-005 +1.1316314340E-004 +6.0789108276E-002 -3.1200408936E-002
14752500000.000 -5.5361938477E-001 -4.0850830078E-001 -3.6227703094E-004 +8.8438391685E-005 +3.3052638173E-005 +5.5106356740E-005 +4.2881011963E-002 -3.2266616821E-002
14885000000.000 -5.5657958984E-001 -4.0963745117E-001 -1.7806142569E-004 +1.5953183174E-004 +1.1873897165E-005 +2.5425106287E-006 +3.5049438477E-002 +1.5640258789E-003
15017500000.000 -5.5731201172E-001 -4.0942382813E-001 -8.7857246399E-005 +3.5452842712E-004 -3.8146972656E-005 +1.2566894293E-004 +5.2818298340E-002 +8.9969635010E-003
15150000000.000 -5.5746459961E-001 -4.1223144531E-001 +1.6391277313E-005 +2.8976798058E-004 -6.3110142946E-005 +3.0174851418E-005 +3.5013198853E-002 -1.8100738525E-003
15282500000.000 -5.5825805664E-001 -4.1482543945E-001 +2.7233362198E-004 +1.4942884445E-004 +7.8994780779E-005 +3.5949051380E-005 +1.4394760132E-002 +2.3109436035E-002
