!  2-Port S-parameters saved by WinCal
! VAR MeasName=S-Parameters (CALIBRATED_DATA) read from VNA (C)
! VAR MeasDate=10/16/2015 10:55:14 AM
! VAR NAME=M6082_13_13_2_2_20C_3.5mA_-17.5dBm
! VAR FILENAME=M6082_13_13_2_2_20C_3.5mA_-17.5dBm_1_1.S2P
! VAR DATE=10/16/2015 10:55:14 AM
! VAR PHYS_PORTS=2,1
! VAR ObjTypeName=DATASET
! VAR IndexType=Frequency
!
# Hz S RI R 50
45000000.000 +3.0422973633E-001 -1.9226074219E-003 -7.4839591980E-004 +6.4752101898E-003 -1.0982155800E-004 +9.3612074852E-004 +2.7750968933E-002 +1.5316009521E-003
177500000.000 +3.0360412598E-001 -9.5520019531E-003 +2.5601387024E-003 +6.0648918152E-003 -7.4706971645E-005 +1.4497339725E-004 +1.6291618347E-002 +1.7186164856E-002
310000000.000 +3.0326843262E-001 -1.6921997070E-002 +4.6727657318E-003 +3.8449764252E-003 +1.1100620031E-004 -1.5623122454E-004 +2.9645919800E-002 +6.1601638794E-002
442500000.000 +3.0181884766E-001 -2.5085449219E-002 +7.0841312408E-003 -8.7976455688E-005 +2.0161271095E-005 -1.2854486704E-004 +7.3253631592E-002 +2.3181915283E-002
575000000.000 +3.0064392090E-001 -3.2882690430E-002 +5.2745342255E-003 -3.8866996765E-003 -2.8886832297E-005 +1.0794028640E-006 +2.7770996094E-002 +1.1560440063E-002
707500000.000 +2.9945373535E-001 -4.0161132813E-002 +2.0956993103E-003 -5.9471130371E-003 -2.8904527426E-005 +2.9761344194E-005 +2.5739669800E-003 +1.8910408020E-002
840000000.000 +2.9833984375E-001 -4.7805786133E-002 -1.5859603882E-003 -6.1559677124E-003 +2.9783695936E-006 -4.9885362387E-005 -1.9730567932E-002 +2.6151657104E-002
972500000.000 +2.9743957520E-001 -5.5068969727E-002 -4.7016143799E-003 -4.0669441223E-003 +1.9005499780E-005 -1.4518387616E-005 -3.5840988159E-002 +3.5768508911E-002
1105000000.000 +2.9562377930E-001 -6.2805175781E-002 -6.1459541321E-003 -8.7094306946E-004 -3.1113624573E-005 -1.3770535588E-005 -4.6758651733E-002 +3.8564682007E-002
1237500000.000 +2.9393005371E-001 -6.9656372070E-002 -5.4800510406E-003 +2.7461051941E-003 +1.2759119272E-006 -1.9894912839E-005 -5.8671951294E-002 +3.4021377563E-002
1370000000.000 +2.9206848145E-001 -7.6873779297E-002 -3.0148029327E-003 +5.2976608276E-003 -2.4357810616E-005 +5.2697956562E-005 -7.4081420898E-002 +2.7343750000E-002
1502500000.000 +2.8987121582E-001 -8.3740234375E-002 +4.8422813416E-004 +6.0431957245E-003 -5.5605545640E-005 -1.3403594494E-005 -8.8050842285E-002 +2.1717071533E-002
1635000000.000 +2.8895568848E-001 -9.0347290039E-002 +3.7496089935E-003 +4.8091411591E-003 +3.4572556615E-005 -3.2825395465E-005 -9.9082946777E-002 +1.1863708496E-002
1767500000.000 +2.8684997559E-001 -9.8052978516E-002 +5.7594776154E-003 +1.8296241760E-003 +1.8480233848E-005 +2.7427449822E-006 -1.1214447021E-001 +3.1738281250E-003
1900000000.000 +2.8466796875E-001 -1.0450744629E-001 +5.7499408722E-003 -1.7080307007E-003 -4.9240887165E-005 -1.1958181858E-005 -1.1399078369E-001 -3.2005310059E-003
2032500000.000 +2.8244018555E-001 -1.1038208008E-001 +3.6454200745E-003 -4.6184062958E-003 -3.9372593164E-005 -4.8322603106E-005 -1.1385726929E-001 -2.4227142334E-002
2165000000.000 +2.8147888184E-001 -1.1740112305E-001 +4.7802925110E-004 -5.7809352875E-003 -1.3289973140E-005 +4.1747465730E-005 -1.2287902832E-001 -4.2003631592E-002
2297500000.000 +2.7935791016E-001 -1.2394714355E-001 -2.7263164520E-003 -4.9545764923E-003 -1.2154132128E-004 +2.5525689125E-005 -1.2677001953E-001 -5.3390502930E-002
2430000000.000 +2.7685546875E-001 -1.2921142578E-001 -5.0504207611E-003 -2.5119781494E-003 +4.8466026783E-005 +1.4130026102E-005 -1.2718963623E-001 -6.4880371094E-002
2562500000.000 +2.7487182617E-001 -1.3549804688E-001 -5.5801868439E-003 +6.4516067505E-004 +1.5146285295E-004 -9.2387199402E-007 -1.2592315674E-001 -7.0877075195E-002
2695000000.000 +2.7117919922E-001 -1.4114379883E-001 -4.3361186981E-003 +3.7586688995E-003 -1.4825910330E-004 -1.2733042240E-005 -1.1405563354E-001 -7.3226928711E-002
2827500000.000 +2.6855468750E-001 -1.4547729492E-001 -1.4400482178E-003 +5.2673816681E-003 +5.9638172388E-005 -7.0452690125E-005 -9.9143981934E-002 -8.1947326660E-002
2960000000.000 +2.6618957520E-001 -1.5017700195E-001 +1.6469955444E-003 +5.2251815796E-003 +8.1960111856E-005 +7.6748430729E-005 -8.8855743408E-002 -8.6608886719E-002
3092500000.000 +2.6316833496E-001 -1.5707397461E-001 +4.3516159058E-003 +3.3905506134E-003 -6.1839818954E-006 +7.1909278631E-005 -7.0926666260E-002 -8.5689544678E-002
3225000000.000 +2.5874328613E-001 -1.6223144531E-001 +5.3534507751E-003 +3.8146972656E-004 -1.9402801991E-004 -1.0241568089E-004 -5.2345275879E-002 -9.1049194336E-002
3357500000.000 +2.5602722168E-001 -1.6575622559E-001 +4.6751499176E-003 -2.7403831482E-003 +3.6954879761E-005 -8.4899365902E-006 -4.1702270508E-002 -9.1682434082E-002
3490000000.000 +2.5363159180E-001 -1.7213439941E-001 +2.4588108063E-003 -4.9870014191E-003 -9.6969306469E-005 +1.0393932462E-004 -2.8434753418E-002 -8.3194732666E-002
3622500000.000 +2.5038146973E-001 -1.7848205566E-001 -5.8698654175E-004 -5.4769515991E-003 +6.5667554736E-006 -2.3283995688E-005 -1.1535644531E-002 -7.9139709473E-002
3755000000.000 +2.4681091309E-001 -1.8400573730E-001 -3.6919116974E-003 -4.0395259857E-003 -1.3230834156E-005 +2.8046779335E-006 -5.8898925781E-003 -7.3158264160E-002
3887500000.000 +2.4370574951E-001 -1.8933105469E-001 -5.3210258484E-003 -1.4302730560E-003 -1.8574297428E-005 +1.2905150652E-004 +1.7547607422E-003 -5.6255340576E-002
4020000000.000 +2.4035644531E-001 -1.9421386719E-001 -5.2130222321E-003 +1.7178058624E-003 -3.2449141145E-005 +1.1386349797E-005 +1.3282775879E-002 -4.4561386108E-002
4152500000.000 +2.3701477051E-001 -1.9944763184E-001 -3.5243034363E-003 +4.3034553528E-003 +3.1363219023E-005 -1.8090009689E-005 +1.5604019165E-002 -3.2890319824E-002
4285000000.000 +2.3342895508E-001 -2.0428466797E-001 -6.8449974060E-004 +5.6126117706E-003 +8.4884464741E-005 +3.0994415283E-006 +1.7233848572E-002 -1.3630867004E-002
4417500000.000 +2.2950744629E-001 -2.0919036865E-001 +2.5498867035E-003 +5.1217079163E-003 -1.6515143216E-005 -1.4488585293E-005 +2.5816917419E-002 +3.3407211304E-003
4550000000.000 +2.2714996338E-001 -2.1362304688E-001 +4.9834251404E-003 +2.8531551361E-003 -1.0985881090E-005 -4.8713758588E-005 +2.9356956482E-002 +9.3326568604E-003
4682500000.000 +2.2466278076E-001 -2.1904754639E-001 +5.9645175934E-003 -3.5786628723E-004 +6.1720609665E-005 -3.6958605051E-005 +2.6208877563E-002 +2.0292282104E-002
4815000000.000 +2.2113800049E-001 -2.2386169434E-001 +4.7554969788E-003 -3.5877227783E-003 +5.0257891417E-005 +6.1150640249E-005 +3.1721115112E-002 +2.7046203613E-002
4947500000.000 +2.1913146973E-001 -2.2808837891E-001 +2.0627975464E-003 -5.6872367859E-003 -3.3592805266E-005 -1.3900920749E-005 +2.8302192688E-002 +1.9574165344E-002
5080000000.000 +2.1765899658E-001 -2.3319244385E-001 -1.4553070068E-003 -6.0834884644E-003 +3.2097101212E-005 -1.0479241610E-005 +1.4048576355E-002 +2.0341873169E-002
5212500000.000 +2.1440887451E-001 -2.3796844482E-001 -4.7245025635E-003 -4.3256282806E-003 +3.8645230234E-006 +1.1729542166E-005 +9.9525451660E-003 +2.4595260620E-002
5345000000.000 +2.1153259277E-001 -2.4149322510E-001 -6.4246654510E-003 -1.0008811951E-003 -6.7707151175E-005 -3.1266361475E-005 +6.3514709473E-003 +1.6074180603E-002
5477500000.000 +2.1113586426E-001 -2.4532318115E-001 -6.0052871704E-003 +2.9196739197E-003 -4.7249719501E-005 -3.8931146264E-005 -8.4567070007E-003 +1.0156631470E-002
5610000000.000 +2.0892333984E-001 -2.5047302246E-001 -3.3574104309E-003 +5.7098865509E-003 -3.7023797631E-005 +1.7488375306E-005 -1.4174938202E-002 +1.4663219452E-002
5742500000.000 +2.0527648926E-001 -2.5337219238E-001 +4.6491622925E-004 +6.7708492279E-003 -3.6554411054E-005 -3.1784176826E-005 -1.0641574860E-002 +6.2522888184E-003
5875000000.000 +2.0317077637E-001 -2.5549316406E-001 +4.3060779572E-003 +5.3305625916E-003 +1.8147751689E-005 -2.1973624825E-005 -1.9571304321E-002 -3.2367706299E-003
6007500000.000 +2.0179748535E-001 -2.5941467285E-001 +6.5405368805E-003 +1.9831657410E-003 +5.3355470300E-006 -3.0267983675E-005 -2.2933959961E-002 +5.8174133301E-004
6140000000.000 +1.9856262207E-001 -2.6388549805E-001 +6.6404342651E-003 -2.0349025726E-003 -2.2074207664E-005 -1.7895363271E-005 -1.4872550964E-002 -2.0003318787E-003
6272500000.000 +1.9357299805E-001 -2.6684570313E-001 +4.3251514435E-003 -5.4574012756E-003 +3.7893652916E-005 -3.4160912037E-006 -1.5865325928E-002 -1.1240959167E-002
6405000000.000 +1.9075012207E-001 -2.6837158203E-001 +4.0960311890E-004 -7.0192813873E-003 +3.3073127270E-005 +6.8712979555E-005 -1.9281387329E-002 -5.8012008667E-003
6537500000.000 +1.8972778320E-001 -2.7194213867E-001 -3.5500526428E-003 -6.0849189758E-003 -3.3348798752E-005 +3.0659139156E-006 -9.4399452209E-003 -2.5553703308E-003
6670000000.000 +1.8615722656E-001 -2.7780151367E-001 -6.4914226532E-003 -3.0314922333E-003 +5.7900324464E-006 -2.5409273803E-005 -7.7292919159E-003 -6.5042972565E-003
6802500000.000 +1.8064880371E-001 -2.8147888184E-001 -7.0378780365E-003 +1.1613368988E-003 +4.3455511332E-006 +3.9767473936E-005 -1.1430740356E-002 +5.7697296143E-004
6935000000.000 +1.7764282227E-001 -2.8266906738E-001 -5.1219463348E-003 +5.0137042999E-003 -2.4717301130E-005 +4.1216611862E-005 -6.7601203918E-003 +1.0189056396E-002
7067500000.000 +1.7671203613E-001 -2.8591918945E-001 -1.4889240265E-003 +7.1921348572E-003 -3.9545819163E-005 +2.5475397706E-005 -5.0754547119E-003 +1.0752677917E-002
7200000000.000 +1.7204284668E-001 -2.9170227051E-001 +2.9234886169E-003 +6.9220066071E-003 +1.4681369066E-005 +2.9871240258E-005 -1.5399932861E-002 +1.7439842224E-002
7332500000.000 +1.6683959961E-001 -2.9504394531E-001 +6.3276290894E-003 +3.9377212524E-003 -3.7821009755E-005 +4.2952597141E-005 -1.7433166504E-002 +3.0763626099E-002
7465000000.000 +1.6407775879E-001 -2.9728698730E-001 +7.6613426208E-003 -3.2687187195E-004 +1.1157244444E-005 -5.1083043218E-007 -2.0465850830E-002 +3.1075477600E-002
7597500000.000 +1.6107177734E-001 -3.0239868164E-001 +6.2017440796E-003 -4.6308040619E-003 +2.2003427148E-005 -6.0159713030E-005 -3.6808013916E-002 +3.3554077148E-002
7730000000.000 +1.5710449219E-001 -3.0746459961E-001 +2.4187564850E-003 -7.3726177216E-003 -3.0674040318E-005 +4.5990571380E-005 -4.8475265503E-002 +4.3743133545E-002
7862500000.000 +1.5385437012E-001 -3.1097412109E-001 -2.2156238556E-003 -7.5721740723E-003 -5.0662085414E-005 -1.8006190658E-005 -5.3924560547E-002 +4.2198181152E-002
7995000000.000 +1.5162658691E-001 -3.1425476074E-001 -6.2174797058E-003 -5.0432682037E-003 +2.4538487196E-005 +1.8294900656E-005 -7.3528289795E-002 +3.4828186035E-002
8127500000.000 +1.4909362793E-001 -3.2054138184E-001 -8.0823898315E-003 -7.0476531982E-004 +1.4246907085E-005 +9.3723647296E-006 -9.1396331787E-002 +3.9867401123E-002
8260000000.000 +1.4570617676E-001 -3.2417297363E-001 -7.0016384125E-003 +4.1329860687E-003 -6.7844986916E-005 +3.6582350731E-005 -9.5241546631E-002 +3.4297943115E-002
8392500000.000 +1.4399719238E-001 -3.2785034180E-001 -3.5035610199E-003 +7.5712203979E-003 -7.4766576290E-006 -4.8175454140E-005 -1.0998153687E-001 +1.8486022949E-002
8525000000.000 +1.4260864258E-001 -3.3163452148E-001 +1.4991760254E-003 +8.3246231079E-003 +2.0960345864E-005 +2.2140331566E-005 -1.2218093872E-001 +1.5460968018E-002
8657500000.000 +1.4126586914E-001 -3.3575439453E-001 +6.0610771179E-003 +5.9120655060E-003 -5.1908195019E-005 +4.6312808990E-005 -1.1790847778E-001 +4.7149658203E-003
8790000000.000 +1.3885498047E-001 -3.3972167969E-001 +8.5492134094E-003 +1.3365745544E-003 -2.4883076549E-005 +1.4789402485E-006 -1.1965560913E-001 -1.7105102539E-002
8922500000.000 +1.3668823242E-001 -3.4188842773E-001 +7.9097747803E-003 -3.8199424744E-003 +1.7131678760E-005 -1.3262964785E-005 -1.2253189087E-001 -3.0109405518E-002
9055000000.000 +1.3496398926E-001 -3.4529113770E-001 +4.2548179626E-003 -7.8396797180E-003 -6.6570937634E-006 -1.0378658772E-005 -1.1121368408E-001 -4.3464660645E-002
9187500000.000 +1.3290405273E-001 -3.4762573242E-001 -1.0685920715E-003 -8.8529586792E-003 -1.1594966054E-007 +1.4655757695E-005 -1.0066986084E-001 -6.6123962402E-002
9320000000.000 +1.2930297852E-001 -3.5011291504E-001 -6.0741901398E-003 -6.6595077515E-003 +5.9003010392E-005 +4.1075050831E-005 -9.4108581543E-002 -7.8769683838E-002
9452500000.000 +1.2689208984E-001 -3.5289001465E-001 -8.8782310486E-003 -1.9221305847E-003 -1.1416617781E-005 +1.5767291188E-006 -7.4680328369E-002 -8.6471557617E-002
9585000000.000 +1.2417602539E-001 -3.5598754883E-001 -8.4180831909E-003 +3.5896301270E-003 +3.5587698221E-005 -6.0722231865E-006 -5.5404663086E-002 -1.0095214844E-001
9717500000.000 +1.1904907227E-001 -3.5997009277E-001 -4.7492980957E-003 +7.9164505005E-003 -7.2754919529E-006 -4.0577724576E-005 -4.2243957520E-002 -1.0635375977E-001
9850000000.000 +1.1494445801E-001 -3.6138916016E-001 +8.1491470337E-004 +9.1152191162E-003 -2.4106353521E-005 +7.7977776527E-005 -1.9565582275E-002 -1.0212707520E-001
9982500000.000 +1.1299133301E-001 -3.6459350586E-001 +6.0238838196E-003 +6.9835186005E-003 -6.0800462961E-005 -4.7259032726E-005 +5.2909851074E-003 -1.0392761230E-001
10115000000.000 +1.0856628418E-001 -3.6831665039E-001 +9.0346336365E-003 +2.1834373474E-003 +4.5597553253E-006 -2.4617183954E-006 +1.7658233643E-002 -9.9349975586E-002
10247500000.000 +1.0340881348E-001 -3.7030029297E-001 +8.5582733154E-003 -3.4651756287E-003 +3.2206997275E-005 +1.4713034034E-005 +3.5148620605E-002 -8.0280303955E-002
10380000000.000 +1.0072326660E-001 -3.7339782715E-001 +4.7221183777E-003 -7.8330039978E-003 -7.3608011007E-005 +1.7542392015E-005 +5.6747436523E-002 -6.9019317627E-002
10512500000.000 +9.5428466797E-002 -3.7641906738E-001 -5.0830841064E-004 -9.1528892517E-003 -1.8963590264E-005 -4.1017308831E-005 +6.1695098877E-002 -5.7668685913E-002
10645000000.000 +9.0454101563E-002 -3.7777709961E-001 -5.8312416077E-003 -7.0610046387E-003 -9.0720131993E-006 +1.8311664462E-005 +6.5799713135E-002 -2.9731750488E-002
10777500000.000 +8.7493896484E-002 -3.8029479980E-001 -8.7146759033E-003 -2.2473335266E-003 +1.2411735952E-005 +1.3215001673E-005 +7.7842712402E-002 -9.0408325195E-003
10910000000.000 +8.3404541016E-002 -3.8447570801E-001 -8.2821846008E-003 +3.2382011414E-003 -1.8997117877E-005 -4.1045248508E-005 +7.2700500488E-002 +3.5171508789E-003
11042500000.000 +7.5851440430E-002 -3.8810729980E-001 -4.7681331635E-003 +7.4653625488E-003 +7.9255551100E-007 +2.0179897547E-005 +5.9932708740E-002 +2.9970169067E-002
11175000000.000 +7.1716308594E-002 -3.9062500000E-001 +5.5027008057E-004 +8.6560249329E-003 +1.4955177903E-005 +1.6284175217E-006 +5.7991027832E-002 +5.1944732666E-002
11307500000.000 +6.9717407227E-002 -3.9259338379E-001 +5.3069591522E-003 +6.6328048706E-003 -2.6514753699E-005 -3.6327168345E-005 +4.5307159424E-002 +5.7611465454E-002
11440000000.000 +6.4483642578E-002 -3.9675903320E-001 +8.1129074097E-003 +2.0890235901E-003 +7.5500458479E-005 -4.7534704208E-006 +1.9485473633E-002 +7.1273803711E-002
11572500000.000 +6.1264038086E-002 -4.0048217773E-001 +7.5855255127E-003 -2.9363632202E-003 +8.7432563305E-006 +7.9128891230E-005 +5.9051513672E-003 +8.7413787842E-002
11705000000.000 +5.8105468750E-002 -4.0237426758E-001 +4.4314861298E-003 -6.6411495209E-003 +4.0838494897E-006 -1.7075799406E-005 -8.2015991211E-003 +8.1359863281E-002
11837500000.000 +5.4122924805E-002 -4.0473937988E-001 -3.0899047852E-004 -7.9007148743E-003 +3.0234456062E-005 -7.5023621321E-005 -4.1313171387E-002 +7.7087402344E-002
11970000000.000 +5.1986694336E-002 -4.0580749512E-001 -4.5800209045E-003 -6.0553550720E-003 +1.1615920812E-005 +9.1209076345E-006 -5.7815551758E-002 +8.3992004395E-002
12102500000.000 +5.1422119141E-002 -4.0843200684E-001 -7.0817470551E-003 -2.2404193878E-003 -4.9518421292E-005 +2.9837712646E-005 -6.4235687256E-002 +6.5532684326E-002
12235000000.000 +4.4952392578E-002 -4.0846252441E-001 -6.8151950836E-003 +2.2146701813E-003 +1.0332092643E-005 -1.5808269382E-005 -9.1999053955E-002 +4.5753479004E-002
12367500000.000 +4.4586181641E-002 -4.0887451172E-001 -4.1091442108E-003 +5.6276321411E-003 +6.5565109253E-005 +1.2397766113E-005 -1.0451889038E-001 +4.4742584229E-002
12500000000.000 +4.0313720703E-002 -4.0977478027E-001 -2.5153160095E-004 +6.6840648651E-003 -3.9644539356E-005 +1.2243166566E-005 -9.6843719482E-002 +2.1949768066E-002
12632500000.000 +3.6437988281E-002 -4.1273498535E-001 +3.5762786865E-003 +5.5336952209E-003 -3.3719465137E-005 -4.5165419579E-005 -1.1034393311E-001 -1.1852264404E-002
12765000000.000 +3.3370971680E-002 -4.1171264648E-001 +5.8836936951E-003 +2.4302005768E-003 +1.2408941984E-004 +6.4082443714E-005 -1.1796951294E-001 -1.5514373779E-002
12897500000.000 +3.0639648438E-002 -4.1105651855E-001 +6.0620307922E-003 -1.4243125916E-003 +2.7885660529E-005 +3.1849369407E-005 -9.2449188232E-002 -3.3359527588E-002
13030000000.000 +2.8472900391E-002 -4.1304016113E-001 +4.1005611420E-003 -4.5330524445E-003 -3.6804005504E-005 -5.0272792578E-006 -9.1491699219E-002 -7.0625305176E-002
13162500000.000 +2.4978637695E-002 -4.1488647461E-001 +8.2492828369E-004 -5.7723522186E-003 +1.7566606402E-005 -4.6376138926E-005 -9.4425201416E-002 -7.1174621582E-002
13295000000.000 +2.1423339844E-002 -4.1567993164E-001 -2.5796890259E-003 -5.2239894867E-003 +2.3785047233E-005 +2.4612993002E-005 -6.2484741211E-002 -7.7804565430E-002
13427500000.000 +1.6967773438E-002 -4.1450500488E-001 -4.8451423645E-003 -2.7611255646E-003 +2.5220215321E-005 -1.9141472876E-005 -4.8400878906E-002 -1.0556411743E-001
13560000000.000 +1.6754150391E-002 -4.1442871094E-001 -5.4626464844E-003 +4.8661231995E-004 +2.0470470190E-005 -3.2408162951E-005 -4.9407958984E-002 -1.0220718384E-001
13692500000.000 +1.4770507813E-002 -4.1740417480E-001 -4.0838718414E-003 +3.2875537872E-003 +5.2124261856E-005 +1.1887401342E-005 -1.9454956055E-002 -8.9206695557E-002
13825000000.000 +8.9874267578E-003 -4.1828918457E-001 -1.3549327850E-003 +4.9028396606E-003 -9.3989074230E-006 +1.6738660634E-005 +3.6888122559E-003 -1.0450363159E-001
13957500000.000 +5.3100585938E-003 -4.1665649414E-001 +1.6779899597E-003 +4.8644542694E-003 -2.1221116185E-005 -2.9267743230E-005 -1.4038085938E-003 -9.7900390625E-002
14090000000.000 +3.6468505859E-003 -4.1752624512E-001 +3.7989616394E-003 +3.0866861343E-003 -5.8015808463E-005 +2.5495886803E-005 +2.0889282227E-002 -7.1651458740E-002
14222500000.000 +9.0026855469E-004 -4.2095947266E-001 +4.7810077667E-003 +3.2162666321E-004 -8.8037922978E-006 +2.5878660381E-005 +4.3949127197E-002 -7.5523376465E-002
14355000000.000 -4.2266845703E-003 -4.2103576660E-001 +3.9694309235E-003 -2.4130344391E-003 -6.0312449932E-005 -9.7915530205E-005 +3.4023284912E-002 -6.8660736084E-002
14487500000.000 -7.2937011719E-003 -4.2109680176E-001 +1.9402503967E-003 -4.1372776031E-003 +2.0979903638E-005 +1.7845071852E-005 +4.0893554688E-002 -3.5694122314E-002
14620000000.000 -8.3160400391E-003 -4.2422485352E-001 -6.7257881165E-004 -4.3010711670E-003 -1.4688819647E-005 -3.0020251870E-005 +6.1223983765E-002 -3.2533645630E-002
14752500000.000 -1.3229370117E-002 -4.2852783203E-001 -2.9718875885E-003 -3.1476020813E-003 -2.6460736990E-005 -6.9014728069E-005 +4.3992996216E-002 -3.2154083252E-002
14885000000.000 -1.5853881836E-002 -4.2890930176E-001 -4.1782855988E-003 -9.7203254700E-004 +6.1217695475E-005 -6.9215893745E-006 +3.7469863892E-002 +1.1157989502E-003
15017500000.000 -1.5304565430E-002 -4.2916870117E-001 -3.8039684296E-003 +1.5884637833E-003 -1.6897916794E-005 -7.1600079536E-005 +5.4002761841E-002 +7.3509216309E-003
15150000000.000 -1.5686035156E-002 -4.3447875977E-001 -2.2503137589E-003 +3.3524036407E-003 -4.4262036681E-005 -4.0791928768E-006 +3.5037994385E-002 -9.1361999512E-004
15282500000.000 -1.7288208008E-002 -4.3699645996E-001 +1.0991096497E-004 +4.0111541748E-003 +3.4756958485E-005 -7.2233378887E-006 +1.5833854675E-002 +2.5100708008E-002
