!  2-Port S-parameters saved by WinCal
! VAR MeasName=S-Parameters (CALIBRATED_DATA) read from VNA (C)
! VAR MeasDate=10/16/2015 2:35:02 PM
! VAR NAME=M6082_10_13_2_2_20C_4.8mA_-17.5dBm
! VAR FILENAME=M6082_10_13_2_2_20C_4.8mA_-17.5dBm.S2P
! VAR DATE=10/16/2015 2:35:02 PM
! VAR PHYS_PORTS=2,1
! VAR ObjTypeName=DATASET
! VAR IndexType=Frequency
!
# Hz S RI R 50
45000000.000 -2.4142265320E-002 +3.4236907959E-004 -2.5315284729E-003 +9.4218254089E-003 +8.7764859200E-004 +5.0127506256E-004 +2.9937744141E-002 +3.4885406494E-003
177500000.000 -2.3394584656E-002 -7.0314407349E-003 +2.8643608093E-003 +7.0405006409E-003 +1.3947486877E-004 +1.0943412781E-004 +1.5805244446E-002 +1.6716957092E-002
310000000.000 -2.2919654846E-002 -1.4180183411E-002 +5.5840015411E-003 +4.5406818390E-003 -8.3856284618E-006 -6.0640275478E-005 +2.9155731201E-002 +6.1418533325E-002
442500000.000 -2.2726058960E-002 -2.1336555481E-002 +8.3208084106E-003 -6.2465667725E-005 -7.2801485658E-006 +2.4141743779E-005 +7.2624206543E-002 +2.2483825684E-002
575000000.000 -2.3004531860E-002 -2.9186248779E-002 +6.4375400543E-003 -4.6124458313E-003 +1.5478581190E-005 +6.2920153141E-005 +2.7119636536E-002 +1.1242866516E-002
707500000.000 -2.3660659790E-002 -3.6014556885E-002 +2.6028156281E-003 -7.2774887085E-003 -3.7966296077E-005 +2.3370608687E-005 +1.9578933716E-003 +1.8609046936E-002
840000000.000 -2.3876190186E-002 -4.3733596802E-002 -1.8222332001E-003 -7.3461532593E-003 +5.3159892559E-006 +3.8888305426E-005 -1.9908905029E-002 +2.5973320007E-002
972500000.000 -2.4074554443E-002 -5.1052093506E-002 -5.5613517761E-003 -4.9133300781E-003 -3.2208859921E-005 +4.8853456974E-005 -3.5804748535E-002 +3.5404205322E-002
1105000000.000 -2.5232315063E-002 -5.8580398560E-002 -7.3885917664E-003 -1.1088848114E-003 -1.0936334729E-004 +1.5713274479E-005 -4.6894073486E-002 +3.8187026978E-002
1237500000.000 -2.6271820068E-002 -6.5608978271E-002 -6.5796375275E-003 +3.2360553741E-003 +3.0251219869E-005 +1.0410323739E-005 -5.8546066284E-002 +3.3796310425E-002
1370000000.000 -2.7561187744E-002 -7.2692871094E-002 -3.6129951477E-003 +6.4208507538E-003 +7.4654817581E-006 +6.6291540861E-005 -7.4005126953E-002 +2.6966094971E-002
1502500000.000 -2.8724670410E-002 -7.9662322998E-002 +5.9032440186E-004 +7.3428153992E-003 +3.1817704439E-005 -4.1350722313E-007 -8.7947845459E-002 +2.1255493164E-002
1635000000.000 -2.9361724854E-002 -8.7223052979E-002 +4.5785903931E-003 +5.7287216187E-003 +6.0610473156E-005 -6.9726258516E-005 -9.8979949951E-002 +1.1642456055E-002
1767500000.000 -3.1246185303E-002 -9.4581604004E-002 +6.9637298584E-003 +2.2029876709E-003 +1.6668811440E-005 +2.6419758797E-005 -1.1188888550E-001 +2.8419494629E-003
1900000000.000 -3.2581329346E-002 -1.0092163086E-001 +7.0369243622E-003 -2.2025108337E-003 +2.0176172256E-005 +4.1589140892E-005 -1.1375808716E-001 -3.4255981445E-003
2032500000.000 -3.4229278564E-002 -1.0745239258E-001 +4.5030117035E-003 -5.6087970734E-003 +3.6345794797E-005 +2.5860965252E-005 -1.1366271973E-001 -2.4440765381E-002
2165000000.000 -3.5228729248E-002 -1.1507415771E-001 +5.5646896362E-004 -7.1671009064E-003 +3.3898279071E-005 +3.1098723412E-005 -1.2252426147E-001 -4.2297363281E-002
2297500000.000 -3.7158966064E-002 -1.2123107910E-001 -3.5359859467E-003 -6.2475204468E-003 -3.1635165215E-005 +2.0211562514E-005 -1.2644195557E-001 -5.3474426270E-002
2430000000.000 -3.8887023926E-002 -1.2742614746E-001 -6.2258243561E-003 -3.0274391174E-003 +9.5073133707E-005 +6.8239867687E-005 -1.2651062012E-001 -6.4796447754E-002
2562500000.000 -4.0672302246E-002 -1.3435363770E-001 -7.0347785950E-003 +8.7189674377E-004 -2.7079135180E-005 -6.6123902798E-007 -1.2516784668E-001 -7.1052551270E-002
2695000000.000 -4.4204711914E-002 -1.3992309570E-001 -5.3582191467E-003 +4.6446323395E-003 +5.3033232689E-005 +1.2010708451E-004 -1.1343383789E-001 -7.3314666748E-002
2827500000.000 -4.6867370605E-002 -1.4464569092E-001 -1.5635490417E-003 +6.8957805634E-003 -5.5458396673E-005 -5.0574541092E-005 -9.8392486572E-002 -8.1672668457E-002
2960000000.000 -4.8515319824E-002 -1.5039825439E-001 +2.3493766785E-003 +6.5279006958E-003 +1.6500800848E-004 +2.2985041142E-005 -8.8096618652E-002 -8.6799621582E-002
3092500000.000 -5.1757812500E-002 -1.5747070313E-001 +5.5599212646E-003 +4.1599273682E-003 -5.0518661737E-005 +7.2974711657E-005 -7.0304870605E-002 -8.5922241211E-002
3225000000.000 -5.6358337402E-002 -1.6316986084E-001 +6.9437026978E-003 +3.0136108398E-004 +3.3142045140E-005 -1.0211020708E-005 -5.2017211914E-002 -9.0866088867E-002
3357500000.000 -5.9249877930E-002 -1.6744995117E-001 +5.9049129486E-003 -3.7248134613E-003 +5.3375959396E-005 -9.1250985861E-005 -4.1240692139E-002 -9.1602325439E-002
3490000000.000 -6.1645507813E-002 -1.7449951172E-001 +2.9001235962E-003 -6.2723159790E-003 -4.5428052545E-005 -1.6180798411E-005 -2.7931213379E-002 -8.3286285400E-002
3622500000.000 -6.5124511719E-002 -1.8106842041E-001 -1.1079311371E-003 -6.9048404694E-003 -2.7721747756E-005 -4.0190294385E-005 -1.1447906494E-002 -7.9181671143E-002
3755000000.000 -6.9549560547E-002 -1.8739318848E-001 -4.7168731689E-003 -5.1524639130E-003 +9.7583979368E-005 -3.8858503103E-005 -6.0539245605E-003 -7.2704315186E-002
3887500000.000 -7.2647094727E-002 -1.9277954102E-001 -6.6881179810E-003 -1.6050338745E-003 -2.6121735573E-005 +1.3377517462E-004 +2.0961761475E-003 -5.5788040161E-002
4020000000.000 -7.5569152832E-002 -1.9816589355E-001 -6.4542293549E-003 +2.4592876434E-003 -6.3367187977E-005 -1.9725412130E-005 +1.3286590576E-002 -4.4475555420E-002
4152500000.000 -7.8483581543E-002 -2.0472717285E-001 -3.9136409760E-003 +5.7682991028E-003 +8.7432563305E-006 -1.1134520173E-004 +1.5316009521E-002 -3.2630920410E-002
4285000000.000 -8.2199096680E-002 -2.1042633057E-001 -1.0013580322E-005 +6.9189071655E-003 +1.5312805772E-005 -4.8656016588E-005 +1.6898155212E-002 -1.3048171997E-002
4417500000.000 -8.6456298828E-002 -2.1569061279E-001 +3.8294792175E-003 +5.7072639465E-003 -3.3399090171E-005 +4.9702823162E-005 +2.5656700134E-002 +3.6592483521E-003
4550000000.000 -8.9073181152E-002 -2.2066497803E-001 +6.3192844391E-003 +2.6073455811E-003 +5.5894255638E-005 -7.0177018642E-005 +2.8899192810E-002 +9.5224380493E-003
4682500000.000 -9.1964721680E-002 -2.2693634033E-001 +6.6206455231E-003 -1.4085769653E-003 -8.8242813945E-006 -2.7023255825E-005 +2.5605201721E-002 +2.0631790161E-002
4815000000.000 -9.6092224121E-002 -2.3254394531E-001 +4.8100948334E-003 -4.7748088837E-003 +4.2259693146E-005 +2.1949410439E-005 +3.1257629395E-002 +2.7385711670E-002
4947500000.000 -9.8991394043E-002 -2.3710632324E-001 +1.3890266418E-003 -6.6471099854E-003 +8.2799233496E-006 +1.3113021851E-006 +2.7683258057E-002 +1.9816398621E-002
5080000000.000 -1.0111999512E-001 -2.4253845215E-001 -2.5818347931E-003 -6.3517093658E-003 +7.2196125984E-006 +2.6211142540E-005 +1.3371467590E-002 +2.0479202271E-002
5212500000.000 -1.0455322266E-001 -2.4803161621E-001 -5.7940483093E-003 -3.9210319519E-003 +7.3444098234E-006 +3.6261975765E-005 +9.2487335205E-003 +2.4743080139E-002
5345000000.000 -1.0830688477E-001 -2.5222778320E-001 -7.0421695709E-003 +1.9788742065E-005 -1.9241124392E-006 -4.2589381337E-005 +5.5112838745E-003 +1.6135215759E-002
5477500000.000 -1.0977172852E-001 -2.5604248047E-001 -5.8765411377E-003 +4.0268898010E-003 +1.9174069166E-005 -3.3218413591E-005 -9.1414451599E-003 +1.0196208954E-002
5610000000.000 -1.1238098145E-001 -2.6135253906E-001 -2.5923252106E-003 +6.6249370575E-003 -1.5730038285E-005 +4.0607526898E-005 -1.4844894409E-002 +1.4487266541E-002
5742500000.000 -1.1639404297E-001 -2.6525878906E-001 +1.6322135925E-003 +6.9792270660E-003 -5.1711685956E-006 -4.2491592467E-007 -1.1437892914E-002 +5.8946609497E-003
5875000000.000 -1.1985778809E-001 -2.6736450195E-001 +5.2633285522E-003 +4.8804283142E-003 -1.4610588551E-005 -6.7323446274E-005 -2.0196914673E-002 -3.3788681030E-003
6007500000.000 -1.2202453613E-001 -2.7085876465E-001 +7.1096420288E-003 +1.0232925415E-003 +2.5993213058E-005 -1.2854114175E-005 -2.3176193237E-002 +1.5068054199E-004
6140000000.000 -1.2539672852E-001 -2.7571105957E-001 +6.4375400543E-003 -3.2033920288E-003 +5.3385272622E-005 +1.3293698430E-005 -1.5343666077E-002 -2.7637481689E-003
6272500000.000 -1.3108825684E-001 -2.7900695801E-001 +3.4775733948E-003 -6.3228607178E-003 +4.0566548705E-005 -3.9346516132E-005 -1.6421318054E-002 -1.1781692505E-002
6405000000.000 -1.3551330566E-001 -2.8018188477E-001 -6.2847137451E-004 -7.1704387665E-003 +3.0905008316E-005 +7.1838498116E-005 -1.9296646118E-002 -6.3056945801E-003
6537500000.000 -1.3740539551E-001 -2.8399658203E-001 -4.5289993286E-003 -5.5842399597E-003 -2.2858381271E-005 +2.4214386940E-005 -9.2453956604E-003 -3.2801628113E-003
6670000000.000 -1.4160156250E-001 -2.8961181641E-001 -6.8731307983E-003 -2.1226406097E-003 +6.6384673119E-006 -5.8367848396E-005 -7.8883171082E-003 -7.3132514954E-003
6802500000.000 -1.4831542969E-001 -2.9280090332E-001 -6.7915916443E-003 +2.1765232086E-003 +5.7654455304E-005 +2.0198523998E-005 -1.1324882507E-002 +1.2397766113E-004
6935000000.000 -1.5222167969E-001 -2.9364013672E-001 -4.3673515320E-003 +5.6424140930E-003 -3.5248696804E-005 +6.8210065365E-005 -6.2932968140E-003 +9.9463462830E-003
7067500000.000 -1.5364074707E-001 -2.9734802246E-001 -5.4907798767E-004 +7.0850849152E-003 -3.4660100937E-005 -1.2498348951E-006 -4.5871734619E-003 +1.0160923004E-002
7200000000.000 -1.5861511230E-001 -3.0281066895E-001 +3.5953521729E-003 +6.1697959900E-003 +4.0322542191E-005 -7.0609152317E-005 -1.5026092529E-002 +1.6960144043E-002
7332500000.000 -1.6499328613E-001 -3.0537414551E-001 +6.4034461975E-003 +3.0779838562E-003 -3.4525990486E-005 +6.3385814428E-006 -1.7090797424E-002 +3.0752182007E-002
7465000000.000 -1.6839599609E-001 -3.0735778809E-001 +7.0173740387E-003 -1.0502338409E-003 -2.4460256100E-005 -7.0240348577E-005 -1.9718170166E-002 +3.1228065491E-002
7597500000.000 -1.7123413086E-001 -3.1170654297E-001 +5.2163600922E-003 -4.8403739929E-003 +5.2209943533E-006 -2.5877729058E-005 -3.6344528198E-002 +3.3298492432E-002
7730000000.000 -1.7594909668E-001 -3.1683349609E-001 +1.6829967499E-003 -6.8566799164E-003 -8.0555677414E-005 +1.5847384930E-005 -4.8364639282E-002 +4.3600082397E-002
7862500000.000 -1.8045043945E-001 -3.1974792480E-001 -2.5599002838E-003 -6.6616535187E-003 +1.3639219105E-006 +1.3630371541E-005 -5.3680419922E-002 +4.2676925659E-002
7995000000.000 -1.8296813965E-001 -3.2247924805E-001 -5.8462619781E-003 -4.1217803955E-003 -5.3118914366E-005 +4.4703483582E-006 -7.2883605957E-002 +3.5232543945E-002
8127500000.000 -1.8566894531E-001 -3.2824707031E-001 -7.2033405304E-003 -1.2850761414E-004 +3.6936253309E-005 +5.1658600569E-005 -9.1453552246E-002 +3.9791107178E-002
8260000000.000 -1.9042968750E-001 -3.3149719238E-001 -5.9666633606E-003 +3.8883686066E-003 -5.2448362112E-005 +4.5502558351E-005 -9.5558166504E-002 +3.4511566162E-002
8392500000.000 -1.9255065918E-001 -3.3419799805E-001 -2.7279853821E-003 +6.5402984619E-003 -5.8445148170E-006 +1.4370307326E-006 -1.0976409912E-001 +1.8630981445E-002
8525000000.000 -1.9383239746E-001 -3.3793640137E-001 +1.4176368713E-003 +7.0137977600E-003 +4.9537047744E-005 -3.9134174585E-006 -1.2195205688E-001 +1.4984130859E-002
8657500000.000 -1.9671630859E-001 -3.4191894531E-001 +5.2132606506E-003 +5.0370693207E-003 -2.2906810045E-005 +4.8868358135E-005 -1.1789703369E-001 +4.2190551758E-003
8790000000.000 -2.0053100586E-001 -3.4515380859E-001 +7.1439743042E-003 +1.2311935425E-003 +1.3820827007E-006 -1.7904676497E-005 -1.1961364746E-001 -1.7372131348E-002
8922500000.000 -2.0246887207E-001 -3.4619140625E-001 +6.6151618958E-003 -2.9590129852E-003 -7.0035457611E-006 -2.1845102310E-005 -1.2224960327E-001 -3.0551910400E-002
9055000000.000 -2.0445251465E-001 -3.4953308105E-001 +3.8208961487E-003 -6.1883926392E-003 -3.1892210245E-005 +1.3871118426E-005 -1.1095046997E-001 -4.3998718262E-002
9187500000.000 -2.0751953125E-001 -3.5218811035E-001 -3.4260749817E-004 -7.2529315948E-003 -4.6083703637E-005 -6.8526715040E-006 -1.0030746460E-001 -6.6772460938E-002
9320000000.000 -2.1263122559E-001 -3.5324096680E-001 -4.5132637024E-003 -5.8283805847E-003 +4.4761225581E-005 +4.5597553253E-005 -9.3864440918E-002 -7.9532623291E-002
9452500000.000 -2.1534729004E-001 -3.5440063477E-001 -6.9787502289E-003 -2.2845268250E-003 -5.9660524130E-005 +2.4855136871E-005 -7.4287414551E-002 -8.6551666260E-002
9585000000.000 -2.1839904785E-001 -3.5676574707E-001 -7.0095062256E-003 +2.0904541016E-003 -5.8364123106E-005 -3.5461038351E-005 -5.4336547852E-002 -1.0116577148E-001
9717500000.000 -2.2366333008E-001 -3.6000061035E-001 -4.6365261078E-003 +5.7184696198E-003 +3.0189752579E-005 -2.0302832127E-006 -4.1358947754E-002 -1.0693359375E-001
9850000000.000 -2.2924804688E-001 -3.5934448242E-001 -6.0439109802E-004 +7.3320865631E-003 +3.1214207411E-005 +7.1391463280E-005 -1.9195556641E-002 -1.0226440430E-001
9982500000.000 -2.3083496094E-001 -3.6170959473E-001 +3.7410259247E-003 +6.4826011658E-003 +2.8224661946E-005 -9.0720131993E-006 +6.3323974609E-003 -1.0329818726E-001
10115000000.000 -2.3439025879E-001 -3.6479187012E-001 +6.6518783569E-003 +3.1633377075E-003 +4.8559159040E-006 -2.6216730475E-006 +1.9100189209E-002 -9.9082946777E-002
10247500000.000 -2.4079895020E-001 -3.6625671387E-001 +7.2920322418E-003 -1.0409355164E-003 +5.1807612181E-005 -6.1988830566E-005 +3.5568237305E-002 -8.0139160156E-002
10380000000.000 -2.4452209473E-001 -3.6680603027E-001 +5.4004192352E-003 -5.1770210266E-003 -1.3370998204E-005 -7.0384703577E-006 +5.7052612305E-002 -6.7565917969E-002
10512500000.000 -2.4748229980E-001 -3.6825561523E-001 +1.6403198242E-003 -7.2274208069E-003 +3.2508745790E-005 -5.8686360717E-005 +6.2675476074E-002 -5.6144714355E-002
10645000000.000 -2.5141906738E-001 -3.7046813965E-001 -2.7487277985E-003 -6.9255828857E-003 +4.6875327826E-005 +6.6369771957E-005 +6.6085815430E-002 -2.9293060303E-002
10777500000.000 -2.5640869141E-001 -3.7254333496E-001 -6.2220096588E-003 -4.1110515594E-003 -1.6000121832E-006 -7.7416189015E-006 +7.7136993408E-002 -8.0184936523E-003
10910000000.000 -2.6078796387E-001 -3.7397766113E-001 -7.4324607849E-003 +1.1515617371E-004 -4.2449682951E-005 -1.8231570721E-005 +7.2322845459E-002 +5.4931640625E-003
11042500000.000 -2.6554870605E-001 -3.7567138672E-001 -6.0825347900E-003 +4.3144226074E-003 -4.3343752623E-006 +3.3073127270E-005 +5.9656143188E-002 +3.1042098999E-002
11175000000.000 -2.6904296875E-001 -3.7893676758E-001 -2.5894641876E-003 +6.9861412048E-003 -1.3935845345E-005 +9.2624686658E-006 +5.6575775146E-002 +5.2335739136E-002
11307500000.000 -2.7210998535E-001 -3.8066101074E-001 +1.8630027771E-003 +7.2958469391E-003 -4.3250620365E-006 -1.0848417878E-004 +4.3582916260E-002 +5.8513641357E-002
11440000000.000 -2.7690124512E-001 -3.8296508789E-001 +5.6271553040E-003 +4.8286914825E-003 +4.8462301493E-005 +1.3925135136E-005 +1.8306732178E-002 +7.1941375732E-002
11572500000.000 -2.7867126465E-001 -3.8610839844E-001 +7.4737071991E-003 +7.9298019409E-004 +2.1919608116E-005 +6.6038221121E-005 +4.5623779297E-003 +8.7268829346E-002
11705000000.000 -2.8161621094E-001 -3.8832092285E-001 +6.6280364990E-003 -3.5526752472E-003 -8.9537352324E-006 +3.8757920265E-005 -9.8571777344E-003 +8.0780029297E-002
11837500000.000 -2.8544616699E-001 -3.9045715332E-001 +3.4255981445E-003 -6.7131519318E-003 +5.8755278587E-005 -3.6126002669E-005 -4.2930603027E-002 +7.6587677002E-002
11970000000.000 -2.8688049316E-001 -3.9079284668E-001 -9.9468231201E-004 -7.4136257172E-003 +3.0538067222E-005 +2.0327046514E-005 -5.9211730957E-002 +8.3011627197E-002
12102500000.000 -2.8736877441E-001 -3.9312744141E-001 -5.0511360168E-003 -5.4640769958E-003 -4.1982159019E-005 +2.6399269700E-005 -6.5307617188E-002 +6.4422607422E-002
12235000000.000 -2.9316711426E-001 -3.9363098145E-001 -7.3370933533E-003 -1.6534328461E-003 +4.0320679545E-005 -4.5588240027E-005 -9.2716217041E-002 +4.4094085693E-002
12367500000.000 -2.9399108887E-001 -3.9387512207E-001 -6.9046020508E-003 +2.8219223022E-003 +3.4485012293E-005 -9.2908740044E-006 -1.0532760620E-001 +4.2709350586E-002
12500000000.000 -2.9800415039E-001 -3.9332580566E-001 -4.1079521179E-003 +6.2649250031E-003 -3.4326687455E-005 -3.1013041735E-005 -9.7198486328E-002 +2.0484924316E-002
12632500000.000 -3.0079650879E-001 -3.9562988281E-001 +2.3674964905E-004 +7.4634552002E-003 -7.6070427895E-006 +2.6505440474E-006 -1.0917663574E-001 -1.3355255127E-002
12765000000.000 -3.0386352539E-001 -3.9572143555E-001 +4.4102668762E-003 +5.9378147125E-003 +1.2397766113E-005 +3.1759962440E-005 -1.1727523804E-001 -1.7807006836E-002
12897500000.000 -3.0667114258E-001 -3.9479064941E-001 +6.8769454956E-003 +2.3350715637E-003 -5.2154064178E-008 -1.5816651285E-005 -9.2216491699E-002 -3.4503936768E-002
13030000000.000 -3.0921936035E-001 -3.9524841309E-001 +6.9420337677E-003 -1.9850730896E-003 -3.0070543289E-005 +3.8588419557E-005 -8.9347839355E-002 -7.0899963379E-002
13162500000.000 -3.1199645996E-001 -3.9663696289E-001 +4.5325756073E-003 -5.6569576263E-003 +8.1356614828E-005 -1.3343989849E-005 -9.1598510742E-002 -7.2513580322E-002
13295000000.000 -3.1504821777E-001 -3.9717102051E-001 +5.2285194397E-004 -7.1890354156E-003 -3.2838433981E-006 +5.0486996770E-005 -6.1298370361E-002 -7.8517913818E-002
13427500000.000 -3.1910705566E-001 -3.9596557617E-001 -3.5846233368E-003 -6.2251091003E-003 -1.9941478968E-005 -5.3290277719E-006 -4.6798706055E-002 -1.0411453247E-001
13560000000.000 -3.1947326660E-001 -3.9578247070E-001 -6.4821243286E-003 -3.0150413513E-003 +7.3935836554E-005 -7.3391944170E-005 -4.6646118164E-002 -1.0134887695E-001
13692500000.000 -3.2220458984E-001 -3.9773559570E-001 -7.0815086365E-003 +1.2860298157E-003 +6.2201172113E-005 +5.1341950893E-005 -1.7910003662E-002 -8.9260101318E-002
13825000000.000 -3.2710266113E-001 -3.9814758301E-001 -5.0296783447E-003 +4.9805641174E-003 -7.7888369560E-005 -1.5158206224E-005 +4.2114257813E-003 -1.0297393799E-001
13957500000.000 -3.3029174805E-001 -3.9593505859E-001 -1.2462139130E-003 +6.8259239197E-003 +4.7883018851E-005 -1.8998980522E-006 -1.6784667969E-004 -9.5550537109E-002
14090000000.000 -3.3187866211E-001 -3.9636230469E-001 +2.8896331787E-003 +6.3581466675E-003 -1.1218711734E-005 +4.6310946345E-005 +2.1873474121E-002 -7.0148468018E-002
14222500000.000 -3.3372497559E-001 -3.9939880371E-001 +5.8631896973E-003 +3.5526752472E-003 -3.3900141716E-005 +2.8960406780E-005 +4.3926239014E-002 -7.4333190918E-002
14355000000.000 -3.3923339844E-001 -3.9956665039E-001 +6.8476200104E-003 -5.4478645325E-004 +6.4011663198E-005 -6.2514096498E-005 +3.3222198486E-002 -6.7157745361E-002
14487500000.000 -3.4211730957E-001 -3.9926147461E-001 +5.2914619446E-003 -4.2111873627E-003 +5.1833689213E-005 -4.9205496907E-005 +4.0153503418E-002 -3.4029006958E-002
14620000000.000 -3.4240722656E-001 -4.0081787109E-001 +1.7244815826E-003 -6.3204765320E-003 -2.6142224669E-005 -1.3260170817E-005 +6.1079025269E-002 -3.1455993652E-002
14752500000.000 -3.4565734863E-001 -4.0515136719E-001 -2.0828247070E-003 -6.2508583069E-003 -3.6850571632E-005 -2.7939677238E-006 +4.3254852295E-002 -3.2258987427E-002
14885000000.000 -3.4873962402E-001 -4.0640258789E-001 -5.2800178528E-003 -3.8740634918E-003 +1.0957941413E-004 -4.0955841541E-005 +3.5432815552E-002 +1.3771057129E-003
15017500000.000 -3.4938049316E-001 -4.0753173828E-001 -6.4249038696E-003 -1.6427040100E-004 -4.2364001274E-005 +4.0806829929E-005 +5.3199768066E-002 +8.7699890137E-003
15150000000.000 -3.5038757324E-001 -4.1128540039E-001 -5.3524971008E-003 +3.4439563751E-003 -8.7965279818E-005 -1.0497868061E-005 +3.5161972046E-002 -1.5487670898E-003
15282500000.000 -3.5119628906E-001 -4.1345214844E-001 -2.3965835571E-003 +5.7699680328E-003 +9.0669840574E-005 +6.6339969635E-005 +1.4522552490E-002 +2.3126602173E-002
