!  2-Port S-parameters saved by WinCal
! VAR MeasName=S-Parameters (CALIBRATED_DATA) read from VNA (C)
! VAR MeasDate=10/16/2015 3:04:16 PM
! VAR NAME=M6082_10_15_2_2_20C_1.8mA_-17.5dBm
! VAR FILENAME=M6082_10_15_2_2_20C_1.8mA_-17.5dBm.S2P
! VAR DATE=10/16/2015 3:04:16 PM
! VAR PHYS_PORTS=2,1
! VAR ObjTypeName=DATASET
! VAR IndexType=Frequency
!
# Hz S RI R 50
45000000.000 +1.0708618164E-001 -9.2239379883E-003 -1.4824867249E-003 +4.9302577972E-003 +6.6423416138E-004 -3.9690732956E-004 +3.0136108398E-002 +3.7040710449E-003
177500000.000 +1.0754013062E-001 -2.1446228027E-002 +2.2075176239E-003 +4.9035549164E-003 +2.2787600756E-004 +1.7536431551E-004 +1.6062736511E-002 +1.6803741455E-002
310000000.000 +1.1091232300E-001 -3.9108276367E-002 +4.1751861572E-003 +3.2234191895E-003 -1.6878545284E-004 -5.0798058510E-005 +2.9212951660E-002 +6.1433792114E-002
442500000.000 +1.0105133057E-001 -5.1219940186E-002 +5.7158470154E-003 -5.3501129150E-004 +3.5135075450E-005 -4.0639191866E-005 +7.2589874268E-002 +2.2418975830E-002
575000000.000 +9.4402313232E-002 -6.2797546387E-002 +4.0152072906E-003 -3.6537647247E-003 -1.0376051068E-004 +8.1595033407E-005 +2.7066230774E-002 +1.1223793030E-002
707500000.000 +9.0896606445E-002 -7.5927734375E-002 +1.1563301086E-003 -5.2158832550E-003 +4.7720968723E-006 -4.8967078328E-005 +2.0055770874E-003 +1.8654823303E-002
840000000.000 +8.6166381836E-002 -8.7268829346E-002 -2.0718574524E-003 -5.0251483917E-003 +8.8773667812E-005 +4.5750290155E-005 -1.9953727722E-002 +2.6003837585E-002
972500000.000 +8.4495544434E-002 -1.0152435303E-001 -4.4829845428E-003 -2.7911663055E-003 -5.2629038692E-006 +2.3717060685E-005 -3.5779953003E-002 +3.5305023193E-002
1105000000.000 +7.9792022705E-002 -1.1345291138E-001 -5.4168701172E-003 +3.5786628723E-004 -9.8250806332E-005 -4.6469271183E-005 -4.6947479248E-002 +3.8183212280E-002
1237500000.000 +7.6622009277E-002 -1.2660980225E-001 -4.1139125824E-003 +3.3578872681E-003 +4.1112303734E-005 -5.4756179452E-005 -5.8462142944E-002 +3.3834457397E-002
1370000000.000 +7.2547912598E-002 -1.4035034180E-001 -1.4128684998E-003 +5.0265789032E-003 -1.8665567040E-005 -2.6924535632E-006 -7.4062347412E-002 +2.6916503906E-002
1502500000.000 +6.6444396973E-002 -1.4828491211E-001 +1.7876625061E-003 +5.0477981567E-003 +1.2135133147E-005 -1.8079765141E-005 -8.7985992432E-002 +2.1274566650E-002
1635000000.000 +6.3514709473E-002 -1.6308593750E-001 +4.3861865997E-003 +2.9692649841E-003 -9.2671252787E-006 +6.4349733293E-006 -9.9025726318E-002 +1.1615753174E-002
1767500000.000 +5.7937622070E-002 -1.7555999756E-001 +5.3026676178E-003 -2.2888183594E-004 +1.1137686670E-005 -9.7905285656E-006 -1.1196517944E-001 +2.8724670410E-003
1900000000.000 +5.1628112793E-002 -1.7993164063E-001 +4.6637058258E-003 -3.3297538757E-003 +1.3495795429E-005 -1.3357494026E-005 -1.1384582520E-001 -3.5400390625E-003
2032500000.000 +4.6035766602E-002 -1.8858337402E-001 +1.8610954285E-003 -5.4588317871E-003 +8.1259757280E-005 -6.1567872763E-005 -1.1358261108E-001 -2.4368286133E-002
2165000000.000 +4.1610717773E-002 -1.9908905029E-001 -1.5497207642E-003 -5.6633949280E-003 +6.5378844738E-005 -1.7251819372E-005 -1.2253570557E-001 -4.2339324951E-002
2297500000.000 +3.3370971680E-002 -2.0542907715E-001 -4.4672489166E-003 -3.9899349213E-003 -8.2351267338E-005 +8.7391585112E-005 -1.2638854980E-001 -5.3512573242E-002
2430000000.000 +2.6924133301E-002 -2.1332550049E-001 -6.0043334961E-003 -9.5415115356E-004 -1.8391013145E-004 -5.2675604820E-005 -1.2657165527E-001 -6.4888000488E-002
2562500000.000 +2.3056030273E-002 -2.2467041016E-001 -5.4204463959E-003 +2.7575492859E-003 +7.3686242104E-006 +1.5101581812E-004 -1.2513732910E-001 -7.1090698242E-002
2695000000.000 +1.4152526855E-002 -2.3259735107E-001 -3.0255317688E-003 +5.3732395172E-003 +4.2149797082E-005 -4.3665990233E-005 -1.1365890503E-001 -7.3451995850E-002
2827500000.000 +6.9122314453E-003 -2.3995208740E-001 +5.0735473633E-004 +5.9375762939E-003 -1.0952353477E-006 -1.1663511395E-004 -9.8567962646E-002 -8.1726074219E-002
2960000000.000 +2.1057128906E-003 -2.5015258789E-001 +4.0674209595E-003 +4.6274662018E-003 +2.8576701880E-005 +3.7454068661E-005 -8.7913513184E-002 -8.6742401123E-002
3092500000.000 -5.6762695313E-003 -2.6039123535E-001 +5.9561729431E-003 +1.4297962189E-003 -2.2981315851E-005 +5.6209042668E-005 -7.0266723633E-002 -8.6074829102E-002
3225000000.000 -1.4923095703E-002 -2.6742553711E-001 +5.9094429016E-003 -1.9793510437E-003 -8.6359679699E-005 -1.2993812561E-004 -5.2005767822E-002 -9.1129302979E-002
3357500000.000 -2.2308349609E-002 -2.7412414551E-001 +3.5123825073E-003 -4.9126148224E-003 +1.2280046940E-004 -8.7022781372E-006 -4.1244506836E-002 -9.1659545898E-002
3490000000.000 -2.8472900391E-002 -2.8340148926E-001 +9.3460083008E-005 -6.1366558075E-003 -6.5591186285E-005 +1.0587275028E-005 -2.7809143066E-002 -8.3293914795E-002
3622500000.000 -3.6041259766E-002 -2.9107666016E-001 -3.4499168396E-003 -5.3231716156E-003 -5.7623255998E-006 -4.6968925744E-006 -1.1352539063E-002 -7.9154968262E-002
3755000000.000 -4.3670654297E-002 -2.9925537109E-001 -5.8817863464E-003 -2.2017955780E-003 +8.7220221758E-005 +2.0947307348E-005 -5.8364868164E-003 -7.2715759277E-002
3887500000.000 -4.9453735352E-002 -3.0792236328E-001 -6.1767101288E-003 +1.8999576569E-003 -8.6366198957E-006 -1.2914650142E-005 +2.2487640381E-003 -5.5757522583E-002
4020000000.000 -5.5145263672E-002 -3.1544494629E-001 -4.0132999420E-003 +5.2394866943E-003 -2.4138018489E-005 -4.1341409087E-005 +1.3324737549E-002 -4.4340133667E-002
4152500000.000 -6.0592651367E-002 -3.2510375977E-001 +1.7666816711E-004 +6.7958831787E-003 -1.5386380255E-005 -2.2467225790E-005 +1.5260696411E-002 -3.2365798950E-002
4285000000.000 -6.7016601563E-002 -3.3894348145E-001 +4.8456192017E-003 +4.7495365143E-003 +9.2830508947E-005 +5.3159892559E-005 +1.7030715942E-002 -1.2961387634E-002
4417500000.000 -7.6416015625E-002 -3.5218811035E-001 +6.7644119263E-003 -8.1062316895E-006 -1.7057172954E-005 -2.0850449800E-005 +2.5625228882E-002 +3.6430358887E-003
4550000000.000 -8.3847045898E-002 -3.6080932617E-001 +5.1827430725E-003 -4.0602684021E-003 -7.3499977589E-006 -7.8782439232E-005 +2.8845787048E-002 +9.5787048340E-003
4682500000.000 -9.6191406250E-002 -3.7382507324E-001 +7.6365470886E-004 -6.1953067780E-003 +2.3914501071E-005 +3.0500814319E-006 +2.5456428528E-002 +2.0738601685E-002
4815000000.000 -1.0861206055E-001 -3.8200378418E-001 -3.3950805664E-003 -4.9207210541E-003 +7.8799203038E-006 -3.6335550249E-006 +3.1013488770E-002 +2.7536392212E-002
4947500000.000 -1.1740112305E-001 -3.8731384277E-001 -5.7015419006E-003 -2.0461082458E-003 +1.1842697859E-005 -3.3758580685E-005 +2.7496337891E-002 +1.9907951355E-002
5080000000.000 -1.2715148926E-001 -3.9312744141E-001 -5.4991245270E-003 +1.9571781158E-003 +3.8309022784E-005 +2.8405338526E-006 +1.3190269470E-002 +2.0616531372E-002
5212500000.000 -1.3883972168E-001 -3.9778137207E-001 -2.7730464935E-003 +4.7225952148E-003 -5.1688402891E-006 +4.6068802476E-005 +9.1514587402E-003 +2.4878501892E-002
5345000000.000 -1.4714050293E-001 -4.0129089355E-001 +5.3310394287E-004 +5.6474208832E-003 +1.7106533051E-005 -8.3027407527E-006 +5.4187774658E-003 +1.6277313232E-002
5477500000.000 -1.5383911133E-001 -4.0394592285E-001 +3.6685466766E-003 +4.0974617004E-003 +8.9667737484E-005 -1.3124197721E-005 -9.2167854309E-003 +1.0315895081E-002
5610000000.000 -1.6308593750E-001 -4.0696716309E-001 +5.1200389862E-003 +8.2755088806E-004 +2.9275193810E-005 +5.5983662605E-005 -1.4993667603E-002 +1.4380455017E-002
5742500000.000 -1.7152404785E-001 -4.0930175781E-001 +4.6155452728E-003 -2.3455619812E-003 -3.4775584936E-005 -2.0574778318E-005 -1.1629104614E-002 +5.8813095093E-003
5875000000.000 -1.7823791504E-001 -4.1046142578E-001 +2.5110244751E-003 -4.7690868378E-003 -2.8239563107E-005 -2.9717572033E-005 -2.0379066467E-002 -3.3855438232E-003
6007500000.000 -1.8572998047E-001 -4.1107177734E-001 -7.3432922363E-004 -5.0907135010E-003 +1.9709579647E-005 -8.2226470113E-006 -2.3262977600E-002 +1.0681152344E-004
6140000000.000 -1.9390869141E-001 -4.1323852539E-001 -3.4924745560E-003 -3.3031702042E-003 -5.0853937864E-005 +3.9899721742E-005 -1.5486717224E-002 -2.9411315918E-003
6272500000.000 -2.0240783691E-001 -4.1571044922E-001 -5.0129890442E-003 -8.9311599731E-004 +2.6496127248E-005 +5.0431117415E-006 -1.6548156738E-002 -1.1889457703E-002
6405000000.000 -2.1086120605E-001 -4.1452026367E-001 -4.4631958008E-003 +2.1305084229E-003 +6.9662928581E-005 +3.3248215914E-005 -1.9338607788E-002 -6.4163208008E-003
6537500000.000 -2.1687316895E-001 -4.1476440430E-001 -2.0565986633E-003 +4.0888786316E-003 +1.8122605979E-005 -2.3005530238E-005 -9.2048645020E-003 -3.3936500549E-003
6670000000.000 -2.2352600098E-001 -4.1888427734E-001 +5.6576728821E-004 +4.6887397766E-003 +3.9866194129E-005 -4.6150758862E-005 -7.8740119934E-003 -7.3957443237E-003
6802500000.000 -2.3339843750E-001 -4.1958618164E-001 +3.1650066376E-003 +3.4838914871E-003 +1.5373341739E-005 -1.5022233129E-006 -1.1408805847E-002 +2.8133392334E-005
6935000000.000 -2.4087524414E-001 -4.1584777832E-001 +4.0924549103E-003 +7.9822540283E-004 -6.6991895437E-005 +4.5347958803E-005 -6.2327384949E-003 +9.7908973694E-003
7067500000.000 -2.4449157715E-001 -4.1767883301E-001 +3.8913488388E-003 -1.6788244247E-003 -8.2147307694E-006 -4.8847869039E-006 -4.6572685242E-003 +1.0074615479E-002
7200000000.000 -2.5119018555E-001 -4.2190551758E-001 +2.5295019150E-003 -3.6773681641E-003 +4.0983781219E-005 +1.3059005141E-005 -1.5110015869E-002 +1.6882896423E-002
7332500000.000 -2.6020812988E-001 -4.2071533203E-001 -1.1849403381E-004 -4.1429996490E-003 -5.2293762565E-005 +5.3197145462E-006 -1.7078399658E-002 +3.0720710754E-002
7465000000.000 -2.6560974121E-001 -4.1966247559E-001 -2.3925304413E-003 -3.1561851501E-003 -1.5683472157E-005 -5.7555735111E-005 -1.9742965698E-002 +3.1215667725E-002
7597500000.000 -2.7023315430E-001 -4.2311096191E-001 -3.9246082306E-003 -1.3504028320E-003 -2.4694018066E-005 -1.4521181583E-005 -3.6352157593E-002 +3.3132553101E-002
7730000000.000 -2.7676391602E-001 -4.2465209961E-001 -3.8309097290E-003 +1.0771751404E-003 +3.5528093576E-005 +2.2981315851E-005 -4.8362731934E-002 +4.3611526489E-002
7862500000.000 -2.8297424316E-001 -4.2375183105E-001 -2.1669864655E-003 +2.8042793274E-003 -3.4470111132E-005 +6.7576766014E-006 -5.3705215454E-002 +4.2654037476E-002
7995000000.000 -2.8695678711E-001 -4.2494201660E-001 -2.5415420532E-004 +3.6454200745E-003 +8.8065862656E-005 -2.9593706131E-005 -7.2872161865E-002 +3.5182952881E-002
8127500000.000 -2.9110717773E-001 -4.2849731445E-001 +1.7203092575E-003 +3.1372308731E-003 +2.4866312742E-005 -9.1843307018E-005 -9.1529846191E-002 +3.9745330811E-002
8260000000.000 -2.9740905762E-001 -4.2834472656E-001 +3.0386447906E-003 +1.4286041260E-003 +3.1832605600E-005 +5.5879354477E-008 -9.5657348633E-002 +3.4400939941E-002
8392500000.000 -3.0064392090E-001 -4.2880249023E-001 +3.2793283463E-003 -5.5921077728E-004 -1.8615275621E-005 -3.8178637624E-005 -1.0972595215E-001 +1.8497467041E-002
8525000000.000 -3.0320739746E-001 -4.3080139160E-001 +2.4294853210E-003 -2.1996498108E-003 +2.1081417799E-005 +4.3654814363E-005 -1.2195968628E-001 +1.4881134033E-002
8657500000.000 -3.0700683594E-001 -4.3200683594E-001 +6.3264369965E-004 -2.9611587524E-003 -1.1422671378E-006 -1.4696735889E-005 -1.1785507202E-001 +4.1427612305E-003
8790000000.000 -3.1188964844E-001 -4.3301391602E-001 -1.0703802109E-003 -2.6788711548E-003 -3.9733946323E-005 -8.7413936853E-006 -1.1962127686E-001 -1.7379760742E-002
8922500000.000 -3.1481933594E-001 -4.3222045898E-001 -2.4340152740E-003 -1.6157627106E-003 +5.5534765124E-005 -2.7246773243E-005 -1.2236785889E-001 -3.0532836914E-002
9055000000.000 -3.1785583496E-001 -4.3321228027E-001 -2.7782917023E-003 +9.6559524536E-006 -6.1873346567E-005 +1.5094876289E-005 -1.1095046997E-001 -4.4143676758E-002
9187500000.000 -3.2151794434E-001 -4.3385314941E-001 -2.2220611572E-003 +1.4564990997E-003 -3.0884519219E-005 +2.8409063816E-005 -1.0013580322E-001 -6.6959381104E-002
9320000000.000 -3.2823181152E-001 -4.3267822266E-001 -9.8419189453E-004 +2.4256706238E-003 +1.7743557692E-005 +3.7742778659E-005 -9.3688964844E-002 -7.9658508301E-002
9452500000.000 -3.3151245117E-001 -4.3154907227E-001 +5.3811073303E-004 +2.4178028107E-003 +3.5511329770E-005 +1.4347955585E-005 -7.4150085449E-002 -8.6631774902E-002
9585000000.000 -3.3526611328E-001 -4.3173217773E-001 +1.7281770706E-003 +1.6607642174E-003 +8.5663050413E-006 -3.8534402847E-005 -5.4073333740E-002 -1.0117340088E-001
9717500000.000 -3.4127807617E-001 -4.3298339844E-001 +2.3349523544E-003 +4.3177604675E-004 +3.1016767025E-005 -3.6805868149E-005 -4.1191101074E-002 -1.0705566406E-001
9850000000.000 -3.4783935547E-001 -4.2974853516E-001 +2.0542144775E-003 -9.3400478363E-004 -5.6754797697E-005 +4.4556334615E-005 -1.9119262695E-002 -1.0221099854E-001
9982500000.000 -3.4976196289E-001 -4.3019104004E-001 +1.1419653893E-003 -1.8125772476E-003 -3.2311305404E-005 -5.8282166719E-006 +6.6490173340E-003 -1.0314178467E-001
10115000000.000 -3.5379028320E-001 -4.3135070801E-001 -1.5509128571E-004 -2.0639896393E-003 +7.3082745075E-005 -4.5079737902E-005 +1.9458770752E-002 -9.9071502686E-002
10247500000.000 -3.6068725586E-001 -4.3074035645E-001 -1.2022256851E-003 -1.7176270485E-003 +2.8390437365E-005 +1.6423873603E-005 +3.5812377930E-002 -7.9925537109E-002
10380000000.000 -3.6476135254E-001 -4.2900085449E-001 -1.8773078918E-003 -6.1887502670E-004 -4.0138140321E-005 -1.0946765542E-005 +5.7090759277E-002 -6.7188262939E-002
10512500000.000 -3.6799621582E-001 -4.2861938477E-001 -1.8016099930E-003 +4.7624111176E-004 -1.7611309886E-005 -4.4491142035E-005 +6.2850952148E-002 -5.5694580078E-002
10645000000.000 -3.7223815918E-001 -4.2900085449E-001 -1.2350678444E-003 +1.3935565948E-003 +1.2496486306E-005 +1.9581057131E-005 +6.6162109375E-002 -2.8972625732E-002
10777500000.000 -3.7739562988E-001 -4.2921447754E-001 -1.5324354172E-004 +1.7572641373E-003 -3.7351623178E-005 +3.1368806958E-005 +7.7060699463E-002 -7.5683593750E-003
10910000000.000 -3.8214111328E-001 -4.2842102051E-001 +7.7146291733E-004 +1.4590024948E-003 +1.7344020307E-005 +2.0728446543E-005 +7.2257995605E-002 +6.0386657715E-003
11042500000.000 -3.8670349121E-001 -4.2822265625E-001 +1.3468861580E-003 +7.0255994797E-004 +3.5701319575E-005 +3.0016526580E-005 +5.9490203857E-002 +3.1526565552E-002
11175000000.000 -3.9016723633E-001 -4.2976379395E-001 +1.5529394150E-003 -1.4138221741E-004 -6.3944607973E-006 +2.3321248591E-005 +5.6144714355E-002 +5.2560806274E-002
11307500000.000 -3.9334106445E-001 -4.2985534668E-001 +1.0884404182E-003 -9.4914436340E-004 +3.7873163819E-005 -2.7593225241E-005 +4.3165206909E-002 +5.8717727661E-002
11440000000.000 -3.9819335938E-001 -4.3011474609E-001 +4.1550397873E-004 -1.3631582260E-003 +5.8909878135E-005 -3.7066638470E-007 +1.7936706543E-002 +7.2315216064E-002
11572500000.000 -3.9973449707E-001 -4.3188476563E-001 -4.3696165085E-004 -1.3734102249E-003 +3.9013102651E-005 -1.4945864677E-005 +3.9978027344E-003 +8.7371826172E-002
11705000000.000 -4.0242004395E-001 -4.3243408203E-001 -1.0201931000E-003 -9.5200538635E-004 -8.5681676865E-007 -1.7729587853E-005 -1.0551452637E-002 +8.0799102783E-002
11837500000.000 -4.0615844727E-001 -4.3316650391E-001 -1.3026595116E-003 -1.9502639771E-004 +9.8615884781E-005 -5.3327530622E-005 -4.3502807617E-002 +7.6503753662E-002
11970000000.000 -4.0788269043E-001 -4.3197631836E-001 -1.1158585548E-003 +6.3329935074E-004 +3.9041042328E-005 +8.6870044470E-005 -5.9726715088E-002 +8.2862854004E-002
12102500000.000 -4.0771484375E-001 -4.3289184570E-001 -6.8122148514E-004 +1.0750293732E-003 -8.0645084381E-005 +5.1446259022E-006 -6.5738677979E-002 +6.4083099365E-002
12235000000.000 -4.1342163086E-001 -4.3203735352E-001 +8.4042549133E-006 +1.1333823204E-003 -1.7138198018E-005 -2.1859072149E-005 -9.3067169189E-002 +4.3693542480E-002
12367500000.000 -4.1424560547E-001 -4.3081665039E-001 +7.0169568062E-004 +9.1835856438E-004 -3.2356008887E-005 -5.8114528656E-006 -1.0581970215E-001 +4.2121887207E-002
12500000000.000 -4.1806030273E-001 -4.2872619629E-001 +1.0942220688E-003 +3.1948089600E-004 -5.1416456699E-005 +6.6544860601E-005 -9.7408294678E-002 +2.0046234131E-002
12632500000.000 -4.2001342773E-001 -4.2962646484E-001 +1.0625720024E-003 -2.9486417770E-004 +3.3909454942E-006 -2.8706155717E-005 -1.0897064209E-001 -1.3923645020E-002
12765000000.000 -4.2303466797E-001 -4.2852783203E-001 +7.5367093086E-004 -7.8943371773E-004 +5.9057027102E-005 -2.9522925615E-006 -1.1713790894E-001 -1.8432617188E-002
12897500000.000 -4.2578125000E-001 -4.2625427246E-001 +1.2338161469E-004 -9.9653005600E-004 -2.8506852686E-005 +2.0842999220E-006 -9.2147827148E-002 -3.4889221191E-002
13030000000.000 -4.2794799805E-001 -4.2533874512E-001 -4.5233964920E-004 -8.7898969650E-004 -7.2445720434E-005 -4.6096742153E-005 -8.8981628418E-002 -7.1277618408E-002
13162500000.000 -4.3026733398E-001 -4.2570495605E-001 -8.6537003517E-004 -4.8559904099E-004 +7.0214271545E-005 -1.9930303097E-006 -9.0923309326E-002 -7.2856903076E-002
13295000000.000 -4.3304443359E-001 -4.2530822754E-001 -8.6349248886E-004 +1.4504790306E-004 -2.3597851396E-005 +3.7714838982E-005 -6.0710906982E-002 -7.8712463379E-002
13427500000.000 -4.3655395508E-001 -4.2268371582E-001 -7.0494413376E-004 +6.0546398163E-004 -5.5449083447E-005 -5.7918950915E-005 -4.6367645264E-002 -1.0387802124E-001
13560000000.000 -4.3656921387E-001 -4.2160034180E-001 -2.7766823769E-004 +9.2282891273E-004 -3.8458034396E-005 -2.8278678656E-005 -4.5879364014E-002 -1.0116958618E-001
13692500000.000 -4.3894958496E-001 -4.2259216309E-001 +2.9969215393E-004 +8.6709856987E-004 -5.9759244323E-005 +5.6672841311E-005 -1.7425537109E-002 -8.9092254639E-002
13825000000.000 -4.4314575195E-001 -4.2198181152E-001 +6.7782402039E-004 +5.1978230476E-004 -7.2270631790E-006 -9.2115253210E-005 +4.5204162598E-003 -1.0272216797E-001
13957500000.000 -4.4595336914E-001 -4.1885375977E-001 +7.3525309563E-004 +1.1920928955E-005 +6.3326209784E-005 -6.9048255682E-005 +2.4795532227E-004 -9.5104217529E-002
14090000000.000 -4.4699096680E-001 -4.1816711426E-001 +6.8253278732E-004 -4.5976042747E-004 +5.8865174651E-005 +2.2217631340E-005 +2.2026062012E-002 -6.9786071777E-002
14222500000.000 -4.4812011719E-001 -4.2051696777E-001 +3.5896897316E-004 -6.3508749008E-004 -1.5633553267E-004 +9.4041228294E-005 +4.4017791748E-002 -7.3909759521E-002
14355000000.000 -4.5336914063E-001 -4.1979980469E-001 -6.4581632614E-005 -7.7393651009E-004 +6.5676867962E-006 -8.9470297098E-005 +3.3176422119E-002 -6.6768646240E-002
14487500000.000 -4.5552062988E-001 -4.1882324219E-001 -3.8120150566E-004 -6.4098834991E-004 +5.9770420194E-005 +3.0418857932E-005 +3.9976119995E-002 -3.3567428589E-002
14620000000.000 -4.5520019531E-001 -4.1970825195E-001 -5.8344006538E-004 -2.7918815613E-004 -8.8855624199E-005 +1.5013664961E-004 +6.0789108276E-002 -3.1057357788E-002
14752500000.000 -4.5812988281E-001 -4.2379760742E-001 -6.3556432724E-004 +2.0161271095E-004 -6.0461461544E-006 -1.1665374041E-004 +4.2947769165E-002 -3.2230377197E-002
14885000000.000 -4.6099853516E-001 -4.2463684082E-001 -5.3626298904E-004 +4.1422247887E-004 +6.0293823481E-006 -1.6440637410E-005 +3.5066604614E-002 +1.5430450439E-003
15017500000.000 -4.6107482910E-001 -4.2517089844E-001 -1.4331936836E-004 +6.4334273338E-004 -1.7078220844E-004 +5.6527554989E-005 +5.2913665771E-002 +9.0255737305E-003
15150000000.000 -4.6168518066E-001 -4.2829895020E-001 +1.5318393707E-004 +5.9556961060E-004 -4.1805207729E-005 -6.9484114647E-005 +3.4915924072E-002 -1.6269683838E-003
15282500000.000 -4.6247863770E-001 -4.3041992188E-001 +5.7068467140E-004 +4.1070580482E-004 +1.0344758630E-004 -4.8339366913E-005 +1.4285087585E-002 +2.2854804993E-002
