!  2-Port S-parameters saved by WinCal
! VAR NAME=M6082_13_17_2_2_20C_4.8mA_-17.5dBm
! VAR DATE=10/16/2015 2:04:51 PM
! VAR FILENAME=M6082_13_17_2_2_20C_4.8mA_-17.5dBm.S2P
! VAR MeasName=S-Parameters (CALIBRATED_DATA) read from VNA (C)
! VAR MeasDate=10/16/2015 2:03:17 PM
! VAR PHYS_PORTS=2,1
! VAR ObjTypeName=DATASET
! VAR IndexType=Frequency
!
# Hz S RI R 50
45000000.000 -4.3687820435E-003 -4.7755241394E-004 -2.1038055420E-003 +7.6169967651E-003 -2.8550624847E-004 +5.5608153343E-004 +2.9531478882E-002 +3.7889480591E-003
177500000.000 -3.6408901215E-003 -7.6305866241E-003 +2.6323795319E-003 +6.2198638916E-003 +9.2279165983E-005 +1.1513382196E-004 +1.6050338745E-002 +1.6588211060E-002
310000000.000 -3.5886764526E-003 -1.4095783234E-002 +5.2628517151E-003 +4.2500495911E-003 -7.6498836279E-005 +7.8976154327E-006 +2.9258728027E-002 +6.1428070068E-002
442500000.000 -3.8013458252E-003 -2.0886421204E-002 +7.5647830963E-003 +4.1961669922E-005 +1.4573335648E-004 -1.0021030903E-005 +7.2620391846E-002 +2.2640228271E-002
575000000.000 -4.2591094971E-003 -2.7854919434E-002 +5.6962966919E-003 -4.1794776917E-003 -7.3416158557E-006 +2.5598332286E-005 +2.7223587036E-002 +1.1270523071E-002
707500000.000 -5.2356719971E-003 -3.4133911133E-002 +2.2869110107E-003 -6.5307617188E-003 -5.4676085711E-005 -3.5990029573E-005 +2.1581649780E-003 +1.8770217896E-002
840000000.000 -5.5046081543E-003 -4.1065216064E-002 -1.6143321991E-003 -6.6707134247E-003 +5.4154545069E-005 -6.2011182308E-005 -1.9857406616E-002 +2.6023864746E-002
972500000.000 -5.7945251465E-003 -4.7779083252E-002 -5.0208568573E-003 -4.4379234314E-003 -6.4820051193E-006 +6.9390982389E-005 -3.5884857178E-002 +3.5423278809E-002
1105000000.000 -7.0343017578E-003 -5.4512023926E-002 -6.7574977875E-003 -8.9383125305E-004 -3.5531818867E-005 -1.0047107935E-005 -4.6840667725E-002 +3.8301467896E-002
1237500000.000 -8.1214904785E-003 -6.0750961304E-002 -6.0615539551E-003 +3.0369758606E-003 +1.2407079339E-005 -4.9650669098E-005 -5.8526992798E-002 +3.3933639526E-002
1370000000.000 -9.2926025391E-003 -6.7165374756E-002 -3.2393932343E-003 +5.7790279388E-003 +7.7728182077E-006 +3.0336901546E-005 -7.3986053467E-002 +2.7050018311E-002
1502500000.000 -1.0341644287E-002 -7.3360443115E-002 +5.4597854614E-004 +6.6058635712E-003 -2.7511268854E-005 +3.4570693970E-005 -8.7959289551E-002 +2.1369934082E-002
1635000000.000 -1.0887145996E-002 -8.0123901367E-002 +4.1267871857E-003 +5.2211284637E-003 +3.2715499401E-005 +2.0928680897E-005 -9.9010467529E-002 +1.1734008789E-002
1767500000.000 -1.2535095215E-002 -8.6738586426E-002 +6.3557624817E-003 +1.9927024841E-003 +3.2743439078E-005 +3.9171427488E-006 -1.1186599731E-001 +2.9411315918E-003
1900000000.000 -1.3565063477E-002 -9.2449188232E-002 +6.3099861145E-003 -1.9671916962E-003 -3.2590702176E-005 -3.2564625144E-005 -1.1391830444E-001 -3.3950805664E-003
2032500000.000 -1.5052795410E-002 -9.8262786865E-002 +4.1000843048E-003 -5.1865577698E-003 -9.8021700978E-008 -7.1434769779E-006 -1.1375427246E-001 -2.4341583252E-002
2165000000.000 -1.5834808350E-002 -1.0507965088E-001 +4.5585632324E-004 -6.5100193024E-003 -1.1958181858E-005 +1.1765956879E-004 -1.2254333496E-001 -4.2213439941E-002
2297500000.000 -1.7322540283E-002 -1.1063003540E-001 -3.1869411469E-003 -5.6238174438E-003 -7.3842704296E-005 +5.0984323025E-005 -1.2661743164E-001 -5.3474426270E-002
2430000000.000 -1.8939971924E-002 -1.1619949341E-001 -5.7284832001E-003 -2.5026798248E-003 +1.6009807587E-004 -2.4756789207E-004 -1.2667846680E-001 -6.4941406250E-002
2562500000.000 -2.0393371582E-002 -1.2243270874E-001 -6.2677860260E-003 +7.9894065857E-004 +1.0393559933E-005 +3.0100345612E-005 -1.2525939941E-001 -7.0976257324E-002
2695000000.000 -2.3506164551E-002 -1.2728118896E-001 -4.8017501831E-003 +4.1482448578E-003 +4.4122338295E-005 +1.2160092592E-004 -1.1375427246E-001 -7.3307037354E-002
2827500000.000 -2.5833129883E-002 -1.3159179688E-001 -1.6326904297E-003 +6.1285495758E-003 +3.3125281334E-005 -2.6337802410E-005 -9.8758697510E-002 -8.1855773926E-002
2960000000.000 -2.7053833008E-002 -1.3673400879E-001 +2.0639896393E-003 +5.9435367584E-003 +4.5100226998E-005 -8.9257955551E-006 -8.8195800781E-002 -8.6635589600E-002
3092500000.000 -2.9785156250E-002 -1.4323425293E-001 +5.1217079163E-003 +3.6935806274E-003 -2.3150444031E-004 +4.3466687202E-005 -7.0472717285E-002 -8.6032867432E-002
3225000000.000 -3.3782958984E-002 -1.4830017090E-001 +6.2224864960E-003 +2.0885467529E-004 +4.2948871851E-005 -5.3703784943E-005 -5.2021026611E-002 -9.1091156006E-002
3357500000.000 -3.6308288574E-002 -1.5199279785E-001 +5.3572654724E-003 -3.1218528748E-003 +7.2956085205E-005 -3.8962811232E-005 -4.1492462158E-002 -9.1583251953E-002
3490000000.000 -3.8185119629E-002 -1.5840148926E-001 +2.5525093079E-003 -5.7580471039E-003 +6.4898282290E-005 +1.0315328836E-005 -2.8053283691E-002 -8.3404541016E-002
3622500000.000 -4.1244506836E-002 -1.6468811035E-001 -8.9836120605E-004 -6.2162876129E-003 -4.8920512199E-005 -1.4600157738E-004 -1.1295318604E-002 -7.9223632813E-002
3755000000.000 -4.5089721680E-002 -1.7043304443E-001 -4.4009685516E-003 -4.4918060303E-003 +6.4261257648E-005 -9.3169510365E-006 -5.9394836426E-003 -7.2975158691E-002
3887500000.000 -4.7485351563E-002 -1.7538452148E-001 -6.1135292053E-003 -1.4834403992E-003 -6.3341110945E-005 +5.5745244026E-005 +2.1514892578E-003 -5.5952072144E-002
4020000000.000 -5.0010681152E-002 -1.8040466309E-001 -5.8412551880E-003 +2.3403167725E-003 -8.6173415184E-005 -3.1568109989E-005 +1.3179779053E-002 -4.4420242310E-002
4152500000.000 -5.2459716797E-002 -1.8653106689E-001 -3.0918121338E-003 +5.0568580627E-003 -1.6033649445E-005 -5.3662806749E-005 +1.5401840210E-002 -3.2556533813E-002
4285000000.000 -5.5572509766E-002 -1.9190216064E-001 -1.3399124146E-004 +6.1979293823E-003 -2.4445354939E-005 +8.5391104221E-005 +1.7005920410E-002 -1.3059616089E-002
4417500000.000 -5.9127807617E-002 -1.9679260254E-001 +3.4697055817E-003 +5.2220821381E-003 +6.3143670559E-007 +4.3680891395E-005 +2.5774002075E-002 +3.5924911499E-003
4550000000.000 -6.1164855957E-002 -2.0150756836E-001 +5.7275295258E-003 +2.0067691803E-003 +2.7138739824E-005 -8.5689127445E-005 +2.8805732727E-002 +9.5186233521E-003
4682500000.000 -6.3659667969E-002 -2.0736694336E-001 +5.7458877563E-003 -1.4925003052E-003 +3.0472874641E-005 +3.9488077164E-006 +2.5687217712E-002 +2.0590782166E-002
4815000000.000 -6.7108154297E-002 -2.1262359619E-001 +4.3215751648E-003 -4.2705535889E-003 -2.7306377888E-005 -3.3369287848E-006 +3.1261444092E-002 +2.7425765991E-002
4947500000.000 -6.9267272949E-002 -2.1698760986E-001 +1.2607574463E-003 -6.0412883759E-003 -3.8441270590E-005 -2.8561800718E-005 +2.7682304382E-002 +1.9796371460E-002
5080000000.000 -7.0846557617E-002 -2.2223663330E-001 -2.2420883179E-003 -5.8596134186E-003 +4.3654814363E-005 -2.7956441045E-005 +1.3364791870E-002 +2.0434379578E-002
5212500000.000 -7.3577880859E-002 -2.2741699219E-001 -5.2068233490E-003 -3.6382675171E-003 +1.8985942006E-005 +2.6468187571E-006 +9.2792510986E-003 +2.4745941162E-002
5345000000.000 -7.6789855957E-002 -2.3131561279E-001 -6.3774585724E-003 -4.5537948608E-005 -4.1130930185E-005 -3.6185607314E-005 +5.5513381958E-003 +1.6101837158E-002
5477500000.000 -7.7644348145E-002 -2.3500823975E-001 -5.3517818451E-003 +3.6201477051E-003 +5.9688463807E-005 +3.3039599657E-005 -9.1323852539E-003 +1.0229110718E-002
5610000000.000 -7.9757690430E-002 -2.4029541016E-001 -2.4313926697E-003 +5.9981346130E-003 -1.8803402781E-005 +3.4680590034E-005 -1.4782428741E-002 +1.4484882355E-002
5742500000.000 -8.3175659180E-002 -2.4389648438E-001 +1.3685226440E-003 +6.3769817352E-003 -3.6267563701E-005 -9.2443078756E-006 -1.1337757111E-002 +5.9800148010E-003
5875000000.000 -8.6029052734E-002 -2.4590301514E-001 +4.7755241394E-003 +4.4150352478E-003 +5.2813440561E-005 +2.7364119887E-005 -2.0146369934E-002 -3.3130645752E-003
6007500000.000 -8.7471008301E-002 -2.4931335449E-001 +6.4692497253E-003 +9.8299980164E-004 -1.9919127226E-005 +1.2041069567E-005 -2.3180007935E-002 +1.6021728516E-004
6140000000.000 -9.0270996094E-002 -2.5401306152E-001 +5.8674812317E-003 -2.8259754181E-003 -3.8465484977E-005 +2.5492161512E-005 -1.5315532684E-002 -2.7723312378E-003
6272500000.000 -9.5413208008E-002 -2.5723266602E-001 +3.2875537872E-003 -5.7282447815E-003 +6.2163919210E-005 -3.1702220440E-005 -1.6429901123E-002 -1.1807441711E-002
6405000000.000 -9.9029541016E-002 -2.5836181641E-001 -4.7469139099E-004 -6.5474510193E-003 +3.8791447878E-005 +8.1714242697E-006 -1.9391059875E-002 -6.2437057495E-003
6537500000.000 -1.0034179688E-001 -2.6200866699E-001 -4.1544437408E-003 -5.1329135895E-003 -5.7048164308E-006 +1.1671800166E-005 -9.2010498047E-003 -3.1933784485E-003
6670000000.000 -1.0392761230E-001 -2.6773071289E-001 -6.2239170074E-003 -1.9333362579E-003 -5.4778065532E-006 +4.6673230827E-006 -7.8988075256E-003 -7.2088241577E-003
6802500000.000 -1.1009216309E-001 -2.7093505859E-001 -6.2892436981E-003 +1.9078254700E-003 +1.9192695618E-005 +2.0307488739E-005 -1.1337757111E-002 +1.7166137695E-004
6935000000.000 -1.1354064941E-001 -2.7174377441E-001 -4.1265487671E-003 +5.0995349884E-003 -2.9896385968E-005 +1.4943070710E-005 -6.4649581909E-003 +9.9210739136E-003
7067500000.000 -1.1437988281E-001 -2.7545166016E-001 -4.7850608826E-004 +6.5603256226E-003 +1.1967495084E-006 -2.3716129363E-005 -4.7264099121E-003 +1.0241985321E-002
7200000000.000 -1.1885070801E-001 -2.8111267090E-001 +3.2210350037E-003 +5.6853294373E-003 +9.7487121820E-005 +4.1123479605E-005 -1.5199661255E-002 +1.7011642456E-002
7332500000.000 -1.2478637695E-001 -2.8370666504E-001 +5.8658123016E-003 +2.8698444366E-003 +1.1101365089E-006 +3.5978853703E-005 -1.7165184021E-002 +3.0709266663E-002
7465000000.000 -1.2751770020E-001 -2.8575134277E-001 +6.4132213593E-003 -8.7857246399E-004 -2.1344050765E-005 -2.0475126803E-005 -1.9960403442E-002 +3.1174659729E-002
7597500000.000 -1.2989807129E-001 -2.9023742676E-001 +4.8086643219E-003 -4.3578147888E-003 +3.1281262636E-005 -2.1759420633E-005 -3.6334991455E-002 +3.3245086670E-002
7730000000.000 -1.3418579102E-001 -2.9551696777E-001 +1.6205310822E-003 -6.3295364380E-003 +2.3810192943E-005 +4.8058107495E-005 -4.8297882080E-002 +4.3718338013E-002
7862500000.000 -1.3793945313E-001 -2.9847717285E-001 -2.2335052490E-003 -6.1337947845E-003 -1.0382849723E-005 +8.8275410235E-006 -5.3791046143E-002 +4.2593002319E-002
7995000000.000 -1.3990783691E-001 -3.0123901367E-001 -5.3532123566E-003 -3.7968158722E-003 +2.0554289222E-005 -2.7392059565E-005 -7.2948455811E-002 +3.5045623779E-002
8127500000.000 -1.4215087891E-001 -3.0708312988E-001 -6.5491199493E-003 -1.5163421631E-004 +3.1758099794E-005 +1.7523765564E-005 -9.1403961182E-002 +3.9737701416E-002
8260000000.000 -1.4663696289E-001 -3.1057739258E-001 -5.4934024811E-003 +3.5147666931E-003 +4.4098123908E-006 +1.7144717276E-005 -9.5542907715E-002 +3.4381866455E-002
8392500000.000 -1.4823913574E-001 -3.1330871582E-001 -2.6476383209E-003 +6.0951709747E-003 -9.0125948191E-005 -9.1798603535E-005 -1.0977935791E-001 +1.8543243408E-002
8525000000.000 -1.4933776855E-001 -3.1706237793E-001 +1.2781620026E-003 +6.5102577209E-003 -1.0497402400E-005 +1.0447110981E-005 -1.2194442749E-001 +1.5075683594E-002
8657500000.000 -1.5156555176E-001 -3.2128906250E-001 +4.6918392181E-003 +4.6827793121E-003 +2.2059306502E-005 -4.2093917727E-005 -1.1780929565E-001 +4.2572021484E-003
8790000000.000 -1.5486145020E-001 -3.2470703125E-001 +6.5917968750E-003 +1.2438297272E-003 +1.0589137673E-006 +2.5380402803E-005 -1.1967086792E-001 -1.7398834229E-002
8922500000.000 -1.5661621094E-001 -3.2603454590E-001 +6.2060356140E-003 -2.7990341187E-003 +1.2952834368E-005 -3.1050294638E-005 -1.2222290039E-001 -3.0532836914E-002
9055000000.000 -1.5805053711E-001 -3.2954406738E-001 +3.5827159882E-003 -5.7532787323E-003 -2.1621584892E-005 +6.9342553616E-005 -1.1100387573E-001 -4.4017791748E-002
9187500000.000 -1.6041564941E-001 -3.3229064941E-001 -3.1566619873E-004 -6.7770481110E-003 +5.0328671932E-006 -4.3360516429E-005 -1.0022354126E-001 -6.6772460938E-002
9320000000.000 -1.6529846191E-001 -3.3358764648E-001 -4.1713714600E-003 -5.4049491882E-003 +3.1568109989E-005 +3.6135315895E-006 -9.3776702881E-002 -7.9406738281E-002
9452500000.000 -1.6732788086E-001 -3.3493041992E-001 -6.4549446106E-003 -2.1402835846E-003 -1.5417113900E-005 +2.4121254683E-005 -7.4401855469E-002 -8.6593627930E-002
9585000000.000 -1.6981506348E-001 -3.3744812012E-001 -6.5131187439E-003 +1.9450187683E-003 +8.1118196249E-007 -2.7502886951E-005 -5.4367065430E-002 -1.0114669800E-001
9717500000.000 -1.7466735840E-001 -3.4089660645E-001 -4.3435096741E-003 +5.3658485413E-003 -9.5143914223E-006 -5.1757320762E-005 -4.1442871094E-002 -1.0688781738E-001
9850000000.000 -1.7977905273E-001 -3.4063720703E-001 -5.3024291992E-004 +6.9105625153E-003 -4.2904168367E-005 +2.1351501346E-005 -1.9130706787E-002 -1.0218811035E-001
9982500000.000 -1.8110656738E-001 -3.4301757813E-001 +3.4341812134E-003 +6.0167312622E-003 -8.5800886154E-005 +5.8926641941E-005 +6.3552856445E-003 -1.0337066650E-001
10115000000.000 -1.8458557129E-001 -3.4635925293E-001 +6.2284469604E-003 +2.9611587524E-003 +1.2827571481E-005 -1.4320481569E-005 +1.9054412842E-002 -9.9155426025E-002
10247500000.000 -1.9042968750E-001 -3.4805297852E-001 +6.8330764771E-003 -1.0709762573E-003 +3.8862228394E-005 +7.8048557043E-005 +3.5591125488E-002 -8.0081939697E-002
10380000000.000 -1.9369506836E-001 -3.4901428223E-001 +5.0115585327E-003 -4.7638416290E-003 -7.7906996012E-005 +6.6358596087E-005 +5.6926727295E-002 -6.7718505859E-002
10512500000.000 -1.9670104980E-001 -3.5099792480E-001 +1.4755725861E-003 -6.7534446716E-003 -4.0644779801E-005 -4.5333057642E-005 +6.2572479248E-002 -5.6121826172E-002
10645000000.000 -2.0031738281E-001 -3.5345458984E-001 -2.5694370270E-003 -6.4125061035E-003 +4.4891610742E-005 +1.2572854757E-005 +6.5994262695E-002 -2.9308319092E-002
10777500000.000 -2.0480346680E-001 -3.5578918457E-001 -5.9030056000E-003 -3.8526058197E-003 +2.1596439183E-005 +2.8881244361E-005 +7.7209472656E-002 -7.9994201660E-003
10910000000.000 -2.0878601074E-001 -3.5775756836E-001 -6.8960189819E-003 +1.9860267639E-004 -8.0764293671E-006 -3.0462630093E-005 +7.2349548340E-002 +5.4588317871E-003
11042500000.000 -2.1328735352E-001 -3.5977172852E-001 -5.6049823761E-003 +4.1065216064E-003 +2.1215528250E-006 +3.1638890505E-005 +5.9587478638E-002 +3.1211853027E-002
11175000000.000 -2.1653747559E-001 -3.6311340332E-001 -2.3238658905E-003 +6.5898895264E-003 -1.4100223780E-005 +6.3721090555E-005 +5.6587219238E-002 +5.2415847778E-002
11307500000.000 -2.1916198730E-001 -3.6503601074E-001 +1.8782615662E-003 +6.7620277405E-003 -4.0048733354E-005 +1.6041100025E-005 +4.3685913086E-002 +5.8506011963E-002
11440000000.000 -2.2390747070E-001 -3.6756896973E-001 +5.3601264954E-003 +4.3847560883E-003 +3.8479920477E-006 -3.5366974771E-006 +1.8299102783E-002 +7.2086334229E-002
11572500000.000 -2.2563171387E-001 -3.7106323242E-001 +7.0471763611E-003 +6.1035156250E-004 +2.2538006306E-005 +6.4466148615E-005 +4.4898986816E-003 +8.7291717529E-002
11705000000.000 -2.2831726074E-001 -3.7318420410E-001 +6.0455799103E-003 -3.4654140472E-003 +4.9155205488E-006 -4.9816444516E-005 -9.9754333496E-003 +8.0913543701E-002
11837500000.000 -2.3184204102E-001 -3.7561035156E-001 +2.9935836792E-003 -6.2839984894E-003 +1.0305549949E-005 -9.3071721494E-006 -4.2964935303E-002 +7.6648712158E-002
11970000000.000 -2.3353576660E-001 -3.7622070313E-001 -1.1193752289E-003 -6.8950653076E-003 +1.6327016056E-005 +3.0330382288E-005 -5.9211730957E-002 +8.3221435547E-002
12102500000.000 -2.3361206055E-001 -3.7910461426E-001 -4.8515796661E-003 -4.9571990967E-003 -6.9282948971E-005 +6.7275017500E-005 -6.5258026123E-002 +6.4525604248E-002
12235000000.000 -2.3934936523E-001 -3.7997436523E-001 -6.9055557251E-003 -1.3270378113E-003 +4.6474859118E-005 -4.7087669373E-005 -9.2765808105E-002 +4.4170379639E-002
12367500000.000 -2.3959350586E-001 -3.8017272949E-001 -6.3869953156E-003 +2.8162002563E-003 -5.9366226196E-005 +2.2333115339E-005 -1.0538482666E-001 +4.2892456055E-002
12500000000.000 -2.4357604980E-001 -3.8040161133E-001 -3.5514831543E-003 +5.9294700623E-003 -2.7410686016E-005 -7.8827142715E-005 -9.7137451172E-002 +2.0664215088E-002
12632500000.000 -2.4572753906E-001 -3.8276672363E-001 +4.3845176697E-004 +6.8252086639E-003 -9.4734132290E-006 -5.9161335230E-005 -1.0925674438E-001 -1.3267517090E-002
12765000000.000 -2.4827575684E-001 -3.8298034668E-001 +4.2605400085E-003 +5.3455829620E-003 +2.0918436348E-005 +2.0015053451E-005 -1.1725234985E-001 -1.7734527588E-002
12897500000.000 -2.5108337402E-001 -3.8224792480E-001 +6.5958499908E-003 +2.0005702972E-003 -1.5199184418E-005 +4.6983361244E-005 -9.2189788818E-002 -3.4385681152E-002
13030000000.000 -2.5332641602E-001 -3.8294982910E-001 +6.3350200653E-003 -2.1822452545E-003 -2.9534101486E-005 -5.3331255913E-005 -8.9546203613E-002 -7.0888519287E-002
13162500000.000 -2.5624084473E-001 -3.8447570801E-001 +4.0323734283E-003 -5.3734779358E-003 -8.0093741417E-006 -3.9244070649E-005 -9.1766357422E-002 -7.2319030762E-002
13295000000.000 -2.5921630859E-001 -3.8525390625E-001 +2.9373168945E-004 -6.6444873810E-003 +9.9465250969E-006 +3.7824735045E-005 -6.1256408691E-002 -7.8487396240E-002
13427500000.000 -2.6338195801E-001 -3.8415527344E-001 -3.5922527313E-003 -5.5513381958E-003 -1.9632279873E-005 -3.8256868720E-005 -4.6981811523E-002 -1.0400772095E-001
13560000000.000 -2.6396179199E-001 -3.8441467285E-001 -6.0684680939E-003 -2.5055408478E-003 +4.5280903578E-005 +8.9462846518E-005 -4.6764373779E-002 -1.0139083862E-001
13692500000.000 -2.6654052734E-001 -3.8688659668E-001 -6.3869953156E-003 +1.5625953674E-003 -2.9288232327E-005 +3.2929703593E-005 -1.8081665039E-002 -8.9225769043E-002
13825000000.000 -2.7139282227E-001 -3.8763427734E-001 -4.4164657593E-003 +4.7500133514E-003 -4.5150518417E-005 -1.0635703802E-005 +4.1084289551E-003 -1.0302734375E-001
13957500000.000 -2.7464294434E-001 -3.8601684570E-001 -9.3269348145E-004 +6.3676834106E-003 -2.0819716156E-005 -2.1073035896E-005 -1.8692016602E-004 -9.5806121826E-002
14090000000.000 -2.7552795410E-001 -3.8677978516E-001 +2.8412342072E-003 +5.5966377258E-003 +7.1562826633E-006 +7.5239688158E-005 +2.1865844727E-002 -7.0293426514E-002
14222500000.000 -2.7722167969E-001 -3.9010620117E-001 +5.5212974548E-003 +2.9723644257E-003 +6.4801424742E-005 -2.8718262911E-005 +4.4006347656E-002 -7.4359893799E-002
14355000000.000 -2.8236389160E-001 -3.9036560059E-001 +6.2332153320E-003 -7.4076652527E-004 -3.6373734474E-005 +2.7250498533E-006 +3.3294677734E-002 -6.7260742188E-002
14487500000.000 -2.8468322754E-001 -3.9039611816E-001 +4.7183036804E-003 -4.0285587311E-003 +7.7337026596E-005 -6.4559280872E-006 +4.0321350098E-002 -3.4212112427E-002
14620000000.000 -2.8517150879E-001 -3.9190673828E-001 +1.4226436615E-003 -5.8989524841E-003 +9.0128742158E-006 +6.9937668741E-006 +6.0949325562E-002 -3.1547546387E-002
14752500000.000 -2.8861999512E-001 -3.9611816406E-001 -2.2089481354E-003 -5.6600570679E-003 -3.9573758841E-005 -8.4403902292E-005 +4.3325424194E-002 -3.2346725464E-002
14885000000.000 -2.9174804688E-001 -3.9721679688E-001 -4.8959255219E-003 -3.3502578735E-003 +4.7801062465E-005 -3.5988166928E-005 +3.5659790039E-002 +1.4915466309E-003
15017500000.000 -2.9241943359E-001 -3.9823913574E-001 -5.7766437531E-003 +1.0514259338E-004 -2.5443732738E-005 +9.3989074230E-005 +5.3184509277E-002 +8.5983276367E-003
15150000000.000 -2.9347229004E-001 -4.0219116211E-001 -4.6908855438E-003 +3.3230781555E-003 -6.0003250837E-005 +1.6525387764E-005 +3.5156250000E-002 -1.4801025391E-003
15282500000.000 -2.9463195801E-001 -4.0446472168E-001 -1.8355846405E-003 +5.3319931030E-003 +8.5614621639E-005 -4.8350542784E-005 +1.4589309692E-002 +2.3418426514E-002
