!  2-Port S-parameters saved by WinCal
! VAR MeasName=S-Parameters (CALIBRATED_DATA) read from VNA (C)
! VAR MeasDate=10/16/2015 12:47:12 PM
! VAR NAME=M6082_13_15_2_2_20C_6.4mA_-17.5dBm
! VAR FILENAME=M6082_13_15_2_2_20C_6.4mA_-17.5dBm.S2P
! VAR DATE=10/16/2015 12:47:12 PM
! VAR PHYS_PORTS=2,1
! VAR ObjTypeName=DATASET
! VAR IndexType=Frequency
!
# Hz S RI R 50
45000000.000 +1.4898180962E-003 -3.9958953857E-004 -8.8334083557E-004 +6.0062408447E-003 +7.7694654465E-004 +1.4215707779E-004 +2.7499198914E-002 +3.3283233643E-003
177500000.000 +9.6082687378E-005 -6.0214996338E-003 +2.3844242096E-003 +6.2260627747E-003 -1.3818591833E-004 -3.5919249058E-005 +1.5895843506E-002 +1.6684532166E-002
310000000.000 +1.1014938354E-004 -1.0969161987E-002 +5.0141811371E-003 +4.2383670807E-003 -5.3197145462E-006 -1.3289600611E-004 +2.9153823853E-002 +6.1407089233E-002
442500000.000 +1.1444091797E-005 -1.6386985779E-002 +7.4524879456E-003 +4.4822692871E-005 +4.0389597416E-005 -1.2315809727E-004 +7.2551727295E-002 +2.2457122803E-002
575000000.000 -4.8923492432E-004 -2.1949768066E-002 +5.8510303497E-003 -4.0128231049E-003 +6.1318278313E-005 +1.4554709196E-005 +2.7204513550E-002 +1.1330604553E-002
707500000.000 -1.1148452759E-003 -2.6624679565E-002 +2.4921894073E-003 -6.5042972565E-003 -1.0218471289E-005 +3.6400742829E-006 +2.1390914917E-003 +1.8610954285E-002
840000000.000 -1.3160705566E-003 -3.2089233398E-002 -1.5261173248E-003 -6.7059993744E-003 -1.3710930943E-005 -5.5443495512E-005 -1.9979476929E-002 +2.6052474976E-002
972500000.000 -1.3599395752E-003 -3.7158966064E-002 -4.9967765808E-003 -4.6422481537E-003 +3.2570213079E-005 +5.9008598328E-006 -3.5854339600E-002 +3.5507202148E-002
1105000000.000 -2.2850036621E-003 -4.2493820190E-002 -6.7577362061E-003 -1.0809898376E-003 +8.8475644588E-007 -3.5732984543E-005 -4.6819686890E-002 +3.8217544556E-002
1237500000.000 -3.0288696289E-003 -4.7214508057E-002 -6.1655044556E-003 +2.8455257416E-003 +7.6979398727E-005 -2.4169683456E-005 -5.8635711670E-002 +3.3784866333E-002
1370000000.000 -3.8490295410E-003 -5.2137374878E-002 -3.4711360931E-003 +5.7599544525E-003 -3.1404197216E-006 +7.2430819273E-005 -7.3860168457E-002 +2.6893615723E-002
1502500000.000 -4.4193267822E-003 -5.6867599487E-002 +3.7598609924E-004 +6.6666603088E-003 -4.2002648115E-006 -4.6884641051E-005 -8.7917327881E-002 +2.1320343018E-002
1635000000.000 -4.6138763428E-003 -6.2194824219E-002 +4.0173530579E-003 +5.3818225861E-003 +8.3926133811E-006 -9.6783041954E-006 -9.9086761475E-002 +1.1711120605E-002
1767500000.000 -5.6266784668E-003 -6.7481994629E-002 +6.4220428467E-003 +2.2723674774E-003 -2.2854655981E-006 +5.5387616158E-005 -1.1178970337E-001 +2.9258728027E-003
1900000000.000 -6.1264038086E-003 -7.1823120117E-002 +6.3452720642E-003 -1.7979145050E-003 -3.2257288694E-005 -3.7271529436E-005 -1.1372375488E-001 -3.5667419434E-003
2032500000.000 -6.9427490234E-003 -7.6313018799E-002 +4.3511390686E-003 -4.9805641174E-003 +3.1145289540E-005 -7.1171671152E-006 -1.1365127563E-001 -2.4333953857E-002
2165000000.000 -7.1220397949E-003 -8.1794738770E-002 +8.5663795471E-004 -6.5429210663E-003 -2.7854926884E-005 +1.1030584574E-005 -1.2257766724E-001 -4.2217254639E-002
2297500000.000 -7.9498291016E-003 -8.6021423340E-002 -3.0059814453E-003 -5.7725906372E-003 -7.4520357884E-007 -5.4741394706E-007 -1.2645721436E-001 -5.3489685059E-002
2430000000.000 -8.7203979492E-003 -9.0534210205E-002 -5.7382583618E-003 -2.9869079590E-003 -2.4419277906E-006 +2.7134083211E-005 -1.2644958496E-001 -6.5032958984E-002
2562500000.000 -9.6893310547E-003 -9.5371246338E-002 -6.4542293549E-003 +6.7090988159E-004 +4.9272552133E-005 +3.5148113966E-006 -1.2534332275E-001 -7.1044921875E-002
2695000000.000 -1.1856079102E-002 -9.9132537842E-002 -5.0494670868E-003 +4.0342807770E-003 -1.1784210801E-004 -3.5390257835E-007 -1.1363983154E-001 -7.3287963867E-002
2827500000.000 -1.3477325439E-002 -1.0206985474E-001 -1.9187927246E-003 +6.2088966370E-003 +3.7163496017E-005 -1.2565404177E-004 -9.8728179932E-002 -8.1836700439E-002
2960000000.000 -1.3854980469E-002 -1.0630798340E-001 +1.8596649170E-003 +6.1995983124E-003 +4.1197985411E-005 +7.6763331890E-005 -8.8134765625E-002 -8.6696624756E-002
3092500000.000 -1.5724182129E-002 -1.1154174805E-001 +4.9514770508E-003 +4.0750503540E-003 -5.9172511101E-005 +2.0366162062E-005 -7.0362091064E-002 -8.5655212402E-002
3225000000.000 -1.8913269043E-002 -1.1562347412E-001 +6.4723491669E-003 +7.2002410889E-004 -1.2967735529E-004 +4.7698616982E-005 -5.1963806152E-002 -9.1068267822E-002
3357500000.000 -2.0595550537E-002 -1.1844635010E-001 +5.6409835815E-003 -3.0474662781E-003 -8.0391764641E-005 +1.1338293552E-004 -4.1362762451E-002 -9.1560363770E-002
3490000000.000 -2.1701812744E-002 -1.2355804443E-001 +3.0548572540E-003 -5.6157112122E-003 +2.4214386940E-006 +1.7934292555E-004 -2.7847290039E-002 -8.3251953125E-002
3622500000.000 -2.3559570313E-002 -1.2905120850E-001 -6.2394142151E-004 -6.4864158630E-003 -1.0491162539E-004 -6.0237944126E-005 -1.1253356934E-002 -7.9235076904E-002
3755000000.000 -2.6336669922E-002 -1.3407135010E-001 -4.1596889496E-003 -4.9774646759E-003 +1.1638924479E-004 -2.6606023312E-005 -5.7792663574E-003 -7.2902679443E-002
3887500000.000 -2.8106689453E-002 -1.3793182373E-001 -6.2444210052E-003 -1.8811225891E-003 -6.4041465521E-005 +3.1370669603E-005 +2.1743774414E-003 -5.5788040161E-002
4020000000.000 -2.9396057129E-002 -1.4212799072E-001 -6.0622692108E-003 +2.0120143890E-003 -1.6328878701E-005 -1.7002224922E-005 +1.3343811035E-002 -4.4393539429E-002
4152500000.000 -3.0860900879E-002 -1.4736938477E-001 -4.0953159332E-003 +5.0303936005E-003 +9.2551112175E-005 -3.8675963879E-005 +1.5457153320E-002 -3.2472610474E-002
4285000000.000 -3.2974243164E-002 -1.5198516846E-001 -4.5704841614E-004 +6.3500404358E-003 -4.7581270337E-005 -3.5218894482E-005 +1.7016410828E-002 -1.3145446777E-002
4417500000.000 -3.5415649414E-002 -1.5607452393E-001 +3.1416416168E-003 +5.6357383728E-003 -1.7059966922E-005 +1.4078803360E-005 +2.5706291199E-002 +3.6411285400E-003
4550000000.000 -3.6369323730E-002 -1.6011047363E-001 +5.6359767914E-003 +2.7344226837E-003 +7.9728662968E-005 -1.4074146748E-005 +2.8962135315E-002 +9.6397399902E-003
4682500000.000 -3.7849426270E-002 -1.6535949707E-001 +6.2854290009E-003 -8.3565711975E-004 +5.8602541685E-005 +7.4062496424E-005 +2.5739669800E-002 +2.0608901978E-002
4815000000.000 -4.0184020996E-002 -1.6983032227E-001 +4.7881603241E-003 -4.1224956512E-003 -8.5867941380E-005 +2.1673738956E-005 +3.1301498413E-002 +2.7389526367E-002
4947500000.000 -4.1336059570E-002 -1.7369842529E-001 +1.7454624176E-003 -6.0391426086E-003 -1.1082738638E-005 -5.7594850659E-005 +2.7610778809E-002 +1.9943237305E-002
5080000000.000 -4.1938781738E-002 -1.7811584473E-001 -1.9667148590E-003 -6.2119960785E-003 +2.3068860173E-005 -2.5592744350E-006 +1.3291358948E-002 +2.0576477051E-002
5212500000.000 -4.3647766113E-002 -1.8274688721E-001 -5.0296783447E-003 -3.9985179901E-003 +9.4026327133E-006 +3.0951574445E-005 +9.2830657959E-003 +2.4779319763E-002
5345000000.000 -4.5806884766E-002 -1.8620300293E-001 -6.4692497253E-003 -5.1283836365E-004 -3.0294060707E-005 -3.2121315598E-005 +5.4931640625E-003 +1.6164779663E-002
5477500000.000 -4.5631408691E-002 -1.8934631348E-001 -5.6328773499E-003 +3.2322406769E-003 +1.5122815967E-005 -3.4259632230E-005 -9.1800689697E-003 +1.0359764099E-002
5610000000.000 -4.6440124512E-002 -1.9400024414E-001 -2.8817653656E-003 +5.8994293213E-003 -2.6639550924E-005 +2.0414590836E-005 -1.4925956726E-002 +1.4645099640E-002
5742500000.000 -4.8927307129E-002 -1.9716644287E-001 +1.0178089142E-003 +6.5853595734E-003 -9.6457079053E-006 +1.9716098905E-006 -1.1481285095E-002 +5.9103965759E-003
5875000000.000 -5.0643920898E-002 -1.9864654541E-001 +4.4822692871E-003 +4.8663616180E-003 +5.6514516473E-005 -1.7397105694E-005 -2.0214080811E-002 -3.3712387085E-003
6007500000.000 -5.1055908203E-002 -2.0159149170E-001 +6.5095424652E-003 +1.4939308167E-003 +1.8209218979E-005 +8.8289380074E-005 -2.3266792297E-002 +1.9168853760E-004
6140000000.000 -5.2886962891E-002 -2.0606994629E-001 +6.2887668610E-003 -2.3620128632E-003 +7.9311430454E-006 +8.0425292253E-005 -1.5371322632E-002 -2.7098655701E-003
6272500000.000 -5.6922912598E-002 -2.0874786377E-001 +3.7391185760E-003 -5.4280757904E-003 +4.4703483582E-008 -7.5101852417E-005 -1.6404151917E-002 -1.1799812317E-002
6405000000.000 -5.9494018555E-002 -2.0953369141E-001 +3.6716461182E-005 -6.6461563110E-003 +2.4400651455E-005 +2.1606683731E-006 -1.9439697266E-002 -6.3629150391E-003
6537500000.000 -5.9616088867E-002 -2.1292114258E-001 -3.6966800690E-003 -5.5055618286E-003 -4.3462961912E-005 +4.6223402023E-005 -9.3111991882E-003 -3.2324790955E-003
6670000000.000 -6.2362670898E-002 -2.1832275391E-001 -6.0956478119E-003 -2.5193691254E-003 +1.1864118278E-005 -2.8607435524E-005 -7.8678131104E-003 -7.2183609009E-003
6802500000.000 -6.7298889160E-002 -2.2122955322E-001 -6.4225196838E-003 +1.3852119446E-003 +2.7453526855E-005 +6.9122761488E-006 -1.1297702789E-002 +3.9100646973E-005
6935000000.000 -6.9580078125E-002 -2.2195434570E-001 -4.6021938324E-003 +4.7326087952E-003 -4.1836872697E-005 -3.3155083656E-007 -6.3934326172E-003 +9.7866058350E-003
7067500000.000 -6.9763183594E-002 -2.2561645508E-001 -1.1675357819E-003 +6.5424442291E-003 -2.5300309062E-005 +8.8782981038E-006 -4.6253204346E-003 +1.0189533234E-002
7200000000.000 -7.3356628418E-002 -2.3080444336E-001 +2.7136802673E-003 +6.0708522797E-003 +6.8783760071E-005 +9.8422169685E-006 -1.5061378479E-002 +1.7011642456E-002
7332500000.000 -7.7850341797E-002 -2.3347473145E-001 +5.5868625641E-003 +3.4778118134E-003 +3.9616599679E-005 -4.6454370022E-006 -1.6998291016E-002 +3.0650138855E-002
7465000000.000 -7.9597473145E-002 -2.3544311523E-001 +6.4728260040E-003 -2.0980834961E-004 -1.8255785108E-005 +3.6137178540E-005 -1.9820213318E-002 +3.1150817871E-002
7597500000.000 -8.1291198730E-002 -2.4005889893E-001 +5.2659511566E-003 -3.8197040558E-003 +4.9414113164E-005 -9.7081065178E-006 -3.6407470703E-002 +3.3285140991E-002
7730000000.000 -8.4472656250E-002 -2.4474334717E-001 +2.2890567780E-003 -6.1013698578E-003 +2.5751069188E-005 +5.4499134421E-005 -4.8236846924E-002 +4.3636322021E-002
7862500000.000 -8.7020874023E-002 -2.4781799316E-001 -1.5227794647E-003 -6.3750743866E-003 -1.2904405594E-005 +1.0757241398E-005 -5.3550720215E-002 +4.2444229126E-002
7995000000.000 -8.8226318359E-002 -2.5064086914E-001 -4.8127174377E-003 -4.3277740479E-003 +5.4502859712E-005 -3.1236559153E-005 -7.2948455811E-002 +3.5083770752E-002
8127500000.000 -8.9782714844E-002 -2.5631713867E-001 -6.4084529877E-003 -1.0218620300E-003 +7.9527497292E-005 -9.7863376141E-006 -9.1339111328E-002 +3.9794921875E-002
8260000000.000 -9.2895507813E-002 -2.5962829590E-001 -5.8321952820E-003 +2.8493404388E-003 -4.7501176596E-005 -1.9660219550E-005 -9.5386505127E-002 +3.4458160400E-002
8392500000.000 -9.3673706055E-002 -2.6251220703E-001 -3.2596588135E-003 +5.6097507477E-003 -2.4355947971E-005 -1.3727694750E-005 -1.0984039307E-001 +1.8463134766E-002
8525000000.000 -9.3994140625E-002 -2.6620483398E-001 +4.2748451233E-004 +6.5968036652E-003 +5.8975070715E-005 +1.2574717402E-005 -1.2204742432E-001 +1.5010833740E-002
8657500000.000 -9.5382690430E-002 -2.7038574219E-001 +4.0147304535E-003 +5.1746368408E-003 -1.4157965779E-005 +4.7357752919E-005 -1.1779022217E-001 +4.2533874512E-003
8790000000.000 -9.7534179688E-002 -2.7381896973E-001 +6.2034130096E-003 +2.0236968994E-003 -9.8720192909E-006 -1.7398968339E-005 -1.1959838867E-001 -1.7448425293E-002
8922500000.000 -9.8358154297E-002 -2.7517700195E-001 +6.3409805298E-003 -1.8436908722E-003 -1.6400590539E-005 +3.1283125281E-006 -1.2231826782E-001 -3.0525207520E-002
9055000000.000 -9.9060058594E-002 -2.7870178223E-001 +4.1368007660E-003 -5.1274299622E-003 -1.9812025130E-005 -6.8638473749E-007 -1.1101150513E-001 -4.3975830078E-002
9187500000.000 -1.0070800781E-001 -2.8121948242E-001 +6.4945220947E-004 -6.6218376160E-003 -1.7998740077E-005 -4.3844804168E-005 -1.0029220581E-001 -6.6841125488E-002
9320000000.000 -1.0424804688E-001 -2.8256225586E-001 -3.1855106354E-003 -5.8162212372E-003 +8.5802748799E-006 +2.5937333703E-005 -9.3647003174E-002 -7.9524993896E-002
9452500000.000 -1.0528564453E-001 -2.8416442871E-001 -5.9599876404E-003 -3.0689239502E-003 +6.1325728893E-005 +6.2692910433E-005 -7.4131011963E-002 -8.6662292480E-002
9585000000.000 -1.0702514648E-001 -2.8680419922E-001 -6.6671371460E-003 +8.5735321045E-004 -4.9564987421E-005 -7.4613839388E-005 -5.4389953613E-002 -1.0120391846E-001
9717500000.000 -1.1111450195E-001 -2.9017639160E-001 -4.9586296082E-003 +4.4567584991E-003 -3.6938115954E-005 -1.5748664737E-005 -4.1412353516E-002 -1.0678482056E-001
9850000000.000 -1.1506652832E-001 -2.9020690918E-001 -1.6806125641E-003 +6.5443515778E-003 +4.1123479605E-005 +4.2568892241E-005 -1.9016265869E-002 -1.0227584839E-001
9982500000.000 -1.1555480957E-001 -2.9277038574E-001 +2.3732185364E-003 +6.3123703003E-003 -1.6321428120E-005 -4.2887404561E-006 +6.3781738281E-003 -1.0348510742E-001
10115000000.000 -1.1830139160E-001 -2.9617309570E-001 +5.4893493652E-003 +3.8981437683E-003 -3.9983540773E-005 -6.4950436354E-005 +1.9115447998E-002 -9.9082946777E-002
10247500000.000 -1.2326049805E-001 -2.9808044434E-001 +6.7811012268E-003 +1.9454956055E-004 +1.0189600289E-005 +2.9292888939E-005 +3.5793304443E-002 -7.9887390137E-002
10380000000.000 -1.2541198730E-001 -2.9960632324E-001 +5.7046413422E-003 -3.6838054657E-003 -4.9985945225E-005 +6.8951398134E-005 +5.7106018066E-002 -6.7703247070E-002
10512500000.000 -1.2794494629E-001 -3.0186462402E-001 +2.6450157166E-003 -6.2577724457E-003 +4.3679028749E-006 -5.2710995078E-005 +6.2500000000E-002 -5.6091308594E-002
10645000000.000 -1.3102722168E-001 -3.0415344238E-001 -1.3194084167E-003 -6.6192150116E-003 +1.2107659131E-005 +5.0296075642E-006 +6.6009521484E-002 -2.9129028320E-002
10777500000.000 -1.3435363770E-001 -3.0682373047E-001 -4.7755241394E-003 -4.7514438629E-003 -2.1234154701E-007 +4.1572377086E-005 +7.7308654785E-002 -7.9078674316E-003
10910000000.000 -1.3722229004E-001 -3.0935668945E-001 -6.6208839417E-003 -1.1742115021E-003 -6.1858445406E-006 -2.1860003471E-005 +7.2265625000E-002 +5.4779052734E-003
11042500000.000 -1.4125061035E-001 -3.1187438965E-001 -6.2136650085E-003 +2.6688575745E-003 +2.7877278626E-005 +2.9655173421E-005 +5.9328079224E-002 +3.1206130981E-002
11175000000.000 -1.4367675781E-001 -3.1546020508E-001 -3.6358833313E-003 +5.8095455170E-003 -3.7878751755E-005 +5.7538971305E-005 +5.6514739990E-002 +5.2589416504E-002
11307500000.000 -1.4533996582E-001 -3.1758117676E-001 +2.7656555176E-004 +6.7620277405E-003 -4.6065077186E-005 -5.0239264965E-005 +4.3642044067E-002 +5.8511734009E-002
11440000000.000 -1.4929199219E-001 -3.2051086426E-001 +4.0798187256E-003 +5.4678916931E-003 +3.5744160414E-005 -5.3195282817E-005 +1.8077850342E-002 +7.2059631348E-002
11572500000.000 -1.5032958984E-001 -3.2434082031E-001 +6.4487457275E-003 +2.2003650665E-003 -1.8505379558E-005 +3.7446618080E-005 +4.3258666992E-003 +8.7486267090E-002
11705000000.000 -1.5243530273E-001 -3.2676696777E-001 +6.6151618958E-003 -1.8079280853E-003 -5.2992254496E-005 +4.4373795390E-005 -1.0143280029E-002 +8.1027984619E-002
11837500000.000 -1.5536499023E-001 -3.2946777344E-001 +4.3001174927E-003 -5.2528381348E-003 +1.1514872313E-004 -6.7915767431E-005 -4.3151855469E-002 +7.6519012451E-002
11970000000.000 -1.5632629395E-001 -3.3061218262E-001 +7.4720382690E-004 -6.7880153656E-003 +3.6438927054E-005 +5.6274235249E-005 -5.9345245361E-002 +8.2996368408E-002
12102500000.000 -1.5574645996E-001 -3.3387756348E-001 -3.2906532288E-003 -5.9587955475E-003 -2.0953826606E-005 -6.1849132180E-006 -6.5525054932E-002 +6.4250946045E-002
12235000000.000 -1.6079711914E-001 -3.3500671387E-001 -6.1264038086E-003 -3.1216144562E-003 +3.1527131796E-005 -5.1174312830E-005 -9.2979431152E-002 +4.3979644775E-002
12367500000.000 -1.6032409668E-001 -3.3569335938E-001 -6.7512989044E-003 +8.9621543884E-004 +1.5728175640E-005 +1.0274723172E-004 -1.0547256470E-001 +4.2652130127E-002
12500000000.000 -1.6346740723E-001 -3.3651733398E-001 -5.0144195557E-003 +4.6496391296E-003 -1.8633902073E-005 +9.6214935184E-006 -9.7389221191E-002 +2.0153045654E-002
12632500000.000 -1.6514587402E-001 -3.3963012695E-001 -1.5504360199E-003 +6.6275596619E-003 +7.2382390499E-006 -6.1228871346E-005 -1.0933303833E-001 -1.3538360596E-002
12765000000.000 -1.6697692871E-001 -3.3999633789E-001 +2.4259090424E-003 +6.2625408173E-003 +1.0087713599E-004 +2.3074448109E-005 -1.1727142334E-001 -1.7871856689E-002
12897500000.000 -1.6905212402E-001 -3.3956909180E-001 +5.4955482483E-003 +3.8874149323E-003 +3.8823112845E-005 +1.8460676074E-005 -9.2048645020E-002 -3.4717559814E-002
13030000000.000 -1.7060852051E-001 -3.4074401855E-001 +6.6916942596E-003 -3.9815902710E-005 +5.6363642216E-006 -1.1114031076E-004 -8.9466094971E-002 -7.1258544922E-002
13162500000.000 -1.7286682129E-001 -3.4274291992E-001 +5.6245326996E-003 -3.7667751312E-003 +5.5845826864E-005 -9.0107321739E-005 -9.1583251953E-002 -7.2441101074E-002
13295000000.000 -1.7552185059E-001 -3.4403991699E-001 +2.4416446686E-003 -6.3257217407E-003 -4.3228268623E-005 +7.7571719885E-005 -6.0817718506E-002 -7.8647613525E-002
13427500000.000 -1.7938232422E-001 -3.4344482422E-001 -1.5647411346E-003 -6.4730644226E-003 -8.6706131697E-006 -5.4288655519E-005 -4.6485900879E-002 -1.0446929932E-001
13560000000.000 -1.7906188965E-001 -3.4379577637E-001 -4.9459934235E-003 -4.4891834259E-003 -3.8001686335E-005 -6.9729983807E-005 -4.6596527100E-002 -1.0149002075E-001
13692500000.000 -1.8124389648E-001 -3.4707641602E-001 -6.5596103668E-003 -9.8371505737E-004 +4.4368207455E-006 +6.2670558691E-005 -1.7620086670E-002 -8.8970184326E-002
13825000000.000 -1.8595886230E-001 -3.4854125977E-001 -5.9261322021E-003 +2.9628276825E-003 -1.1742860079E-004 -4.6860426664E-005 +4.6424865723E-003 -1.0310363770E-001
13957500000.000 -1.8862915039E-001 -3.4744262695E-001 -3.2820701599E-003 +5.8150291443E-003 +5.5879354477E-008 +6.8806111813E-005 -1.2207031250E-004 -9.5603942871E-002
14090000000.000 -1.8908691406E-001 -3.4889221191E-001 +6.7067146301E-004 +6.6547393799E-003 +1.5079230070E-004 +2.3342669010E-005 +2.1869659424E-002 -6.9980621338E-002
14222500000.000 -1.9050598145E-001 -3.5285949707E-001 +4.3029785156E-003 +5.0508975983E-003 -3.1543895602E-005 +1.7557293177E-005 +4.4086456299E-002 -7.3951721191E-002
14355000000.000 -1.9514465332E-001 -3.5369873047E-001 +6.3848495483E-003 +1.6655921936E-003 +8.5607171059E-006 -6.1359256506E-005 +3.3355712891E-002 -6.6997528076E-002
14487500000.000 -1.9726562500E-001 -3.5392761230E-001 +6.2637329102E-003 -2.1545886993E-003 +5.4569914937E-005 -2.6747584343E-006 +4.0214538574E-002 -3.4112930298E-002
14620000000.000 -1.9709777832E-001 -3.5636901855E-001 +3.7739276886E-003 -5.3722858429E-003 +1.1213123798E-005 +6.6928565502E-005 +6.0756683350E-002 -3.1391143799E-002
14752500000.000 -2.0054626465E-001 -3.6091613770E-001 +1.2111663818E-004 -6.5221786499E-003 +3.4868717194E-005 -1.0716170073E-004 +4.3281555176E-002 -3.2062530518E-002
14885000000.000 -2.0349121094E-001 -3.6221313477E-001 -3.5760402679E-003 -5.3882598877E-003 +8.1308186054E-005 -9.3542039394E-006 +3.5713195801E-002 +1.5354156494E-003
15017500000.000 -2.0365905762E-001 -3.6325073242E-001 -5.9411525726E-003 -2.4709701538E-003 -1.0303035378E-004 +8.0130994320E-005 +5.2892684937E-002 +8.5277557373E-003
15150000000.000 -2.0433044434E-001 -3.6793518066E-001 -6.2561035156E-003 +1.4097690582E-003 -5.0861388445E-005 +4.1056424379E-005 +3.4875869751E-002 -1.3694763184E-003
15282500000.000 -2.0558166504E-001 -3.7086486816E-001 -4.2285919189E-003 +4.6470165253E-003 +4.6685338020E-005 -1.1367350817E-004 +1.4502525330E-002 +2.3423194885E-002
