!  2-Port S-parameters saved by WinCal
! VAR MeasName=S-Parameters (CALIBRATED_DATA) read from VNA (C)
! VAR MeasDate=10/16/2015 2:43:18 PM
! VAR NAME=M6082_10_13_2_2_20C_12.9mA_-17.5dBm
! VAR FILENAME=M6082_10_13_2_2_20C_12.9mA_-17.5dBm.S2P
! VAR DATE=10/16/2015 2:43:18 PM
! VAR PHYS_PORTS=2,1
! VAR ObjTypeName=DATASET
! VAR IndexType=Frequency
!
# Hz S RI R 50
45000000.000 -1.2534332275E-001 +1.1444091797E-004 -6.8926811218E-004 +6.0591697693E-003 +5.8531761169E-005 +1.0277628899E-003 +2.9301643372E-002 +3.3283233643E-003
177500000.000 -1.2486648560E-001 -4.1618347168E-003 +2.3512840271E-003 +6.2325000763E-003 +3.5226345062E-005 +1.6135722399E-004 +1.5850067139E-002 +1.6805648804E-002
310000000.000 -1.2402343750E-001 -8.5754394531E-003 +4.9479007721E-003 +4.3270587921E-003 -1.7504394054E-004 -1.6529113054E-004 +2.8982162476E-002 +6.1689376831E-002
442500000.000 -1.2319183350E-001 -1.3435363770E-002 +7.3285102844E-003 +8.8453292847E-005 +7.3434785008E-006 +1.6147270799E-005 +7.2547912598E-002 +2.2464752197E-002
575000000.000 -1.2301635742E-001 -1.9184112549E-002 +5.8791637421E-003 -4.0917396545E-003 +6.3236802816E-005 +1.0571256280E-004 +2.7194976807E-002 +1.1267662048E-002
707500000.000 -1.2303161621E-001 -2.3838043213E-002 +2.5756359100E-003 -6.4680576324E-003 -5.9183686972E-005 +1.4759600163E-005 +1.9531250000E-003 +1.8682479858E-002
840000000.000 -1.2244033813E-001 -2.9445648193E-002 -1.5044212341E-003 -6.7443847656E-003 +3.5034492612E-005 -1.5169382095E-005 -1.9807815552E-002 +2.6055335999E-002
972500000.000 -1.2204742432E-001 -3.4820556641E-002 -4.9135684967E-003 -4.6620368958E-003 +1.7976388335E-005 -9.5330178738E-006 -3.5795211792E-002 +3.5327911377E-002
1105000000.000 -1.2252426147E-001 -4.0363311768E-002 -6.6587924957E-003 -1.0275840759E-003 -1.9209459424E-005 -6.0940161347E-005 -4.6941757202E-002 +3.8204193115E-002
1237500000.000 -1.2276840210E-001 -4.5368194580E-002 -6.0486793518E-003 +2.6991367340E-003 +6.4421445131E-005 -3.2972544432E-005 -5.8530807495E-002 +3.3771514893E-002
1370000000.000 -1.2345886230E-001 -5.0445556641E-002 -3.5762786865E-003 +5.6784152985E-003 -2.0015053451E-005 -2.9907561839E-005 -7.3932647705E-002 +2.6889801025E-002
1502500000.000 -1.2358093262E-001 -5.5515289307E-002 +2.3317337036E-004 +6.6032409668E-003 -6.0738995671E-005 -4.9564987421E-005 -8.8012695313E-002 +2.1263122559E-002
1635000000.000 -1.2363433838E-001 -6.1458587646E-002 +3.9584636688E-003 +5.3706169128E-003 -4.2309984565E-006 -2.3183412850E-005 -9.8964691162E-002 +1.1692047119E-002
1767500000.000 -1.2458038330E-001 -6.6677093506E-002 +6.2339305878E-003 +2.2363662720E-003 -2.0403414965E-005 +9.0625137091E-005 -1.1187744141E-001 +2.9373168945E-003
1900000000.000 -1.2467193604E-001 -7.1353912354E-002 +6.3967704773E-003 -1.7497539520E-003 +1.5687197447E-005 -9.3299895525E-005 -1.1378097534E-001 -3.4675598145E-003
2032500000.000 -1.2532806396E-001 -7.6240539551E-002 +4.2757987976E-003 -4.8892498016E-003 +1.7173588276E-005 -6.6414475441E-005 -1.1380386353E-001 -2.4337768555E-002
2165000000.000 -1.2549591064E-001 -8.2046508789E-002 +7.4577331543E-004 -6.5877437592E-003 +3.7308782339E-005 +2.6602298021E-005 -1.2244033813E-001 -4.2350769043E-002
2297500000.000 -1.2619018555E-001 -8.6585998535E-002 -2.9833316803E-003 -5.8445930481E-003 -2.8563663363E-006 -5.3816474974E-006 -1.2657165527E-001 -5.3581237793E-002
2430000000.000 -1.2672424316E-001 -9.1514587402E-002 -5.5282115936E-003 -3.1609535217E-003 -1.7702579498E-005 -1.4124810696E-004 -1.2634277344E-001 -6.4788818359E-002
2562500000.000 -1.2763977051E-001 -9.6755981445E-002 -6.4191818237E-003 +6.0534477234E-004 +5.4389238358E-006 +1.4020502567E-004 -1.2520599365E-001 -7.0907592773E-002
2695000000.000 -1.2965393066E-001 -1.0060882568E-001 -4.9266815186E-003 +3.9479732513E-003 -5.7963654399E-005 +3.0748546124E-005 -1.1357498169E-001 -7.3341369629E-002
2827500000.000 -1.3120269775E-001 -1.0405731201E-001 -1.8332004547E-003 +6.0911178589E-003 +5.3420662880E-005 +8.0782920122E-006 -9.8377227783E-002 -8.1604003906E-002
2960000000.000 -1.3167572021E-001 -1.0860443115E-001 +1.8134117126E-003 +6.2174797058E-003 +4.7492794693E-006 +1.2409407645E-005 -8.8050842285E-002 -8.6624145508E-002
3092500000.000 -1.3375854492E-001 -1.1429595947E-001 +4.7974586487E-003 +4.1077136993E-003 -1.3485550880E-005 +1.2803822756E-004 -7.0343017578E-002 -8.5891723633E-002
3225000000.000 -1.3678741455E-001 -1.1862182617E-001 +6.1805248260E-003 +6.3610076904E-004 -5.1794573665E-005 -2.6915222406E-006 -5.1940917969E-002 -9.1049194336E-002
3357500000.000 -1.3853454590E-001 -1.2167358398E-001 +5.6140422821E-003 -2.9609203339E-003 +2.9085204005E-005 +1.6384758055E-005 -4.1336059570E-002 -9.1556549072E-002
3490000000.000 -1.3985443115E-001 -1.2737274170E-001 +3.0496120453E-003 -5.5496692657E-003 -5.7522207499E-005 -2.0461156964E-005 -2.7809143066E-002 -8.3393096924E-002
3622500000.000 -1.4188385010E-001 -1.3300323486E-001 -5.1999092102E-004 -6.2971115112E-003 -3.6880373955E-005 -1.6301870346E-005 -1.1398315430E-002 -7.9196929932E-002
3755000000.000 -1.4474487305E-001 -1.3809967041E-001 -3.8585662842E-003 -4.8482418060E-003 +1.1201947927E-005 -5.8900564909E-005 -5.9890747070E-003 -7.2723388672E-002
3887500000.000 -1.4658355713E-001 -1.4248657227E-001 -5.9843063354E-003 -1.9600391388E-003 +2.9563903809E-005 +7.8752636909E-005 +2.2277832031E-003 -5.5786132813E-002
4020000000.000 -1.4826965332E-001 -1.4675140381E-001 -5.9697628021E-003 +1.8832683563E-003 -3.5392120481E-005 -7.0892274380E-006 +1.3397216797E-002 -4.4561386108E-002
4152500000.000 -1.4974212646E-001 -1.5240478516E-001 -3.8843154907E-003 +4.8964023590E-003 +1.6205012798E-005 +6.7306682467E-006 +1.5344619751E-002 -3.2499313354E-002
4285000000.000 -1.5216827393E-001 -1.5730285645E-001 -4.5967102051E-004 +6.1435699463E-003 +5.4277479649E-005 -3.3136457205E-006 +1.7046928406E-002 -1.3015747070E-002
4417500000.000 -1.5496826172E-001 -1.6155242920E-001 +3.1311511993E-003 +5.3639411926E-003 -2.4136155844E-005 +5.3087249398E-005 +2.5650024414E-002 +3.6535263062E-003
4550000000.000 -1.5607452393E-001 -1.6567230225E-001 +5.4361820221E-003 +2.7222633362E-003 +2.2433698177E-005 -1.7756596208E-005 +2.8893470764E-002 +9.5720291138E-003
4682500000.000 -1.5768432617E-001 -1.7118835449E-001 +5.9998035431E-003 -6.3371658325E-004 -2.2802501917E-005 +4.4662505388E-005 +2.5576591492E-002 +2.0665168762E-002
4815000000.000 -1.6043090820E-001 -1.7602539063E-001 +4.6503543854E-003 -3.8020610809E-003 +4.6063214540E-006 -1.8507242203E-005 +3.1189918518E-002 +2.7407646179E-002
4947500000.000 -1.6194152832E-001 -1.7991638184E-001 +1.8351078033E-003 -5.8338642120E-003 -1.1514872313E-005 +4.0065497160E-005 +2.7652740479E-002 +1.9828796387E-002
5080000000.000 -1.6273498535E-001 -1.8470764160E-001 -1.7170906067E-003 -5.8581829071E-003 +5.5095180869E-005 +2.0034611225E-005 +1.3272285461E-002 +2.0586013794E-002
5212500000.000 -1.6477203369E-001 -1.8961334229E-001 -4.7438144684E-003 -3.9641857147E-003 -5.5637210608E-006 +3.2113865018E-005 +9.1552734375E-003 +2.4763107300E-002
5345000000.000 -1.6721343994E-001 -1.9317626953E-001 -6.2229633331E-003 -6.3252449036E-004 +1.7882324755E-005 -6.5322965384E-006 +5.5465698242E-003 +1.6124725342E-002
5477500000.000 -1.6735839844E-001 -1.9644165039E-001 -5.5444240570E-003 +2.9640197754E-003 +8.1960111856E-005 +4.9658119678E-005 -9.2945098877E-003 +1.0243415833E-002
5610000000.000 -1.6866302490E-001 -2.0127868652E-001 -2.8629302979E-003 +5.5809020996E-003 -3.2829120755E-005 +2.4795532227E-005 -1.4909267426E-002 +1.4378547668E-002
5742500000.000 -1.7133331299E-001 -2.0462036133E-001 +7.9059600830E-004 +6.2365531921E-003 -4.2168423533E-005 +2.1085143089E-005 -1.1580944061E-002 +5.9633255005E-003
5875000000.000 -1.7346191406E-001 -2.0625305176E-001 +4.2023658752E-003 +4.7354698181E-003 -2.9276125133E-005 -2.8417445719E-005 -2.0175933838E-002 -3.4141540527E-003
6007500000.000 -1.7429351807E-001 -2.0934295654E-001 +6.1893463135E-003 +1.5799999237E-003 -1.3032928109E-005 +4.7786161304E-005 -2.3201942444E-002 +1.5258789063E-004
6140000000.000 -1.7637634277E-001 -2.1379852295E-001 +5.9006214142E-003 -2.0582675934E-003 -2.5934539735E-005 -1.4432705939E-005 -1.5391349792E-002 -2.8400421143E-003
6272500000.000 -1.8068695068E-001 -2.1678924561E-001 +3.6394596100E-003 -4.9855709076E-003 +6.0498714447E-006 -7.1492046118E-005 -1.6427993774E-002 -1.1834144592E-002
6405000000.000 -1.8376159668E-001 -2.1749877930E-001 +1.4233589172E-004 -6.2248706818E-003 +8.9230015874E-006 +2.2835098207E-005 -1.9408226013E-002 -6.2026977539E-003
6537500000.000 -1.8447875977E-001 -2.2094726563E-001 -3.3569335938E-003 -5.2342414856E-003 -1.5341676772E-005 +1.6996636987E-005 -9.2525482178E-003 -3.3779144287E-003
6670000000.000 -1.8725585938E-001 -2.2636413574E-001 -5.6765079498E-003 -2.4859905243E-003 -1.9900035113E-006 -4.3343752623E-006 -7.7960491180E-003 -7.3382854462E-003
6802500000.000 -1.9255828857E-001 -2.2933959961E-001 -6.0143470764E-003 +1.0182857513E-003 +2.1276064217E-005 -1.7286278307E-005 -1.1353015900E-002 +1.2779235840E-004
6935000000.000 -1.9539642334E-001 -2.2983551025E-001 -4.3842792511E-003 +4.2226314545E-003 -1.1097639799E-005 -6.2398612499E-006 -6.3462257385E-003 +9.8853111267E-003
7067500000.000 -1.9557189941E-001 -2.3359680176E-001 -1.2893676758E-003 +6.0129165649E-003 -1.3191252947E-005 -5.6535005569E-005 -4.5886039734E-003 +1.0149955750E-002
7200000000.000 -1.9909667969E-001 -2.3903656006E-001 +2.2363662720E-003 +5.5847167969E-003 +1.8211081624E-005 -3.2307580113E-006 -1.5079498291E-002 +1.7051696777E-002
7332500000.000 -2.0429229736E-001 -2.4138641357E-001 +4.9464702606E-003 +3.3571720123E-003 +2.2937543690E-005 +2.1521933377E-005 -1.7117500305E-002 +3.0715942383E-002
7465000000.000 -2.0650482178E-001 -2.4327087402E-001 +6.0138702393E-003 -2.3841857910E-007 -5.2984803915E-005 -5.8284029365E-005 -1.9776344299E-002 +3.1208992004E-002
7597500000.000 -2.0811462402E-001 -2.4778747559E-001 +5.0292015076E-003 -3.3576488495E-003 +8.1770122051E-005 -3.5736709833E-005 -3.6287307739E-002 +3.3250808716E-002
7730000000.000 -2.1177673340E-001 -2.5270080566E-001 +2.2943019867E-003 -5.4929256439E-003 -4.6238303185E-005 +8.2060694695E-005 -4.8322677612E-002 +4.3577194214E-002
7862500000.000 -2.1490478516E-001 -2.5567626953E-001 -1.1928081512E-003 -5.8691501617E-003 -3.6790966988E-005 -7.4055045843E-005 -5.3697586060E-002 +4.2585372925E-002
7995000000.000 -2.1635437012E-001 -2.5843811035E-001 -4.2183399200E-003 -4.1427612305E-003 +2.5276094675E-006 -4.5930966735E-005 -7.2898864746E-002 +3.5030364990E-002
8127500000.000 -2.1800231934E-001 -2.6419067383E-001 -5.7935714722E-003 -1.1599063873E-003 +8.6475163698E-005 +3.0420720577E-005 -9.1426849365E-002 +3.9558410645E-002
8260000000.000 -2.2172546387E-001 -2.6742553711E-001 -5.3937435150E-003 +2.2614002228E-003 -6.5181404352E-005 +4.0635466576E-005 -9.5634460449E-002 +3.4389495850E-002
8392500000.000 -2.2273254395E-001 -2.7026367188E-001 -3.2558441162E-003 +4.9571990967E-003 -2.8396025300E-006 -1.0481569916E-005 -1.0977172852E-001 +1.8432617188E-002
8525000000.000 -2.2303771973E-001 -2.7400207520E-001 +3.6001205444E-005 +5.9370994568E-003 +3.0888244510E-005 +4.2937695980E-005 -1.2192153931E-001 +1.4949798584E-002
8657500000.000 -2.2479248047E-001 -2.7818298340E-001 +3.3280849457E-003 +4.8801898956E-003 +8.4191560745E-007 +1.9057653844E-005 -1.1781692505E-001 +4.1618347168E-003
8790000000.000 -2.2761535645E-001 -2.8152465820E-001 +5.5124759674E-003 +2.2261142731E-003 -4.2349100113E-005 -6.1150640249E-005 -1.1954116821E-001 -1.7421722412E-002
8922500000.000 -2.2875976563E-001 -2.8253173828E-001 +5.8138370514E-003 -1.2712478638E-003 -9.7574666142E-006 -1.5683472157E-005 -1.2226104736E-001 -3.0616760254E-002
9055000000.000 -2.2975158691E-001 -2.8596496582E-001 +4.1108131409E-003 -4.3210983276E-003 +5.6438148022E-007 +1.7172656953E-005 -1.1093902588E-001 -4.4055938721E-002
9187500000.000 -2.3185729980E-001 -2.8866577148E-001 +9.8085403442E-004 -5.8209896088E-003 +1.6849488020E-005 -8.8140368462E-006 -1.0018157959E-001 -6.6772460938E-002
9320000000.000 -2.3605346680E-001 -2.8974914551E-001 -2.4509429932E-003 -5.3839683533E-003 +2.6043504477E-005 -3.5332515836E-005 -9.3639373779E-002 -7.9597473145E-002
9452500000.000 -2.3768615723E-001 -2.9092407227E-001 -5.0816535950E-003 -3.0755996704E-003 +2.2020190954E-005 +3.8534402847E-005 -7.4199676514E-002 -8.6662292480E-002
9585000000.000 -2.3971557617E-001 -2.9339599609E-001 -5.8634281158E-003 +2.9444694519E-004 -2.6705674827E-005 -5.0468370318E-006 -5.4164886475E-002 -1.0118103027E-001
9717500000.000 -2.4386596680E-001 -2.9679870605E-001 -4.6555995941E-003 +3.4685134888E-003 +9.7788870335E-007 -2.1411105990E-005 -4.1233062744E-002 -1.0696029663E-001
9850000000.000 -2.4842834473E-001 -2.9618835449E-001 -1.9292831421E-003 +5.5015087128E-003 +4.6554952860E-005 +3.6101788282E-005 -1.9107818604E-002 -1.0224914551E-001
9982500000.000 -2.4913024902E-001 -2.9878234863E-001 +1.4557838440E-003 +5.5937767029E-003 -2.0294450223E-005 -1.3622455299E-005 +6.4086914063E-003 -1.0319519043E-001
10115000000.000 -2.5181579590E-001 -3.0203247070E-001 +4.4200420380E-003 +3.8099288940E-003 +2.0682811737E-005 -3.4691765904E-005 +1.9260406494E-002 -9.9082946777E-002
10247500000.000 -2.5723266602E-001 -3.0375671387E-001 +5.7969093323E-003 +7.8701972961E-004 +2.9266811907E-005 +8.2049518824E-006 +3.5587310791E-002 -8.0062866211E-002
10380000000.000 -2.5982666016E-001 -3.0429077148E-001 +5.1391124725E-003 -2.5444030762E-003 -1.9822269678E-005 +3.1072646379E-005 +5.6999206543E-002 -6.7443847656E-002
10512500000.000 -2.6213073730E-001 -3.0612182617E-001 +2.8491020203E-003 -4.9800872803E-003 +3.2110139728E-005 +3.4024938941E-005 +6.2793731689E-002 -5.5946350098E-002
10645000000.000 -2.6512145996E-001 -3.0857849121E-001 -4.4655799866E-004 -5.7322978973E-003 -2.6715919375E-005 -2.9632821679E-005 +6.6062927246E-002 -2.9273986816E-002
10777500000.000 -2.6914978027E-001 -3.1089782715E-001 -3.5309791565E-003 -4.5576095581E-003 -1.5584751964E-005 +3.4002587199E-005 +7.7136993408E-002 -7.7171325684E-003
10910000000.000 -2.7268981934E-001 -3.1250000000E-001 -5.4321289063E-003 -1.8122196198E-003 +3.0562281609E-005 -4.9900263548E-005 +7.2380065918E-002 +5.7182312012E-003
11042500000.000 -2.7647399902E-001 -3.1457519531E-001 -5.5518150330E-003 +1.5642642975E-003 +6.0994178057E-005 -2.7608126402E-005 +5.9593200684E-002 +3.1240463257E-002
11175000000.000 -2.7911376953E-001 -3.1808471680E-001 -3.6830902100E-003 +4.4176578522E-003 -8.4084458649E-006 +4.8833899200E-006 +5.6402206421E-002 +5.2368164063E-002
11307500000.000 -2.8118896484E-001 -3.2005310059E-001 -5.8579444885E-004 +5.7249069214E-003 -2.5477260351E-005 -2.6319175959E-006 +4.3451309204E-002 +5.8565139771E-002
11440000000.000 -2.8512573242E-001 -3.2276916504E-001 +2.6066303253E-003 +5.0108432770E-003 +2.8461217880E-005 +4.7229230404E-005 +1.8108367920E-002 +7.2154998779E-002
11572500000.000 -2.8619384766E-001 -3.2640075684E-001 +4.9779415131E-003 +2.7158260345E-003 +2.7246773243E-005 -2.5033950806E-005 +4.2648315430E-003 +8.7306976318E-002
11705000000.000 -2.8820800781E-001 -3.2865905762E-001 +5.5875778198E-003 -5.1689147949E-004 -3.6807730794E-005 -3.8789585233E-005 -1.0238647461E-002 +8.0818176270E-002
11837500000.000 -2.9122924805E-001 -3.3111572266E-001 +4.2979717255E-003 -3.5533905029E-003 +7.1872025728E-005 -2.0366162062E-005 -4.3178558350E-002 +7.6583862305E-002
11970000000.000 -2.9199218750E-001 -3.3178710938E-001 +1.5802383423E-003 -5.4473876953E-003 +8.4415078163E-006 +7.0407986641E-005 -5.9436798096E-002 +8.2958221436E-002
12102500000.000 -2.9154968262E-001 -3.3456420898E-001 -1.7480850220E-003 -5.4323673248E-003 -2.7136877179E-005 +4.4463202357E-005 -6.5418243408E-002 +6.4285278320E-002
12235000000.000 -2.9666137695E-001 -3.3552551270E-001 -4.4770240784E-003 -3.4255981445E-003 +1.7937272787E-005 -9.1113150120E-005 -9.2884063721E-002 +4.3876647949E-002
12367500000.000 -2.9672241211E-001 -3.3576965332E-001 -5.5384635925E-003 -3.6859512329E-004 +6.7900866270E-005 +1.4040619135E-005 -1.0574340820E-001 +4.2491912842E-002
12500000000.000 -2.9989624023E-001 -3.3580017090E-001 -4.8260688782E-003 +2.8002262115E-003 -4.7003850341E-005 -5.9334561229E-005 -9.7293853760E-002 +2.0355224609E-002
12632500000.000 -3.0172729492E-001 -3.3856201172E-001 -2.4263858795E-003 +4.9209594727E-003 -5.3009018302E-005 -2.3530796170E-005 -1.0916137695E-001 -1.3645172119E-002
12765000000.000 -3.0398559570E-001 -3.3889770508E-001 +8.3851814270E-004 +5.4411888123E-003 +4.4088810682E-005 +5.9053301811E-005 -1.1723709106E-001 -1.8184661865E-002
12897500000.000 -3.0618286133E-001 -3.3831787109E-001 +3.6597251892E-003 +4.0621757507E-003 -3.5613775253E-005 +4.0592625737E-005 -9.2285156250E-002 -3.4717559814E-002
13030000000.000 -3.0792236328E-001 -3.3915710449E-001 +5.3114891052E-003 +1.3945102692E-003 -1.2379139662E-005 -6.2208622694E-005 -8.9256286621E-002 -7.1147918701E-002
13162500000.000 -3.1004333496E-001 -3.4115600586E-001 +5.1465034485E-003 -1.9192695618E-003 +8.3349645138E-005 -5.5730342865E-005 -9.1415405273E-002 -7.2807312012E-002
13295000000.000 -3.1237792969E-001 -3.4222412109E-001 +3.2064914703E-003 -4.4083595276E-003 -2.2482126951E-005 +7.2054564953E-005 -6.1069488525E-002 -7.8712463379E-002
13427500000.000 -3.1564331055E-001 -3.4138488770E-001 +1.7642974854E-004 -5.4039955139E-003 -1.9278377295E-005 +7.1633607149E-005 -4.6642303467E-002 -1.0407257080E-001
13560000000.000 -3.1539916992E-001 -3.4190368652E-001 -3.0055046082E-003 -4.5228004456E-003 -6.4872205257E-005 -1.1473894119E-005 -4.6268463135E-002 -1.0144042969E-001
13692500000.000 -3.1741333008E-001 -3.4440612793E-001 -5.0098896027E-003 -2.2470951080E-003 +3.1121075153E-005 +6.1955302954E-005 -1.7639160156E-002 -8.9324951172E-002
13825000000.000 -3.2157897949E-001 -3.4527587891E-001 -5.4545402527E-003 +9.0432167053E-004 -4.5651569963E-005 -3.0646100640E-005 +4.2343139648E-003 -1.0300445557E-001
13957500000.000 -3.2431030273E-001 -3.4376525879E-001 -3.9727687836E-003 +3.6966800690E-003 -2.7604401112E-006 -5.5382028222E-005 +1.0299682617E-004 -9.5428466797E-002
14090000000.000 -3.2508850098E-001 -3.4465026855E-001 -1.1970996857E-003 +5.3119659424E-003 -3.7113204598E-005 +2.5007873774E-005 +2.1980285645E-002 -7.0201873779E-002
14222500000.000 -3.2633972168E-001 -3.4817504883E-001 +1.9524097443E-003 +4.9781799316E-003 -8.4736384451E-006 +8.7330117822E-006 +4.4075012207E-002 -7.4096679688E-002
14355000000.000 -3.3149719238E-001 -3.4884643555E-001 +4.4753551483E-003 +2.9802322388E-003 +2.0332634449E-005 +2.6531517506E-005 +3.3168792725E-002 -6.7066192627E-002
14487500000.000 -3.3377075195E-001 -3.4938049316E-001 +5.4829120636E-003 -4.3869018555E-005 +5.3228810430E-005 +3.6224722862E-005 +4.0086746216E-002 -3.3914566040E-002
14620000000.000 -3.3357238770E-001 -3.5153198242E-001 +4.4271945953E-003 -2.9726028442E-003 -7.4610114098E-005 -5.4873526096E-005 +6.0922622681E-002 -3.1301498413E-002
14752500000.000 -3.3647155762E-001 -3.5638427734E-001 +1.9466876984E-003 -4.9808025360E-003 -2.2239983082E-005 -8.3331018686E-005 +4.3174743652E-002 -3.2245635986E-002
14885000000.000 -3.3891296387E-001 -3.5836791992E-001 -1.1000633240E-003 -5.2137374878E-003 +4.5583583415E-006 -7.8100711107E-006 +3.5356521606E-002 +1.5029907227E-003
15017500000.000 -3.3924865723E-001 -3.5995483398E-001 -3.7293434143E-003 -3.5563707352E-003 -3.3600255847E-005 +1.5076249838E-005 +5.3079605103E-002 +8.8348388672E-003
15150000000.000 -3.3969116211E-001 -3.6416625977E-001 -5.1381587982E-003 -9.1242790222E-004 -3.0567869544E-005 -5.8375298977E-005 +3.5064697266E-002 -1.6918182373E-003
15282500000.000 -3.4030151367E-001 -3.6683654785E-001 -4.7914981842E-003 +2.2594928741E-003 +8.7808817625E-005 +2.6859343052E-005 +1.4321327209E-002 +2.3142814636E-002
