!  2-Port S-parameters saved by WinCal
! VAR MeasName=S-Parameters (CALIBRATED_DATA) read from VNA (C)
! VAR MeasDate=10/16/2015 3:19:01 PM
! VAR NAME=M6082_10_15_2_2_20C_12.9mA_-17.5dBm
! VAR FILENAME=M6082_10_15_2_2_20C_12.9mA_-17.5dBm.S2P
! VAR DATE=10/16/2015 3:19:01 PM
! VAR PHYS_PORTS=2,1
! VAR ObjTypeName=DATASET
! VAR IndexType=Frequency
!
# Hz S RI R 50
45000000.000 -1.3285827637E-001 -2.2125244141E-004 -1.0657310486E-003 +7.6744556427E-003 +3.5560131073E-004 +1.5729069710E-003 +3.0022621155E-002 +2.0246505737E-003
177500000.000 -1.3191223145E-001 -6.2408447266E-003 +2.1762847900E-003 +6.1113834381E-003 -9.6328556538E-005 -2.5399029255E-005 +1.5461921692E-002 +1.6848564148E-002
310000000.000 -1.3101959229E-001 -1.2428283691E-002 +5.3331851959E-003 +4.2066574097E-003 -1.5325844288E-005 -3.5351142287E-005 +2.8928756714E-002 +6.1363220215E-002
442500000.000 -1.3053131104E-001 -1.8890380859E-002 +7.5681209564E-003 +7.2717666626E-005 +1.1217966676E-004 +4.3500214815E-005 +7.2475433350E-002 +2.2651672363E-002
575000000.000 -1.3051605225E-001 -2.6054382324E-002 +5.6967735291E-003 -4.0371417999E-003 -4.8054382205E-005 +2.8938055038E-005 +2.7110099792E-002 +1.1306762695E-002
707500000.000 -1.3088989258E-001 -3.2157897949E-002 +2.4065971375E-003 -6.4108371735E-003 -1.4476478100E-005 -7.8391283751E-005 +2.0666122437E-003 +1.8665313721E-002
840000000.000 -1.3069915771E-001 -3.9375305176E-002 -1.5830993652E-003 -6.6545009613E-003 +7.5034797192E-005 -4.6528875828E-005 -1.9929885864E-002 +2.6073455811E-002
972500000.000 -1.3075256348E-001 -4.6295166016E-002 -4.9653053284E-003 -4.6103000641E-003 -6.8925321102E-005 +2.3975968361E-005 -3.5896301270E-002 +3.5394668579E-002
1105000000.000 -1.3140106201E-001 -5.3268432617E-002 -6.7529678345E-003 -9.8991394043E-004 -6.0277525336E-006 +6.2568578869E-006 -4.6915054321E-002 +3.8183212280E-002
1237500000.000 -1.3229370117E-001 -5.9753417969E-002 -6.1326026917E-003 +2.9058456421E-003 +5.5253505707E-005 +5.2748247981E-005 -5.8553695679E-002 +3.3969879150E-002
1370000000.000 -1.3346099854E-001 -6.6322326660E-002 -3.3893585205E-003 +5.6700706482E-003 -5.0656497478E-005 -6.8228691816E-006 -7.3940277100E-002 +2.6927947998E-002
1502500000.000 -1.3420867920E-001 -7.2761535645E-002 +4.8708915710E-004 +6.6750049591E-003 -3.8493424654E-005 -1.5547499061E-005 -8.7932586670E-002 +2.1194458008E-002
1635000000.000 -1.3476562500E-001 -8.0093383789E-002 +4.0316581726E-003 +5.2120685577E-003 -1.3493001461E-005 -6.2454491854E-005 -9.8896026611E-002 +1.1611938477E-002
1767500000.000 -1.3646697998E-001 -8.6753845215E-002 +6.2525272369E-003 +2.0751953125E-003 +6.4391642809E-006 +3.2054260373E-005 -1.1178207397E-001 +2.7847290039E-003
1900000000.000 -1.3733673096E-001 -9.2590332031E-002 +6.4773559570E-003 -2.0151138306E-003 -1.9822269678E-005 -3.9132311940E-005 -1.1385726929E-001 -3.5095214844E-003
2032500000.000 -1.3848114014E-001 -9.8869323730E-002 +4.1222572327E-003 -5.0318241119E-003 +4.1423365474E-005 +3.6377459764E-006 -1.1357879639E-001 -2.4417877197E-002
2165000000.000 -1.3960266113E-001 -1.0600280762E-001 +5.6552886963E-004 -6.5104961395E-003 +3.3412128687E-005 -4.1009858251E-005 -1.2250900269E-001 -4.2335510254E-002
2297500000.000 -1.4114379883E-001 -1.1182403564E-001 -3.3681392670E-003 -5.7256221771E-003 -5.6080520153E-005 +1.4629215002E-004 -1.2649536133E-001 -5.3512573242E-002
2430000000.000 -1.4241790771E-001 -1.1775207520E-001 -5.7046413422E-003 -2.8998851776E-003 -7.9322606325E-005 -8.7805092335E-006 -1.2629699707E-001 -6.4788818359E-002
2562500000.000 -1.4434814453E-001 -1.2429046631E-001 -6.3533782959E-003 +7.0953369141E-004 +5.7965517044E-006 -9.0662389994E-005 -1.2513732910E-001 -7.1014404297E-002
2695000000.000 -1.4721679688E-001 -1.2943267822E-001 -4.8651695251E-003 +4.0576457977E-003 +4.2872503400E-005 -2.5507062674E-005 -1.1347961426E-001 -7.3497772217E-002
2827500000.000 -1.4983367920E-001 -1.3389587402E-001 -1.6279220581E-003 +6.1388015747E-003 -8.5800886154E-005 -1.0097399354E-004 -9.8342895508E-002 -8.1783294678E-002
2960000000.000 -1.5100097656E-001 -1.3958740234E-001 +2.0420551300E-003 +5.9206485748E-003 -3.5870820284E-005 -4.3949112296E-005 -8.7993621826E-002 -8.6654663086E-002
3092500000.000 -1.5434265137E-001 -1.4614105225E-001 +5.0740242004E-003 +3.8292407990E-003 -6.9625675678E-006 +4.7152861953E-005 -7.0331573486E-002 -8.5857391357E-002
3225000000.000 -1.5841674805E-001 -1.5150451660E-001 +6.1030387878E-003 +4.3797492981E-004 +4.2684376240E-005 -1.0406970978E-004 -5.2017211914E-002 -9.1083526611E-002
3357500000.000 -1.6092681885E-001 -1.5541839600E-001 +5.2962303162E-003 -3.2522678375E-003 +2.8278678656E-005 +4.4591724873E-005 -4.1107177734E-002 -9.1537475586E-002
3490000000.000 -1.6342163086E-001 -1.6201782227E-001 +2.6676654816E-003 -5.6285858154E-003 -8.1066042185E-005 +9.7665935755E-005 -2.7843475342E-002 -8.3110809326E-002
3622500000.000 -1.6651153564E-001 -1.6844177246E-001 -8.6045265198E-004 -6.1089992523E-003 -8.7544322014E-005 -1.8980354071E-005 -1.1272430420E-002 -7.9090118408E-002
3755000000.000 -1.7049407959E-001 -1.7436981201E-001 -4.1623115540E-003 -4.4877529144E-003 +1.7400830984E-005 +1.0291859508E-004 -5.9318542480E-003 -7.2834014893E-002
3887500000.000 -1.7338562012E-001 -1.7950439453E-001 -6.1855316162E-003 -1.4264583588E-003 +6.7021697760E-005 +5.6818127632E-005 +2.2220611572E-003 -5.5986404419E-002
4020000000.000 -1.7614746094E-001 -1.8449401855E-001 -5.8856010437E-003 +2.2940635681E-003 -1.9639730453E-005 -7.4211508036E-005 +1.3372421265E-002 -4.4443130493E-002
4152500000.000 -1.7884826660E-001 -1.9089508057E-001 -3.4856796265E-003 +4.9483776093E-003 +4.9836933613E-005 -5.5186450481E-005 +1.5266418457E-002 -3.2472610474E-002
4285000000.000 -1.8232727051E-001 -1.9641113281E-001 +1.0347366333E-004 +6.1872005463E-003 +6.6384673119E-006 +9.5918774605E-005 +1.7066001892E-002 -1.3016700745E-002
4417500000.000 -1.8644714355E-001 -2.0134735107E-001 +3.2908916473E-003 +5.1729679108E-003 -3.8122758269E-005 +2.8967857361E-005 +2.5608062744E-002 +3.6954879761E-003
4550000000.000 -1.8865966797E-001 -2.0600891113E-001 +5.5174827576E-003 +2.3758411407E-003 +2.6943162084E-005 -2.0300038159E-005 +2.8769493103E-002 +9.5987319946E-003
4682500000.000 -1.9136047363E-001 -2.1212768555E-001 +5.8572292328E-003 -1.0666847229E-003 -2.2280029953E-005 -2.0302832127E-005 +2.5468826294E-002 +2.0638465881E-002
4815000000.000 -1.9520568848E-001 -2.1752166748E-001 +4.2576789856E-003 -4.0597915649E-003 -2.1737068892E-005 +4.9205496907E-005 +3.1086921692E-002 +2.7381896973E-002
4947500000.000 -1.9793701172E-001 -2.2180938721E-001 +1.2872219086E-003 -5.8572292328E-003 +6.2012113631E-006 -1.3562850654E-005 +2.7614593506E-002 +1.9755363464E-002
5080000000.000 -1.9994354248E-001 -2.2702789307E-001 -2.1576881409E-003 -5.6619644165E-003 +3.6250799894E-005 -4.1853636503E-006 +1.3253211975E-002 +2.0462989807E-002
5212500000.000 -2.0309448242E-001 -2.3236083984E-001 -4.9543380737E-003 -3.5281181335E-003 -1.1477619410E-005 +8.0682337284E-005 +9.1705322266E-003 +2.4744033813E-002
5345000000.000 -2.0664978027E-001 -2.3632049561E-001 -6.0775279999E-003 -1.8310546875E-004 -1.2347474694E-005 -4.0935352445E-005 +5.5170059204E-003 +1.6207695007E-002
5477500000.000 -2.0809173584E-001 -2.3992919922E-001 -5.0675868988E-003 +3.2253265381E-003 -1.9737519324E-005 -2.4023465812E-005 -9.1333389282E-003 +1.0257720947E-002
5610000000.000 -2.1045684814E-001 -2.4511718750E-001 -2.4507045746E-003 +5.4945945740E-003 +6.5583735704E-006 +2.6337802410E-005 -1.4793872833E-002 +1.4363765717E-002
5742500000.000 -2.1431732178E-001 -2.4874877930E-001 +1.1341571808E-003 +5.9804916382E-003 -5.4100528359E-005 -1.5243887901E-005 -1.1471271515E-002 +5.9556961060E-003
5875000000.000 -2.1777343750E-001 -2.5059509277E-001 +4.3311119080E-003 +4.2150020599E-003 +3.2667070627E-005 -5.9250742197E-005 -2.0190238953E-002 -3.3273696899E-003
6007500000.000 -2.1978759766E-001 -2.5378417969E-001 +5.9797763824E-003 +1.1065006256E-003 -3.5699456930E-005 +3.4924596548E-005 -2.3153305054E-002 +9.3460083008E-005
6140000000.000 -2.2290039063E-001 -2.5846862793E-001 +5.5046081543E-003 -2.4840831757E-003 -2.9668211937E-005 -1.1580996215E-005 -1.5362739563E-002 -2.8619766235E-003
6272500000.000 -2.2837829590E-001 -2.6158142090E-001 +3.1716823578E-003 -5.1605701447E-003 -5.5395066738E-006 -4.8814341426E-005 -1.6498565674E-002 -1.1743545532E-002
6405000000.000 -2.3262023926E-001 -2.6240539551E-001 -2.2506713867E-004 -5.9719085693E-003 +5.4474920034E-005 +5.2861869335E-006 -1.9277572632E-002 -6.2942504883E-003
6537500000.000 -2.3446655273E-001 -2.6593017578E-001 -3.5622119904E-003 -4.8062801361E-003 -5.4730102420E-005 +2.4605542421E-005 -9.2096328735E-003 -3.3016204834E-003
6670000000.000 -2.3837280273E-001 -2.7140808105E-001 -5.6009292603E-003 -2.0372867584E-003 +1.2002885342E-005 -3.4626573324E-005 -7.8496932983E-003 -7.2555541992E-003
6802500000.000 -2.4476623535E-001 -2.7435302734E-001 -5.7001113892E-003 +1.5766620636E-003 -3.5934150219E-005 +1.9853934646E-005 -1.1392593384E-002 +2.0933151245E-004
6935000000.000 -2.4871826172E-001 -2.7476501465E-001 -3.8783550262E-003 +4.4348239899E-003 +1.1784024537E-005 -3.1180679798E-006 -6.3009262085E-003 +9.9439620972E-003
7067500000.000 -2.4995422363E-001 -2.7853393555E-001 -7.7843666077E-004 +5.7578086853E-003 -6.4782798290E-005 -1.1835247278E-005 -4.6567916870E-003 +1.0118007660E-002
7200000000.000 -2.5462341309E-001 -2.8384399414E-001 +2.6164054871E-003 +5.1264762878E-003 +4.3835490942E-005 +6.5360218287E-005 -1.5090942383E-002 +1.7023086548E-002
7332500000.000 -2.6074218750E-001 -2.8601074219E-001 +5.0182342529E-003 +2.8746128082E-003 -5.3236261010E-005 +1.0699033737E-005 -1.7149925232E-002 +3.0736923218E-002
7465000000.000 -2.6405334473E-001 -2.8767395020E-001 +5.7704448700E-003 -4.5061111450E-004 -3.2806769013E-005 -3.8780272007E-006 -1.9771575928E-002 +3.1261444092E-002
7597500000.000 -2.6654052734E-001 -2.9200744629E-001 +4.3787956238E-003 -3.5610198975E-003 -3.0478462577E-005 -5.9880316257E-005 -3.6266326904E-002 +3.3235549927E-002
7730000000.000 -2.7119445801E-001 -2.9682922363E-001 +1.7623901367E-003 -5.3813457489E-003 -2.4030916393E-005 -2.2388994694E-006 -4.8353195190E-002 +4.3601989746E-002
7862500000.000 -2.7534484863E-001 -2.9965209961E-001 -1.5513896942E-003 -5.3989887238E-003 -9.5337629318E-005 -1.5821307898E-005 -5.3640365601E-002 +4.2768478394E-002
7995000000.000 -2.7775573730E-001 -3.0204772949E-001 -4.3194293976E-003 -3.6814212799E-003 +3.3907592297E-005 -5.0237402320E-005 -7.2864532471E-002 +3.5037994385E-002
8127500000.000 -2.8027343750E-001 -3.0773925781E-001 -5.5785179138E-003 -5.9103965759E-004 +1.3828277588E-005 +2.1941959858E-005 -9.1411590576E-002 +3.9802551270E-002
8260000000.000 -2.8486633301E-001 -3.1068420410E-001 -4.9140453339E-003 +2.5475025177E-003 -5.2994117141E-005 -1.1630356312E-005 -9.5676422119E-002 +3.4511566162E-002
8392500000.000 -2.8684997559E-001 -3.1323242188E-001 -2.6910305023E-003 +4.9316883087E-003 +1.4554709196E-005 -9.8064541817E-005 -1.0961151123E-001 +1.8539428711E-002
8525000000.000 -2.8816223145E-001 -3.1677246094E-001 +4.4870376587E-004 +5.5415630341E-003 -4.1671097279E-005 +5.2774325013E-005 -1.2187576294E-001 +1.4904022217E-002
8657500000.000 -2.9072570801E-001 -3.2084655762E-001 +3.5409927368E-003 +4.3017864227E-003 -4.5742839575E-005 +3.0206516385E-005 -1.1788558960E-001 +4.2991638184E-003
8790000000.000 -2.9444885254E-001 -3.2376098633E-001 +5.3348541260E-003 +1.6467571259E-003 -1.0805204511E-005 -3.7092715502E-005 -1.1954498291E-001 -1.7421722412E-002
8922500000.000 -2.9644775391E-001 -3.2458496094E-001 +5.3133964539E-003 -1.6496181488E-003 +3.7103891373E-005 -1.6605481505E-005 -1.2227249146E-001 -3.0517578125E-002
9055000000.000 -2.9827880859E-001 -3.2772827148E-001 +3.4832954407E-003 -4.4157505035E-003 +9.0077519417E-006 -1.5521422029E-005 -1.1098098755E-001 -4.4071197510E-002
9187500000.000 -3.0111694336E-001 -3.3016967773E-001 +4.2939186096E-004 -5.5804252625E-003 -2.2699125111E-005 +1.1974945664E-005 -1.0011672974E-001 -6.6818237305E-002
9320000000.000 -3.0645751953E-001 -3.3078002930E-001 -2.7658939362E-003 -4.8108100891E-003 +3.6321580410E-005 +2.7921050787E-005 -9.3688964844E-002 -7.9589843750E-002
9452500000.000 -3.0892944336E-001 -3.3155822754E-001 -4.9297809601E-003 -2.4385452271E-003 +3.6321580410E-007 +3.7908554077E-005 -7.4283599854E-002 -8.6631774902E-002
9585000000.000 -3.1176757813E-001 -3.3360290527E-001 -5.4628849030E-003 +7.8845024109E-004 -3.7163496017E-005 -3.1515955925E-005 -5.4241180420E-002 -1.0116577148E-001
9717500000.000 -3.1692504883E-001 -3.3659362793E-001 -4.0962696075E-003 +3.6969184875E-003 +5.3573399782E-005 -6.4190477133E-005 -4.1362762451E-002 -1.0704803467E-001
9850000000.000 -3.2232666016E-001 -3.3535766602E-001 -1.2922286987E-003 +5.2962303162E-003 +4.1835010052E-006 +2.7729198337E-005 -1.9359588623E-002 -1.0218811035E-001
9982500000.000 -3.2362365723E-001 -3.3743286133E-001 +1.8556118011E-003 +5.1851272583E-003 -5.4879114032E-005 +6.2882900238E-006 +6.4315795898E-003 -1.0323715210E-001
10115000000.000 -3.2704162598E-001 -3.4024047852E-001 +4.4496059418E-003 +3.2179355621E-003 +9.1504305601E-005 -5.5946409702E-005 +1.9268035889E-002 -9.9102020264E-002
10247500000.000 -3.3308410645E-001 -3.4140014648E-001 +5.3958892822E-003 +2.1171569824E-004 +7.2322785854E-005 -3.9368867874E-005 +3.5511016846E-002 -8.0139160156E-002
10380000000.000 -3.3650207520E-001 -3.4140014648E-001 +4.5745372772E-003 -2.8123855591E-003 +4.2337924242E-006 +4.6381726861E-005 +5.6968688965E-002 -6.7581176758E-002
10512500000.000 -3.3932495117E-001 -3.4263610840E-001 +2.3045539856E-003 -4.8639774323E-003 -2.2118911147E-006 -2.4584122002E-005 +6.2736511230E-002 -5.6102752686E-002
10645000000.000 -3.4292602539E-001 -3.4468078613E-001 -9.0718269348E-004 -5.3312778473E-003 +1.0050833225E-005 -6.0401856899E-005 +6.6005706787E-002 -2.9499053955E-002
10777500000.000 -3.4777832031E-001 -3.4640502930E-001 -3.6920309067E-003 -3.8081407547E-003 -5.1930546761E-006 +4.1890889406E-005 +7.6969146729E-002 -8.0261230469E-003
10910000000.000 -3.5186767578E-001 -3.4735107422E-001 -5.2576065063E-003 -1.1618137360E-003 -7.6200813055E-005 -4.1782855988E-005 +7.2322845459E-002 +5.4550170898E-003
11042500000.000 -3.5597229004E-001 -3.4860229492E-001 -4.9166679382E-003 +1.9202232361E-003 +2.5407411158E-005 -1.8701888621E-005 +5.9705734253E-002 +3.0971527100E-002
11175000000.000 -3.5914611816E-001 -3.5162353516E-001 -2.9838085175E-003 +4.3807029724E-003 +4.8140063882E-006 +7.8459270298E-006 +5.6432723999E-002 +5.2267074585E-002
11307500000.000 -3.6189270020E-001 -3.5317993164E-001 -7.5101852417E-005 +5.3100585938E-003 -2.2916123271E-005 -3.8156285882E-005 +4.3571472168E-002 +5.8364868164E-002
11440000000.000 -3.6634826660E-001 -3.5508728027E-001 +2.8619766235E-003 +4.3416023254E-003 +3.5913661122E-005 -1.7376616597E-005 +1.8287658691E-002 +7.2071075439E-002
11572500000.000 -3.6787414551E-001 -3.5816955566E-001 +4.8460960388E-003 +2.0675659180E-003 +3.3974647522E-005 +8.8289380074E-007 +4.5013427734E-003 +8.7142944336E-002
11705000000.000 -3.7016296387E-001 -3.6009216309E-001 +5.1681995392E-003 -1.1034011841E-003 -6.2096863985E-005 -5.1181763411E-005 -9.9983215332E-003 +8.0738067627E-002
11837500000.000 -3.7370300293E-001 -3.6209106445E-001 +3.6352872849E-003 -3.6966800690E-003 +2.1022744477E-005 -3.6740675569E-006 -4.2842864990E-002 +7.6568603516E-002
11970000000.000 -3.7516784668E-001 -3.6207580566E-001 +9.4485282898E-004 -5.1071643829E-003 -1.2252479792E-005 +3.5589560866E-005 -5.9291839600E-002 +8.3103179932E-002
12102500000.000 -3.7496948242E-001 -3.6428833008E-001 -2.0353794098E-003 -4.7678947449E-003 -2.9861927032E-005 -3.1735748053E-005 -6.5338134766E-002 +6.4289093018E-002
12235000000.000 -3.8040161133E-001 -3.6462402344E-001 -4.3129920959E-003 -2.7616024017E-003 -9.8198652267E-006 -7.1097165346E-005 -9.2697143555E-002 +4.3895721436E-002
12367500000.000 -3.8099670410E-001 -3.6441040039E-001 -5.0504207611E-003 +1.4901161194E-004 +2.4598091841E-005 +1.0128319263E-004 -1.0544204712E-001 +4.2606353760E-002
12500000000.000 -3.8461303711E-001 -3.6376953125E-001 -4.2138099670E-003 +3.0882358551E-003 -4.7419220209E-005 -4.8950314522E-006 -9.7259521484E-002 +2.0542144775E-002
12632500000.000 -3.8653564453E-001 -3.6598205566E-001 -1.7979145050E-003 +4.7998428345E-003 -4.8473477364E-005 -6.5956264734E-005 -1.0896682739E-001 -1.3435363770E-002
12765000000.000 -3.8938903809E-001 -3.6578369141E-001 +1.2557506561E-003 +4.9486160278E-003 +6.9204717875E-005 -4.5038759708E-006 -1.1716461182E-001 -1.8112182617E-002
12897500000.000 -3.9207458496E-001 -3.6477661133E-001 +3.6933422089E-003 +3.3056735992E-003 +2.8133392334E-005 +6.3132494688E-005 -9.2296600342E-002 -3.4446716309E-002
13030000000.000 -3.9389038086E-001 -3.6486816406E-001 +4.9827098846E-003 +7.1430206299E-004 -2.4279579520E-006 -1.2353062630E-005 -8.9317321777E-002 -7.0850372314E-002
13162500000.000 -3.9645385742E-001 -3.6634826660E-001 +4.5404434204E-003 -2.2468566895E-003 -8.8261440396E-006 -2.0441599190E-005 -9.1320037842E-002 -7.2757720947E-002
13295000000.000 -3.9884948730E-001 -3.6691284180E-001 +2.5503635406E-003 -4.3234825134E-003 +2.5425106287E-005 +3.4717842937E-005 -6.1237335205E-002 -7.8590393066E-002
13427500000.000 -4.0229797363E-001 -3.6526489258E-001 -2.8753280640E-004 -5.0041675568E-003 +1.4361925423E-005 -2.3312866688E-005 -4.6791076660E-002 -1.0380172729E-001
13560000000.000 -4.0252685547E-001 -3.6546325684E-001 -2.9599666595E-003 -3.9148330688E-003 +6.9826841354E-005 +3.1553208828E-006 -4.6176910400E-002 -1.0124206543E-001
13692500000.000 -4.0484619141E-001 -3.6735534668E-001 -4.7171115875E-003 -1.5342235565E-003 +4.3751671910E-005 +2.3515895009E-005 -1.7826080322E-002 -8.9168548584E-002
13825000000.000 -4.0892028809E-001 -3.6761474609E-001 -4.8434734344E-003 +1.2729167938E-003 -3.0715018511E-006 +3.6953017116E-005 +4.1580200195E-003 -1.0292816162E-001
13957500000.000 -4.1200256348E-001 -3.6560058594E-001 -3.2187700272E-003 +3.7490129471E-003 -1.1952221394E-004 -6.7789107561E-005 -2.0217895508E-004 -9.5386505127E-002
14090000000.000 -4.1282653809E-001 -3.6589050293E-001 -6.7567825317E-004 +4.8813819885E-003 -4.2159110308E-005 +4.0672719479E-005 +2.1961212158E-002 -7.0098876953E-002
14222500000.000 -4.1429138184E-001 -3.6897277832E-001 +2.3002624512E-003 +4.4014453888E-003 -6.1765313148E-006 -6.0541555285E-005 +4.3861389160E-002 -7.4199676514E-002
14355000000.000 -4.1944885254E-001 -3.6929321289E-001 +4.3647289276E-003 +2.2931098938E-003 -7.0381909609E-005 -3.5945326090E-005 +3.3206939697E-002 -6.7207336426E-002
14487500000.000 -4.2187500000E-001 -3.6946105957E-001 +4.8649311066E-003 -4.7516822815E-004 +1.2973323464E-006 +2.6034191251E-005 +4.0224075317E-002 -3.3931732178E-002
14620000000.000 -4.2178344727E-001 -3.7084960938E-001 +3.7859678268E-003 -3.2134056091E-003 -1.1492893100E-004 +6.0416758060E-005 +6.0953140259E-002 -3.1377792358E-002
14752500000.000 -4.2471313477E-001 -3.7556457520E-001 +1.3554096222E-003 -4.6479701996E-003 +1.0474584997E-005 -2.0428560674E-005 +4.3014526367E-002 -3.2394409180E-002
14885000000.000 -4.2729187012E-001 -3.7733459473E-001 -1.5459060669E-003 -4.5983791351E-003 +3.4010037780E-005 -2.2847205400E-005 +3.5291671753E-002 +1.5048980713E-003
15017500000.000 -4.2788696289E-001 -3.7854003906E-001 -3.7919282913E-003 -2.8761625290E-003 +8.7376683950E-005 +3.1530857086E-005 +5.3007125854E-002 +8.7966918945E-003
15150000000.000 -4.2869567871E-001 -3.8224792480E-001 -4.8615932465E-003 -3.5548210144E-004 -2.7979724109E-005 -1.1337921023E-005 +3.5156250000E-002 -1.7070770264E-003
15282500000.000 -4.2945861816E-001 -3.8479614258E-001 -4.1351318359E-003 +2.2785663605E-003 +5.8695673943E-005 -7.2546303272E-005 +1.4190673828E-002 +2.3028373718E-002
