!  2-Port S-parameters saved by WinCal
! VAR MeasName=S-Parameters (CALIBRATED_DATA) read from VNA (C)
! VAR MeasDate=10/16/2015 4:00:51 PM
! VAR NAME=M6082_10_17_2_2_20C_12.9mA_-17.5dBm
! VAR FILENAME=M6082_10_17_2_2_20C_12.9mA_-17.5dBm.S2P
! VAR DATE=10/16/2015 4:00:52 PM
! VAR PHYS_PORTS=2,1
! VAR ObjTypeName=DATASET
! VAR IndexType=Frequency
!
# Hz S RI R 50
45000000.000 -1.4393615723E-001 -2.1514892578E-003 -1.4088153839E-003 +6.9949626923E-003 +5.8820843697E-004 +2.4276971817E-004 +2.9830932617E-002 +2.3679733276E-003
177500000.000 -1.4254760742E-001 -8.9874267578E-003 +2.5296211243E-003 +6.5963268280E-003 -2.2178888321E-004 +2.0240992308E-004 +1.5505790710E-002 +1.6999244690E-002
310000000.000 -1.4196777344E-001 -1.6944885254E-002 +5.3508281708E-003 +4.4162273407E-003 -5.6255608797E-005 -6.8828463554E-005 +2.9041290283E-002 +6.1626434326E-002
442500000.000 -1.4155578613E-001 -2.4902343750E-002 +7.9278945923E-003 +3.0994415283E-005 +4.9514696002E-005 -7.1320682764E-006 +7.2525024414E-002 +2.2724151611E-002
575000000.000 -1.4186859131E-001 -3.3920288086E-002 +6.0110092163E-003 -4.3170452118E-003 -3.0217692256E-005 -4.3772161007E-008 +2.7153968811E-002 +1.1238098145E-002
707500000.000 -1.4264678955E-001 -4.1801452637E-002 +2.5084018707E-003 -6.7667961121E-003 -8.9772045612E-005 -1.2870132923E-004 +1.9512176514E-003 +1.8722534180E-002
840000000.000 -1.4291381836E-001 -5.0605773926E-002 -1.8074512482E-003 -7.0219039917E-003 +3.0506402254E-005 -2.5080516934E-005 -1.9909858704E-002 +2.6101112366E-002
972500000.000 -1.4336395264E-001 -5.9288024902E-002 -5.2905082703E-003 -4.7092437744E-003 +4.7521665692E-005 +3.4904107451E-005 -3.5865783691E-002 +3.5358428955E-002
1105000000.000 -1.4476776123E-001 -6.8084716797E-002 -7.0664882660E-003 -8.9836120605E-004 -6.1258673668E-005 -7.5656920671E-005 -4.6915054321E-002 +3.8278579712E-002
1237500000.000 -1.4614868164E-001 -7.6133728027E-002 -6.3328742981E-003 +3.0968189240E-003 +6.2938779593E-005 -5.0663948059E-005 -5.8582305908E-002 +3.3718109131E-002
1370000000.000 -1.4807891846E-001 -8.4281921387E-002 -3.4651756287E-003 +6.1402320862E-003 -1.7162412405E-005 +6.2048435211E-005 -7.3997497559E-002 +2.6939392090E-002
1502500000.000 -1.4952850342E-001 -9.2300415039E-002 +5.4597854614E-004 +6.8576335907E-003 +4.2458996177E-006 +1.0309740901E-006 -8.7902069092E-002 +2.1236419678E-002
1635000000.000 -1.5100097656E-001 -1.0127258301E-001 +4.4274330139E-003 +5.4364204407E-003 +3.7625432014E-005 -7.6770782471E-005 -9.8941802979E-002 +1.1631011963E-002
1767500000.000 -1.5352630615E-001 -1.0927581787E-001 +6.6876411438E-003 +1.9583702087E-003 -1.2945383787E-006 -2.1123327315E-005 -1.1188888550E-001 +2.8572082520E-003
1900000000.000 -1.5529632568E-001 -1.1656188965E-001 +6.6001415253E-003 -2.0551681519E-003 -5.8643519878E-005 +7.8491866589E-006 -1.1384963989E-001 -3.5400390625E-003
2032500000.000 -1.5769195557E-001 -1.2426757813E-001 +4.1694641113E-003 -5.4576396942E-003 +6.8683177233E-005 -6.0845166445E-005 -1.1368942261E-001 -2.4402618408E-002
2165000000.000 -1.5985107422E-001 -1.3278198242E-001 +5.5456161499E-004 -6.7591667175E-003 +9.0878456831E-006 +4.0199607611E-005 -1.2236785889E-001 -4.2346954346E-002
2297500000.000 -1.6245269775E-001 -1.3978576660E-001 -3.4358501434E-003 -5.7876110077E-003 -4.1242688894E-005 +2.5378540158E-005 -1.2661743164E-001 -5.3634643555E-002
2430000000.000 -1.6501617432E-001 -1.4684295654E-001 -5.9068202972E-003 -2.9401779175E-003 -2.2735446692E-005 -9.9416822195E-005 -1.2630462646E-001 -6.4788818359E-002
2562500000.000 -1.6782379150E-001 -1.5465545654E-001 -6.6142082214E-003 +8.0156326294E-004 +5.5566430092E-005 +8.6653977633E-005 -1.2524414063E-001 -7.0991516113E-002
2695000000.000 -1.7220306396E-001 -1.6095733643E-001 -4.8925876617E-003 +4.4944286346E-003 -6.1050057411E-005 +2.9724091291E-005 -1.1357879639E-001 -7.3410034180E-002
2827500000.000 -1.7601013184E-001 -1.6634368896E-001 -1.4045238495E-003 +6.3700675964E-003 -9.0338289738E-007 -5.5821612477E-005 -9.8442077637E-002 -8.1775665283E-002
2960000000.000 -1.7863464355E-001 -1.7301177979E-001 +2.1767616272E-003 +6.0882568359E-003 -3.7588179111E-006 +1.1817365885E-004 -8.7882995605E-002 -8.6807250977E-002
3092500000.000 -1.8292236328E-001 -1.8051147461E-001 +5.3319931030E-003 +3.9408206940E-003 +1.0193791240E-005 -1.1430587620E-005 -7.0232391357E-002 -8.6055755615E-002
3225000000.000 -1.8849945068E-001 -1.8658447266E-001 +6.4141750336E-003 +2.7132034302E-004 -6.0610473156E-006 -9.6086412668E-005 -5.1918029785E-002 -9.1072082520E-002
3357500000.000 -1.9248962402E-001 -1.9132995605E-001 +5.2595138550E-003 -3.4577846527E-003 -2.4000182748E-005 +5.5048614740E-005 -4.1141510010E-002 -9.1480255127E-002
3490000000.000 -1.9631195068E-001 -1.9861602783E-001 +2.5656223297E-003 -5.8550834656E-003 +3.2547861338E-005 -2.2649765015E-005 -2.7732849121E-002 -8.3309173584E-002
3622500000.000 -2.0085144043E-001 -2.0586395264E-001 -1.0797977448E-003 -6.3071250916E-003 -7.1939080954E-005 -6.3955783844E-005 -1.1489868164E-002 -7.9051971436E-002
3755000000.000 -2.0622253418E-001 -2.1233367920E-001 -4.5063495636E-003 -4.4169425964E-003 +8.6907297373E-005 -5.4180622101E-005 -5.9089660645E-003 -7.2921752930E-002
3887500000.000 -2.1051788330E-001 -2.1802520752E-001 -6.2544345856E-003 -1.3797283173E-003 +6.4093619585E-005 +1.0778754950E-004 +2.2125244141E-003 -5.5871963501E-002
4020000000.000 -2.1469879150E-001 -2.2344970703E-001 -5.8388710022E-003 +2.4504661560E-003 +4.0333718061E-005 -7.4338167906E-006 +1.3313293457E-002 -4.4389724731E-002
4152500000.000 -2.1875000000E-001 -2.3032379150E-001 -3.4277439117E-003 +5.4111480713E-003 +4.5187771320E-006 -7.4993818998E-005 +1.5308380127E-002 -3.2550811768E-002
4285000000.000 -2.2356414795E-001 -2.3625946045E-001 +1.3375282288E-004 +6.2923431396E-003 +8.0931931734E-005 -4.0005892515E-005 +1.7113685608E-002 -1.2963294983E-002
4417500000.000 -2.2902679443E-001 -2.4136352539E-001 +3.6337375641E-003 +5.0094127655E-003 -3.1169503927E-005 -1.4355406165E-005 +2.5650024414E-002 +3.6449432373E-003
4550000000.000 -2.3274230957E-001 -2.4640655518E-001 +5.7041645050E-003 +1.9962787628E-003 -3.4522265196E-005 -7.2844326496E-005 +2.8890609741E-002 +9.6063613892E-003
4682500000.000 -2.3664855957E-001 -2.5254821777E-001 +5.7141780853E-003 -1.4472007751E-003 +3.4123659134E-006 +8.0514699221E-005 +2.5617599487E-002 +2.0672798157E-002
4815000000.000 -2.4189758301E-001 -2.5816345215E-001 +4.2808055878E-003 -4.2943954468E-003 -1.1797994375E-005 +6.3903629780E-005 +3.1188964844E-002 +2.7439117432E-002
4947500000.000 -2.4609375000E-001 -2.6274108887E-001 +1.0044574738E-003 -5.8717727661E-003 -6.1523169279E-005 -2.7440488338E-005 +2.7585029602E-002 +1.9898414612E-002
5080000000.000 -2.4931335449E-001 -2.6797485352E-001 -2.4962425232E-003 -5.4292678833E-003 -5.8442819864E-006 -1.9478611648E-006 +1.3287544250E-002 +2.0552635193E-002
5212500000.000 -2.5364685059E-001 -2.7328491211E-001 -5.0978660583E-003 -3.2837390900E-003 -2.3841857910E-006 +6.1828643084E-005 +9.1991424561E-003 +2.4818420410E-002
5345000000.000 -2.5875854492E-001 -2.7737426758E-001 -6.0625076294E-003 +1.2826919556E-004 -6.6924840212E-005 -1.0810792446E-005 +5.4531097412E-003 +1.6207695007E-002
5477500000.000 -2.6136779785E-001 -2.8088378906E-001 -5.0213336945E-003 +3.6394596100E-003 +2.5718472898E-005 +6.9662928581E-007 -9.1404914856E-003 +1.0294437408E-002
5610000000.000 -2.6499938965E-001 -2.8599548340E-001 -2.0902156830E-003 +5.7244300842E-003 -6.3590705395E-006 +6.3907355070E-005 -1.4885902405E-002 +1.4483928680E-002
5742500000.000 -2.7027893066E-001 -2.8976440430E-001 +1.4939308167E-003 +5.9595108032E-003 -7.2266906500E-005 +3.7401914597E-006 -1.1565685272E-002 +5.9685707092E-003
5875000000.000 -2.7494812012E-001 -2.9118347168E-001 +4.6699047089E-003 +4.1029453278E-003 +3.8642436266E-005 -5.8596953750E-005 -2.0243644714E-002 -3.3702850342E-003
6007500000.000 -2.7828979492E-001 -2.9425048828E-001 +6.0145854950E-003 +7.3266029358E-004 +4.0177255869E-005 -6.8284571171E-006 -2.3222923279E-002 +1.2493133545E-004
6140000000.000 -2.8251647949E-001 -2.9875183105E-001 +5.4163932800E-003 -2.7673244476E-003 -3.2724812627E-005 +4.6715140343E-006 -1.5335083008E-002 -2.8371810913E-003
6272500000.000 -2.8923034668E-001 -3.0151367188E-001 +2.7632713318E-003 -5.2869319916E-003 -1.3029202819E-006 -2.3334287107E-005 -1.6438484192E-002 -1.1705398560E-002
6405000000.000 -2.9472351074E-001 -3.0186462402E-001 -6.0272216797E-004 -6.0291290283E-003 +6.2122941017E-005 +2.3659318686E-005 -1.9373893738E-002 -6.2255859375E-003
6537500000.000 -2.9785156250E-001 -3.0522155762E-001 -3.8373470306E-003 -4.5094490051E-003 -3.0270777643E-005 +1.7399899662E-005 -9.2682838440E-003 -3.2935142517E-003
6670000000.000 -3.0287170410E-001 -3.1025695801E-001 -5.5520534515E-003 -1.6338825226E-003 -2.6710331440E-006 -7.1983784437E-005 -7.8411102295E-003 -7.3223114014E-003
6802500000.000 -3.1028747559E-001 -3.1251525879E-001 -5.6183338165E-003 +1.9040107727E-003 +3.6146491766E-005 -3.1739473343E-005 -1.1435031891E-002 +1.3160705566E-004
6935000000.000 -3.1530761719E-001 -3.1263732910E-001 -3.4902095795E-003 +4.6591758728E-003 -2.8615817428E-005 +2.7178786695E-005 -6.3343048096E-003 +9.9434852600E-003
7067500000.000 -3.1756591797E-001 -3.1594848633E-001 -3.3068656921E-004 +5.7609081268E-003 -2.5097280741E-005 -1.2144446373E-006 -4.6324729919E-003 +1.0192871094E-002
7200000000.000 -3.2286071777E-001 -3.2086181641E-001 +2.8717517853E-003 +4.9095153809E-003 +9.0900808573E-005 -7.7784061432E-006 -1.5055656433E-002 +1.7025947571E-002
7332500000.000 -3.3010864258E-001 -3.2243347168E-001 +5.1176548004E-003 +2.4747848511E-003 -2.8675422072E-006 +5.5111013353E-006 -1.7143249512E-002 +3.0781745911E-002
7465000000.000 -3.3427429199E-001 -3.2365417480E-001 +5.6760311127E-003 -8.7022781372E-004 +3.9830803871E-005 +9.6261501312E-006 -1.9838333130E-002 +3.1270980835E-002
7597500000.000 -3.3752441406E-001 -3.2716369629E-001 +4.0912628174E-003 -3.7083625793E-003 +1.8598511815E-005 +6.1886385083E-006 -3.6231994629E-002 +3.3227920532E-002
7730000000.000 -3.4298706055E-001 -3.3174133301E-001 +1.4023780823E-003 -5.3431987762E-003 +5.5436044931E-005 +2.2511929274E-005 -4.8322677612E-002 +4.3697357178E-002
7862500000.000 -3.4815979004E-001 -3.3393859863E-001 -1.8742084503E-003 -5.2592754364E-003 -6.3415616751E-005 -3.8135796785E-005 -5.3703308105E-002 +4.2703628540E-002
7995000000.000 -3.5122680664E-001 -3.3589172363E-001 -4.4386386871E-003 -3.3328533173E-003 +1.5635043383E-005 -4.5055523515E-005 -7.2765350342E-002 +3.5068511963E-002
8127500000.000 -3.5427856445E-001 -3.4094238281E-001 -5.4621696472E-003 -3.2639503479E-004 -4.8194080591E-005 +3.2255426049E-005 -9.1419219971E-002 +3.9684295654E-002
8260000000.000 -3.5998535156E-001 -3.4346008301E-001 -4.6632289886E-003 +2.8731822968E-003 -7.8238546848E-005 +3.6034733057E-005 -9.5603942871E-002 +3.4492492676E-002
8392500000.000 -3.6262512207E-001 -3.4526062012E-001 -2.2933483124E-003 +5.0058364868E-003 -7.0583075285E-005 +5.8151781559E-006 -1.0970306396E-001 +1.8501281738E-002
8525000000.000 -3.6471557617E-001 -3.4826660156E-001 +8.4781646729E-004 +5.3529739380E-003 +5.7408586144E-005 -3.2695010304E-005 -1.2188720703E-001 +1.4953613281E-002
8657500000.000 -3.6793518066E-001 -3.5180664063E-001 +3.6125183105E-003 +3.9765834808E-003 -3.4045428038E-005 +4.1881576180E-005 -1.1787414551E-001 +4.1732788086E-003
8790000000.000 -3.7261962891E-001 -3.5412597656E-001 +5.2669048309E-003 +1.2180805206E-003 -2.9061920941E-005 -2.7566216886E-005 -1.1961364746E-001 -1.7406463623E-002
8922500000.000 -3.7507629395E-001 -3.5432434082E-001 +4.9777030945E-003 -1.9061565399E-003 +3.7865713239E-005 +2.1725893021E-005 -1.2231063843E-001 -3.0590057373E-002
9055000000.000 -3.7771606445E-001 -3.5694885254E-001 +3.1743049622E-003 -4.4195652008E-003 -3.3721327782E-005 +2.8699636459E-005 -1.1091613770E-001 -4.4048309326E-002
9187500000.000 -3.8119506836E-001 -3.5887145996E-001 +1.5020370483E-005 -5.3448677063E-003 -1.8506310880E-005 -5.5832788348E-006 -1.0014724731E-001 -6.6776275635E-002
9320000000.000 -3.8725280762E-001 -3.5861206055E-001 -2.9256343842E-003 -4.4534206390E-003 +7.2404742241E-005 -4.6864151955E-005 -9.3696594238E-002 -7.9586029053E-002
9452500000.000 -3.9045715332E-001 -3.5871887207E-001 -4.9118995667E-003 -2.1109580994E-003 -9.8720192909E-006 +5.0479546189E-005 -7.4260711670E-002 -8.6589813232E-002
9585000000.000 -3.9389038086E-001 -3.5992431641E-001 -5.2077770233E-003 +1.0344982147E-003 -1.0430812836E-005 -9.0245157480E-007 -5.4229736328E-002 -1.0117340088E-001
9717500000.000 -3.9930725098E-001 -3.6225891113E-001 -3.6760568619E-003 +3.7292242050E-003 +9.0923160315E-005 -2.4564564228E-005 -4.1275024414E-002 -1.0703277588E-001
9850000000.000 -4.0548706055E-001 -3.6001586914E-001 -9.4461441040E-004 +5.1925182343E-003 -3.6202371120E-005 +7.8253448009E-005 -1.9268035889E-002 -1.0221481323E-001
9982500000.000 -4.0733337402E-001 -3.6152648926E-001 +2.0334720612E-003 +4.8677921295E-003 -6.4603984356E-005 -2.6360154152E-005 +6.5650939941E-003 -1.0318374634E-001
10115000000.000 -4.1119384766E-001 -3.6363220215E-001 +4.3361186981E-003 +2.8517246246E-003 +1.0015442967E-005 -4.7911889851E-006 +1.9290924072E-002 -9.9075317383E-002
10247500000.000 -4.1758728027E-001 -3.6415100098E-001 +5.1941871643E-003 -1.2779235840E-004 -1.6499310732E-005 +5.6553632021E-005 +3.5552978516E-002 -8.0097198486E-002
10380000000.000 -4.2160034180E-001 -3.6306762695E-001 +4.2090415955E-003 -2.8939247131E-003 -1.3494864106E-005 +3.7852674723E-005 +5.6953430176E-002 -6.7386627197E-002
10512500000.000 -4.2453002930E-001 -3.6363220215E-001 +1.7955303192E-003 -4.7547817230E-003 -4.1753053665E-005 +1.9067898393E-005 +6.2782287598E-002 -5.5976867676E-002
10645000000.000 -4.2826843262E-001 -3.6503601074E-001 -1.0826587677E-003 -4.9736499786E-003 +4.3310225010E-005 +1.4051795006E-005 +6.6158294678E-002 -2.9258728027E-002
10777500000.000 -4.3353271484E-001 -3.6605834961E-001 -3.6551952362E-003 -3.4673213959E-003 -2.9995106161E-005 -5.2209943533E-006 +7.6961517334E-002 -7.7590942383E-003
10910000000.000 -4.3803405762E-001 -3.6598205566E-001 -4.9448013306E-003 -7.5292587280E-004 -2.3208558559E-005 -1.2313574553E-004 +7.2322845459E-002 +5.7220458984E-003
11042500000.000 -4.4221496582E-001 -3.6656188965E-001 -4.5802593231E-003 +2.0320415497E-003 -1.1475756764E-005 +3.2080337405E-005 +5.9648513794E-002 +3.1179428101E-002
11175000000.000 -4.4564819336E-001 -3.6897277832E-001 -2.6295185089E-003 +4.2273998260E-003 -3.0030496418E-005 +2.9756687582E-005 +5.6413650513E-002 +5.2215576172E-002
11307500000.000 -4.4857788086E-001 -3.6996459961E-001 +2.5057792664E-004 +4.9171447754E-003 -2.2660940886E-005 -1.1288560927E-005 +4.3508529663E-002 +5.8528900146E-002
11440000000.000 -4.5326232910E-001 -3.7097167969E-001 +3.0519962311E-003 +3.9682388306E-003 +3.5390257835E-005 +3.1204894185E-005 +1.8226623535E-002 +7.2097778320E-002
11572500000.000 -4.5480346680E-001 -3.7330627441E-001 +4.7540664673E-003 +1.6584396362E-003 -7.9605728388E-005 -1.7315149307E-005 +4.4212341309E-003 +8.7215423584E-002
11705000000.000 -4.5735168457E-001 -3.7477111816E-001 +4.7035217285E-003 -1.2340545654E-003 -3.3589079976E-005 -1.3358891010E-005 -1.0173797607E-002 +8.0814361572E-002
11837500000.000 -4.6093750000E-001 -3.7605285645E-001 +3.2609701157E-003 -3.6845207214E-003 +3.5706907511E-006 +1.2936070561E-006 -4.3029785156E-002 +7.6580047607E-002
11970000000.000 -4.6255493164E-001 -3.7547302246E-001 +6.3920021057E-004 -4.8544406891E-003 +4.6608969569E-005 +3.3488497138E-005 -5.9421539307E-002 +8.3038330078E-002
12102500000.000 -4.6258544922E-001 -3.7702941895E-001 -2.2327899933E-003 -4.4441223145E-003 -2.3124739528E-005 -7.6349824667E-006 -6.5399169922E-002 +6.4334869385E-002
12235000000.000 -4.6798706055E-001 -3.7680053711E-001 -4.2629241943E-003 -2.3901462555E-003 +1.2758653611E-005 +1.2109521776E-005 -9.2697143555E-002 +4.3979644775E-002
12367500000.000 -4.6908569336E-001 -3.7586975098E-001 -4.8110485077E-003 +3.7932395935E-004 +3.2175332308E-005 +6.9860368967E-005 -1.0555648804E-001 +4.2518615723E-002
12500000000.000 -4.7273254395E-001 -3.7443542480E-001 -3.7889480591E-003 +2.9305219650E-003 -6.7550688982E-005 -1.1466443539E-005 -9.7301483154E-002 +2.0565032959E-002
12632500000.000 -4.7436523438E-001 -3.7574768066E-001 -1.3692378998E-003 +4.5788288116E-003 -1.5815719962E-005 -1.0210089386E-005 -1.0905456543E-001 -1.3534545898E-002
12765000000.000 -4.7750854492E-001 -3.7524414063E-001 +1.4479160309E-003 +4.5199394226E-003 -3.6135315895E-006 -2.3547559977E-005 -1.1727905273E-001 -1.8074035645E-002
12897500000.000 -4.8005676270E-001 -3.7368774414E-001 +3.6098957062E-003 +2.9866695404E-003 -5.5781565607E-006 +1.5066470951E-005 -9.2357635498E-002 -3.4561157227E-002
13030000000.000 -4.8213195801E-001 -3.7290954590E-001 +4.7547817230E-003 +4.0817260742E-004 +7.9441815615E-006 -5.8865174651E-005 -8.9279174805E-002 -7.0919036865E-002
13162500000.000 -4.8442077637E-001 -3.7390136719E-001 +4.0340423584E-003 -2.2282600403E-003 -3.2242387533E-006 -5.5847689509E-005 -9.1354370117E-002 -7.2711944580E-002
13295000000.000 -4.8716735840E-001 -3.7425231934E-001 +2.1822452545E-003 -4.2159557343E-003 -1.1613592505E-005 +2.9727816582E-006 -6.1164855957E-002 -7.8678131104E-002
13427500000.000 -4.9037170410E-001 -3.7184143066E-001 -4.5204162598E-004 -4.6126842499E-003 -4.4643878937E-005 -8.8736414909E-006 -4.6726226807E-002 -1.0394668579E-001
13560000000.000 -4.9043273926E-001 -3.7145996094E-001 -2.9853582382E-003 -3.5682916641E-003 +3.6319717765E-005 -5.9766694903E-005 -4.6329498291E-002 -1.0143661499E-001
13692500000.000 -4.9275207520E-001 -3.7294006348E-001 -4.2781829834E-003 -1.3618469238E-003 -3.9363279939E-005 -1.1702999473E-005 -1.7845153809E-002 -8.9366912842E-002
13825000000.000 -4.9699401855E-001 -3.7255859375E-001 -4.3909549713E-003 +1.4276504517E-003 +4.3921172619E-006 -7.1920454502E-005 +4.1389465332E-003 -1.0306930542E-001
13957500000.000 -4.9948120117E-001 -3.6984252930E-001 -2.7692317963E-003 +3.6317110062E-003 -9.0692192316E-006 -3.9422884583E-005 -4.9591064453E-005 -9.5397949219E-002
14090000000.000 -5.0064086914E-001 -3.6996459961E-001 -3.4570693970E-004 +4.6849250793E-003 +2.3446977139E-005 +3.2503157854E-005 +2.2014617920E-002 -7.0125579834E-002
14222500000.000 -5.0183105469E-001 -3.7243652344E-001 +2.2032260895E-003 +3.9408206940E-003 -3.2484531403E-005 +2.2575259209E-005 +4.3960571289E-002 -7.4264526367E-002
14355000000.000 -5.0671386719E-001 -3.7216186523E-001 +4.0574073792E-003 +1.9168853760E-003 -4.0933489799E-005 -1.0372325778E-004 +3.3103942871E-002 -6.7123413086E-002
14487500000.000 -5.0894165039E-001 -3.7225341797E-001 +4.4543743134E-003 -6.0677528381E-004 +5.6661665440E-006 -9.0703368187E-005 +4.0084838867E-002 -3.3901214600E-002
14620000000.000 -5.0912475586E-001 -3.7310791016E-001 +3.2690763474E-003 -2.9346942902E-003 -4.5785680413E-005 -2.7786940336E-005 +6.1019897461E-002 -3.1494140625E-002
14752500000.000 -5.1150512695E-001 -3.7744140625E-001 +1.1920928955E-003 -4.2343139648E-003 -1.0542571545E-005 -7.7500939369E-005 +4.3066024780E-002 -3.2449722290E-002
14885000000.000 -5.1461791992E-001 -3.7908935547E-001 -1.5122890472E-003 -4.2450428009E-003 -3.7550926208E-006 +9.2539936304E-005 +3.5318374634E-002 +1.6040802002E-003
15017500000.000 -5.1538085938E-001 -3.7994384766E-001 -3.5911798477E-003 -2.5008916855E-003 -6.9834291935E-005 +8.1028789282E-005 +5.3180694580E-002 +8.9359283447E-003
15150000000.000 -5.1571655273E-001 -3.8296508789E-001 -4.2688846588E-003 -1.3351440430E-004 -3.2313168049E-005 -4.2978674173E-005 +3.5362243652E-002 -1.6269683838E-003
15282500000.000 -5.1654052734E-001 -3.8565063477E-001 -3.6211013794E-003 +2.2581815720E-003 +3.2203271985E-005 -3.8925558329E-005 +1.4386177063E-002 +2.3111343384E-002
