!  2-Port S-parameters saved by WinCal
! VAR MeasName=S-Parameters (CALIBRATED_DATA) read from VNA (C)
! VAR MeasDate=10/16/2015 12:49:38 PM
! VAR NAME=M6082_13_15_2_2_20C_8.3mA_-17.5dBm
! VAR FILENAME=M6082_13_15_2_2_20C_8.3mA_-17.5dBm.S2P
! VAR DATE=10/16/2015 12:49:38 PM
! VAR PHYS_PORTS=2,1
! VAR ObjTypeName=DATASET
! VAR IndexType=Frequency
!
# Hz S RI R 50
45000000.000 -3.9751052856E-002 +7.1334838867E-004 -1.1703968048E-003 +6.3345432281E-003 +2.4852156639E-004 -5.6475400925E-004 +2.8619766235E-002 +2.4003982544E-003
177500000.000 -3.8547515869E-002 -5.0354003906E-003 +2.4623870850E-003 +6.3526630402E-003 +6.1877071857E-005 +1.8389523029E-004 +1.6143798828E-002 +1.6766548157E-002
310000000.000 -3.8402557373E-002 -9.4299316406E-003 +4.9750804901E-003 +4.1732788086E-003 -1.1902302504E-004 -6.8794935942E-005 +2.9020309448E-002 +6.1534881592E-002
442500000.000 -3.8341522217E-002 -1.4335632324E-002 +7.6098442078E-003 +1.5163421631E-004 -1.7249956727E-005 +1.4963559806E-005 +7.2593688965E-002 +2.2544860840E-002
575000000.000 -3.8658142090E-002 -1.9378662109E-002 +5.8755874634E-003 -4.0051937103E-003 -3.5140663385E-005 +4.0208920836E-005 +2.7184486389E-002 +1.1230468750E-002
707500000.000 -3.9148330688E-002 -2.3637771606E-002 +2.5534629822E-003 -6.3681602478E-003 -4.4973567128E-005 -5.7330355048E-005 +2.0837783813E-003 +1.8647193909E-002
840000000.000 -3.9012908936E-002 -2.8690338135E-002 -1.4264583588E-003 -6.7224502563E-003 +3.1394883990E-005 +6.2696635723E-006 -1.9956588745E-002 +2.5980949402E-002
972500000.000 -3.9033889771E-002 -3.3405303955E-002 -5.0456523895E-003 -4.5816898346E-003 +3.1063333154E-005 -4.4677406549E-005 -3.5839080811E-002 +3.5512924194E-002
1105000000.000 -3.9747238159E-002 -3.8272857666E-002 -6.6967010498E-003 -1.1613368988E-003 -4.0281563997E-005 +2.5071203709E-005 -4.6903610229E-002 +3.8105010986E-002
1237500000.000 -4.0380477905E-002 -4.2610168457E-002 -6.0908794403E-003 +2.7530193329E-003 +7.6666474342E-005 -6.0051679611E-006 -5.8536529541E-002 +3.3823013306E-002
1370000000.000 -4.1032791138E-002 -4.7073364258E-002 -3.5564899445E-003 +5.6872367859E-003 -6.3925981522E-006 +6.6924840212E-005 -7.3970794678E-002 +2.6962280273E-002
1502500000.000 -4.1419982910E-002 -5.1485061646E-002 +2.4700164795E-004 +6.6523551941E-003 -6.7256391048E-005 +1.7538666725E-005 -8.8008880615E-002 +2.1228790283E-002
1635000000.000 -4.1486740112E-002 -5.6470870972E-002 +3.8437843323E-003 +5.3927898407E-003 +2.2295862436E-005 +1.2286938727E-005 -9.8983764648E-002 +1.1608123779E-002
1767500000.000 -4.2413711548E-002 -6.1300277710E-002 +6.2215328217E-003 +2.2921562195E-003 +8.3777122200E-006 -2.4801120162E-006 -1.1182785034E-001 +2.8724670410E-003
1900000000.000 -4.2652130127E-002 -6.5216064453E-002 +6.4535140991E-003 -1.6725063324E-003 -7.8368932009E-005 -5.5789947510E-005 -1.1370468140E-001 -3.5514831543E-003
2032500000.000 -4.3327331543E-002 -6.9496154785E-002 +4.3702125549E-003 -5.0210952759E-003 +7.1898102760E-006 -8.4623694420E-005 -1.1365509033E-001 -2.4417877197E-002
2165000000.000 -4.3312072754E-002 -7.4474334717E-002 +9.1791152954E-004 -6.6115856171E-003 +1.0097399354E-005 +2.7943402529E-005 -1.2256240845E-001 -4.2240142822E-002
2297500000.000 -4.3914794922E-002 -7.8338623047E-002 -2.9754638672E-003 -5.9568881989E-003 -6.5196305513E-005 -3.3602118492E-006 -1.2643432617E-001 -5.3588867188E-002
2430000000.000 -4.4540405273E-002 -8.2427978516E-002 -5.7175159454E-003 -3.2269954681E-003 -4.2762607336E-005 -6.9446861744E-005 -1.2655639648E-001 -6.4964294434E-002
2562500000.000 -4.5204162598E-002 -8.7085723877E-002 -6.4651966095E-003 +6.0653686523E-004 +2.5790184736E-005 +7.5127929449E-005 -1.2509155273E-001 -7.1037292480E-002
2695000000.000 -4.7183990479E-002 -9.0419769287E-002 -5.1856040955E-003 +3.8747787476E-003 -9.0701505542E-006 +2.6733614504E-006 -1.1351394653E-001 -7.3318481445E-002
2827500000.000 -4.8442840576E-002 -9.2975616455E-002 -1.9667148590E-003 +6.0455799103E-003 -4.7259032726E-005 -6.9938600063E-005 -9.8499298096E-002 -8.1840515137E-002
2960000000.000 -4.8751831055E-002 -9.6935272217E-002 +1.7147064209E-003 +6.1650276184E-003 +4.0613114834E-005 +2.1627172828E-005 -8.8111877441E-002 -8.6669921875E-002
3092500000.000 -5.0327301025E-002 -1.0195541382E-001 +4.9164295197E-003 +3.9999485016E-003 -1.3783574104E-004 +9.0397894382E-005 -7.0240020752E-002 -8.5968017578E-002
3225000000.000 -5.3260803223E-002 -1.0562515259E-001 +6.4055919647E-003 +6.3300132751E-004 -3.3065676689E-005 -2.4812296033E-005 -5.1971435547E-002 -9.1011047363E-002
3357500000.000 -5.4870605469E-002 -1.0804748535E-001 +5.6905746460E-003 -2.7375221252E-003 +1.1340901256E-004 -2.4866312742E-005 -4.1435241699E-002 -9.1510772705E-002
3490000000.000 -5.5774688721E-002 -1.1297607422E-001 +3.1442642212E-003 -5.4955482483E-003 -3.4572556615E-005 -3.1590461731E-005 -2.7824401855E-002 -8.3156585693E-002
3622500000.000 -5.7338714600E-002 -1.1816406250E-001 -5.1259994507E-004 -6.3946247101E-003 +2.5114975870E-005 -1.3966113329E-005 -1.1287689209E-002 -7.9124450684E-002
3755000000.000 -5.9913635254E-002 -1.2277603149E-001 -4.0171146393E-003 -5.0683021545E-003 +3.7960708141E-006 -5.1250681281E-005 -5.7563781738E-003 -7.2811126709E-002
3887500000.000 -6.1370849609E-002 -1.2650299072E-001 -6.0644149780E-003 -1.9321441650E-003 +5.2195042372E-005 +6.9946050644E-005 +2.2430419922E-003 -5.5839538574E-002
4020000000.000 -6.2515258789E-002 -1.3027191162E-001 -6.1380863190E-003 +1.7433166504E-003 -8.8695436716E-005 +5.9276819229E-005 +1.3399124146E-002 -4.4382095337E-002
4152500000.000 -6.3758850098E-002 -1.3521575928E-001 -4.1220188141E-003 +5.0191879272E-003 -1.2828409672E-004 -4.3377280235E-005 +1.5382766724E-002 -3.2546997070E-002
4285000000.000 -6.5544128418E-002 -1.3964843750E-001 -5.4860115051E-004 +6.3481330872E-003 -5.8094039559E-005 -2.2040680051E-005 +1.6999244690E-002 -1.2974739075E-002
4417500000.000 -6.7741394043E-002 -1.4346313477E-001 +3.1323432922E-003 +5.4907798767E-003 -3.4837052226E-005 +8.5160136223E-006 +2.5707244873E-002 +3.7279129028E-003
4550000000.000 -6.8542480469E-002 -1.4724731445E-001 +5.5456161499E-003 +2.8469562531E-003 -1.5938654542E-005 -7.8883022070E-007 +2.8849601746E-002 +9.6445083618E-003
4682500000.000 -6.9641113281E-002 -1.5219879150E-001 +6.1798095703E-003 -6.4992904663E-004 +1.0760501027E-004 +7.6033174992E-006 +2.5478363037E-002 +2.0691871643E-002
4815000000.000 -7.1846008301E-002 -1.5651702881E-001 +4.8484802246E-003 -3.9210319519E-003 -4.1112303734E-005 +1.4819204807E-005 +3.1038284302E-002 +2.7518272400E-002
4947500000.000 -7.2715759277E-002 -1.6001892090E-001 +1.8694400787E-003 -5.8732032776E-003 -7.2844326496E-005 -5.0850212574E-005 +2.7527809143E-002 +1.9916534424E-002
5080000000.000 -7.3150634766E-002 -1.6423034668E-001 -1.6584396362E-003 -6.0832500458E-003 +5.6177377701E-005 +7.4077397585E-005 +1.3141632080E-002 +2.0599365234E-002
5212500000.000 -7.4493408203E-002 -1.6871643066E-001 -4.8820972443E-003 -4.0521621704E-003 -2.4605542421E-006 +1.0748859495E-005 +9.0494155884E-003 +2.4722099304E-002
5345000000.000 -7.6339721680E-002 -1.7191314697E-001 -6.4761638641E-003 -7.0977210999E-004 -2.3663043976E-005 -9.0971589088E-006 +5.3844451904E-003 +1.6107559204E-002
5477500000.000 -7.5935363770E-002 -1.7478942871E-001 -5.7997703552E-003 +3.0512809753E-003 +1.7669051886E-005 -9.6485018730E-007 -9.3679428101E-003 +1.0179042816E-002
5610000000.000 -7.6637268066E-002 -1.7924499512E-001 -3.0300617218E-003 +5.6657791138E-003 -1.5173107386E-005 +2.9095448554E-005 -1.4987468719E-002 +1.4477729797E-002
5742500000.000 -7.8773498535E-002 -1.8234252930E-001 +7.9369544983E-004 +6.5419673920E-003 -2.8709881008E-005 -2.5453045964E-006 -1.1606693268E-002 +5.9213638306E-003
5875000000.000 -8.0230712891E-002 -1.8349456787E-001 +4.2858123779E-003 +4.8980712891E-003 +4.9721449614E-005 -3.7958845496E-005 -2.0307540894E-002 -3.4866333008E-003
6007500000.000 -8.0390930176E-002 -1.8625640869E-001 +6.3009262085E-003 +1.6372203827E-003 -6.1687082052E-005 +4.7530978918E-005 -2.3269653320E-002 +8.9645385742E-005
6140000000.000 -8.1886291504E-002 -1.9059753418E-001 +6.1187744141E-003 -2.1741390228E-003 -1.9812956452E-005 -3.8608908653E-005 -1.5425205231E-002 -2.8815269470E-003
6272500000.000 -8.5777282715E-002 -1.9321441650E-001 +3.8459300995E-003 -5.2282810211E-003 +3.6286190152E-005 -2.6497989893E-005 -1.6437530518E-002 -1.1995315552E-002
6405000000.000 -8.8035583496E-002 -1.9364929199E-001 +2.3603439331E-004 -6.5715312958E-003 +2.4890527129E-005 +1.8494203687E-005 -1.9353866577E-002 -6.3753128052E-003
6537500000.000 -8.8012695313E-002 -1.9692230225E-001 -3.4306049347E-003 -5.5258274078E-003 -5.8092176914E-005 -5.1561743021E-005 -9.3722343445E-003 -3.2577514648E-003
6670000000.000 -9.0400695801E-002 -2.0211791992E-001 -5.8932304382E-003 -2.6118755341E-003 -2.0055100322E-005 -4.9168244004E-005 -7.8210830688E-003 -7.3771476746E-003
6802500000.000 -9.5100402832E-002 -2.0490264893E-001 -6.3722133636E-003 +1.1069774628E-003 +1.4463439584E-005 +5.3884461522E-005 -1.1287689209E-002 +2.7179718018E-005
6935000000.000 -9.7129821777E-002 -2.0539855957E-001 -4.6842098236E-003 +4.4891834259E-003 -1.3418495655E-005 +2.6626512408E-005 -6.4611434937E-003 +9.7570419312E-003
7067500000.000 -9.7007751465E-002 -2.0890045166E-001 -1.3539791107E-003 +6.1948299408E-003 -4.5377761126E-005 -6.4536929131E-005 -4.6858787537E-003 +1.0080337524E-002
7200000000.000 -1.0025024414E-001 -2.1406555176E-001 +2.4015903473E-003 +5.9714317322E-003 +3.2799318433E-005 -2.9269605875E-005 -1.5011787415E-002 +1.6957283020E-002
7332500000.000 -1.0448455811E-001 -2.1649932861E-001 +5.3117275238E-003 +3.6029815674E-003 -4.2513012886E-005 +2.9349699616E-005 -1.7024993896E-002 +3.0670166016E-002
7465000000.000 -1.0607910156E-001 -2.1833801270E-001 +6.3760280609E-003 +9.5367431641E-006 -4.0464103222E-005 -1.2330710888E-006 -1.9741058350E-002 +3.1243324280E-002
7597500000.000 -1.0759735107E-001 -2.2284698486E-001 +5.2788257599E-003 -3.5188198090E-003 +4.9255788326E-005 -6.6582113504E-005 -3.6340713501E-002 +3.3298492432E-002
7730000000.000 -1.1049652100E-001 -2.2741699219E-001 +2.5205612183E-003 -5.8100223541E-003 +1.8903054297E-005 +5.9064477682E-006 -4.8135757446E-002 +4.3672561646E-002
7862500000.000 -1.1280059814E-001 -2.3033142090E-001 -1.2097358704E-003 -6.2189102173E-003 -4.3012201786E-005 -1.9213184714E-005 -5.3552627563E-002 +4.2636871338E-002
7995000000.000 -1.1363220215E-001 -2.3311614990E-001 -4.5361518860E-003 -4.5027732849E-003 +4.0037557483E-005 -3.2752752304E-005 -7.2914123535E-002 +3.5121917725E-002
8127500000.000 -1.1484527588E-001 -2.3866271973E-001 -6.2124729156E-003 -1.1925697327E-003 +5.9381127357E-005 +3.8797035813E-005 -9.1293334961E-002 +3.9871215820E-002
8260000000.000 -1.1786651611E-001 -2.4188995361E-001 -5.9084892273E-003 +2.4011135101E-003 -4.8410147429E-005 +5.2638351917E-006 -9.5508575439E-002 +3.4416198730E-002
8392500000.000 -1.1837768555E-001 -2.4465942383E-001 -3.4801959991E-003 +5.3012371063E-003 -3.1560659409E-005 -7.0780515671E-005 -1.0978698730E-001 +1.8398284912E-002
8525000000.000 -1.1827087402E-001 -2.4825286865E-001 +4.6014785767E-005 +6.3996315002E-003 +7.9020857811E-005 +5.3908675909E-005 -1.2196350098E-001 +1.4942169189E-002
8657500000.000 -1.1961364746E-001 -2.5245666504E-001 +3.5953521729E-003 +5.3021907806E-003 -4.9462541938E-005 +3.2974407077E-005 -1.1779022217E-001 +4.1007995605E-003
8790000000.000 -1.2153625488E-001 -2.5573730469E-001 +5.9530735016E-003 +2.3159980774E-003 +3.8292258978E-005 -5.1381066442E-005 -1.1960601807E-001 -1.7425537109E-002
8922500000.000 -1.2202453613E-001 -2.5700378418E-001 +6.2711238861E-003 -1.4233589172E-003 +3.7057325244E-005 +1.0864809155E-005 -1.2228012085E-001 -3.0559539795E-002
9055000000.000 -1.2263488770E-001 -2.6036071777E-001 +4.4045448303E-003 -4.6541690826E-003 -7.3011964560E-005 +1.3511627913E-005 -1.1101531982E-001 -4.4055938721E-002
9187500000.000 -1.2405395508E-001 -2.6295471191E-001 +1.1472702026E-003 -6.3309669495E-003 -5.3452327847E-005 -3.6489218473E-006 -1.0026168823E-001 -6.6818237305E-002
9320000000.000 -1.2727355957E-001 -2.6411437988E-001 -2.7244091034E-003 -5.8269500732E-003 +4.2878091335E-005 +1.1082738638E-006 -9.3608856201E-002 -7.9601287842E-002
9452500000.000 -1.2809753418E-001 -2.6562500000E-001 -5.5785179138E-003 -3.2379627228E-003 +8.3632767200E-006 +4.9438327551E-005 -7.4089050293E-002 -8.6742401123E-002
9585000000.000 -1.2951660156E-001 -2.6818847656E-001 -6.4647197723E-003 +4.2486190796E-004 -4.4265761971E-005 -6.0787424445E-005 -5.4347991943E-002 -1.0134506226E-001
9717500000.000 -1.3339233398E-001 -2.7154541016E-001 -5.1906108856E-003 +3.9513111115E-003 +4.2624771595E-005 +1.8693506718E-005 -4.1286468506E-002 -1.0680770874E-001
9850000000.000 -1.3703918457E-001 -2.7136230469E-001 -1.9981861115E-003 +6.1998367310E-003 +2.1463260055E-005 +3.6241486669E-005 -1.8913269043E-002 -1.0223007202E-001
9982500000.000 -1.3725280762E-001 -2.7394104004E-001 +1.7549991608E-003 +6.1452388763E-003 -1.1633150280E-005 +2.5068409741E-005 +6.3514709473E-003 -1.0342025757E-001
10115000000.000 -1.3980102539E-001 -2.7723693848E-001 +4.8756599426E-003 +4.1532516479E-003 +1.8266960979E-005 -3.7770718336E-005 +1.9214630127E-002 -9.9037170410E-002
10247500000.000 -1.4451599121E-001 -2.7906799316E-001 +6.4105987549E-003 +6.1821937561E-004 +6.2938779593E-005 +4.2367726564E-005 +3.5938262939E-002 -7.9811096191E-002
10380000000.000 -1.4642333984E-001 -2.8044128418E-001 +5.6931972504E-003 -2.9096603394E-003 -1.8786638975E-005 +1.0306760669E-004 +5.7205200195E-002 -6.7504882813E-002
10512500000.000 -1.4877319336E-001 -2.8279113770E-001 +3.0920505524E-003 -5.6922435760E-003 -2.0843930542E-005 -4.3986365199E-006 +6.2580108643E-002 -5.5999755859E-002
10645000000.000 -1.5150451660E-001 -2.8500366211E-001 -6.1774253845E-004 -6.4361095428E-003 +3.2316893339E-005 +7.0217996836E-005 +6.6024780273E-002 -2.9117584229E-002
10777500000.000 -1.5452575684E-001 -2.8756713867E-001 -4.1043758392E-003 -4.9910545349E-003 -5.8904290199E-005 +8.4850937128E-005 +7.7350616455E-002 -7.6942443848E-003
10910000000.000 -1.5716552734E-001 -2.9003906250E-001 -6.1697959900E-003 -1.7783641815E-003 -3.4451484680E-005 -3.3166259527E-005 +7.2273254395E-002 +5.6381225586E-003
11042500000.000 -1.6084289551E-001 -2.9267883301E-001 -6.1855316162E-003 +1.9955635071E-003 +6.0923397541E-005 -1.6996636987E-005 +5.9410095215E-002 +3.1417846680E-002
11175000000.000 -1.6313171387E-001 -2.9614257813E-001 -3.9851665497E-003 +5.1043033600E-003 -1.9991770387E-005 -5.4018571973E-005 +5.6468963623E-002 +5.2827835083E-002
11307500000.000 -1.6458129883E-001 -2.9821777344E-001 -4.1222572327E-004 +6.5326690674E-003 -2.2329390049E-005 -5.1958486438E-005 +4.3582916260E-002 +5.8530807495E-002
11440000000.000 -1.6831970215E-001 -3.0113220215E-001 +3.2961368561E-003 +5.5978298187E-003 +5.7440251112E-005 -5.3575262427E-005 +1.8070220947E-002 +7.2082519531E-002
11572500000.000 -1.6906738281E-001 -3.0488586426E-001 +5.8531761169E-003 +2.7341842651E-003 -3.2421201468E-005 +6.8634748459E-005 +4.1885375977E-003 +8.7448120117E-002
11705000000.000 -1.7071533203E-001 -3.0734252930E-001 +6.4549446106E-003 -1.0077953339E-003 -7.1741640568E-005 -2.3785978556E-005 -1.0242462158E-002 +8.1039428711E-002
11837500000.000 -1.7355346680E-001 -3.1008911133E-001 +4.6820640564E-003 -4.3771266937E-003 +2.7917325497E-005 -7.6172873378E-006 -4.3281555176E-002 +7.6587677002E-002
11970000000.000 -1.7402648926E-001 -3.1121826172E-001 +1.4083385468E-003 -6.4377784729E-003 +3.5824254155E-005 +2.7570873499E-005 -5.9551239014E-002 +8.2935333252E-002
12102500000.000 -1.7338562012E-001 -3.1433105469E-001 -2.3632049561E-003 -5.9585571289E-003 +2.0600855350E-006 +3.8735568523E-005 -6.5647125244E-002 +6.4235687256E-002
12235000000.000 -1.7816162109E-001 -3.1556701660E-001 -5.3248405457E-003 -3.5598278046E-003 -4.2654573917E-005 -2.6701018214E-005 -9.3048095703E-002 +4.3937683105E-002
12367500000.000 -1.7745971680E-001 -3.1626892090E-001 -6.4306259155E-003 -1.9788742065E-005 -3.7025660276E-005 +5.9440732002E-005 -1.0548019409E-001 +4.2510986328E-002
12500000000.000 -1.8020629883E-001 -3.1704711914E-001 -5.3610801697E-003 +3.7240982056E-003 -2.6933848858E-005 -1.8911436200E-005 -9.7335815430E-002 +2.0133972168E-002
12632500000.000 -1.8167114258E-001 -3.2014465332E-001 -2.3291110992E-003 +6.0033798218E-003 +2.9094517231E-006 -2.7958303690E-005 -1.0932922363E-001 -1.3652801514E-002
12765000000.000 -1.8325805664E-001 -3.2052612305E-001 +1.3659000397E-003 +6.2999725342E-003 +5.5743381381E-005 +3.9860606194E-005 -1.1713027954E-001 -1.7860412598E-002
12897500000.000 -1.8498229980E-001 -3.2008361816E-001 +4.6267509460E-003 +4.4231414795E-003 +5.0142407417E-006 +1.2576580048E-004 -9.2086791992E-002 -3.4835815430E-002
13030000000.000 -1.8641662598E-001 -3.2130432129E-001 +6.3116550446E-003 +1.0225772858E-003 -6.1776489019E-005 -6.8441033363E-005 -8.9408874512E-002 -7.1388244629E-002
13162500000.000 -1.8838500977E-001 -3.2337951660E-001 +5.8028697968E-003 -2.7492046356E-003 +4.5169144869E-006 -3.9977952838E-005 -9.1598510742E-002 -7.2528839111E-002
13295000000.000 -1.9078063965E-001 -3.2464599609E-001 +3.2072067261E-003 -5.6085586548E-003 +6.1977654696E-005 -3.2309442759E-005 -6.0817718506E-002 -7.8521728516E-002
13427500000.000 -1.9438171387E-001 -3.2406616211E-001 -3.9768218994E-004 -6.3362121582E-003 -6.9953501225E-005 -1.0404363275E-004 -4.6459197998E-002 -1.0437011719E-001
13560000000.000 -1.9398498535E-001 -3.2452392578E-001 -3.8735866547E-003 -5.1178932190E-003 +6.4421445131E-005 -3.2059848309E-005 -4.6520233154E-002 -1.0134124756E-001
13692500000.000 -1.9587707520E-001 -3.2774353027E-001 -6.0698986053E-003 -1.9650459290E-003 +4.5184046030E-005 +4.2278319597E-005 -1.7543792725E-002 -8.8954925537E-002
13825000000.000 -2.0024108887E-001 -3.2946777344E-001 -6.0689449310E-003 +1.8250942230E-003 -3.6114826798E-005 -5.6548044086E-005 +4.6806335449E-003 -1.0309982300E-001
13957500000.000 -2.0268249512E-001 -3.2829284668E-001 -4.0721893311E-003 +4.8768520355E-003 +9.2875212431E-005 -3.6060810089E-005 -7.6293945313E-005 -9.5611572266E-002
14090000000.000 -2.0300292969E-001 -3.2991027832E-001 -5.1498413086E-004 +6.4120292664E-003 +9.8634511232E-005 +4.3995678425E-005 +2.1915435791E-002 -7.0064544678E-002
14222500000.000 -2.0399475098E-001 -3.3387756348E-001 +3.0751228333E-003 +5.5394172668E-003 -2.1783635020E-005 -3.8342550397E-005 +4.4212341309E-002 -7.4043273926E-002
14355000000.000 -2.0849609375E-001 -3.3496093750E-001 +5.5725574493E-003 +2.8123855591E-003 -4.7681853175E-005 +6.5676867962E-006 +3.3329010010E-002 -6.6921234131E-002
14487500000.000 -2.1031188965E-001 -3.3522033691E-001 +6.2451362610E-003 -8.1348419189E-004 +2.7149915695E-005 +1.1428259313E-005 +4.0163040161E-002 -3.4061431885E-002
14620000000.000 -2.0991516113E-001 -3.3767700195E-001 +4.6684741974E-003 -4.2328834534E-003 -8.0332159996E-005 +3.7271529436E-005 +6.0728073120E-002 -3.1162261963E-002
14752500000.000 -2.1321105957E-001 -3.4236145020E-001 +1.4572143555E-003 -6.0880184174E-003 +2.9429793358E-006 -1.3442337513E-004 +4.3142318726E-002 -3.2085418701E-002
14885000000.000 -2.1591186523E-001 -3.4371948242E-001 -2.2318363190E-003 -5.9027671814E-003 -1.1809170246E-006 +9.1359019279E-005 +3.5528182983E-002 +1.5182495117E-003
15017500000.000 -2.1591186523E-001 -3.4504699707E-001 -5.1453113556E-003 -3.6699771881E-003 +1.3343989849E-005 +6.5606087446E-005 +5.2907943726E-002 +8.5639953613E-003
15150000000.000 -2.1638488770E-001 -3.4974670410E-001 -6.2198638916E-003 -4.1484832764E-005 -8.1178732216E-006 +3.1730160117E-006 +3.4660339355E-002 -1.4362335205E-003
15282500000.000 -2.1749877930E-001 -3.5270690918E-001 -5.2313804626E-003 +3.5345554352E-003 -1.7303973436E-006 -3.4721568227E-005 +1.4675140381E-002 +2.3456573486E-002
