!  2-Port S-parameters saved by WinCal
! VAR MeasName=S-Parameters (CALIBRATED_DATA) read from VNA (C)
! VAR MeasDate=10/16/2015 3:08:32 PM
! VAR NAME=M6082_10_15_2_2_20C_3.5mA_-17.5dBm
! VAR FILENAME=M6082_10_15_2_2_20C_3.5mA_-17.5dBm.S2P
! VAR DATE=10/16/2015 3:08:32 PM
! VAR PHYS_PORTS=2,1
! VAR ObjTypeName=DATASET
! VAR IndexType=Frequency
!
# Hz S RI R 50
45000000.000 +5.5317878723E-003 -3.6606788635E-003 -1.1305809021E-003 +6.4232349396E-003 -4.3749809265E-005 -1.6003847122E-003 +2.6389122009E-002 +2.7704238892E-003
177500000.000 +5.1627159119E-003 -1.2071132660E-002 +2.5289058685E-003 +6.4268112183E-003 +1.7657876015E-005 +2.5852024555E-004 +1.5818595886E-002 +1.6839981079E-002
310000000.000 +5.6238174438E-003 -2.2208213806E-002 +5.3207874298E-003 +4.1844844818E-003 +3.4514814615E-005 -7.3086470366E-005 +2.9062271118E-002 +6.1626434326E-002
442500000.000 +5.1364898682E-003 -3.2804489136E-002 +7.5497627258E-003 -2.7608871460E-004 +4.9211084843E-006 -4.2691826820E-005 +7.2406768799E-002 +2.2361755371E-002
575000000.000 +4.1389465332E-003 -4.3754577637E-002 +5.6197643280E-003 -4.1916370392E-003 -7.7508389950E-005 +3.4071505070E-005 +2.7199745178E-002 +1.1135101318E-002
707500000.000 +2.2068023682E-003 -5.3922653198E-002 +2.1562576294E-003 -6.7465305328E-003 -3.3888965845E-005 -3.6232173443E-005 +2.0427703857E-003 +1.8757820129E-002
840000000.000 +8.0108642578E-004 -6.4765930176E-002 -1.9841194153E-003 -6.8655014038E-003 +2.6449561119E-005 -3.3684074879E-005 -1.9953727722E-002 +2.6047706604E-002
972500000.000 -7.7056884766E-004 -7.5237274170E-002 -5.4194927216E-003 -4.5666694641E-003 -5.6197866797E-005 +2.2342428565E-005 -3.5907745361E-002 +3.5324096680E-002
1105000000.000 -3.1776428223E-003 -8.5834503174E-002 -6.9720745087E-003 -6.7996978760E-004 +3.7500634789E-005 -5.8682635427E-005 -4.6798706055E-002 +3.8154602051E-002
1237500000.000 -5.5313110352E-003 -9.5798492432E-002 -6.1035156250E-003 +3.3428668976E-003 +9.0733170509E-005 +1.6100704670E-005 -5.8521270752E-002 +3.3836364746E-002
1370000000.000 -8.2626342773E-003 -1.0587310791E-001 -3.1385421753E-003 +6.2286853790E-003 +6.0498714447E-006 +4.7259032726E-005 -7.3944091797E-002 +2.6912689209E-002
1502500000.000 -1.1032104492E-002 -1.1555099487E-001 +9.3221664429E-004 +6.8836212158E-003 +1.8185004592E-005 -3.0994415283E-006 -8.8008880615E-002 +2.1255493164E-002
1635000000.000 -1.3221740723E-002 -1.2587738037E-001 +4.5855045319E-003 +5.1407814026E-003 +7.6781958342E-005 +1.8823891878E-005 -9.8930358887E-002 +1.1562347412E-002
1767500000.000 -1.6990661621E-002 -1.3597106934E-001 +6.7002773285E-003 +1.6667842865E-003 -4.8169866204E-005 +3.5611912608E-005 -1.1186599731E-001 +2.8762817383E-003
1900000000.000 -2.0095825195E-002 -1.4471435547E-001 +6.4556598663E-003 -2.4158954620E-003 +8.0158933997E-006 +2.1192245185E-005 -1.1376571655E-001 -3.5247802734E-003
2032500000.000 -2.3635864258E-002 -1.5357971191E-001 +3.9539337158E-003 -5.5963993073E-003 -3.4192577004E-005 -5.6289136410E-005 -1.1369705200E-001 -2.4471282959E-002
2165000000.000 -2.6779174805E-002 -1.6358184814E-001 +8.5592269897E-005 -6.6802501678E-003 +4.4256448746E-006 +1.1845026165E-005 -1.2247467041E-001 -4.2335510254E-002
2297500000.000 -3.0937194824E-002 -1.7190551758E-001 -3.7391185760E-003 -5.5706501007E-003 -8.8393688202E-005 +1.2122839689E-004 -1.2645721436E-001 -5.3405761719E-002
2430000000.000 -3.4744262695E-002 -1.8004608154E-001 -6.1845779419E-003 -2.5122165680E-003 -3.0856579542E-005 -9.9685043097E-005 -1.2653350830E-001 -6.4796447754E-002
2562500000.000 -3.8612365723E-002 -1.8897247314E-001 -6.4120292664E-003 +1.4641284943E-003 +1.3548880816E-005 +7.7575445175E-005 -1.2498092651E-001 -7.0888519287E-002
2695000000.000 -4.4471740723E-002 -1.9620513916E-001 -4.3783187866E-003 +4.7924518585E-003 -1.0354444385E-004 +5.1785260439E-005 -1.1347961426E-001 -7.3467254639E-002
2827500000.000 -4.9522399902E-002 -2.0264434814E-001 -1.1801719666E-003 +6.5472126007E-003 -2.6028603315E-005 -6.7874789238E-005 -9.8415374756E-002 -8.1790924072E-002
2960000000.000 -5.3359985352E-002 -2.1037292480E-001 +2.8355121613E-003 +6.0157775879E-003 +1.2294948101E-004 +7.0393085480E-005 -8.8008880615E-002 -8.6677551270E-002
3092500000.000 -5.8929443359E-002 -2.1889495850E-001 +5.5751800537E-003 +3.3965110779E-003 -5.6102871895E-006 +4.5103952289E-005 -7.0198059082E-002 -8.5884094238E-002
3225000000.000 -6.6001892090E-002 -2.2583770752E-001 +6.3731670380E-003 -3.9219856262E-004 -9.6581876278E-005 -7.8007578850E-005 -5.1906585693E-002 -9.1182708740E-002
3357500000.000 -7.1296691895E-002 -2.3136901855E-001 +5.2626132965E-003 -4.0268898010E-003 +5.0883740187E-005 -6.4507126808E-005 -4.1183471680E-002 -9.1648101807E-002
3490000000.000 -7.6232910156E-002 -2.3954010010E-001 +2.1102428436E-003 -6.1695575714E-003 -7.4449926615E-005 +8.5424631834E-005 -2.7858734131E-002 -8.3187103271E-002
3622500000.000 -8.2115173340E-002 -2.4729156494E-001 -1.5940666199E-003 -6.2651634216E-003 -4.5523047447E-006 +7.2240363806E-006 -1.1398315430E-002 -7.9212188721E-002
3755000000.000 -8.8867187500E-002 -2.5447082520E-001 -4.9655437469E-003 -4.2870044708E-003 +5.2975490689E-005 +1.1941418052E-005 -5.9394836426E-003 -7.2914123535E-002
3887500000.000 -9.4345092773E-002 -2.6068115234E-001 -6.5643787384E-003 -7.4195861816E-004 -5.5655837059E-006 +9.8809599876E-005 +2.0236968994E-003 -5.5892944336E-002
4020000000.000 -9.9639892578E-002 -2.6673889160E-001 -5.7601928711E-003 +3.0605792999E-003 +4.7152861953E-005 -5.9075653553E-005 +1.3315200806E-002 -4.4477462769E-002
4152500000.000 -1.0493469238E-001 -2.7397155762E-001 -3.1197071075E-003 +5.8846473694E-003 +8.9630484581E-006 -1.0242313147E-004 +1.5214920044E-002 -3.2526016235E-002
4285000000.000 -1.1096191406E-001 -2.8041076660E-001 +7.6532363892E-004 +6.5593719482E-003 +7.0892274380E-005 +3.3311545849E-005 +1.7090797424E-002 -1.2900352478E-002
4417500000.000 -1.1763000488E-001 -2.8605651855E-001 +4.2827129364E-003 +4.9216747284E-003 -2.4663284421E-005 +3.4172087908E-005 +2.5637626648E-002 +3.7193298340E-003
4550000000.000 -1.2243652344E-001 -2.9142761230E-001 +6.2363147736E-003 +1.6570091248E-003 +2.5926157832E-005 -4.2881816626E-005 +2.8776168823E-002 +9.5853805542E-003
4682500000.000 -1.2750244141E-001 -2.9798889160E-001 +6.0749053955E-003 -2.1078586578E-003 -1.6774982214E-005 -1.7475336790E-005 +2.5540351868E-002 +2.0680427551E-002
4815000000.000 -1.3385009766E-001 -3.0389404297E-001 +3.9503574371E-003 -5.0826072693E-003 -6.1605125666E-005 +7.5127929449E-005 +3.1121253967E-002 +2.7479171753E-002
4947500000.000 -1.3896179199E-001 -3.0870056152E-001 +4.5347213745E-004 -6.4635276794E-003 +3.9804726839E-006 +3.9011240005E-005 +2.7518272400E-002 +1.9876480103E-002
5080000000.000 -1.4341735840E-001 -3.1422424316E-001 -3.3328533173E-003 -5.7270526886E-003 +3.0309893191E-006 -1.0613817722E-005 +1.3141632080E-002 +2.0578384399E-002
5212500000.000 -1.4878845215E-001 -3.1977844238E-001 -6.0679912567E-003 -2.7678012848E-003 +2.6948750019E-005 -4.9253925681E-005 +9.0875625610E-003 +2.4857521057E-002
5345000000.000 -1.5464782715E-001 -3.2400512695E-001 -6.6223144531E-003 +1.0225772858E-003 -3.4838914871E-005 -6.4369291067E-005 +5.4330825806E-003 +1.6316413879E-002
5477500000.000 -1.5835571289E-001 -3.2786560059E-001 -4.8792362213E-003 +4.7075748444E-003 +3.0429102480E-005 -8.7777152658E-006 -9.2768669128E-003 +1.0271549225E-002
5610000000.000 -1.6291809082E-001 -3.3305358887E-001 -1.3782978058E-003 +6.7417621613E-003 +5.0477683544E-007 +5.5188313127E-005 -1.4977455139E-002 +1.4501094818E-002
5742500000.000 -1.6896057129E-001 -3.3688354492E-001 +2.6793479919E-003 +6.3829421997E-003 -2.6699155569E-005 -7.0156529546E-006 -1.1622428894E-002 +5.9213638306E-003
5875000000.000 -1.7443847656E-001 -3.3863830566E-001 +5.8219432831E-003 +3.6778450012E-003 -1.4038756490E-005 -5.8952718973E-006 -2.0349502563E-002 -3.3960342407E-003
6007500000.000 -1.7863464355E-001 -3.4182739258E-001 +6.9835186005E-003 -2.7155876160E-004 +1.4704652131E-005 +9.0315006673E-006 -2.3320198059E-002 +2.8610229492E-006
6140000000.000 -1.8379211426E-001 -3.4646606445E-001 +5.5363178253E-003 -4.1902065277E-003 -1.4327932149E-005 -7.9027377069E-006 -1.5451431274E-002 -3.0264854431E-003
6272500000.000 -1.9134521484E-001 -3.4921264648E-001 +2.2380352020E-003 -6.5493583679E-003 +9.1671245173E-007 +1.2209638953E-006 -1.6558647156E-002 -1.1896133423E-002
6405000000.000 -1.9772338867E-001 -3.4992980957E-001 -1.9125938416E-003 -6.7498683929E-003 -1.5431083739E-005 -6.0480087996E-006 -1.9445419312E-002 -6.4535140991E-003
6537500000.000 -2.0147705078E-001 -3.5340881348E-001 -5.4311752319E-003 -4.4531822205E-003 -3.1372532248E-005 +1.1086463928E-005 -9.2458724976E-003 -3.3640861511E-003
6670000000.000 -2.0730590820E-001 -3.5835266113E-001 -6.9892406464E-003 -6.1464309692E-004 -8.9295208454E-006 -4.2518600821E-005 -7.8701972961E-003 -7.3661804199E-003
6802500000.000 -2.1574401855E-001 -3.6091613770E-001 -6.0594081879E-003 +3.4713745117E-003 +3.8355588913E-005 +2.4849548936E-005 -1.1416912079E-002 +3.8146972656E-005
6935000000.000 -2.2140502930E-001 -3.6125183105E-001 -3.0233860016E-003 +6.3822269440E-003 -1.8624588847E-005 +3.8834288716E-005 -6.3047409058E-003 +9.8223686218E-003
7067500000.000 -2.2434997559E-001 -3.6447143555E-001 +9.9563598633E-004 +6.9007873535E-003 +2.6116147637E-005 +3.4701079130E-005 -4.5962333679E-003 +1.0028839111E-002
7200000000.000 -2.3060607910E-001 -3.6912536621E-001 +4.8112869263E-003 +5.2177906036E-003 +7.0653855801E-005 -3.0621886253E-005 -1.5032768250E-002 +1.6950607300E-002
7332500000.000 -2.3846435547E-001 -3.7092590332E-001 +6.9293975830E-003 +1.5027523041E-003 +9.6652656794E-006 +4.6983361244E-005 -1.7002105713E-002 +3.0717849731E-002
7465000000.000 -2.4333190918E-001 -3.7229919434E-001 +6.5131187439E-003 -2.7096271515E-003 -1.7523765564E-005 -4.2237341404E-005 -1.9703865051E-002 +3.1241416931E-002
7597500000.000 -2.4755859375E-001 -3.7583923340E-001 +3.9639472961E-003 -5.9401988983E-003 +4.2503699660E-005 +3.2410025597E-006 -3.6266326904E-002 +3.3151626587E-002
7730000000.000 -2.5358581543E-001 -3.8026428223E-001 -1.4877319336E-004 -7.1599483490E-003 -5.5480748415E-005 +8.0130994320E-006 -4.8282623291E-002 +4.3575286865E-002
7862500000.000 -2.5926208496E-001 -3.8252258301E-001 -4.2724609375E-003 -5.7747364044E-003 -1.0032579303E-004 +5.3051859140E-005 -5.3579330444E-002 +4.2713165283E-002
7995000000.000 -2.6300048828E-001 -3.8453674316E-001 -6.8058967590E-003 -2.4442672729E-003 +7.2773545980E-006 -2.9019080102E-005 -7.2818756104E-002 +3.5095214844E-002
8127500000.000 -2.6692199707E-001 -3.8941955566E-001 -6.9816112518E-003 +1.8384456635E-003 +2.2206455469E-005 +4.5772641897E-005 -9.1396331787E-002 +3.9649963379E-002
8260000000.000 -2.7305603027E-001 -3.9218139648E-001 -4.6603679657E-003 +5.6135654449E-003 -3.8556754589E-005 -2.0371749997E-005 -9.5573425293E-002 +3.4332275391E-002
8392500000.000 -2.7627563477E-001 -3.9405822754E-001 -7.2669982910E-004 +7.2915554047E-003 +1.1363252997E-004 -2.0835548639E-005 -1.0982894897E-001 +1.8367767334E-002
8525000000.000 -2.7859497070E-001 -3.9724731445E-001 +3.6017894745E-003 +6.4604282379E-003 +1.9265338778E-005 +9.0077519417E-006 -1.2186813354E-001 +1.4896392822E-002
8657500000.000 -2.8260803223E-001 -4.0065002441E-001 +6.7121982574E-003 +3.2052993774E-003 -3.5066157579E-005 -4.5930966735E-005 -1.1790084839E-001 +4.0893554688E-003
8790000000.000 -2.8775024414E-001 -4.0345764160E-001 +7.3521137238E-003 -1.2829303741E-003 +1.4150515199E-005 -3.5556033254E-005 -1.1957931519E-001 -1.7509460449E-002
8922500000.000 -2.9077148438E-001 -4.0359497070E-001 +5.4287910461E-003 -5.3191184998E-003 +4.8279762268E-005 +2.5453045964E-005 -1.2229537964E-001 -3.0570983887E-002
9055000000.000 -2.9402160645E-001 -4.0649414063E-001 +1.3103485107E-003 -7.4703693390E-003 -4.8629939556E-005 +5.3767114878E-005 -1.1088943481E-001 -4.4105529785E-002
9187500000.000 -2.9817199707E-001 -4.0867614746E-001 -3.2656192780E-003 -6.9839954376E-003 -9.3761831522E-005 -1.7002224922E-005 -1.0004425049E-001 -6.7024230957E-002
9320000000.000 -3.0482482910E-001 -4.0859985352E-001 -6.6964626312E-003 -3.8592815399E-003 +3.8124620914E-005 +4.0456652641E-005 -9.3631744385E-002 -7.9715728760E-002
9452500000.000 -3.0865478516E-001 -4.0898132324E-001 -7.7278614044E-003 +7.6031684875E-004 -9.9977478385E-006 +2.4174340069E-005 -7.4085235596E-002 -8.6688995361E-002
9585000000.000 -3.1298828125E-001 -4.1070556641E-001 -5.7928562164E-003 +5.0599575043E-003 -2.4896115065E-005 +3.3315271139E-005 -5.4000854492E-002 -1.0126876831E-001
9717500000.000 -3.1929016113E-001 -4.1288757324E-001 -1.8634796143E-003 +7.3804855347E-003 +9.1139227152E-006 -2.5660730898E-005 -4.1122436523E-002 -1.0702514648E-001
9850000000.000 -3.2638549805E-001 -4.1104125977E-001 +2.8958320618E-003 +7.0693492889E-003 -5.2340328693E-007 +4.1224062443E-005 -1.9046783447E-002 -1.0216140747E-001
9982500000.000 -3.2902526855E-001 -4.1282653809E-001 +6.3889026642E-003 +4.0264129639E-003 -6.3400715590E-005 -1.6018748283E-005 +6.6833496094E-003 -1.0316848755E-001
10115000000.000 -3.3363342285E-001 -4.1490173340E-001 +7.5650215149E-003 -3.3712387085E-004 +6.0869380832E-005 -4.5906752348E-005 +1.9451141357E-002 -9.8991394043E-002
10247500000.000 -3.4106445313E-001 -4.1519165039E-001 +6.0133934021E-003 -4.5270919800E-003 +7.0322304964E-005 +4.3381005526E-005 +3.5884857178E-002 -7.9929351807E-002
10380000000.000 -3.4603881836E-001 -4.1452026367E-001 +2.1634101868E-003 -7.2774887085E-003 -1.7527490854E-005 +3.2000243664E-005 +5.7147979736E-002 -6.7253112793E-002
10512500000.000 -3.4970092773E-001 -4.1490173340E-001 -2.3863315582E-003 -7.2820186615E-003 -8.1174075603E-006 -6.4674764872E-005 +6.2816619873E-002 -5.5683135986E-002
10645000000.000 -3.5443115234E-001 -4.1600036621E-001 -6.0555934906E-003 -4.5750141144E-003 +6.1962753534E-005 +4.0441751480E-005 +6.6097259521E-002 -2.9109954834E-002
10777500000.000 -3.6053466797E-001 -4.1717529297E-001 -7.5671672821E-003 -9.6797943115E-005 -7.0910900831E-006 +4.2516738176E-005 +7.7030181885E-002 -7.6217651367E-003
10910000000.000 -3.6625671387E-001 -4.1712951660E-001 -6.0293674469E-003 +4.3828487396E-003 -1.2473203242E-005 -1.6335397959E-005 +7.2402954102E-002 +6.0157775879E-003
11042500000.000 -3.7136840820E-001 -4.1758728027E-001 -2.4905204773E-003 +7.1082115173E-003 +6.5885484219E-005 -3.7085264921E-005 +5.9518814087E-002 +3.1524658203E-002
11175000000.000 -3.7550354004E-001 -4.1957092285E-001 +2.0654201508E-003 +7.1787834167E-003 +3.5438686609E-005 +7.0370733738E-005 +5.6131362915E-002 +5.2598953247E-002
11307500000.000 -3.7971496582E-001 -4.2012023926E-001 +5.7766437531E-003 +4.4991970062E-003 -1.3926997781E-005 -4.4096261263E-005 +4.3252944946E-002 +5.8769226074E-002
11440000000.000 -3.8507080078E-001 -4.2089843750E-001 +7.3044300079E-003 +3.6954879761E-004 +2.6416033506E-005 -5.2431598306E-005 +1.7955780029E-002 +7.2235107422E-002
11572500000.000 -3.8734436035E-001 -4.2298889160E-001 +6.0803890228E-003 -3.8654804230E-003 -3.7005171180E-005 +6.0327351093E-005 +4.0779113770E-003 +8.7482452393E-002
11705000000.000 -3.9068603516E-001 -4.2388916016E-001 +2.5839805603E-003 -6.5979957581E-003 -8.7339431047E-006 +2.1100975573E-005 -1.0551452637E-002 +8.0841064453E-002
11837500000.000 -3.9529418945E-001 -4.2468261719E-001 -1.7006397247E-003 -6.7484378815E-003 +4.1853636503E-006 -4.9896538258E-005 -4.3495178223E-002 +7.6465606689E-002
11970000000.000 -3.9729309082E-001 -4.2369079590E-001 -5.2127838135E-003 -4.5108795166E-003 -4.7809444368E-006 +3.1453091651E-006 -5.9787750244E-002 +8.2870483398E-002
12102500000.000 -3.9799499512E-001 -4.2463684082E-001 -6.7496299744E-003 -6.1583518982E-004 -7.2054564953E-005 +1.5359371901E-005 -6.5673828125E-002 +6.4029693604E-002
12235000000.000 -4.0422058105E-001 -4.2379760742E-001 -5.6843757629E-003 +3.3092498779E-003 -4.1089951992E-005 -4.9211084843E-006 -9.2983245850E-002 +4.3663024902E-002
12367500000.000 -4.0542602539E-001 -4.2272949219E-001 -2.7546882629E-003 +5.9289932251E-003 +3.4254044294E-005 +3.0219554901E-005 -1.0564804077E-001 +4.2179107666E-002
12500000000.000 -4.0962219238E-001 -4.2065429688E-001 +1.2795925140E-003 +6.2656402588E-003 -8.7708234787E-005 -1.0244548321E-006 -9.7286224365E-002 +2.0080566406E-002
12632500000.000 -4.1230773926E-001 -4.2156982422E-001 +4.4419765472E-003 +4.2612552643E-003 +3.4421682358E-005 -3.2750889659E-005 -1.0902023315E-001 -1.3813018799E-002
12765000000.000 -4.1571044922E-001 -4.2048645020E-001 +6.0112476349E-003 +8.9716911316E-004 +5.4337084293E-005 -3.7467107177E-005 -1.1705780029E-001 -1.8428802490E-002
12897500000.000 -4.1873168945E-001 -4.1809082031E-001 +5.2945613861E-003 -2.6907920837E-003 -2.1369196475E-005 -3.3881515265E-006 -9.2185974121E-002 -3.5018920898E-002
13030000000.000 -4.2131042480E-001 -4.1706848145E-001 +2.7441978455E-003 -5.1412582397E-003 -2.2179447114E-005 +7.9255551100E-007 -8.9061737061E-002 -7.1151733398E-002
13162500000.000 -4.2395019531E-001 -4.1738891602E-001 -7.2360038757E-004 -5.6498050690E-003 +5.9476122260E-005 -2.0386651158E-005 -9.0950012207E-002 -7.2837829590E-002
13295000000.000 -4.2689514160E-001 -4.1691589355E-001 -3.7770271301E-003 -4.1401386261E-003 +4.4208019972E-005 +4.2919069529E-005 -6.0783386230E-002 -7.8716278076E-002
13427500000.000 -4.3063354492E-001 -4.1424560547E-001 -5.3122043610E-003 -1.2724399567E-003 -4.6897679567E-005 -5.4633244872E-005 -4.6432495117E-002 -1.0382843018E-001
13560000000.000 -4.3095397949E-001 -4.1299438477E-001 -4.8716068268E-003 +1.9383430481E-003 +1.7649494112E-005 -5.4854899645E-006 -4.5925140381E-002 -1.0118484497E-001
13692500000.000 -4.3333435059E-001 -4.1394042969E-001 -2.8121471405E-003 +4.2285919189E-003 -1.7059966922E-005 +6.0310587287E-005 -1.7444610596E-002 -8.9145660400E-002
13825000000.000 -4.3785095215E-001 -4.1316223145E-001 -1.1444091797E-005 +4.9505233765E-003 -1.3580173254E-004 +2.6911497116E-005 +4.4975280762E-003 -1.0265350342E-001
13957500000.000 -4.4096374512E-001 -4.1003417969E-001 +2.7017593384E-003 +3.8502216339E-003 +3.0899420381E-005 +1.3317912817E-005 +2.0980834961E-004 -9.5172882080E-002
14090000000.000 -4.4192504883E-001 -4.0911865234E-001 +4.4214725494E-003 +1.5602111816E-003 +6.0308724642E-005 +8.9999288321E-005 +2.2140502930E-002 -6.9877624512E-002
14222500000.000 -4.4326782227E-001 -4.1133117676E-001 +4.4422149658E-003 -1.1675357819E-003 +5.2973628044E-006 +4.5893713832E-005 +4.3998718262E-002 -7.3757171631E-002
14355000000.000 -4.4851684570E-001 -4.1056823730E-001 +2.7776956558E-003 -3.4190416336E-003 +1.0875053704E-005 -4.4004991651E-006 +3.3000946045E-002 -6.6680908203E-002
14487500000.000 -4.5082092285E-001 -4.0966796875E-001 +4.4655799866E-004 -4.3470859528E-003 +9.2230737209E-005 +5.7481229305E-005 +4.0027618408E-002 -3.3643722534E-002
14620000000.000 -4.5060729980E-001 -4.1036987305E-001 -1.9036531448E-003 -3.7627220154E-003 -3.9758160710E-005 +1.9483268261E-006 +6.0726165771E-002 -3.1244277954E-002
14752500000.000 -4.5355224609E-001 -4.1447448730E-001 -3.7872791290E-003 -1.8714666367E-003 -4.4878572226E-005 -5.8645382524E-005 +4.3014526367E-002 -3.2287597656E-002
14885000000.000 -4.5632934570E-001 -4.1523742676E-001 -3.9384365082E-003 +4.8255920410E-004 +4.7724694014E-005 +9.1981142759E-005 +3.5169601440E-002 +1.5468597412E-003
15017500000.000 -4.5640563965E-001 -4.1569519043E-001 -2.8204917908E-003 +2.7219057083E-003 -2.9481947422E-005 +1.2918561697E-004 +5.2835464478E-002 +8.9702606201E-003
15150000000.000 -4.5707702637E-001 -4.1877746582E-001 -7.9238414764E-004 +3.7617683411E-003 -3.7781894207E-005 -1.9833445549E-005 +3.4992218018E-002 -1.6403198242E-003
15282500000.000 -4.5785522461E-001 -4.2063903809E-001 +1.3562440872E-003 +3.4739971161E-003 +1.1546909809E-004 -6.0841441154E-005 +1.4170646667E-002 +2.2985458374E-002
