!  2-Port S-parameters saved by WinCal
! VAR MeasName=S-Parameters (CALIBRATED_DATA) read from VNA (C)
! VAR MeasDate=10/16/2015 12:38:15 PM
! VAR NAME=M6082_13_15_2_2_20C_1.8mA_-17.5dBm
! VAR FILENAME=M6082_13_15_2_2_20C_1.8mA_-17.5dBm.S2P
! VAR DATE=10/16/2015 12:38:15 PM
! VAR PHYS_PORTS=2,1
! VAR ObjTypeName=DATASET
! VAR IndexType=Frequency
!
# Hz S RI R 50
45000000.000 +1.9464874268E-001 -1.3885498047E-003 -1.6918182373E-003 +5.5303573608E-003 +2.3001432419E-004 +2.6105344296E-004 +3.0540466309E-002 +3.4828186035E-003
177500000.000 +1.9033813477E-001 -1.2130737305E-002 +1.8649101257E-003 +5.0225257874E-003 -7.7486038208E-005 +3.2410025597E-004 +1.6195297241E-002 +1.7023086548E-002
310000000.000 +1.9212341309E-001 -2.2018432617E-002 +3.7350654602E-003 +2.6584863663E-003 -8.7171792984E-006 -7.1264803410E-005 +2.9415130615E-002 +6.1586380005E-002
442500000.000 +1.8610382080E-001 -2.7519226074E-002 +5.9318542480E-003 -4.1222572327E-004 +3.4935772419E-005 +2.1902844310E-005 +7.2700500488E-002 +2.2747039795E-002
575000000.000 +1.8247222900E-001 -3.3958435059E-002 +4.3146610260E-003 -3.5727024078E-003 -1.6191974282E-005 -3.1370669603E-005 +2.7284622192E-002 +1.1384010315E-002
707500000.000 +1.8223571777E-001 -4.1954040527E-002 +1.4326572418E-003 -5.2683353424E-003 -2.0287930965E-005 -8.0820173025E-005 +2.1333694458E-003 +1.8704414368E-002
840000000.000 +1.7933654785E-001 -4.8004150391E-002 -1.8475055695E-003 -5.1577091217E-003 +2.3753382266E-005 +6.7390501499E-006 -1.9876480103E-002 +2.5969505310E-002
972500000.000 +1.7975616455E-001 -5.5603027344E-002 -4.3830871582E-003 -3.0837059021E-003 +3.6323443055E-005 +9.8347663879E-007 -3.5808563232E-002 +3.5505294800E-002
1105000000.000 +1.7867279053E-001 -6.3697814941E-002 -5.3565502167E-003 +4.3153762817E-005 -4.2527914047E-005 -1.2973323464E-005 -4.6947479248E-002 +3.8259506226E-002
1237500000.000 +1.7771911621E-001 -7.0800781250E-002 -4.3599605560E-003 +3.1414031982E-003 +3.2320618629E-005 +1.6689300537E-006 -5.8582305908E-002 +3.3939361572E-002
1370000000.000 +1.7629241943E-001 -7.8437805176E-002 -1.7957687378E-003 +5.1016807556E-003 -1.0942108929E-005 -1.7622485757E-005 -7.4058532715E-002 +2.7095794678E-002
1502500000.000 +1.7358398438E-001 -8.3763122559E-002 +1.4028549194E-003 +5.2285194397E-003 -2.6566907763E-005 -3.4576281905E-005 -8.7982177734E-002 +2.1335601807E-002
1635000000.000 +1.7461395264E-001 -9.3002319336E-002 +4.1706562042E-003 +3.3900737762E-003 +1.8502585590E-005 -3.0267983675E-007 -9.9052429199E-002 +1.1714935303E-002
1767500000.000 +1.7221069336E-001 -1.0009765625E-001 +5.4779052734E-003 +4.1747093201E-004 -1.4860183001E-005 +8.7592750788E-005 -1.1200332642E-001 +2.9754638672E-003
1900000000.000 +1.6852569580E-001 -1.0340118408E-001 +4.9221515656E-003 -2.8529167175E-003 -1.4463439584E-005 -4.9542635679E-005 -1.1389160156E-001 -3.4561157227E-003
2032500000.000 +1.6613006592E-001 -1.0962677002E-001 +2.4394989014E-003 -5.1269531250E-003 +2.2843480110E-005 -5.6788325310E-005 -1.1372375488E-001 -2.4360656738E-002
2165000000.000 +1.6333007813E-001 -1.1590576172E-001 -6.6542625427E-004 -5.6161880493E-003 -1.4901161194E-006 +6.2469393015E-005 -1.2260818481E-001 -4.2194366455E-002
2297500000.000 +1.5934753418E-001 -1.2155914307E-001 -3.5936832428E-003 -4.4918060303E-003 -1.7499551177E-006 -2.7874484658E-005 -1.2657165527E-001 -5.3405761719E-002
2430000000.000 +1.5708923340E-001 -1.2697601318E-001 -5.4762363434E-003 -1.8184185028E-003 -5.0798058510E-005 -1.1734664440E-006 -1.2664031982E-001 -6.4888000488E-002
2562500000.000 +1.5586090088E-001 -1.3358306885E-001 -5.6517124176E-003 +1.8250942230E-003 +5.4191797972E-005 +6.3288956881E-005 -1.2556457520E-001 -7.0922851563E-002
2695000000.000 +1.5191650391E-001 -1.3897705078E-001 -3.7150382996E-003 +4.4856071472E-003 -9.5758587122E-005 +1.0367482901E-005 -1.1361312866E-001 -7.3406219482E-002
2827500000.000 +1.4984130859E-001 -1.4374542236E-001 -4.1365623474E-004 +5.9273242950E-003 -2.2299587727E-005 -1.0858476162E-004 -9.8678588867E-002 -8.1817626953E-002
2960000000.000 +1.4925384521E-001 -1.5007019043E-001 +3.2241344452E-003 +5.0613880157E-003 +5.3048133850E-006 +7.8603625298E-005 -8.8306427002E-002 -8.6708068848E-002
3092500000.000 +1.4622497559E-001 -1.5734100342E-001 +5.3429603577E-003 +2.4263858795E-003 +5.7306140661E-005 +8.4161758423E-005 -7.0480346680E-002 -8.5895538330E-002
3225000000.000 +1.4165496826E-001 -1.6334533691E-001 +5.7575702667E-003 -1.1081695557E-003 -1.9282102585E-005 -1.3677775860E-004 -5.1990509033E-002 -9.1129302979E-002
3357500000.000 +1.3899230957E-001 -1.6834259033E-001 +4.0249824524E-003 -4.2872428894E-003 +1.2828409672E-004 -7.3306262493E-005 -4.1461944580E-002 -9.1651916504E-002
3490000000.000 +1.3677978516E-001 -1.7492675781E-001 +1.1210441589E-003 -5.9533119202E-003 -1.3734400272E-004 +9.4480812550E-005 -2.7980804443E-002 -8.3213806152E-002
3622500000.000 +1.3355255127E-001 -1.8163299561E-001 -2.3784637451E-003 -5.6533813477E-003 -8.1062316895E-006 -9.0129673481E-005 -1.1409759521E-002 -7.9093933105E-002
3755000000.000 +1.2993621826E-001 -1.8847656250E-001 -5.3236484528E-003 -3.2060146332E-003 +1.4308840036E-004 -6.2182545662E-005 -5.9509277344E-003 -7.2994232178E-002
3887500000.000 +1.2768554688E-001 -1.9436645508E-001 -6.3261985779E-003 +5.0115585327E-004 +1.3591721654E-005 +6.0463324189E-005 +2.1800994873E-003 -5.5932998657E-002
4020000000.000 +1.2564849854E-001 -1.9976043701E-001 -4.9316883087E-003 +4.1575431824E-003 -1.4066230506E-005 +6.7818909883E-006 +1.3416290283E-002 -4.4406890869E-002
4152500000.000 +1.2397766113E-001 -2.0725250244E-001 -1.4698505402E-003 +6.3977241516E-003 +9.7401440144E-005 -3.0595809221E-005 +1.5386581421E-002 -3.2520294189E-002
4285000000.000 +1.2213897705E-001 -2.1462249756E-001 +2.8021335602E-003 +6.0462951660E-003 +1.4498829842E-005 +6.3590705395E-005 +1.7121315002E-002 -1.3084411621E-002
4417500000.000 +1.1988067627E-001 -2.2211456299E-001 +6.0441493988E-003 +2.9089450836E-003 -7.0974230766E-005 +4.7679990530E-005 +2.5647163391E-002 +3.5772323608E-003
4550000000.000 +1.1908721924E-001 -2.3081207275E-001 +6.6680908203E-003 -1.6398429871E-003 +7.5967982411E-006 -2.9004178941E-005 +2.9078483582E-002 +9.6836090088E-003
4682500000.000 +1.1671447754E-001 -2.4604034424E-001 +3.1950473785E-003 -5.8612823486E-003 -1.6853213310E-005 +1.1233612895E-005 +2.5714874268E-002 +2.0591735840E-002
4815000000.000 +1.1206054688E-001 -2.5547790527E-001 -1.2276172638E-003 -6.5820217133E-003 -4.2866915464E-005 +3.3838674426E-005 +3.1234741211E-002 +2.7389526367E-002
4947500000.000 +1.0786437988E-001 -2.6345825195E-001 -5.0969123840E-003 -4.3032169342E-003 +8.3469785750E-006 +3.5921111703E-006 +2.7708053589E-002 +1.9923210144E-002
5080000000.000 +1.0162353516E-001 -2.7365112305E-001 -6.3843727112E-003 +3.2472610474E-004 +7.9542398453E-005 -7.1447342634E-005 +1.3331413269E-002 +2.0503997803E-002
5212500000.000 +9.6008300781E-002 -2.8036499023E-001 -4.8224925995E-003 +4.1122436523E-003 -2.0354054868E-005 +1.5164725482E-005 +9.2267990112E-003 +2.4754524231E-002
5345000000.000 +9.1751098633E-002 -2.8462219238E-001 -1.6252994537E-003 +6.2553882599E-003 -1.5847384930E-005 -3.0558556318E-005 +5.5990219116E-003 +1.6176223755E-002
5477500000.000 +8.6715698242E-002 -2.8993225098E-001 +2.7847290039E-003 +5.6214332581E-003 +2.2795051336E-005 -9.8098069429E-005 -9.0765953064E-003 +1.0240554810E-002
5610000000.000 +8.1130981445E-002 -2.9553222656E-001 +5.3913593292E-003 +2.5651454926E-003 -7.4826180935E-005 +1.3824552298E-005 -1.4879703522E-002 +1.4535903931E-002
5742500000.000 +7.6507568359E-002 -2.9917907715E-001 +5.9425830841E-003 -1.0445117950E-003 -5.3191557527E-005 +2.9642134905E-005 -1.1428356171E-002 +5.9094429016E-003
5875000000.000 +7.1823120117E-002 -3.0101013184E-001 +4.1680335999E-003 -4.3480396271E-003 -1.2323260307E-005 -3.0094757676E-005 -2.0165443420E-002 -3.4332275391E-003
6007500000.000 +6.7535400391E-002 -3.0404663086E-001 +5.9294700623E-004 -5.7094097137E-003 -1.1493684724E-006 +7.7445292845E-007 -2.3222923279E-002 +1.3065338135E-004
6140000000.000 +6.2835693359E-002 -3.0883789063E-001 -2.8634071350E-003 -4.9586296082E-003 -5.4983422160E-005 -1.3034790754E-005 -1.5313148499E-002 -2.7232170105E-003
6272500000.000 +5.6701660156E-002 -3.1181335449E-001 -5.1739215851E-003 -2.5277137756E-003 -1.0840594769E-005 -3.1050294638E-005 -1.6417503357E-002 -1.1861801147E-002
6405000000.000 +5.0857543945E-002 -3.1224060059E-001 -5.5174827576E-003 +1.1134147644E-003 +3.1128525734E-005 +3.2372772694E-005 -1.9412040710E-002 -6.3600540161E-003
6537500000.000 +4.7744750977E-002 -3.1503295898E-001 -3.6027431488E-003 +3.9751529694E-003 -3.8815662265E-005 +4.3818727136E-005 -9.3564987183E-003 -3.2391548157E-003
6670000000.000 +4.3182373047E-002 -3.2060241699E-001 -7.2145462036E-004 +5.4562091827E-003 +9.1334804893E-006 +2.0974315703E-005 -7.8392028809E-003 -7.2875022888E-003
6802500000.000 +3.5171508789E-002 -3.2252502441E-001 +2.5291442871E-003 +4.5411586761E-003 +4.0812417865E-005 -2.4424865842E-005 -1.1321544647E-002 +1.0108947754E-004
6935000000.000 +2.9861450195E-002 -3.2171630859E-001 +4.4217109680E-003 +2.0191669464E-003 -4.3490901589E-005 +2.1116808057E-005 -6.4225196838E-003 +9.8571777344E-003
7067500000.000 +2.8549194336E-002 -3.2516479492E-001 +4.9340724945E-003 -7.9512596130E-004 -3.2842159271E-005 -7.0065259933E-005 -4.7416687012E-003 +1.0251522064E-002
7200000000.000 +2.3132324219E-002 -3.3006286621E-001 +3.6712884903E-003 -3.4450292587E-003 +2.9698014259E-005 +3.3387914300E-006 -1.5046119690E-002 +1.7075538635E-002
7332500000.000 +1.6250610352E-002 -3.3148193359E-001 +8.5544586182E-004 -4.6536922455E-003 -1.0214745998E-005 +3.9322301745E-005 -1.7108917236E-002 +3.0709266663E-002
7465000000.000 +1.2695312500E-002 -3.3280944824E-001 -1.9049644470E-003 -4.2541027069E-003 -6.5542757511E-005 -5.0868839025E-005 -1.9902229309E-002 +3.1088829041E-002
7597500000.000 +9.4757080078E-003 -3.3721923828E-001 -4.0926933289E-003 -2.6590824127E-003 +1.0357238352E-005 +1.6810372472E-007 -3.6470413208E-002 +3.3281326294E-002
7730000000.000 +4.2572021484E-003 -3.4007263184E-001 -4.4336318970E-003 +3.2448768616E-004 -1.9636936486E-005 -1.4376826584E-005 -4.8303604126E-002 +4.3605804443E-002
7862500000.000 -2.5939941406E-004 -3.4172058105E-001 -3.2232999802E-003 +2.6304721832E-003 -2.9448419809E-005 -3.2098963857E-005 -5.3655624390E-002 +4.2404174805E-002
7995000000.000 -2.5787353516E-003 -3.4458923340E-001 -1.3403892517E-003 +4.1079521179E-003 +7.9415738583E-005 -5.0786882639E-005 -7.3059082031E-002 +3.5083770752E-002
8127500000.000 -5.6610107422E-003 -3.4910583496E-001 +1.2426376343E-003 +3.9410591125E-003 +5.6101009250E-005 +4.4086948037E-005 -9.1461181641E-002 +3.9764404297E-002
8260000000.000 -1.0208129883E-002 -3.5099792480E-001 +3.0359029770E-003 +2.3406744003E-003 -4.4632703066E-005 +4.6174973249E-006 -9.5542907715E-002 +3.4271240234E-002
8392500000.000 -1.2359619141E-002 -3.5340881348E-001 +3.8832426071E-003 +1.8799304962E-004 +2.3060478270E-005 -7.0342794061E-006 -1.0990524292E-001 +1.8341064453E-002
8525000000.000 -1.3793945313E-002 -3.5618591309E-001 +3.3051967621E-003 -2.0283460617E-003 +4.8741698265E-005 +7.6126307249E-006 -1.2205505371E-001 +1.5014648438E-002
8657500000.000 -1.6159057617E-002 -3.5877990723E-001 +1.4110803604E-003 -3.2919645309E-003 -1.5007331967E-005 +3.1478703022E-005 -1.1779403687E-001 +4.1961669922E-003
8790000000.000 -1.9439697266E-002 -3.6146545410E-001 -6.3800811768E-004 -3.4238100052E-003 -3.8467347622E-005 -2.3655593395E-005 -1.1962890625E-001 -1.7475128174E-002
8922500000.000 -2.1362304688E-002 -3.6213684082E-001 -2.4079084396E-003 -2.4554729462E-003 +4.2486935854E-006 +3.4127384424E-005 -1.2241363525E-001 -3.0380249023E-002
9055000000.000 -2.2918701172E-002 -3.6454772949E-001 -3.1434297562E-003 -6.4706802368E-004 -1.5262514353E-005 +4.1056424379E-005 -1.1096954346E-001 -4.3941497803E-002
9187500000.000 -2.5466918945E-002 -3.6614990234E-001 -2.9276609421E-003 +1.2602806091E-003 -5.2779912949E-005 -8.9146196842E-005 -1.0028839111E-001 -6.6719055176E-002
9320000000.000 -2.9861450195E-002 -3.6685180664E-001 -1.6801357269E-003 +2.6278495789E-003 -3.0999071896E-006 +1.3380777091E-005 -9.3742370605E-002 -7.9486846924E-002
9452500000.000 -3.1738281250E-002 -3.6772155762E-001 +5.2928924561E-005 +2.9838085175E-003 -3.6111101508E-005 +2.7362257242E-005 -7.4172973633E-002 -8.6669921875E-002
9585000000.000 -3.4179687500E-002 -3.6950683594E-001 +1.6943216324E-003 +2.2740364075E-003 -1.2605451047E-005 -2.8170645237E-005 -5.4401397705E-002 -1.0126876831E-001
9717500000.000 -3.9276123047E-002 -3.7225341797E-001 +2.6029348373E-003 +9.7870826721E-004 +6.8597495556E-005 -9.3206763268E-006 -4.1435241699E-002 -1.0680770874E-001
9850000000.000 -4.3945312500E-002 -3.7164306641E-001 +2.6544332504E-003 -6.2119960785E-004 +2.3154541850E-005 +3.9074569941E-005 -1.8871307373E-002 -1.0224533081E-001
9982500000.000 -4.5166015625E-002 -3.7345886230E-001 +1.6630291939E-003 -1.8796920776E-003 -5.0276517868E-005 -2.9046088457E-005 +6.3705444336E-003 -1.0345458984E-001
10115000000.000 -4.8767089844E-002 -3.7614440918E-001 +3.3843517303E-004 -2.5068521500E-003 +4.1497871280E-005 +6.2007457018E-006 +1.9008636475E-002 -9.9075317383E-002
10247500000.000 -5.4367065430E-002 -3.7738037109E-001 -1.0734796524E-003 -2.1671056747E-003 +4.7115609050E-005 +2.1407380700E-005 +3.5800933838E-002 -7.9887390137E-002
10380000000.000 -5.6976318359E-002 -3.7825012207E-001 -1.9991397858E-003 -1.0645389557E-003 +1.0920688510E-005 +4.4904649258E-005 +5.7189941406E-002 -6.7749023438E-002
10512500000.000 -6.0440063477E-002 -3.7997436523E-001 -2.2581815720E-003 +2.0301342010E-004 +2.8789974749E-005 -2.1912157536E-005 +6.2417984009E-002 -5.6224822998E-002
10645000000.000 -6.4346313477E-002 -3.8148498535E-001 -1.7001032829E-003 +1.3994574547E-003 -4.2240135372E-006 -4.2233150452E-006 +6.6078186035E-002 -2.9125213623E-002
10777500000.000 -6.7886352539E-002 -3.8336181641E-001 -5.9759616852E-004 +1.9748210907E-003 -6.6149979830E-005 -1.7687678337E-005 +7.7472686768E-002 -7.9460144043E-003
10910000000.000 -7.1456909180E-002 -3.8533020020E-001 +5.7715177536E-004 +1.8931031227E-003 -3.1534582376E-006 -5.3085386753E-005 +7.2475433350E-002 +5.3482055664E-003
11042500000.000 -7.6370239258E-002 -3.8725280762E-001 +1.5091300011E-003 +1.2015104294E-003 +1.1776108295E-005 -8.2990154624E-006 +5.9375762939E-002 +3.1360626221E-002
11175000000.000 -7.9559326172E-002 -3.8999938965E-001 +1.8796920776E-003 +1.4108419418E-004 -7.7813863754E-005 +1.6357749701E-005 +5.6627273560E-002 +5.2572250366E-002
11307500000.000 -8.1390380859E-002 -3.9155578613E-001 +1.5885233879E-003 -8.4853172302E-004 +6.4224004745E-005 -1.0637938976E-004 +4.3737411499E-002 +5.8408737183E-002
11440000000.000 -8.6227416992E-002 -3.9387512207E-001 +7.9500675201E-004 -1.4929771423E-003 +3.8819387555E-005 -1.2442469597E-005 +1.8199920654E-002 +7.2063446045E-002
11572500000.000 -8.7890625000E-002 -3.9710998535E-001 -7.6472759247E-005 -1.6395449638E-003 +3.6123674363E-006 +7.6172873378E-006 +4.3563842773E-003 +8.7490081787E-002
11705000000.000 -9.0148925781E-002 -3.9891052246E-001 -1.0423660278E-003 -1.3062357903E-003 -1.0986812413E-005 -2.3209489882E-005 -1.0013580322E-002 +8.1077575684E-002
11837500000.000 -9.3612670898E-002 -4.0101623535E-001 -1.5161037445E-003 -4.5531988144E-004 +6.4421445131E-005 -6.1094760895E-005 -4.2915344238E-002 +7.6595306396E-002
11970000000.000 -9.5077514648E-002 -4.0167236328E-001 -1.4883279800E-003 +4.0680170059E-004 +6.1225146055E-005 -2.3990869522E-006 -5.9364318848E-002 +8.3187103271E-002
12102500000.000 -9.4680786133E-002 -4.0426635742E-001 -9.3591213226E-004 +1.1827349663E-003 -2.0065344870E-005 -3.9441511035E-006 -6.5509796143E-002 +6.4365386963E-002
12235000000.000 -1.0018920898E-001 -4.0487670898E-001 -2.2321939468E-004 +1.3638734818E-003 +7.3812901974E-005 -7.1614980698E-005 -9.2872619629E-002 +4.4155120850E-002
12367500000.000 -1.0005187988E-001 -4.0496826172E-001 +5.7715177536E-004 +1.3366937637E-003 +3.0152499676E-005 +6.6015869379E-005 -1.0532760620E-001 +4.2808532715E-002
12500000000.000 -1.0369873047E-001 -4.0527343750E-001 +1.2658238411E-003 +7.4642896652E-004 -2.5158748031E-005 +5.5929645896E-005 -9.7278594971E-002 +2.0317077637E-002
12632500000.000 -1.0580444336E-001 -4.0779113770E-001 +1.3458728790E-003 -1.7499923706E-004 +3.8390979171E-005 +3.4943223000E-006 -1.0936737061E-001 -1.3484954834E-002
12765000000.000 -1.0798645020E-001 -4.0773010254E-001 +1.0206103325E-003 -7.8397989273E-004 +3.9825215936E-005 +1.0242685676E-005 -1.1734008789E-001 -1.7524719238E-002
12897500000.000 -1.1035156250E-001 -4.0660095215E-001 +3.3026933670E-004 -1.2447834015E-003 +4.1425228119E-006 +3.6358833313E-005 -9.2063903809E-002 -3.4591674805E-002
13030000000.000 -1.1221313477E-001 -4.0747070313E-001 -3.1876564026E-004 -1.1504292488E-003 +1.7592683434E-006 -1.2363307178E-005 -8.9633941650E-002 -7.1365356445E-002
13162500000.000 -1.1479187012E-001 -4.0904235840E-001 -1.0086297989E-003 -7.4648857117E-004 +2.9449351132E-005 -2.0318664610E-005 -9.1903686523E-002 -7.2452545166E-002
13295000000.000 -1.1788940430E-001 -4.0989685059E-001 -1.1693835258E-003 -1.3339519501E-004 +1.7415732145E-005 +6.8169087172E-005 -6.0874938965E-002 -7.8472137451E-002
13427500000.000 -1.2199401855E-001 -4.0885925293E-001 -9.7253918648E-004 +4.9361586571E-004 -3.2935291529E-005 -7.2918832302E-005 -4.6661376953E-002 -1.0460281372E-001
13560000000.000 -1.2187194824E-001 -4.0902709961E-001 -5.8543682098E-004 +8.4641575813E-004 +1.2309104204E-004 +5.7838857174E-005 -4.6848297119E-002 -1.0164260864E-001
13692500000.000 -1.2417602539E-001 -4.1172790527E-001 +3.0332803726E-004 +9.7465515137E-004 -3.8654543459E-006 +1.3838987797E-005 -1.7791748047E-002 -8.9050292969E-002
13825000000.000 -1.2910461426E-001 -4.1288757324E-001 +6.3031911850E-004 +8.4078311920E-004 -8.3323568106E-005 -1.9386410713E-005 +4.5433044434E-003 -1.0332107544E-001
13957500000.000 -1.3200378418E-001 -4.1123962402E-001 +8.8506937027E-004 +2.9492378235E-004 +5.0715170801E-006 -7.6382420957E-006 -4.1961669922E-005 -9.6023559570E-002
14090000000.000 -1.3275146484E-001 -4.1223144531E-001 +9.5319747925E-004 -2.8508901596E-004 +3.3985823393E-005 +5.6162476540E-005 +2.1900177002E-002 -7.0194244385E-002
14222500000.000 -1.3432312012E-001 -4.1572570801E-001 +5.7977437973E-004 -5.7324767113E-004 -5.3327530622E-005 -3.5744160414E-005 +4.4010162354E-002 -7.4169158936E-002
14355000000.000 -1.3923645020E-001 -4.1607666016E-001 +4.5806169510E-005 -8.7901949883E-004 +5.6102871895E-006 -8.8393688202E-005 +3.3432006836E-002 -6.7153930664E-002
14487500000.000 -1.4149475098E-001 -4.1586303711E-001 -3.7240982056E-004 -7.5319409370E-004 +2.9044225812E-005 +5.6384131312E-005 +4.0227890015E-002 -3.4204483032E-002
14620000000.000 -1.4152526855E-001 -4.1790771484E-001 -6.4176321030E-004 -5.2556395531E-004 +7.9190358520E-006 +2.6463530958E-005 +6.0829162598E-002 -3.1499862671E-002
14752500000.000 -1.4521789551E-001 -4.2214965820E-001 -8.8700652122E-004 +9.5605850220E-005 +2.5685876608E-005 -9.7047537565E-005 +4.3373107910E-002 -3.2127380371E-002
14885000000.000 -1.4804077148E-001 -4.2312622070E-001 -7.1558356285E-004 +4.0912628174E-004 +3.5898759961E-005 +4.9306079745E-005 +3.5875320435E-002 +1.5525817871E-003
15017500000.000 -1.4833068848E-001 -4.2388916016E-001 -3.3476948738E-004 +6.7237019539E-004 -1.9259750843E-005 +1.0892003775E-004 +5.3131103516E-002 +8.4819793701E-003
15150000000.000 -1.4886474609E-001 -4.2839050293E-001 +1.9136071205E-004 +8.5961818695E-004 -7.7769160271E-005 -6.9450587034E-005 +3.4902572632E-002 -1.3427734375E-003
15282500000.000 -1.4994812012E-001 -4.3103027344E-001 +5.5766105652E-004 +5.2961707115E-004 +1.3778358698E-004 +7.8231096268E-006 +1.4942169189E-002 +2.3768424988E-002
