!  2-Port S-parameters saved by WinCal
! VAR MeasName=S-Parameters (CALIBRATED_DATA) read from VNA (C)
! VAR MeasDate=10/16/2015 1:55:16 PM
! VAR NAME=M6082_13_17_2_2_20C_8.3mA_-17.5dBm
! VAR FILENAME=M6082_13_17_2_2_20C_8.3mA_-17.5dBm.S2P
! VAR DATE=10/16/2015 1:55:16 PM
! VAR PHYS_PORTS=2,1
! VAR ObjTypeName=DATASET
! VAR IndexType=Frequency
!
# Hz S RI R 50
45000000.000 -7.2685241699E-002 -6.9808959961E-004 -2.5868415833E-004 +6.9556236267E-003 +7.7933073044E-005 -5.2517652512E-004 +2.7915000916E-002 +4.4269561768E-003
177500000.000 -7.1308135986E-002 -5.5541992188E-003 +2.2897720337E-003 +6.4311027527E-003 -6.9707632065E-005 +8.1088393927E-005 +1.5698432922E-002 +1.6584396362E-002
310000000.000 -7.1140289307E-002 -1.0856628418E-002 +5.2521228790E-003 +4.1983127594E-003 -4.8030167818E-005 -8.3256512880E-005 +2.9232025146E-002 +6.1258316040E-002
442500000.000 -7.0873260498E-002 -1.6380310059E-002 +7.6227188110E-003 +1.7070770264E-004 +5.6792050600E-005 -5.1591545343E-005 +7.2486877441E-002 +2.2602081299E-002
575000000.000 -7.1277618408E-002 -2.2209167480E-002 +5.9151649475E-003 -4.1332244873E-003 +1.0720454156E-005 +2.3826025426E-005 +2.7205467224E-002 +1.1369705200E-002
707500000.000 -7.1826934814E-002 -2.7202606201E-002 +2.4511814117E-003 -6.4454078674E-003 -7.1182847023E-005 -2.5253742933E-005 +2.1219253540E-003 +1.8651008606E-002
840000000.000 -7.1689605713E-002 -3.3027648926E-002 -1.5461444855E-003 -6.8218708038E-003 +7.2062015533E-005 +2.6173889637E-005 -1.9887924194E-002 +2.6055335999E-002
972500000.000 -7.1727752686E-002 -3.8475036621E-002 -5.0222873688E-003 -4.7502517700E-003 +6.4786523581E-005 +1.0563060641E-004 -3.5745620728E-002 +3.5518646240E-002
1105000000.000 -7.2555541992E-002 -4.4223785400E-002 -6.8161487579E-003 -1.1270046234E-003 +2.5594606996E-005 -3.4254044294E-005 -4.6846389771E-002 +3.8316726685E-002
1237500000.000 -7.3287963867E-002 -4.9339294434E-002 -6.2165260315E-003 +2.8488636017E-003 +5.9533864260E-005 -6.4648687840E-005 -5.8551788330E-002 +3.3885955811E-002
1370000000.000 -7.4108123779E-002 -5.4561614990E-002 -3.4582614899E-003 +5.8455467224E-003 +6.3087791204E-006 +1.5745870769E-005 -7.3966979980E-002 +2.7027130127E-002
1502500000.000 -7.4649810791E-002 -5.9764862061E-002 +3.7169456482E-004 +6.6251754761E-003 -6.5032392740E-005 +2.7451664209E-005 -8.7966918945E-002 +2.1396636963E-002
1635000000.000 -7.4855804443E-002 -6.5509796143E-002 +3.9403438568E-003 +5.4316520691E-003 +7.5362622738E-005 +1.0564923286E-005 -9.8999023438E-002 +1.1718750000E-002
1767500000.000 -7.6015472412E-002 -7.1052551270E-002 +6.5124034882E-003 +2.1986961365E-003 -3.0259601772E-005 -9.0925022960E-006 -1.1195373535E-001 +2.9792785645E-003
1900000000.000 -7.6446533203E-002 -7.5637817383E-002 +6.5729618073E-003 -1.8119812012E-003 -4.0903687477E-005 -3.3935531974E-005 -1.1384201050E-001 -3.4484863281E-003
2032500000.000 -7.7407836914E-002 -8.0570220947E-002 +4.3497085571E-003 -5.0165653229E-003 +3.6736950278E-005 -5.5313110352E-005 -1.1367416382E-001 -2.4398803711E-002
2165000000.000 -7.7697753906E-002 -8.6486816406E-002 +8.6474418640E-004 -6.5395832062E-003 +1.8268823624E-005 +1.0496005416E-004 -1.2248611450E-001 -4.2205810547E-002
2297500000.000 -7.8659057617E-002 -9.1003417969E-002 -2.9146671295E-003 -5.9568881989E-003 -6.8608671427E-005 +8.0764293671E-006 -1.2651062012E-001 -5.3474426270E-002
2430000000.000 -7.9509735107E-002 -9.5695495605E-002 -5.8732032776E-003 -3.2479763031E-003 +2.6345252991E-005 -8.0380588770E-005 -1.2648010254E-001 -6.4872741699E-002
2562500000.000 -8.0368041992E-002 -1.0108566284E-001 -6.3922405243E-003 +4.3201446533E-004 +3.0487775803E-005 +1.3385713100E-004 -1.2519073486E-001 -7.0976257324E-002
2695000000.000 -8.2885742188E-002 -1.0498809814E-001 -5.1097869873E-003 +4.2519569397E-003 -6.1482191086E-005 -5.2526593208E-005 -1.1370086670E-001 -7.3467254639E-002
2827500000.000 -8.4320068359E-002 -1.0843658447E-001 -1.9414424896E-003 +6.0470104218E-003 -2.7067959309E-005 -9.1973692179E-005 -9.8579406738E-002 -8.2015991211E-002
2960000000.000 -8.5063934326E-002 -1.1297988892E-001 +1.9836425781E-003 +6.3033103943E-003 +1.0666996241E-004 -8.5305422544E-005 -8.8115692139E-002 -8.6582183838E-002
3092500000.000 -8.7097167969E-002 -1.1851119995E-001 +5.0349235535E-003 +3.9680004120E-003 -4.6163797379E-005 +2.8561800718E-005 -7.0510864258E-002 -8.5941314697E-002
3225000000.000 -9.0476989746E-002 -1.2273788452E-001 +6.4942836761E-003 +5.6385993958E-004 -8.7052583694E-005 -1.3343989849E-004 -5.2124023438E-002 -9.1110229492E-002
3357500000.000 -9.2285156250E-002 -1.2579345703E-001 +5.6061744690E-003 -2.8574466705E-003 +1.2684613466E-004 +3.8452446461E-005 -4.1294097900E-002 -9.1453552246E-002
3490000000.000 -9.3734741211E-002 -1.3146972656E-001 +3.0529499054E-003 -5.7621002197E-003 -1.8557533622E-005 -2.2918917239E-005 -2.8068542480E-002 -8.3236694336E-002
3622500000.000 -9.5733642578E-002 -1.3692474365E-001 -6.7639350891E-004 -6.3929557800E-003 -1.1704862118E-004 +4.3369829655E-005 -1.1260986328E-002 -7.9154968262E-002
3755000000.000 -9.8838806152E-002 -1.4209747314E-001 -4.0707588196E-003 -5.0354003906E-003 +6.1281025410E-005 +1.8212944269E-005 -5.9738159180E-003 -7.3009490967E-002
3887500000.000 -1.0064697266E-001 -1.4650726318E-001 -6.1790943146E-003 -1.9271373749E-003 -7.9534947872E-006 +8.2544982433E-005 +2.1476745605E-003 -5.5892944336E-002
4020000000.000 -1.0229492188E-001 -1.5075683594E-001 -6.1614513397E-003 +1.9068717957E-003 -5.0321221352E-005 -6.5524131060E-005 +1.3488769531E-002 -4.4466018677E-002
4152500000.000 -1.0402679443E-001 -1.5633392334E-001 -3.7877559662E-003 +5.0709247589E-003 -2.8297305107E-005 -6.5613538027E-005 +1.5264511108E-002 -3.2518386841E-002
4285000000.000 -1.0629272461E-001 -1.6112518311E-001 -4.7206878662E-004 +6.3321590424E-003 +5.7633966208E-005 +8.8080763817E-005 +1.7069816589E-002 -1.3174057007E-002
4417500000.000 -1.0931396484E-001 -1.6542053223E-001 +3.0782222748E-003 +5.4416656494E-003 -2.8859823942E-005 -4.2838975787E-005 +2.5579452515E-002 +3.6544799805E-003
4550000000.000 -1.1037445068E-001 -1.6966247559E-001 +5.6138038635E-003 +2.7503967285E-003 +2.8719194233E-005 -1.7778016627E-005 +2.9008865356E-002 +9.5901489258E-003
4682500000.000 -1.1203765869E-001 -1.7510223389E-001 +6.2043666840E-003 -7.7819824219E-004 +6.1504542828E-005 -9.5628201962E-006 +2.5671958923E-002 +2.0563125610E-002
4815000000.000 -1.1470031738E-001 -1.7992401123E-001 +4.7509670258E-003 -3.9513111115E-003 -5.3027644753E-005 -2.7142465115E-005 +3.1261444092E-002 +2.7311325073E-002
4947500000.000 -1.1621093750E-001 -1.8373870850E-001 +1.9125938416E-003 -5.9318542480E-003 +3.0523166060E-005 -4.4697895646E-005 +2.7689933777E-002 +1.9843101501E-002
5080000000.000 -1.1708068848E-001 -1.8853759766E-001 -1.8465518951E-003 -6.0088634491E-003 +6.3918530941E-005 -2.3398548365E-005 +1.3384819031E-002 +2.0476341248E-002
5212500000.000 -1.1911010742E-001 -1.9334411621E-001 -4.8830509186E-003 -4.0059089661E-003 -3.7586316466E-005 +3.4745782614E-005 +9.3460083008E-003 +2.4721145630E-002
5345000000.000 -1.2155914307E-001 -1.9680023193E-001 -6.4134597778E-003 -4.8375129700E-004 -1.5372410417E-005 -3.7616118789E-006 +5.5885314941E-003 +1.6186714172E-002
5477500000.000 -1.2156677246E-001 -2.0012664795E-001 -5.5830478668E-003 +3.1156539917E-003 +2.8346665204E-005 +4.2542815208E-006 -9.0618133545E-003 +1.0217189789E-002
5610000000.000 -1.2292480469E-001 -2.0494079590E-001 -2.9666423798E-003 +5.7656764984E-003 +3.4233555198E-005 +4.0465965867E-005 -1.4789581299E-002 +1.4416694641E-002
5742500000.000 -1.2564086914E-001 -2.0837402344E-001 +8.0394744873E-004 +6.3533782959E-003 -5.7851895690E-005 +3.0845403671E-006 -1.1387825012E-002 +5.9022903442E-003
5875000000.000 -1.2771606445E-001 -2.0992279053E-001 +4.3871402740E-003 +4.7900676727E-003 +3.8798898458E-005 -4.9162656069E-005 -2.0123481750E-002 -3.3712387085E-003
6007500000.000 -1.2847137451E-001 -2.1306610107E-001 +6.2870979309E-003 +1.4731884003E-003 +2.9340386391E-005 +7.0102512836E-005 -2.3153305054E-002 +1.9264221191E-004
6140000000.000 -1.3046264648E-001 -2.1752166748E-001 +6.0608386993E-003 -2.3036003113E-003 +3.5023316741E-005 -1.2578442693E-005 -1.5316963196E-002 -2.7294158936E-003
6272500000.000 -1.3487243652E-001 -2.2048950195E-001 +3.7474632263E-003 -5.3050518036E-003 +2.3122876883E-005 -5.5959448218E-005 -1.6358375549E-002 -1.1737823486E-002
6405000000.000 -1.3779449463E-001 -2.2130584717E-001 +9.4413757324E-005 -6.4256191254E-003 +3.2046809793E-005 +5.3124502301E-005 -1.9381523132E-002 -6.2789916992E-003
6537500000.000 -1.3843536377E-001 -2.2461700439E-001 -3.4313201904E-003 -5.3613185883E-003 -5.7464465499E-005 +1.7749145627E-005 -9.2220306396E-003 -3.2000541687E-003
6670000000.000 -1.4128112793E-001 -2.3009490967E-001 -5.9127807617E-003 -2.4917125702E-003 -2.2877007723E-005 -5.5391341448E-005 -7.8725814819E-003 -7.1773529053E-003
6802500000.000 -1.4659118652E-001 -2.3312377930E-001 -6.2747001648E-003 +1.2266635895E-003 +1.6473233700E-005 +1.3759359717E-005 -1.1418342590E-002 +2.1028518677E-004
6935000000.000 -1.4939117432E-001 -2.3371887207E-001 -4.4662952423E-003 +4.5328140259E-003 -1.0611489415E-005 +1.8468126655E-005 -6.3929557800E-003 +9.9291801453E-003
7067500000.000 -1.4963531494E-001 -2.3746490479E-001 -1.2133121490E-003 +6.2196254730E-003 +2.6317313313E-005 -7.3602423072E-006 -4.7864913940E-003 +1.0299205780E-002
7200000000.000 -1.5328216553E-001 -2.4295806885E-001 +2.4445056915E-003 +5.7735443115E-003 +5.7928264141E-007 -3.1309202313E-005 -1.5140533447E-002 +1.7044067383E-002
7332500000.000 -1.5843963623E-001 -2.4536895752E-001 +5.3186416626E-003 +3.4215450287E-003 -1.5436671674E-005 +1.3160519302E-005 -1.7236709595E-002 +3.0740737915E-002
7465000000.000 -1.6059112549E-001 -2.4729156494E-001 +6.2901973724E-003 -1.5258789063E-004 -2.3997388780E-005 -1.4211051166E-005 -1.9910812378E-002 +3.1119346619E-002
7597500000.000 -1.6233825684E-001 -2.5173950195E-001 +5.2084922791E-003 -3.6110877991E-003 +1.1014193296E-004 -2.0712614059E-005 -3.6457061768E-002 +3.3256530762E-002
7730000000.000 -1.6580200195E-001 -2.5682067871E-001 +2.2077560425E-003 -5.7938098907E-003 +2.4189241230E-005 +1.1915341020E-005 -4.8316955566E-002 +4.3645858765E-002
7862500000.000 -1.6889953613E-001 -2.5987243652E-001 -1.3499259949E-003 -6.0811042786E-003 -4.5485794544E-006 -5.1170587540E-005 -5.3777694702E-002 +4.2573928833E-002
7995000000.000 -1.7030334473E-001 -2.6251220703E-001 -4.5948028564E-003 -4.2681694031E-003 +3.1901523471E-005 -3.3935531974E-005 -7.2925567627E-002 +3.5106658936E-002
8127500000.000 -1.7195129395E-001 -2.6823425293E-001 -6.2057971954E-003 -1.0340213776E-003 +5.0967559218E-005 +2.5287270546E-005 -9.1373443604E-002 +3.9699554443E-002
8260000000.000 -1.7568969727E-001 -2.7160644531E-001 -5.7272911072E-003 +2.5033950806E-003 -4.5994296670E-005 +1.9596889615E-005 -9.5550537109E-002 +3.4454345703E-002
8392500000.000 -1.7668151855E-001 -2.7444458008E-001 -3.2842159271E-003 +5.3513050079E-003 +7.7430158854E-006 -5.1902607083E-005 -1.0969543457E-001 +1.8547058105E-002
8525000000.000 -1.7723083496E-001 -2.7810668945E-001 +2.0956993103E-004 +6.2432289124E-003 +2.4791806936E-005 +6.7908316851E-005 -1.2187957764E-001 +1.5026092529E-002
8657500000.000 -1.7889404297E-001 -2.8228759766E-001 +3.6766529083E-003 +4.9273967743E-003 -2.4877488613E-005 +4.8860907555E-005 -1.1780929565E-001 +4.3067932129E-003
8790000000.000 -1.8153381348E-001 -2.8578186035E-001 +5.9318542480E-003 +2.1646022797E-003 -2.5730580091E-005 -1.7142854631E-005 -1.1968231201E-001 -1.7265319824E-002
8922500000.000 -1.8270874023E-001 -2.8692626953E-001 +5.9757232666E-003 -1.5106201172E-003 +6.2953680754E-005 -1.9550323486E-005 -1.2244796753E-001 -3.0311584473E-002
9055000000.000 -1.8362426758E-001 -2.9035949707E-001 +4.1050910950E-003 -4.6558380127E-003 -4.1760504246E-005 +4.5558437705E-005 -1.1100387573E-001 -4.3983459473E-002
9187500000.000 -1.8551635742E-001 -2.9307556152E-001 +7.3838233948E-004 -6.1774253845E-003 -2.1459534764E-005 +3.4341588616E-005 -1.0025405884E-001 -6.6677093506E-002
9320000000.000 -1.8951416016E-001 -2.9434204102E-001 -2.8743743896E-003 -5.6397914886E-003 -8.0075114965E-006 +1.9138678908E-005 -9.3799591064E-002 -7.9456329346E-002
9452500000.000 -1.9116210938E-001 -2.9568481445E-001 -5.3806304932E-003 -3.0453205109E-003 -1.2615695596E-005 +4.2967498302E-005 -7.4333190918E-002 -8.6593627930E-002
9585000000.000 -1.9297790527E-001 -2.9811096191E-001 -6.1852931976E-003 +5.7387351990E-004 -4.6566128731E-007 +1.9473023713E-005 -5.4428100586E-002 -1.0111236572E-001
9717500000.000 -1.9720458984E-001 -3.0151367188E-001 -4.8012733459E-003 +3.9975643158E-003 +6.5907835960E-005 -1.9688159227E-005 -4.1473388672E-002 -1.0687255859E-001
9850000000.000 -2.0166015625E-001 -3.0110168457E-001 -1.8937587738E-003 +5.9103965759E-003 +8.6035579443E-006 +5.5544078350E-005 -1.9439697266E-002 -1.0223007202E-001
9982500000.000 -2.0246887207E-001 -3.0364990234E-001 +1.8005371094E-003 +5.9242248535E-003 -7.1775168180E-005 +5.2303075790E-006 +6.3056945801E-003 -1.0336303711E-001
10115000000.000 -2.0527648926E-001 -3.0696105957E-001 +4.7640800476E-003 +3.8316249847E-003 -1.3394281268E-005 +3.4427270293E-005 +1.8939971924E-002 -9.9124908447E-002
10247500000.000 -2.1064758301E-001 -3.0882263184E-001 +6.1926841736E-003 +5.2070617676E-004 +1.8872320652E-005 +3.4287571907E-005 +3.5442352295E-002 -8.0169677734E-002
10380000000.000 -2.1333312988E-001 -3.0970764160E-001 +5.3992271423E-003 -3.0426979065E-003 -4.7545880079E-005 +5.6859105825E-005 +5.6903839111E-002 -6.7745208740E-002
10512500000.000 -2.1571350098E-001 -3.1176757813E-001 +2.8426647186E-003 -5.5458545685E-003 -5.8403238654E-006 -2.1697022021E-005 +6.2568664551E-002 -5.6365966797E-002
10645000000.000 -2.1878051758E-001 -3.1414794922E-001 -8.0490112305E-004 -6.1995983124E-003 +8.0935657024E-005 +7.4505805969E-009 +6.6074371338E-002 -2.9335021973E-002
10777500000.000 -2.2261047363E-001 -3.1660461426E-001 -4.1368007660E-003 -4.6224594116E-003 +4.6193599701E-005 -2.2914260626E-005 +7.7243804932E-002 -8.0032348633E-003
10910000000.000 -2.2589111328E-001 -3.1855773926E-001 -6.0763359070E-003 -1.5258789063E-003 -2.3026019335E-005 +3.1087547541E-006 +7.2330474854E-002 +5.2795410156E-003
11042500000.000 -2.2984313965E-001 -3.2078552246E-001 -5.8734416962E-003 +2.0487308502E-003 +5.3657218814E-005 +1.4649704099E-005 +5.9602737427E-002 +3.1013488770E-002
11175000000.000 -2.3243713379E-001 -3.2421875000E-001 -3.6983489990E-003 +4.9831867218E-003 -4.6135857701E-005 -1.8846243620E-005 +5.6659698486E-002 +5.2282333374E-002
11307500000.000 -2.3443603516E-001 -3.2623291016E-001 -2.3555755615E-004 +6.3300132751E-003 -5.4905191064E-005 -3.0079856515E-005 +4.3655395508E-002 +5.8393478394E-002
11440000000.000 -2.3851013184E-001 -3.2893371582E-001 +3.2389163971E-003 +5.1560401917E-003 +5.0885602832E-005 +4.0009617805E-006 +1.8409729004E-002 +7.1971893311E-002
11572500000.000 -2.3979187012E-001 -3.3244323730E-001 +5.6359767914E-003 +2.5374889374E-003 +1.0617077351E-005 +3.3890828490E-005 +4.5814514160E-003 +8.7299346924E-002
11705000000.000 -2.4192810059E-001 -3.3474731445E-001 +6.0186386108E-003 -1.0275840759E-003 -1.0942667723E-004 +1.8239021301E-005 -9.8419189453E-003 +8.0898284912E-002
11837500000.000 -2.4491882324E-001 -3.3735656738E-001 +4.3857097626E-003 -4.3213367462E-003 +3.1548552215E-007 +6.2922481447E-006 -4.2835235596E-002 +7.6549530029E-002
11970000000.000 -2.4592590332E-001 -3.3827209473E-001 +1.3315677643E-003 -5.9797763824E-003 +9.5035880804E-005 -1.7717480659E-005 -5.9242248535E-002 +8.3126068115E-002
12102500000.000 -2.4565124512E-001 -3.4111022949E-001 -2.3822784424E-003 -5.7141780853E-003 -2.8222799301E-005 +6.4242631197E-005 -6.5322875977E-002 +6.4464569092E-002
12235000000.000 -2.5065612793E-001 -3.4213256836E-001 -5.0897598267E-003 -3.3233165741E-003 +2.2228807211E-005 -7.6323747635E-005 -9.2647552490E-002 +4.4059753418E-002
12367500000.000 -2.5047302246E-001 -3.4271240234E-001 -6.1085224152E-003 +3.0040740967E-005 +2.3396685719E-005 +1.4937482774E-005 -1.0530471802E-001 +4.2785644531E-002
12500000000.000 -2.5355529785E-001 -3.4300231934E-001 -4.9896240234E-003 +3.6482810974E-003 -2.2559426725E-005 +2.1902844310E-005 -9.7091674805E-002 +2.0587921143E-002
12632500000.000 -2.5508117676E-001 -3.4591674805E-001 -2.1643638611E-003 +5.7249069214E-003 +6.2407925725E-006 +1.6530044377E-005 -1.0923767090E-001 -1.3317108154E-002
12765000000.000 -2.5726318359E-001 -3.4617614746E-001 +1.4915466309E-003 +5.9876441956E-003 +2.4714507163E-005 +2.5395303965E-005 -1.1724472046E-001 -1.7704010010E-002
12897500000.000 -2.5949096680E-001 -3.4565734863E-001 +4.5218467712E-003 +4.0941238403E-003 +6.3523650169E-005 +2.0634382963E-005 -9.2277526855E-002 -3.4450531006E-002
13030000000.000 -2.6119995117E-001 -3.4654235840E-001 +5.9361457825E-003 +8.3088874817E-004 -1.6494654119E-005 -2.0453706384E-005 -8.9530944824E-002 -7.0888519287E-002
13162500000.000 -2.6353454590E-001 -3.4838867188E-001 +5.4531097412E-003 -2.6865005493E-003 +3.2292678952E-005 +1.7864629626E-005 -9.1770172119E-002 -7.2463989258E-002
13295000000.000 -2.6608276367E-001 -3.4957885742E-001 +3.0303001404E-003 -5.3107738495E-003 -8.7656080723E-006 +7.6912343502E-005 -6.1222076416E-002 -7.8495025635E-002
13427500000.000 -2.6966857910E-001 -3.4881591797E-001 -5.0354003906E-004 -6.0527324677E-003 -1.2055039406E-005 -3.6114826798E-005 -4.6852111816E-002 -1.0408401489E-001
13560000000.000 -2.6968383789E-001 -3.4927368164E-001 -3.8890838623E-003 -4.8544406891E-003 +3.0819326639E-005 -7.7735632658E-005 -4.6653747559E-002 -1.0148239136E-001
13692500000.000 -2.7197265625E-001 -3.5215759277E-001 -5.8050155640E-003 -1.8713474274E-003 +5.6838616729E-006 +1.8323771656E-006 -1.7997741699E-002 -8.9179992676E-002
13825000000.000 -2.7641296387E-001 -3.5324096680E-001 -5.7950019836E-003 +1.7879009247E-003 -5.4679811001E-005 +9.8463147879E-005 +4.3029785156E-003 -1.0313415527E-001
13957500000.000 -2.7897644043E-001 -3.5200500488E-001 -3.6869049072E-003 +4.6782493591E-003 +5.3644180298E-007 -1.1864677072E-004 -2.8610229492E-004 -9.5603942871E-002
14090000000.000 -2.7938842773E-001 -3.5327148438E-001 -4.9638748169E-004 +6.0403347015E-003 +7.4114650488E-005 -1.0307878256E-005 +2.1934509277E-002 -7.0369720459E-002
14222500000.000 -2.8065490723E-001 -3.5687255859E-001 +3.0105113983E-003 +5.1975250244E-003 -5.8321282268E-005 -5.2884221077E-005 +4.4002532959E-002 -7.4241638184E-002
14355000000.000 -2.8558349609E-001 -3.5757446289E-001 +5.4795742035E-003 +2.6266574860E-003 +2.3022294044E-006 -6.1661005020E-005 +3.3370971680E-002 -6.7295074463E-002
14487500000.000 -2.8764343262E-001 -3.5801696777E-001 +5.8741569519E-003 -8.6998939514E-004 +9.2398375273E-005 +4.1041523218E-005 +4.0254592896E-002 -3.4223556519E-002
14620000000.000 -2.8750610352E-001 -3.6004638672E-001 +4.3277740479E-003 -3.9606094360E-003 -2.8938055038E-005 +2.1470710635E-005 +6.0934066772E-002 -3.1551361084E-002
14752500000.000 -2.9069519043E-001 -3.6471557617E-001 +1.3217926025E-003 -5.7384967804E-003 -3.4354627132E-005 -2.0340085030E-005 +4.3376922607E-002 -3.2228469849E-002
14885000000.000 -2.9348754883E-001 -3.6630249023E-001 -2.1214485168E-003 -5.5058002472E-003 +8.1006437540E-005 +2.0641833544E-005 +3.5564422607E-002 +1.4381408691E-003
15017500000.000 -2.9412841797E-001 -3.6758422852E-001 -4.9324035645E-003 -3.4058094025E-003 -6.6358596087E-005 +5.2686780691E-005 +5.3222656250E-002 +8.6975097656E-003
15150000000.000 -2.9489135742E-001 -3.7194824219E-001 -5.9089660645E-003 +6.5803527832E-005 -5.5216252804E-005 -1.0320171714E-004 +3.5259246826E-002 -1.4591217041E-003
15282500000.000 -2.9580688477E-001 -3.7478637695E-001 -4.8317909241E-003 +3.3521652222E-003 +9.1146677732E-005 +6.5937638283E-007 +1.4575004578E-002 +2.3296356201E-002
