!  2-Port S-parameters saved by WinCal
! VAR MeasName=S-Parameters (CALIBRATED_DATA) read from VNA (C)
! VAR MeasDate=10/16/2015 3:11:57 PM
! VAR NAME=M6082_10_15_2_2_20C_6.4mA_-17.5dBm
! VAR FILENAME=M6082_10_15_2_2_20C_6.4mA_-17.5dBm.S2P
! VAR DATE=10/16/2015 3:11:57 PM
! VAR PHYS_PORTS=2,1
! VAR ObjTypeName=DATASET
! VAR IndexType=Frequency
!
# Hz S RI R 50
45000000.000 -6.3724517822E-002 -1.3771057129E-003 -9.3793869019E-004 +6.8514347076E-003 +1.0648369789E-003 -9.7531080246E-004 +2.9894828796E-002 +2.4137496948E-003
177500000.000 -6.2337875366E-002 -8.9111328125E-003 +2.9189586639E-003 +6.8864822388E-003 -5.2697956562E-005 +8.0954283476E-005 +1.5830993652E-002 +1.6882896423E-002
310000000.000 -6.1676025391E-002 -1.7086029053E-002 +5.8584213257E-003 +4.4243335724E-003 -1.5833228827E-004 +2.8312206268E-007 +2.9190063477E-002 +6.1491012573E-002
442500000.000 -6.1635971069E-002 -2.5751113892E-002 +8.2645416260E-003 +5.7220458984E-005 +3.5230070353E-005 -1.0268017650E-004 +7.2578430176E-002 +2.2583007813E-002
575000000.000 -6.2108993530E-002 -3.4866333008E-002 +6.3433647156E-003 -4.4550895691E-003 -6.0210004449E-005 +1.2686476111E-005 +2.7136802673E-002 +1.1214256287E-002
707500000.000 -6.3030242920E-002 -4.3003082275E-002 +2.4735927582E-003 -7.1578025818E-003 -7.8231096268E-008 -4.4904649258E-005 +1.9311904907E-003 +1.8702507019E-002
840000000.000 -6.3518524170E-002 -5.1853179932E-002 -1.8644332886E-003 -7.2643756866E-003 +7.5869262218E-005 -4.6066939831E-005 -1.9971847534E-002 +2.6045799255E-002
972500000.000 -6.4125061035E-002 -6.0554504395E-002 -5.5196285248E-003 -5.0029754639E-003 +1.3370066881E-005 -4.7622248530E-005 -3.5799026489E-002 +3.5297393799E-002
1105000000.000 -6.5742492676E-002 -6.9332122803E-002 -7.2958469391E-003 -8.6331367493E-004 -4.5400112867E-005 +1.8607825041E-005 -4.6903610229E-002 +3.8070678711E-002
1237500000.000 -6.7199707031E-002 -7.7598571777E-002 -6.5371990204E-003 +3.3376216888E-003 +2.3932196200E-005 +1.3363547623E-005 -5.8513641357E-002 +3.3756256104E-002
1370000000.000 -6.9126129150E-002 -8.5868835449E-002 -3.5002231598E-003 +6.3855648041E-003 +9.9465250969E-006 +1.0982155800E-004 -7.3947906494E-002 +2.6882171631E-002
1502500000.000 -7.0800781250E-002 -9.3963623047E-002 +6.0462951660E-004 +7.2729587555E-003 +2.5715678930E-005 -3.1391158700E-005 -8.7959289551E-002 +2.1263122559E-002
1635000000.000 -7.2116851807E-002 -1.0268402100E-001 +4.5559406281E-003 +5.6109428406E-003 +6.1526894569E-005 -6.1981379986E-005 -9.8899841309E-002 +1.1577606201E-002
1767500000.000 -7.4726104736E-002 -1.1107254028E-001 +6.9546699524E-003 +2.0461082458E-003 +2.5570392609E-005 +7.4341893196E-005 -1.1181259155E-001 +2.8305053711E-003
1900000000.000 -7.6763153076E-002 -1.1837768555E-001 +6.8879127502E-003 -2.1965503693E-003 -8.7451189756E-006 +1.2272037566E-005 -1.1379623413E-001 -3.4408569336E-003
2032500000.000 -7.8933715820E-002 -1.2600708008E-001 +4.3704509735E-003 -5.7218074799E-003 +3.9558857679E-005 -3.8407742977E-005 -1.1363220215E-001 -2.4360656738E-002
2165000000.000 -8.0986022949E-002 -1.3462829590E-001 +4.3630599976E-004 -7.1675777435E-003 +9.1005116701E-005 +1.8116086721E-005 -1.2247467041E-001 -4.2293548584E-002
2297500000.000 -8.3641052246E-002 -1.4172363281E-001 -3.6938190460E-003 -6.0496330261E-003 +7.1935355663E-005 -1.0789558291E-004 -1.2655639648E-001 -5.3573608398E-002
2430000000.000 -8.6204528809E-002 -1.4867401123E-001 -6.4480304718E-003 -3.0441284180E-003 +1.1381506920E-004 +6.2726438046E-005 -1.2654876709E-001 -6.4842224121E-002
2562500000.000 -8.8951110840E-002 -1.5651702881E-001 -6.9661140442E-003 +9.8824501038E-004 +7.5127929449E-005 +1.2001767755E-004 -1.2502288818E-001 -7.0861816406E-002
2695000000.000 -9.3498229980E-002 -1.6287231445E-001 -5.0623416901E-003 +4.8801898956E-003 -3.6165118217E-005 -8.5782259703E-005 -1.1361312866E-001 -7.3513031006E-002
2827500000.000 -9.7297668457E-002 -1.6831970215E-001 -1.6295909882E-003 +6.6041946411E-003 -5.2759423852E-005 -5.7464465499E-005 -9.8426818848E-002 -8.1771850586E-002
2960000000.000 -9.9533081055E-002 -1.7511749268E-001 +2.5205612183E-003 +6.4897537231E-003 +3.6090612411E-005 +9.6257776022E-005 -8.8069915771E-002 -8.6658477783E-002
3092500000.000 -1.0388946533E-001 -1.8266296387E-001 +5.5804252625E-003 +3.9784908295E-003 -7.0620328188E-005 +9.3620270491E-005 -7.0377349854E-002 -8.5979461670E-002
3225000000.000 -1.0936737061E-001 -1.8902587891E-001 +6.7386627197E-003 +8.8214874268E-006 -9.9122524261E-005 -1.3864040375E-004 -5.2089691162E-002 -9.1133117676E-002
3357500000.000 -1.1314392090E-001 -1.9376373291E-001 +5.7399272919E-003 -3.6985874176E-003 +1.1052936316E-004 -4.6297907829E-005 -4.1301727295E-002 -9.1537475586E-002
3490000000.000 -1.1705780029E-001 -2.0124053955E-001 +2.7596950531E-003 -6.2320232391E-003 -1.6979873180E-005 +1.1670589447E-004 -2.7858734131E-002 -8.3271026611E-002
3622500000.000 -1.2141418457E-001 -2.0842742920E-001 -1.3074874878E-003 -6.6537857056E-003 -1.0059401393E-004 -5.0991773605E-005 -1.1459350586E-002 -7.9174041748E-002
3755000000.000 -1.2677001953E-001 -2.1501922607E-001 -4.7872066498E-003 -4.7862529755E-003 +9.6801668406E-005 +5.2776187658E-005 -6.1111450195E-003 -7.2784423828E-002
3887500000.000 -1.3091278076E-001 -2.2082519531E-001 -6.6182613373E-003 -1.2598037720E-003 -6.0930848122E-005 +3.3024698496E-006 +2.1820068359E-003 -5.5879592896E-002
4020000000.000 -1.3504028320E-001 -2.2657012939E-001 -6.2828063965E-003 +2.7489662170E-003 -9.7788870335E-005 -7.0840120316E-005 +1.3324737549E-002 -4.4557571411E-002
4152500000.000 -1.3893890381E-001 -2.3340606689E-001 -3.6468505859E-003 +5.6803226471E-003 -3.5699456930E-005 -8.3807855844E-005 +1.5214920044E-002 -3.2688140869E-002
4285000000.000 -1.4382934570E-001 -2.3946380615E-001 +2.6178359985E-004 +6.7145824432E-003 +6.3169747591E-005 +6.2283128500E-005 +1.7098426819E-002 -1.3094902039E-002
4417500000.000 -1.4920806885E-001 -2.4485015869E-001 +3.9627552032E-003 +5.4373741150E-003 -1.1489260942E-005 +8.0890022218E-006 +2.5564193726E-002 +3.6525726318E-003
4550000000.000 -1.5271759033E-001 -2.4998474121E-001 +6.1476230621E-003 +2.1927356720E-003 -2.9020942748E-005 -2.4472363293E-005 +2.8867721558E-002 +9.5386505127E-003
4682500000.000 -1.5667724609E-001 -2.5634765625E-001 +6.3436031342E-003 -1.5218257904E-003 -3.4200027585E-005 -3.7655234337E-005 +2.5586128235E-002 +2.0518302917E-002
4815000000.000 -1.6192626953E-001 -2.6210021973E-001 +4.4808387756E-003 -4.7516822815E-003 -1.1593103409E-005 +4.5493245125E-005 +3.1189918518E-002 +2.7427673340E-002
4947500000.000 -1.6575622559E-001 -2.6676940918E-001 +1.0843276978E-003 -6.4027309418E-003 -6.2152743340E-005 +8.1248581409E-006 +2.7520179749E-002 +1.9859313965E-002
5080000000.000 -1.6909790039E-001 -2.7227783203E-001 -2.6791095734E-003 -6.0825347900E-003 +4.6651810408E-005 -3.7975609303E-005 +1.3278961182E-002 +2.0463943481E-002
5212500000.000 -1.7330932617E-001 -2.7769470215E-001 -5.6326389313E-003 -3.5903453827E-003 +2.0415754989E-006 -3.7746503949E-006 +9.1543197632E-003 +2.4728775024E-002
5345000000.000 -1.7820739746E-001 -2.8187561035E-001 -6.7012310028E-003 +2.0480155945E-004 +6.1029568315E-006 -1.6707926989E-005 +5.5332183838E-003 +1.6191482544E-002
5477500000.000 -1.8074035645E-001 -2.8572082520E-001 -5.3944587708E-003 +4.0459632874E-003 +4.5241788030E-005 +2.2612512112E-005 -9.0527534485E-003 +1.0227203369E-002
5610000000.000 -1.8434143066E-001 -2.9090881348E-001 -2.2494792938E-003 +6.3729286194E-003 -3.8783997297E-005 +4.1976571083E-005 -1.4839649200E-002 +1.4462471008E-002
5742500000.000 -1.8942260742E-001 -2.9475402832E-001 +1.7776489258E-003 +6.4437389374E-003 -2.8804875910E-005 +3.5855919123E-007 -1.1597633362E-002 +5.9089660645E-003
5875000000.000 -1.9387817383E-001 -2.9673767090E-001 +5.2263736725E-003 +4.4338703156E-003 +3.0215829611E-005 +4.2526051402E-005 -2.0297050476E-002 -3.3903121948E-003
6007500000.000 -1.9706726074E-001 -2.9985046387E-001 +6.8068504333E-003 +7.7319145203E-004 -8.8457018137E-006 +8.4512867033E-006 -2.3164749146E-002 +1.2111663818E-004
6140000000.000 -2.0121765137E-001 -3.0458068848E-001 +5.9449672699E-003 -3.2086372375E-003 -5.7740136981E-005 +6.7353248596E-006 -1.5369415283E-002 -2.9520988464E-003
6272500000.000 -2.0783996582E-001 -3.0757141113E-001 +3.0598640442E-003 -5.9747695923E-003 +1.1197756976E-005 +3.1241215765E-006 -1.6415596008E-002 -1.1779785156E-002
6405000000.000 -2.1327209473E-001 -3.0848693848E-001 -8.0704689026E-004 -6.6266059875E-003 +2.9001384974E-006 +3.5036355257E-005 -1.9299507141E-002 -6.2923431396E-003
6537500000.000 -2.1618652344E-001 -3.1185913086E-001 -4.4586658478E-003 -4.9943923950E-003 +3.1266361475E-005 +2.4754554033E-006 -9.1967582703E-003 -3.3431053162E-003
6670000000.000 -2.2116088867E-001 -3.1724548340E-001 -6.4899921417E-003 -1.6710758209E-003 -1.2122094631E-005 -8.1114470959E-005 -7.9159736633E-003 -7.2770118713E-003
6802500000.000 -2.2859191895E-001 -3.1993103027E-001 -6.1976909637E-003 +2.1376609802E-003 +2.2279098630E-005 +4.5109540224E-005 -1.1345863342E-002 +1.3065338135E-004
6935000000.000 -2.3353576660E-001 -3.2023620605E-001 -3.9100646973E-003 +5.3009986877E-003 +1.5569850802E-005 +2.5925226510E-005 -6.3104629517E-003 +9.8552703857E-003
7067500000.000 -2.3576354980E-001 -3.2383728027E-001 -2.2101402283E-004 +6.5493583679E-003 +1.7341226339E-006 -1.2983102351E-005 -4.6834945679E-003 +1.0215282440E-002
7200000000.000 -2.4116516113E-001 -3.2876586914E-001 +3.4532546997E-003 +5.5918693542E-003 -3.2726675272E-006 +2.3780390620E-005 -1.5025138855E-002 +1.7100334167E-002
7332500000.000 -2.4847412109E-001 -3.3068847656E-001 +5.9440135956E-003 +2.6628971100E-003 -3.1484290957E-005 +4.0624290705E-006 -1.7137527466E-002 +3.0699729919E-002
7465000000.000 -2.5257873535E-001 -3.3233642578E-001 +6.4072608948E-003 -1.0871887207E-003 -2.4948269129E-005 -4.0343031287E-005 -1.9830703735E-002 +3.1229972839E-002
7597500000.000 -2.5592041016E-001 -3.3622741699E-001 +4.6863555908E-003 -4.4624805450E-003 +1.3193115592E-005 +4.9144029617E-005 -3.6378860474E-002 +3.3203125000E-002
7730000000.000 -2.6142883301E-001 -3.4078979492E-001 +1.4243125916E-003 -6.2844753265E-003 +1.4591496438E-006 -5.0573144108E-006 -4.8297882080E-002 +4.3663024902E-002
7862500000.000 -2.6647949219E-001 -3.4329223633E-001 -2.3903846741E-003 -5.9514045715E-003 -2.7388334274E-005 -5.7112425566E-005 -5.3661346436E-002 +4.2747497559E-002
7995000000.000 -2.6965332031E-001 -3.4545898438E-001 -5.2912235260E-003 -3.6079883575E-003 +5.0305388868E-006 -1.2663658708E-005 -7.2887420654E-002 +3.5118103027E-002
8127500000.000 -2.7285766602E-001 -3.5070800781E-001 -6.4013004303E-003 +4.2915344238E-005 -1.0024756193E-005 +4.1084364057E-005 -9.1434478760E-002 +3.9733886719E-002
8260000000.000 -2.7833557129E-001 -3.5342407227E-001 -5.2711963654E-003 +3.5231113434E-003 -3.2410025597E-006 +6.5390020609E-005 -9.5623016357E-002 +3.4496307373E-002
8392500000.000 -2.8091430664E-001 -3.5552978516E-001 -2.4042129517E-003 +5.9394836426E-003 -2.6748515666E-005 -1.8961727619E-006 -1.0971069336E-001 +1.8539428711E-002
8525000000.000 -2.8294372559E-001 -3.5882568359E-001 +1.2905597687E-003 +6.2146186829E-003 +1.5596859157E-005 +1.1539086699E-005 -1.2194824219E-001 +1.5060424805E-002
8657500000.000 -2.8616333008E-001 -3.6250305176E-001 +4.5671463013E-003 +4.4553279877E-003 -9.2368572950E-005 +2.7097761631E-005 -1.1783981323E-001 +4.1961669922E-003
8790000000.000 -2.9055786133E-001 -3.6514282227E-001 +6.3302516937E-003 +1.1167526245E-003 -2.0501203835E-005 -1.1034309864E-005 -1.1960220337E-001 -1.7433166504E-002
8922500000.000 -2.9325866699E-001 -3.6567687988E-001 +5.8481693268E-003 -2.6652812958E-003 -2.7762725949E-005 +1.2494623661E-005 -1.2236404419E-001 -3.0433654785E-002
9055000000.000 -2.9576110840E-001 -3.6849975586E-001 +3.4012794495E-003 -5.4726600647E-003 -3.9594247937E-005 +3.6319717765E-005 -1.1098098755E-001 -4.3983459473E-002
9187500000.000 -2.9913330078E-001 -3.7060546875E-001 -3.3950805664E-004 -6.4885616302E-003 -2.1089799702E-005 -2.5144778192E-005 -1.0018920898E-001 -6.6730499268E-002
9320000000.000 -3.0525207520E-001 -3.7089538574E-001 -3.8521289825E-003 -5.1932334900E-003 +5.9986487031E-005 +1.7430633307E-005 -9.3711853027E-002 -7.9586029053E-002
9452500000.000 -3.0819702148E-001 -3.7139892578E-001 -6.1492919922E-003 -2.1138191223E-003 -4.1583552957E-005 -1.6354024410E-005 -7.4199676514E-002 -8.6673736572E-002
9585000000.000 -3.1170654297E-001 -3.7304687500E-001 -6.2687397003E-003 +1.6818046570E-003 -4.8773363233E-005 -4.0469691157E-005 -5.4176330566E-002 -1.0114288330E-001
9717500000.000 -3.1755065918E-001 -3.7567138672E-001 -4.2176246643E-003 +4.8525333405E-003 +4.5312568545E-005 +4.7426670790E-005 -4.1267395020E-002 -1.0703659058E-001
9850000000.000 -3.2356262207E-001 -3.7409973145E-001 -7.0405006409E-004 +6.4423084259E-003 +1.0568648577E-005 +7.8193843365E-005 -1.9203186035E-002 -1.0227966309E-001
9982500000.000 -3.2531738281E-001 -3.7574768066E-001 +3.0834674835E-003 +5.6166648865E-003 -4.5940279961E-005 +4.4807791710E-005 +6.4620971680E-003 -1.0316467285E-001
10115000000.000 -3.2939147949E-001 -3.7826538086E-001 +5.6889057159E-003 +2.8989315033E-003 -1.5564262867E-005 -3.0897557735E-005 +1.9268035889E-002 -9.9071502686E-002
10247500000.000 -3.3596801758E-001 -3.7916564941E-001 +6.3531398773E-003 -6.7973136902E-004 -5.6847929955E-006 +8.7942928076E-005 +3.5755157471E-002 -8.0055236816E-002
10380000000.000 -3.3993530273E-001 -3.7850952148E-001 +4.7781467438E-003 -4.2107105255E-003 -4.8410147429E-005 -2.4551525712E-005 +5.7022094727E-002 -6.7588806152E-002
10512500000.000 -3.4320068359E-001 -3.7945556641E-001 +1.6160011292E-003 -6.1855316162E-003 +4.0685757995E-005 -2.6226043701E-005 +6.2763214111E-002 -5.6018829346E-002
10645000000.000 -3.4712219238E-001 -3.8098144531E-001 -2.1321773529E-003 -6.0245990753E-003 +3.1862407923E-005 +1.2537464499E-005 +6.6013336182E-002 -2.9365539551E-002
10777500000.000 -3.5243225098E-001 -3.8226318359E-001 -5.1414966583E-003 -3.7734508514E-003 -1.3465993106E-005 +1.5934929252E-005 +7.7014923096E-002 -7.9460144043E-003
10910000000.000 -3.5722351074E-001 -3.8285827637E-001 -6.4275264740E-003 -2.7537345886E-004 -4.9185007811E-005 -6.2193721533E-006 +7.2315216064E-002 +5.5847167969E-003
11042500000.000 -3.6167907715E-001 -3.8380432129E-001 -5.4020881653E-003 +3.3731460571E-003 +2.8893351555E-005 +9.0401619673E-005 +5.9576034546E-002 +3.1188964844E-002
11175000000.000 -3.6526489258E-001 -3.8632202148E-001 -2.5353431702E-003 +5.8400630951E-003 -5.8904290199E-005 +5.8047473431E-005 +5.6489944458E-002 +5.2301406860E-002
11307500000.000 -3.6843872070E-001 -3.8755798340E-001 +1.2085437775E-003 +6.2446594238E-003 -3.3238902688E-005 -5.2820891142E-005 +4.3397903442E-002 +5.8525085449E-002
11440000000.000 -3.7326049805E-001 -3.8890075684E-001 +4.4093132019E-003 +4.3978691101E-003 +1.0109320283E-004 -4.5355409384E-005 +1.8154144287E-002 +7.2113037109E-002
11572500000.000 -3.7513732910E-001 -3.9143371582E-001 +6.2785148621E-003 +1.2135505676E-003 -3.3155083656E-006 +6.3400715590E-005 +4.3945312500E-003 +8.7268829346E-002
11705000000.000 -3.7779235840E-001 -3.9323425293E-001 +5.7220458984E-003 -2.5062561035E-003 -6.7073851824E-005 -3.3766031265E-005 -1.0211944580E-002 +8.0852508545E-002
11837500000.000 -3.8163757324E-001 -3.9466857910E-001 +3.3805370331E-003 -5.3682327271E-003 -3.6442652345E-005 -4.5884400606E-005 -4.3087005615E-002 +7.6557159424E-002
11970000000.000 -3.8356018066E-001 -3.9434814453E-001 -2.6321411133E-004 -6.2735080719E-003 -5.5626034737E-005 -1.3157725334E-005 -5.9307098389E-002 +8.3145141602E-002
12102500000.000 -3.8360595703E-001 -3.9630126953E-001 -3.7190914154E-003 -5.0895214081E-003 +8.6040236056E-006 +1.1473894119E-006 -6.5402984619E-002 +6.4258575439E-002
12235000000.000 -3.8928222656E-001 -3.9611816406E-001 -5.9332847595E-003 -2.0797252655E-003 +2.1107494831E-005 -7.9788267612E-005 -9.2727661133E-002 +4.3926239014E-002
12367500000.000 -3.9025878906E-001 -3.9567565918E-001 -6.0961246490E-003 +1.7235279083E-003 +6.0221180320E-005 -3.4356489778E-005 -1.0544204712E-001 +4.2633056641E-002
12500000000.000 -3.9408874512E-001 -3.9442443848E-001 -4.0457248688E-003 +4.7969818115E-003 -1.0035932064E-005 +1.0274350643E-004 -9.7194671631E-002 +2.0347595215E-002
12632500000.000 -3.9639282227E-001 -3.9614868164E-001 -6.0939788818E-004 +6.2432289124E-003 -1.8071383238E-005 -8.1360340118E-005 -1.0904693604E-001 -1.3553619385E-002
12765000000.000 -3.9956665039E-001 -3.9584350586E-001 +3.0145645142E-003 +5.5372714996E-003 +1.4385208488E-005 +6.2002800405E-006 -1.1714935303E-001 -1.7997741699E-002
12897500000.000 -4.0246582031E-001 -3.9433288574E-001 +5.5677890778E-003 +2.7754306793E-003 -3.1940639019E-005 +3.4959986806E-005 -9.2277526855E-002 -3.4599304199E-002
13030000000.000 -4.0467834473E-001 -3.9407348633E-001 +6.0598850250E-003 -8.8691711426E-004 -3.0625611544E-005 +1.8177554011E-005 -8.9393615723E-002 -7.1029663086E-002
13162500000.000 -4.0747070313E-001 -3.9517211914E-001 +4.6825408936E-003 -4.1136741638E-003 +3.2898038626E-005 -2.1029263735E-006 -9.1449737549E-002 -7.2731018066E-002
13295000000.000 -4.1027832031E-001 -3.9547729492E-001 +1.4293193817E-003 -5.9788227081E-003 -4.8691406846E-005 +2.9491260648E-005 -6.1126708984E-002 -7.8613281250E-002
13427500000.000 -4.1383361816E-001 -3.9331054688E-001 -2.2079944611E-003 -5.8054924011E-003 -5.7872384787E-005 +4.2840838432E-008 -4.6730041504E-002 -1.0397338867E-001
13560000000.000 -4.1436767578E-001 -3.9314270020E-001 -5.0256252289E-003 -3.4925937653E-003 +9.9629163742E-005 +2.9202550650E-005 -4.6424865723E-002 -1.0123062134E-001
13692500000.000 -4.1674804688E-001 -3.9466857910E-001 -6.1485767365E-003 +3.3855438232E-005 -2.4124979973E-005 +2.3555941880E-005 -1.7738342285E-002 -8.9229583740E-002
13825000000.000 -4.2127990723E-001 -3.9468383789E-001 -5.0284862518E-003 +3.3872127533E-003 -2.2780150175E-005 -1.8309801817E-005 +4.1351318359E-003 -1.0293579102E-001
13957500000.000 -4.2446899414E-001 -3.9212036133E-001 -2.2451877594E-003 +5.5866241455E-003 +5.8833509684E-005 -5.9604644775E-007 -1.3732910156E-004 -9.5432281494E-002
14090000000.000 -4.2559814453E-001 -3.9204406738E-001 +1.3282299042E-003 +5.7964324951E-003 +4.6761706471E-005 +1.4461576939E-005 +2.2121429443E-002 -7.0224761963E-002
14222500000.000 -4.2709350586E-001 -3.9471435547E-001 +4.4317245483E-003 +4.1263103485E-003 -7.1890652180E-005 +4.7579407692E-005 +4.3918609619E-002 -7.4199676514E-002
14355000000.000 -4.3254089355E-001 -3.9457702637E-001 +5.8941841125E-003 +7.8701972961E-004 -2.8755515814E-005 -9.2364847660E-005 +3.3016204834E-002 -6.7092895508E-002
14487500000.000 -4.3499755859E-001 -3.9430236816E-001 +5.3563117981E-003 -2.6135444641E-003 +4.8195943236E-005 +2.5147572160E-005 +4.0159225464E-002 -3.3842086792E-002
14620000000.000 -4.3504333496E-001 -3.9544677734E-001 +2.8846263885E-003 -5.1984786987E-003 -6.5401196480E-005 +3.9294362068E-005 +6.0932159424E-002 -3.1415939331E-002
14752500000.000 -4.3823242188E-001 -4.0005493164E-001 -6.5255165100E-004 -5.9089660645E-003 -1.3725832105E-005 -2.5326386094E-005 +4.3094635010E-002 -3.2300949097E-002
14885000000.000 -4.4084167480E-001 -4.0109252930E-001 -3.8027763367E-003 -4.5132637024E-003 +6.0938298702E-005 -1.2172386050E-005 +3.5364151001E-002 +1.6155242920E-003
15017500000.000 -4.4155883789E-001 -4.0203857422E-001 -5.7203769684E-003 -1.5108585358E-003 -1.7467886209E-005 -1.7964281142E-005 +5.3022384644E-002 +8.6879730225E-003
15150000000.000 -4.4244384766E-001 -4.0554809570E-001 -5.5248737335E-003 +1.8765926361E-003 -1.1604279280E-005 -9.0986490250E-005 +3.5156250000E-002 -1.7433166504E-003
15282500000.000 -4.4348144531E-001 -4.0777587891E-001 -3.4408569336E-003 +4.6937465668E-003 +7.0337206125E-005 -1.0654330254E-006 +1.4374732971E-002 +2.3197174072E-002
