!  2-Port S-parameters saved by WinCal
! VAR MeasName=S-Parameters (CALIBRATED_DATA) read from VNA (C)
! VAR MeasDate=10/16/2015 3:58:53 PM
! VAR NAME=M6082_10_17_2_2_20C_10.4mA_-17.5dBm
! VAR FILENAME=M6082_10_17_2_2_20C_10.4mA_-17.5dBm.S2P
! VAR DATE=10/16/2015 3:58:53 PM
! VAR PHYS_PORTS=2,1
! VAR ObjTypeName=DATASET
! VAR IndexType=Frequency
!
# Hz S RI R 50
45000000.000 -1.2612152100E-001 -2.0828247070E-003 -3.9577484131E-005 +7.6994895935E-003 +5.3378939629E-004 +2.2763013840E-004 +2.9988288879E-002 +3.9587020874E-003
177500000.000 -1.2388610840E-001 -9.9182128906E-003 +2.7067661285E-003 +7.0710182190E-003 +3.7632882595E-005 +7.6398253441E-005 +1.5704154968E-002 +1.6769409180E-002
310000000.000 -1.2342453003E-001 -1.8665313721E-002 +5.4540634155E-003 +4.5742988586E-003 -6.8075954914E-005 -9.3054026365E-005 +2.8966903687E-002 +6.1595916748E-002
442500000.000 -1.2313461304E-001 -2.7538299561E-002 +8.0728530884E-003 +1.1110305786E-004 +4.2269006371E-005 +2.6023015380E-005 +7.2513580322E-002 +2.2552490234E-002
575000000.000 -1.2369537354E-001 -3.7197113037E-002 +6.2816143036E-003 -4.5084953308E-003 -1.3157725334E-005 +1.6665458679E-004 +2.7156829834E-002 +1.1316299438E-002
707500000.000 -1.2463378906E-001 -4.5669555664E-002 +2.6693344116E-003 -7.1687698364E-003 -3.2987445593E-005 -3.5103410482E-005 +2.0589828491E-003 +1.8764495850E-002
840000000.000 -1.2522125244E-001 -5.5198669434E-002 -1.7852783203E-003 -7.3206424713E-003 +1.3176351786E-005 -4.1412189603E-005 -1.9919395447E-002 +2.6062011719E-002
972500000.000 -1.2583160400E-001 -6.4376831055E-002 -5.5687427521E-003 -5.0494670868E-003 -6.4536929131E-005 +6.0513615608E-005 -3.5779953003E-002 +3.5425186157E-002
1105000000.000 -1.2755584717E-001 -7.3806762695E-002 -7.2920322418E-003 -1.0099411011E-003 -2.3275613785E-005 -7.9348683357E-007 -4.6924591064E-002 +3.8171768188E-002
1237500000.000 -1.2939453125E-001 -8.2450866699E-002 -6.4380168915E-003 +3.1824111938E-003 +2.6629306376E-005 -1.5531666577E-005 -5.8547973633E-002 +3.3802032471E-002
1370000000.000 -1.3158416748E-001 -9.1133117676E-002 -3.6575794220E-003 +6.4637660980E-003 -2.0005740225E-005 -9.4026327133E-006 -7.3909759521E-002 +2.6931762695E-002
1502500000.000 -1.3344573975E-001 -9.9746704102E-002 +5.6385993958E-004 +7.2236061096E-003 -2.4358741939E-005 -1.6501173377E-005 -8.8016510010E-002 +2.1312713623E-002
1635000000.000 -1.3519287109E-001 -1.0908508301E-001 +4.6484470367E-003 +5.7106018066E-003 +4.3967738748E-005 -2.4413689971E-005 -9.9060058594E-002 +1.1596679688E-002
1767500000.000 -1.3829040527E-001 -1.1769104004E-001 +6.9320201874E-003 +2.0806789398E-003 -1.8600374460E-005 +2.6769004762E-005 -1.1190795898E-001 +2.7923583984E-003
1900000000.000 -1.4038085938E-001 -1.2545776367E-001 +6.9456100464E-003 -2.2377967834E-003 -6.7207962275E-005 +1.2226402760E-005 -1.1392593384E-001 -3.4675598145E-003
2032500000.000 -1.4317321777E-001 -1.3346099854E-001 +4.3909549713E-003 -5.7055950165E-003 +4.6452507377E-005 -1.4672055840E-005 -1.1362075806E-001 -2.4478912354E-002
2165000000.000 -1.4569854736E-001 -1.4250183105E-001 +4.0555000305E-004 -7.0199966431E-003 +1.4264136553E-005 -6.4647756517E-006 -1.2257003784E-001 -4.2343139648E-002
2297500000.000 -1.4875030518E-001 -1.4996337891E-001 -3.5383701324E-003 -6.0610771179E-003 -4.8162415624E-005 +2.6667490602E-005 -1.2641906738E-001 -5.3588867188E-002
2430000000.000 -1.5167999268E-001 -1.5742492676E-001 -6.4902305603E-003 -3.0369758606E-003 +1.9572675228E-005 -7.4751675129E-005 -1.2644958496E-001 -6.4903259277E-002
2562500000.000 -1.5512084961E-001 -1.6541290283E-001 -6.8757534027E-003 +1.1239051819E-003 +6.2223523855E-005 +3.5919249058E-005 -1.2514495850E-001 -7.1075439453E-002
2695000000.000 -1.5994262695E-001 -1.7198944092E-001 -5.0840377808E-003 +4.8143863678E-003 -2.9508024454E-005 -4.2520463467E-005 -1.1375045776E-001 -7.3417663574E-002
2827500000.000 -1.6410064697E-001 -1.7794036865E-001 -1.6229152679E-003 +6.6320896149E-003 +4.9944967031E-005 -7.6040625572E-005 -9.8499298096E-002 -8.1672668457E-002
2960000000.000 -1.6726684570E-001 -1.8457031250E-001 +2.4409294128E-003 +6.3519477844E-003 +9.1768801212E-005 +4.3746083975E-005 -8.8027954102E-002 -8.6860656738E-002
3092500000.000 -1.7201232910E-001 -1.9242858887E-001 +5.6040287018E-003 +3.8332939148E-003 -7.2009861469E-005 +4.4081360102E-005 -7.0232391357E-002 -8.6044311523E-002
3225000000.000 -1.7806243896E-001 -1.9888305664E-001 +6.6018104553E-003 +2.1624565125E-004 -1.1779367924E-004 -1.5603750944E-004 -5.1959991455E-002 -9.1236114502E-002
3357500000.000 -1.8247222900E-001 -2.0378112793E-001 +5.5675506592E-003 -3.7333965302E-003 +1.1559203267E-004 -4.7981739044E-005 -4.1290283203E-002 -9.1564178467E-002
3490000000.000 -1.8690490723E-001 -2.1125793457E-001 +2.5272369385E-003 -6.1361789703E-003 +2.4864450097E-005 +5.5884942412E-005 -2.7938842773E-002 -8.3267211914E-002
3622500000.000 -1.9185638428E-001 -2.1865081787E-001 -1.2564659119E-003 -6.4649581909E-003 -4.6340748668E-005 +8.8866800070E-006 -1.1432647705E-002 -7.9250335693E-002
3755000000.000 -1.9773101807E-001 -2.2523498535E-001 -4.8298835754E-003 -4.6782493591E-003 +5.1259994507E-006 -8.4567815065E-005 -5.8746337891E-003 -7.2849273682E-002
3887500000.000 -2.0239257813E-001 -2.3101043701E-001 -6.5255165100E-003 -1.2652873993E-003 +6.9662928581E-006 +6.0040503740E-005 +2.2659301758E-003 -5.5902481079E-002
4020000000.000 -2.0705413818E-001 -2.3677825928E-001 -6.1273574829E-003 +2.6295185089E-003 -1.7660111189E-004 +6.5162777901E-005 +1.3305664063E-002 -4.4374465942E-002
4152500000.000 -2.1161651611E-001 -2.4359893799E-001 -3.5216808319E-003 +5.6283473969E-003 +1.2721866369E-005 -2.0685605705E-005 +1.5338897705E-002 -3.2608032227E-002
4285000000.000 -2.1701812744E-001 -2.4957275391E-001 +2.2816658020E-004 +6.6514015198E-003 +9.6756964922E-005 +9.4883143902E-006 +1.7174720764E-002 -1.3072967529E-002
4417500000.000 -2.2285461426E-001 -2.5476074219E-001 +3.8025379181E-003 +5.1972866058E-003 -5.7358294725E-005 +5.4135918617E-005 +2.5650024414E-002 +3.6039352417E-003
4550000000.000 -2.2691345215E-001 -2.5975036621E-001 +6.1178207397E-003 +2.1533966064E-003 -4.6920031309E-006 +3.9341393858E-006 +2.8845787048E-002 +9.5195770264E-003
4682500000.000 -2.3139953613E-001 -2.6588439941E-001 +6.1385631561E-003 -1.5304088593E-003 +1.0974705219E-005 +8.2119368017E-006 +2.5694847107E-002 +2.0663261414E-002
4815000000.000 -2.3696899414E-001 -2.7157592773E-001 +4.2676925659E-003 -4.5850276947E-003 -2.0870938897E-005 -2.3859553039E-005 +3.1162261963E-002 +2.7463912964E-002
4947500000.000 -2.4171447754E-001 -2.7613830566E-001 +1.0979175568E-003 -6.1626434326E-003 +1.0171905160E-005 -1.2717209756E-005 +2.7656555176E-002 +1.9855499268E-002
5080000000.000 -2.4523925781E-001 -2.8143310547E-001 -2.5835037231E-003 -5.7621002197E-003 +6.2305480242E-005 +3.6630779505E-005 +1.3334274292E-002 +2.0565032959E-002
5212500000.000 -2.5013732910E-001 -2.8666687012E-001 -5.3060054779E-003 -3.3702850342E-003 -7.9507008195E-006 -2.3792497814E-005 +9.2020034790E-003 +2.4759292603E-002
5345000000.000 -2.5547790527E-001 -2.9078674316E-001 -6.4270496368E-003 +3.1661987305E-004 +3.6144629121E-006 -1.4445744455E-005 +5.4187774658E-003 +1.6254425049E-002
5477500000.000 -2.5842285156E-001 -2.9426574707E-001 -5.0826072693E-003 +3.9083957672E-003 +7.6048076153E-005 -3.0566006899E-005 -9.1791152954E-003 +1.0321140289E-002
5610000000.000 -2.6252746582E-001 -2.9917907715E-001 -2.0990371704E-003 +6.0284137726E-003 -2.8677284718E-005 +3.1102448702E-005 -1.4944076538E-002 +1.4398097992E-002
5742500000.000 -2.6809692383E-001 -3.0282592773E-001 +1.6851425171E-003 +6.2088966370E-003 -1.9945204258E-005 -7.8432261944E-005 -1.1533737183E-002 +5.9537887573E-003
5875000000.000 -2.7313232422E-001 -3.0427551270E-001 +4.8770904541E-003 +4.1501522064E-003 +1.6677193344E-005 -2.3641623557E-005 -2.0260810852E-002 -3.3330917358E-003
6007500000.000 -2.7674865723E-001 -3.0723571777E-001 +6.3493251801E-003 +6.5064430237E-004 +2.9050745070E-005 +1.6790814698E-005 -2.3208618164E-002 +5.0544738770E-005
6140000000.000 -2.8146362305E-001 -3.1164550781E-001 +5.5975914001E-003 -3.0064582825E-003 -2.1466985345E-005 -1.6276724637E-005 -1.5353679657E-002 -2.9358863831E-003
6272500000.000 -2.8846740723E-001 -3.1423950195E-001 +2.9256343842E-003 -5.5289268494E-003 +2.9117800295E-005 -1.1411495507E-005 -1.6500473022E-002 -1.1808395386E-002
6405000000.000 -2.9425048828E-001 -3.1452941895E-001 -8.2397460938E-004 -6.3281059265E-003 +2.5683082640E-005 +6.0675665736E-006 -1.9379615784E-002 -6.2437057495E-003
6537500000.000 -2.9771423340E-001 -3.1771850586E-001 -4.0650367737E-003 -4.6565532684E-003 -4.8721209168E-005 -9.9577009678E-006 -9.1958045959E-003 -3.3645629883E-003
6670000000.000 -3.0293273926E-001 -3.2269287109E-001 -5.9370994568E-003 -1.5804767609E-003 -2.1834857762E-005 -1.7498619854E-005 -7.9240798950E-003 -7.4119567871E-003
6802500000.000 -3.1076049805E-001 -3.2489013672E-001 -5.8183670044E-003 +2.0351409912E-003 +5.5455602705E-006 +8.4307976067E-006 -1.1346340179E-002 +1.5306472778E-004
6935000000.000 -3.1600952148E-001 -3.2476806641E-001 -3.6439895630E-003 +4.9009323120E-003 +4.2663887143E-005 +4.0713697672E-005 -6.3529014587E-003 +9.8614692688E-003
7067500000.000 -3.1845092773E-001 -3.2789611816E-001 -3.3807754517E-004 +6.0331821442E-003 -7.6163560152E-006 -1.8097460270E-005 -4.6534538269E-003 +1.0151386261E-002
7200000000.000 -3.2417297363E-001 -3.3267211914E-001 +3.0963420868E-003 +5.0983428955E-003 +6.0424208641E-005 -1.4871358871E-005 -1.5041351318E-002 +1.6907691956E-002
7332500000.000 -3.3155822754E-001 -3.3407592773E-001 +5.4686069489E-003 +2.5260448456E-003 +1.8154270947E-005 +2.7933157980E-005 -1.7153739929E-002 +3.0792236328E-002
7465000000.000 -3.3599853516E-001 -3.3518981934E-001 +5.8436393738E-003 -9.3579292297E-004 +1.5852972865E-005 -5.4812058806E-005 -1.9844055176E-002 +3.1257629395E-002
7597500000.000 -3.3949279785E-001 -3.3848571777E-001 +4.3487548828E-003 -4.0140151978E-003 +6.3478946686E-005 -6.0837715864E-005 -3.6298751831E-002 +3.3206939697E-002
7730000000.000 -3.4510803223E-001 -3.4288024902E-001 +1.3589859009E-003 -5.7342052460E-003 -2.3599714041E-006 +5.7103112340E-005 -4.8322677612E-002 +4.3640136719E-002
7862500000.000 -3.5057067871E-001 -3.4484863281E-001 -2.0151138306E-003 -5.4619312286E-003 -3.5375356674E-005 +1.3319775462E-005 -5.3638458252E-002 +4.2654037476E-002
7995000000.000 -3.5380554199E-001 -3.4663391113E-001 -4.6567916870E-003 -3.3693313599E-003 -3.5509467125E-005 -2.4735927582E-006 -7.2841644287E-002 +3.5083770752E-002
8127500000.000 -3.5700988770E-001 -3.5151672363E-001 -5.8343410492E-003 -1.6164779663E-004 +1.9922852516E-005 +6.6880136728E-005 -9.1480255127E-002 +3.9649963379E-002
8260000000.000 -3.6276245117E-001 -3.5379028320E-001 -4.8434734344E-003 +3.0884742737E-003 -2.0924955606E-005 -2.9793940485E-005 -9.5527648926E-002 +3.4442901611E-002
8392500000.000 -3.6576843262E-001 -3.5551452637E-001 -2.3241043091E-003 +5.2158832550E-003 +4.7342851758E-005 -3.6101788282E-005 -1.0970306396E-001 +1.8470764160E-002
8525000000.000 -3.6791992188E-001 -3.5852050781E-001 +9.8133087158E-004 +5.6369304657E-003 +2.8563663363E-005 +5.1086768508E-005 -1.2191390991E-001 +1.4881134033E-002
8657500000.000 -3.7127685547E-001 -3.6180114746E-001 +3.9496421814E-003 +4.0919780731E-003 -2.0023435354E-005 +6.0809776187E-005 -1.1785125732E-001 +4.0893554688E-003
8790000000.000 -3.7609863281E-001 -3.6392211914E-001 +5.5356025696E-003 +1.2073516846E-003 +9.2498958111E-006 -7.6189637184E-005 -1.1960983276E-001 -1.7456054688E-002
8922500000.000 -3.7873840332E-001 -3.6387634277E-001 +5.3498744965E-003 -2.1796226501E-003 -2.1186657250E-005 -1.7732381821E-006 -1.2220764160E-001 -3.0666351318E-002
9055000000.000 -3.8151550293E-001 -3.6643981934E-001 +3.1459331512E-003 -4.7831535339E-003 -2.7360394597E-005 +2.7766451240E-005 -1.1093902588E-001 -4.4212341309E-002
9187500000.000 -3.8511657715E-001 -3.6822509766E-001 -6.1988830566E-006 -5.7220458984E-003 -4.9149617553E-005 +5.8747828007E-006 -1.0004806519E-001 -6.6848754883E-002
9320000000.000 -3.9132690430E-001 -3.6778259277E-001 -3.1850337982E-003 -4.6548843384E-003 +3.2806769013E-005 +1.0393559933E-005 -9.3681335449E-002 -7.9677581787E-002
9452500000.000 -3.9463806152E-001 -3.6770629883E-001 -5.2604675293E-003 -2.1173954010E-003 -2.9209069908E-005 +1.4558434486E-005 -7.4108123779E-002 -8.6635589600E-002
9585000000.000 -3.9819335938E-001 -3.6883544922E-001 -5.4523944855E-003 +1.1565685272E-003 +1.6749836504E-005 -1.3269484043E-005 -5.4096221924E-002 -1.0112762451E-001
9717500000.000 -4.0370178223E-001 -3.7092590332E-001 -3.7829875946E-003 +4.0669441223E-003 +3.7381425500E-005 +8.2794576883E-006 -4.1084289551E-002 -1.0707855225E-001
9850000000.000 -4.1001892090E-001 -3.6853027344E-001 -9.1481208801E-004 +5.5778026581E-003 -1.0800082237E-005 +1.3729091734E-005 -1.9065856934E-002 -1.0225677490E-001
9982500000.000 -4.1203308105E-001 -3.6988830566E-001 +2.3920536041E-003 +5.0511360168E-003 -2.2079795599E-005 +4.8680230975E-006 +6.6146850586E-003 -1.0303497314E-001
10115000000.000 -4.1590881348E-001 -3.7190246582E-001 +4.7247409821E-003 +2.8102397919E-003 -4.2079016566E-005 -6.9104135036E-006 +1.9454956055E-002 -9.9117279053E-002
10247500000.000 -4.2247009277E-001 -3.7226867676E-001 +5.5267810822E-003 -3.0994415283E-004 +1.2811273336E-005 +5.9882178903E-005 +3.5690307617E-002 -8.0070495605E-002
10380000000.000 -4.2651367188E-001 -3.7094116211E-001 +4.4317245483E-003 -3.3125877380E-003 -7.3909759521E-006 +3.0802562833E-005 +5.7052612305E-002 -6.7375183105E-002
10512500000.000 -4.2948913574E-001 -3.7130737305E-001 +1.8169879913E-003 -5.2640438080E-003 -3.8072466850E-006 -4.9447640777E-005 +6.2881469727E-002 -5.5873870850E-002
10645000000.000 -4.3342590332E-001 -3.7268066406E-001 -1.2810230255E-003 -5.1851272583E-003 +7.2900205851E-005 +8.6799263954E-006 +6.6143035889E-002 -2.9304504395E-002
10777500000.000 -4.3872070313E-001 -3.7342834473E-001 -4.0142536163E-003 -3.6017894745E-003 -1.0803341866E-005 +1.6470253468E-004 +7.7007293701E-002 -7.6942443848E-003
10910000000.000 -4.4323730469E-001 -3.7319946289E-001 -5.3765773773E-003 -6.8092346191E-004 -5.8436766267E-005 +9.2964619398E-006 +7.2269439697E-002 +5.8631896973E-003
11042500000.000 -4.4752502441E-001 -3.7362670898E-001 -4.9138069153E-003 +2.3779869080E-003 +3.7223100662E-005 +5.3532421589E-006 +5.9511184692E-002 +3.1391143799E-002
11175000000.000 -4.5091247559E-001 -3.7599182129E-001 -2.6671886444E-003 +4.5690536499E-003 -3.3723190427E-005 +1.7369166017E-005 +5.6365966797E-002 +5.2301406860E-002
11307500000.000 -4.5404052734E-001 -3.7669372559E-001 +4.2414665222E-004 +5.3353309631E-003 -1.6096979380E-005 +2.4802051485E-005 +4.3319702148E-002 +5.8729171753E-002
11440000000.000 -4.5864868164E-001 -3.7756347656E-001 +3.3798217773E-003 +4.1604042053E-003 +3.6239624023E-005 -1.6471371055E-005 +1.8154144287E-002 +7.2200775146E-002
11572500000.000 -4.6031188965E-001 -3.7977600098E-001 +5.0387382507E-003 +1.5821456909E-003 +7.0489943027E-005 +7.6591968536E-006 +4.2114257813E-003 +8.7360382080E-002
11705000000.000 -4.6287536621E-001 -3.8102722168E-001 +5.0883293152E-003 -1.4619827271E-003 -4.8900023103E-005 -1.3573095202E-005 -1.0318756104E-002 +8.0856323242E-002
11837500000.000 -4.6656799316E-001 -3.8220214844E-001 +3.3478736877E-003 -3.9882659912E-003 -2.3661181331E-005 -4.2704865336E-005 -4.3258666992E-002 +7.6625823975E-002
11970000000.000 -4.6812438965E-001 -3.8151550293E-001 +5.6338310242E-004 -5.1648616791E-003 +6.5118074417E-005 +1.0844320059E-005 -5.9432983398E-002 +8.2973480225E-002
12102500000.000 -4.6812438965E-001 -3.8304138184E-001 -2.4113655090E-003 -4.5816898346E-003 -2.7646310627E-005 -7.2987750173E-006 -6.5322875977E-002 +6.4250946045E-002
12235000000.000 -4.7360229492E-001 -3.8262939453E-001 -4.6694278717E-003 -2.3820400238E-003 +2.0302832127E-006 -8.1691890955E-005 -9.2811584473E-002 +4.3727874756E-002
12367500000.000 -4.7467041016E-001 -3.8162231445E-001 -5.0597190857E-003 +5.4121017456E-004 +5.8358535171E-005 -4.7247856855E-005 -1.0551834106E-001 +4.2461395264E-002
12500000000.000 -4.7833251953E-001 -3.7998962402E-001 -3.8691759109E-003 +3.4199953079E-003 +7.6889991760E-006 -8.8019296527E-006 -9.7293853760E-002 +2.0355224609E-002
12632500000.000 -4.8001098633E-001 -3.8124084473E-001 -1.3267993927E-003 +4.9159526825E-003 -3.2993033528E-005 -4.4621527195E-005 -1.0894775391E-001 -1.3607025146E-002
12765000000.000 -4.8315429688E-001 -3.8064575195E-001 +1.5780925751E-003 +4.7616958618E-003 -4.7031790018E-006 +2.7103349566E-005 -1.1714935303E-001 -1.8253326416E-002
12897500000.000 -4.8568725586E-001 -3.7886047363E-001 +3.9870738983E-003 +3.1139850616E-003 -8.0163590610E-006 -2.1564774215E-006 -9.2247009277E-002 -3.4629821777E-002
13030000000.000 -4.8783874512E-001 -3.7802124023E-001 +5.0899982452E-003 +3.1352043152E-004 +8.0233439803E-006 -1.9811093807E-005 -8.9111328125E-002 -7.0964813232E-002
13162500000.000 -4.9015808105E-001 -3.7889099121E-001 +4.3241977692E-003 -2.6223659515E-003 +5.1075592637E-005 +5.1893293858E-006 -9.1239929199E-002 -7.2738647461E-002
13295000000.000 -4.9281311035E-001 -3.7904357910E-001 +2.1233558655E-003 -4.4813156128E-003 -4.3001025915E-005 +4.5141205192E-005 -6.1035156250E-002 -7.8701019287E-002
13427500000.000 -4.9609375000E-001 -3.7670898438E-001 -7.3695182800E-004 -4.9810409546E-003 -3.9704144001E-005 -3.0323863029E-006 -4.6489715576E-002 -1.0394287109E-001
13560000000.000 -4.9610900879E-001 -3.7615966797E-001 -3.3739805222E-003 -3.6669969559E-003 +5.3618103266E-005 -2.9044225812E-005 -4.6253204346E-002 -1.0119628906E-001
13692500000.000 -4.9861145020E-001 -3.7742614746E-001 -4.8258304596E-003 -1.2011528015E-003 +7.2631984949E-005 +1.4286488295E-005 -1.7623901367E-002 -8.9138031006E-002
13825000000.000 -5.0274658203E-001 -3.7701416016E-001 -4.5466423035E-003 +1.7764568329E-003 -4.7270208597E-005 -7.9583376646E-005 +4.1694641113E-003 -1.0268402100E-001
13957500000.000 -5.0527954102E-001 -3.7420654297E-001 -2.9566287994E-003 +3.9145946503E-003 +1.2498348951E-005 -5.5300071836E-005 -1.3732910156E-004 -9.5317840576E-002
14090000000.000 -5.0631713867E-001 -3.7405395508E-001 -1.2302398682E-004 +4.8942565918E-003 +1.3858079910E-004 +2.6918947697E-005 +2.2087097168E-002 -7.0075988770E-002
14222500000.000 -5.0756835938E-001 -3.7655639648E-001 +2.5320053101E-003 +4.1334629059E-003 +2.7752481401E-005 +1.4386139810E-005 +4.4010162354E-002 -7.4237823486E-002
14355000000.000 -5.1242065430E-001 -3.7606811523E-001 +4.4987201691E-003 +1.9073486328E-003 +2.1403655410E-005 -4.0421262383E-005 +3.3008575439E-002 -6.6951751709E-002
14487500000.000 -5.1452636719E-001 -3.7615966797E-001 +4.8336982727E-003 -8.7833404541E-004 -2.3417174816E-005 -6.4495950937E-005 +4.0157318115E-002 -3.3746719360E-002
14620000000.000 -5.1486206055E-001 -3.7698364258E-001 +3.3522844315E-003 -3.4451484680E-003 -1.0782852769E-005 +7.7313743532E-006 +6.0951232910E-002 -3.1364440918E-002
14752500000.000 -5.1718139648E-001 -3.8119506836E-001 +9.2291831970E-004 -4.6892166138E-003 +4.8615038395E-006 -7.0527195930E-005 +4.3092727661E-002 -3.2417297363E-002
14885000000.000 -5.2020263672E-001 -3.8290405273E-001 -1.9066333771E-003 -4.4016838074E-003 +1.6290694475E-005 +4.8367306590E-005 +3.5318374634E-002 +1.6212463379E-003
15017500000.000 -5.2096557617E-001 -3.8348388672E-001 -3.9446353912E-003 -2.4604797363E-003 +1.3075768948E-005 +1.0913982987E-004 +5.3026199341E-002 +8.7909698486E-003
15150000000.000 -5.2127075195E-001 -3.8659667969E-001 -4.7655105591E-003 +1.5592575073E-004 +1.9277445972E-005 +2.9983930290E-005 +3.5186767578E-002 -1.6727447510E-003
15282500000.000 -5.2212524414E-001 -3.8919067383E-001 -3.8205385208E-003 +2.7041435242E-003 +4.0048733354E-005 -4.4377520680E-005 +1.4320373535E-002 +2.3140907288E-002
