!  2-Port S-parameters saved by WinCal
! VAR MeasName=S-Parameters (CALIBRATED_DATA) read from VNA (C)
! VAR MeasDate=10/16/2015 12:53:59 PM
! VAR NAME=M6082_13_15_2_2_20C_12.9mA_-17.5dBm
! VAR FILENAME=M6082_13_15_2_2_20C_12.9mA_-17.5dBm.S2P
! VAR DATE=10/16/2015 12:53:59 PM
! VAR PHYS_PORTS=2,1
! VAR ObjTypeName=DATASET
! VAR IndexType=Frequency
!
# Hz S RI R 50
45000000.000 -9.6946716309E-002 +1.0681152344E-004 -1.7285346985E-004 +6.8151950836E-003 -1.2897253036E-003 -9.5915794373E-004 +2.9939651489E-002 +1.1453628540E-003
177500000.000 -9.5825195313E-002 -3.7307739258E-003 +2.0315647125E-003 +5.7077407837E-003 +9.0580433607E-006 +5.0175935030E-005 +1.5855789185E-002 +1.6452789307E-002
310000000.000 -9.5230102539E-002 -7.1983337402E-003 +4.7774314880E-003 +3.9038658142E-003 -9.2960894108E-005 -1.8151104450E-004 +2.9077529907E-002 +6.1599731445E-002
442500000.000 -9.4844818115E-002 -1.1116027832E-002 +6.9167613983E-003 +1.2207031250E-004 +1.0509043932E-004 -2.4948269129E-005 +7.2689056396E-002 +2.2514343262E-002
575000000.000 -9.4875335693E-002 -1.5392303467E-002 +5.2547454834E-003 -3.5622119904E-003 -2.3263273761E-006 -3.4912955016E-006 +2.7237892151E-002 +1.1185646057E-002
707500000.000 -9.5046997070E-002 -1.8852233887E-002 +2.3243427277E-003 -5.7990550995E-003 -3.6420300603E-005 -2.6866793633E-005 +2.0818710327E-003 +1.8654823303E-002
840000000.000 -9.4654083252E-002 -2.3235321045E-002 -1.3995170593E-003 -6.0329437256E-003 -2.8826296329E-005 -2.2153370082E-005 -1.9912719727E-002 +2.6037216187E-002
972500000.000 -9.4211578369E-002 -2.7385711670E-002 -4.4274330139E-003 -4.1658878326E-003 -1.1634081602E-005 +2.5034882128E-005 -3.5873413086E-002 +3.5367965698E-002
1105000000.000 -9.4657897949E-002 -3.1723022461E-002 -6.0608386993E-003 -1.1184215546E-003 -1.7749145627E-005 +7.6647847891E-007 -4.6924591064E-002 +3.8221359253E-002
1237500000.000 -9.4844818115E-002 -3.5469055176E-002 -5.6254863739E-003 +2.4623870850E-003 +2.1327286959E-006 -4.3408945203E-005 -5.8595657349E-002 +3.3777236938E-002
1370000000.000 -9.5344543457E-002 -3.9295196533E-002 -3.2594203949E-003 +5.0516128540E-003 -1.6739591956E-005 +4.2792409658E-005 -7.3966979980E-002 +2.6950836182E-002
1502500000.000 -9.5447540283E-002 -4.3144226074E-002 +1.4448165894E-004 +5.9485435486E-003 -4.8929825425E-005 -4.7070905566E-005 -8.7921142578E-002 +2.1255493164E-002
1635000000.000 -9.5214843750E-002 -4.7687530518E-002 +3.4618377686E-003 +4.8925876617E-003 -2.5438144803E-005 +2.6077032089E-006 -9.8995208740E-002 +1.1577606201E-002
1767500000.000 -9.5893859863E-002 -5.1773071289E-002 +5.6726932526E-003 +2.0964145660E-003 +5.3532421589E-006 +7.4673444033E-005 -1.1178207397E-001 +2.9335021973E-003
1900000000.000 -9.5802307129E-002 -5.5145263672E-002 +5.8286190033E-003 -1.4431476593E-003 -3.3225864172E-005 +2.1664425731E-005 -1.1368560791E-001 -3.4790039063E-003
2032500000.000 -9.6195220947E-002 -5.8868408203E-002 +4.0180683136E-003 -4.3973922729E-003 -1.2472271919E-005 -1.1229887605E-004 -1.1366271973E-001 -2.4391174316E-002
2165000000.000 -9.5973968506E-002 -6.3457489014E-002 +7.7295303345E-004 -5.8193206787E-003 +2.3782253265E-005 +2.4014152586E-005 -1.2239837646E-001 -4.2194366455E-002
2297500000.000 -9.6233367920E-002 -6.6852569580E-002 -2.5305747986E-003 -5.3546428680E-003 +2.5704503059E-007 +5.6507065892E-005 -1.2631225586E-001 -5.3482055664E-002
2430000000.000 -9.6340179443E-002 -7.0507049561E-002 -5.0604343414E-003 -2.9132366180E-003 -8.7879598141E-005 -1.6305595636E-004 -1.2654113770E-001 -6.4826965332E-002
2562500000.000 -9.6973419189E-002 -7.4470520020E-002 -5.8352947235E-003 +4.1723251343E-004 +8.9213252068E-005 +1.7199665308E-004 -1.2501525879E-001 -7.1006774902E-002
2695000000.000 -9.8667144775E-002 -7.7301025391E-002 -4.6093463898E-003 +3.5731792450E-003 -6.9804489613E-005 +7.5682997704E-005 -1.1354064941E-001 -7.3246002197E-002
2827500000.000 -9.9494934082E-002 -7.9589843750E-002 -1.9214153290E-003 +5.4156780243E-003 -1.3236701488E-004 -2.5811791420E-004 -9.8369598389E-002 -8.1809997559E-002
2960000000.000 -9.9605560303E-002 -8.3049774170E-002 +1.4686584473E-003 +5.5012702942E-003 +2.6661902666E-005 +4.9004331231E-005 -8.8134765625E-002 -8.6906433105E-002
3092500000.000 -1.0103607178E-001 -8.7429046631E-002 +4.3687820435E-003 +3.6547183990E-003 -4.2460858822E-005 +8.7499618530E-005 -7.0373535156E-002 -8.5910797119E-002
3225000000.000 -1.0330200195E-001 -9.0736389160E-002 +5.7382583618E-003 +7.7748298645E-004 +9.2059373856E-005 -1.6944110394E-004 -5.2013397217E-002 -9.1098785400E-002
3357500000.000 -1.0477447510E-001 -9.2819213867E-002 +5.1319599152E-003 -2.5718212128E-003 +1.1206418276E-004 +2.5108456612E-005 -4.1255950928E-002 -9.1606140137E-002
3490000000.000 -1.0519790649E-001 -9.7259521484E-002 +2.9470920563E-003 -4.9273967743E-003 -5.3459778428E-005 +2.6505440474E-005 -2.7816772461E-002 -8.3213806152E-002
3622500000.000 -1.0645294189E-001 -1.0201644897E-001 -4.3058395386E-004 -5.7642459869E-003 +8.4340572357E-006 +1.0123476386E-004 -1.1325836182E-002 -7.8994750977E-002
3755000000.000 -1.0865020752E-001 -1.0615539551E-001 -3.5133361816E-003 -4.6293735504E-003 +1.3720244169E-004 +1.1473894119E-005 -5.8364868164E-003 -7.2864532471E-002
3887500000.000 -1.0978317261E-001 -1.0953903198E-001 -5.5100917816E-003 -1.6574859619E-003 -4.7350302339E-005 +5.9885904193E-005 +2.0809173584E-003 -5.5932998657E-002
4020000000.000 -1.1063003540E-001 -1.1295318604E-001 -5.6276321411E-003 +1.5175342560E-003 -5.2999705076E-005 -8.2038342953E-005 +1.3435363770E-002 -4.4431686401E-002
4152500000.000 -1.1148071289E-001 -1.1764144897E-001 -3.8335323334E-003 +4.4519901276E-003 +6.0396268964E-005 -4.9417838454E-005 +1.5497207642E-002 -3.2430648804E-002
4285000000.000 -1.1305618286E-001 -1.2158203125E-001 -6.7710876465E-004 +5.7804584503E-003 +7.8426674008E-006 +2.4802051485E-005 +1.7098426819E-002 -1.3142585754E-002
4417500000.000 -1.1490249634E-001 -1.2493896484E-001 +2.6996135712E-003 +5.0632953644E-003 +1.3785436749E-005 -4.7909095883E-005 +2.5613784790E-002 +3.6458969116E-003
4550000000.000 -1.1518096924E-001 -1.2825775146E-001 +4.9555301666E-003 +2.6712417603E-003 -4.0002167225E-005 -2.4942681193E-005 +2.9047966003E-002 +9.6111297607E-003
4682500000.000 -1.1603546143E-001 -1.3289642334E-001 +5.5992603302E-003 -4.5824050903E-004 -3.9398670197E-005 +7.6897442341E-005 +2.5581359863E-002 +2.0750045776E-002
4815000000.000 -1.1782836914E-001 -1.3693237305E-001 +4.3468475342E-003 -3.4513473511E-003 -4.3220818043E-005 +1.2597069144E-005 +3.1147956848E-002 +2.7419090271E-002
4947500000.000 -1.1838531494E-001 -1.4002227783E-001 +1.8460750580E-003 -5.3145885468E-003 +2.1681189537E-006 -7.4971467257E-005 +2.7544975281E-002 +1.9923210144E-002
5080000000.000 -1.1833953857E-001 -1.4390563965E-001 -1.4674663544E-003 -5.4876804352E-003 +8.4947794676E-005 +5.1181763411E-005 +1.3179779053E-002 +2.0546913147E-002
5212500000.000 -1.1935424805E-001 -1.4811706543E-001 -4.2476654053E-003 -3.7803649902E-003 +1.3444572687E-005 +4.2954459786E-005 +9.0112686157E-003 +2.4783134460E-002
5345000000.000 -1.2092590332E-001 -1.5095520020E-001 -5.6891441345E-003 -7.4863433838E-004 -9.4296410680E-009 +2.0934967324E-006 +5.3806304932E-003 +1.6237258911E-002
5477500000.000 -1.2019348145E-001 -1.5357971191E-001 -5.2177906036E-003 +2.5701522827E-003 +3.3227726817E-005 -4.0866434574E-006 -9.2797279358E-003 +1.0215282440E-002
5610000000.000 -1.2040710449E-001 -1.5762329102E-001 -2.8431415558E-003 +5.0933361053E-003 -1.4053657651E-005 +5.0211325288E-005 -1.5026092529E-002 +1.4474868774E-002
5742500000.000 -1.2225341797E-001 -1.6033935547E-001 +5.7172775269E-004 +5.8422088623E-003 +1.4086719602E-005 -9.0654939413E-006 -1.1610984802E-002 +5.8884620667E-003
5875000000.000 -1.2335205078E-001 -1.6136169434E-001 +3.7302970886E-003 +4.6055316925E-003 +2.9236078262E-005 -4.0752813220E-005 -2.0310401917E-002 -3.4818649292E-003
6007500000.000 -1.2310028076E-001 -1.6374969482E-001 +5.5346488953E-003 +1.6994476318E-003 +4.9425289035E-005 +3.2553449273E-005 -2.3307800293E-002 +1.4400482178E-004
6140000000.000 -1.2422943115E-001 -1.6774749756E-001 +5.5217742920E-003 -1.7373561859E-003 -2.0448118448E-005 +4.5649707317E-005 -1.5353679657E-002 -2.8667449951E-003
6272500000.000 -1.2767791748E-001 -1.7011260986E-001 +3.5474300385E-003 -4.5359134674E-003 +4.2632222176E-005 -4.3068081141E-005 -1.6460418701E-002 -1.1894226074E-002
6405000000.000 -1.2955474854E-001 -1.7036437988E-001 +4.2319297791E-004 -5.8465003967E-003 -8.5914507508E-007 -7.9865567386E-006 -1.9434928894E-002 -6.3629150391E-003
6537500000.000 -1.2917327881E-001 -1.7332458496E-001 -2.9301643372E-003 -5.0728321075E-003 -6.9167464972E-005 +2.4288892746E-006 -9.2887878418E-003 -3.3507347107E-003
6670000000.000 -1.3113403320E-001 -1.7836761475E-001 -5.1522254944E-003 -2.5227069855E-003 +1.1636875570E-005 -2.9905699193E-005 -7.8468322754E-003 -7.3437690735E-003
6802500000.000 -1.3542938232E-001 -1.8077850342E-001 -5.6147575378E-003 +7.7795982361E-004 -1.3580545783E-005 +2.8866343200E-005 -1.1414051056E-002 +2.0503997803E-005
6935000000.000 -1.3709259033E-001 -1.8101501465E-001 -4.2722225189E-003 +3.7844181061E-003 -2.7513131499E-005 +6.0340389609E-006 -6.3986778259E-003 +9.7970962524E-003
7067500000.000 -1.3653564453E-001 -1.8448638916E-001 -1.3728141785E-003 +5.5141448975E-003 -4.5206397772E-006 -2.2064894438E-005 -4.6811103821E-003 +1.0194778442E-002
7200000000.000 -1.3929748535E-001 -1.8936157227E-001 +2.0072460175E-003 +5.4805278778E-003 -2.0321458578E-006 +5.9651210904E-005 -1.5032768250E-002 +1.6931533813E-002
7332500000.000 -1.4327239990E-001 -1.9153594971E-001 +4.5204162598E-003 +3.3478736877E-003 +3.9208680391E-006 +2.2648833692E-005 -1.7049789429E-002 +3.0611038208E-002
7465000000.000 -1.4441680908E-001 -1.9327545166E-001 +5.5031776428E-003 +1.8048286438E-004 -6.6049396992E-005 -1.0699033737E-005 -1.9776344299E-002 +3.1124114990E-002
7597500000.000 -1.4538574219E-001 -1.9751739502E-001 +4.8038959503E-003 -2.9492378235E-003 +4.8188492656E-005 +8.5309147835E-007 -3.6424636841E-002 +3.3334732056E-002
7730000000.000 -1.4802551270E-001 -2.0195770264E-001 +2.3298263550E-003 -5.2075386047E-003 -5.8149918914E-005 +3.2607465982E-005 -4.8145294189E-002 +4.3664932251E-002
7862500000.000 -1.4992523193E-001 -2.0471191406E-001 -8.8763237000E-004 -5.5646896362E-003 +2.1429732442E-006 +2.0827166736E-005 -5.3619384766E-002 +4.2530059814E-002
7995000000.000 -1.5030670166E-001 -2.0729827881E-001 -3.8914680481E-003 -4.1687488556E-003 +3.0031427741E-005 -2.0202249289E-005 -7.2895050049E-002 +3.5118103027E-002
8127500000.000 -1.5117645264E-001 -2.1276855469E-001 -5.4166316986E-003 -1.2910366058E-003 +1.1310353875E-004 +1.8339604139E-005 -9.1388702393E-002 +3.9863586426E-002
8260000000.000 -1.5383911133E-001 -2.1582794189E-001 -5.1836967468E-003 +1.9795894623E-003 -1.2448988855E-005 -2.6319175959E-005 -9.5451354980E-002 +3.4370422363E-002
8392500000.000 -1.5387725830E-001 -2.1849822998E-001 -3.2145977020E-003 +4.5185089111E-003 -2.5603920221E-005 -8.2809478045E-005 -1.0972213745E-001 +1.8421173096E-002
8525000000.000 -1.5361022949E-001 -2.2190856934E-001 -1.1420249939E-004 +5.6693553925E-003 +7.4513256550E-005 +1.8816441298E-005 -1.2197113037E-001 +1.5056610107E-002
8657500000.000 -1.5440368652E-001 -2.2592926025E-001 +3.0679702759E-003 +4.8005580902E-003 +2.8250738978E-005 -1.4615245163E-005 -1.1775207520E-001 +4.1999816895E-003
8790000000.000 -1.5599822998E-001 -2.2911834717E-001 +5.1300525665E-003 +2.2494792938E-003 -5.6130811572E-006 +1.0564923286E-005 -1.1961746216E-001 -1.7433166504E-002
8922500000.000 -1.5625000000E-001 -2.3031616211E-001 +5.6099891663E-003 -9.5605850220E-004 +5.6320801377E-005 -1.6475096345E-005 -1.2232589722E-001 -3.0521392822E-002
9055000000.000 -1.5640258789E-001 -2.3352050781E-001 +3.9944648743E-003 -3.9772987366E-003 -1.7479062080E-005 +1.7366372049E-005 -1.1100006104E-001 -4.3994903564E-002
9187500000.000 -1.5745544434E-001 -2.3597717285E-001 +1.1599063873E-003 -5.5959224701E-003 +9.5148570836E-006 +1.0734889656E-005 -1.0025787354E-001 -6.6844940186E-002
9320000000.000 -1.6038513184E-001 -2.3704528809E-001 -2.1135807037E-003 -5.1279067993E-003 +5.2335672081E-006 +8.5779465735E-006 -9.3635559082E-002 -7.9547882080E-002
9452500000.000 -1.6081237793E-001 -2.3841094971E-001 -4.6424865723E-003 -3.0961036682E-003 -3.8435682654E-006 -1.0286457837E-005 -7.4054718018E-002 -8.6730957031E-002
9585000000.000 -1.6188049316E-001 -2.4081420898E-001 -5.6402683258E-003 +7.8439712524E-005 -5.5802986026E-005 -2.3845583200E-005 -5.4214477539E-002 -1.0123443604E-001
9717500000.000 -1.6547393799E-001 -2.4412536621E-001 -4.6672821045E-003 +3.1590461731E-003 -2.6999041438E-005 -4.5873224735E-005 -4.1225433350E-002 -1.0689163208E-001
9850000000.000 -1.6864013672E-001 -2.4381256104E-001 -2.0835399628E-003 +5.2282810211E-003 +7.2456896305E-007 +5.9617683291E-005 -1.8993377686E-002 -1.0232543945E-001
9982500000.000 -1.6851043701E-001 -2.4620056152E-001 +1.2001991272E-003 +5.4967403412E-003 -6.3426792622E-005 -3.4626573324E-005 +6.5574645996E-003 -1.0337829590E-001
10115000000.000 -1.7063140869E-001 -2.4939727783E-001 +3.9486885071E-003 +3.8495063782E-003 +1.0568648577E-005 -4.0696933866E-005 +1.9153594971E-002 -9.9075317383E-002
10247500000.000 -1.7495727539E-001 -2.5126647949E-001 +5.4745674133E-003 +9.5629692078E-004 -1.6143545508E-005 +2.2717751563E-005 +3.5850524902E-002 -7.9925537109E-002
10380000000.000 -1.7663574219E-001 -2.5245666504E-001 +5.0280094147E-003 -2.2253990173E-003 -3.9134174585E-005 +2.8742477298E-005 +5.7243347168E-002 -6.7638397217E-002
10512500000.000 -1.7849731445E-001 -2.5468444824E-001 +2.9671192169E-003 -4.7047138214E-003 -2.6684254408E-005 -1.1033937335E-004 +6.2553405762E-002 -5.5957794189E-002
10645000000.000 -1.8061828613E-001 -2.5703430176E-001 -2.0360946655E-004 -5.5367946625E-003 +6.3259154558E-005 +4.4938176870E-005 +6.6062927246E-002 -2.8976440430E-002
10777500000.000 -1.8348693848E-001 -2.5949096680E-001 -3.2899379730E-003 -4.4941902161E-003 -4.3256208301E-005 -2.2435560822E-005 +7.7323913574E-002 -7.7438354492E-003
10910000000.000 -1.8592834473E-001 -2.6188659668E-001 -5.2001476288E-003 -1.8730163574E-003 -3.9443373680E-005 +6.8441033363E-005 +7.2303771973E-002 +5.6343078613E-003
11042500000.000 -1.8896484375E-001 -2.6435852051E-001 -5.3205490112E-003 +1.3649463654E-003 +7.2993338108E-005 +5.0064176321E-005 +5.9318542480E-002 +3.1316757202E-002
11175000000.000 -1.9091796875E-001 -2.6779174805E-001 -3.6129951477E-003 +4.0805339813E-003 -1.2272503227E-005 -9.9847093225E-006 +5.6497573853E-002 +5.2570343018E-002
11307500000.000 -1.9200134277E-001 -2.6998901367E-001 -7.2765350342E-004 +5.4910182953E-003 +4.0810555220E-006 -3.4276396036E-005 +4.3487548828E-002 +5.8591842651E-002
11440000000.000 -1.9508361816E-001 -2.7279663086E-001 +2.4321079254E-003 +4.9304962158E-003 +1.1580064893E-005 +2.0544975996E-006 +1.7906188965E-002 +7.2154998779E-002
11572500000.000 -1.9560241699E-001 -2.7662658691E-001 +4.8220157623E-003 +2.7439594269E-003 +1.3157725334E-005 +6.8526715040E-005 +4.1542053223E-003 +8.7448120117E-002
11705000000.000 -1.9705200195E-001 -2.7899169922E-001 +5.6061744690E-003 -3.9625167847E-004 -2.8551556170E-005 -1.8266029656E-005 -1.0246276855E-002 +8.0905914307E-002
11837500000.000 -1.9940185547E-001 -2.8167724609E-001 +4.2636394501E-003 -3.4143924713E-003 +2.9575079679E-005 -7.2354450822E-006 -4.3190002441E-002 +7.6473236084E-002
11970000000.000 -1.9973754883E-001 -2.8292846680E-001 +1.6863346100E-003 -5.3834915161E-003 +3.8309022784E-005 -8.2328915596E-007 -5.9684753418E-002 +8.2950592041E-002
12102500000.000 -1.9866943359E-001 -2.8605651855E-001 -1.5528202057E-003 -5.2847862244E-003 -6.5214931965E-005 -6.5639615059E-005 -6.5685272217E-002 +6.4224243164E-002
12235000000.000 -2.0300292969E-001 -2.8732299805E-001 -4.2755603790E-003 -3.4513473511E-003 -6.1754137278E-005 -2.0273029804E-005 -9.3070983887E-002 +4.3895721436E-002
12367500000.000 -2.0207214355E-001 -2.8800964355E-001 -5.4392814636E-003 -5.1188468933E-004 +3.0621886253E-005 -2.3121014237E-005 -1.0559463501E-001 +4.2533874512E-002
12500000000.000 -2.0448303223E-001 -2.8877258301E-001 -4.8048496246E-003 +2.6488304138E-003 -7.6420605183E-005 +1.0493397713E-004 -9.7293853760E-002 +1.9973754883E-002
12632500000.000 -2.0549011230E-001 -2.9188537598E-001 -2.4504661560E-003 +4.7991275787E-003 +2.0813196898E-005 -3.2057985663E-005 -1.0926437378E-001 -1.3774871826E-002
12765000000.000 -2.0675659180E-001 -2.9231262207E-001 +6.9880485535E-004 +5.2940845490E-003 +5.0184316933E-006 +7.2359107435E-006 -1.1721038818E-001 -1.8135070801E-002
12897500000.000 -2.0831298828E-001 -2.9208374023E-001 +3.5769939423E-003 +4.1108131409E-003 -3.6973506212E-005 +2.2707507014E-005 -9.1915130615E-002 -3.4976959229E-002
13030000000.000 -2.0922851563E-001 -2.9312133789E-001 +5.2642822266E-003 +1.4414787292E-003 -3.8743019104E-005 -6.9517642260E-005 -8.9248657227E-002 -7.1506500244E-002
13162500000.000 -2.1098327637E-001 -2.9518127441E-001 +5.0635337830E-003 -1.6977787018E-003 +7.2305556387E-007 -2.9802322388E-006 -9.1434478760E-002 -7.2647094727E-002
13295000000.000 -2.1305847168E-001 -2.9664611816E-001 +3.2434463501E-003 -4.3120384216E-003 +4.6091154218E-006 -2.0418316126E-005 -6.0554504395E-002 -7.8620910645E-002
13427500000.000 -2.1611022949E-001 -2.9597473145E-001 +3.0469894409E-004 -5.2959918976E-003 -2.9603950679E-005 -2.0116567612E-006 -4.6356201172E-002 -1.0430526733E-001
13560000000.000 -2.1580505371E-001 -2.9640197754E-001 -2.7124881744E-003 -4.6749114990E-003 -3.2581388950E-005 -2.6803463697E-005 -4.6478271484E-002 -1.0135269165E-001
13692500000.000 -2.1719360352E-001 -2.9991149902E-001 -4.9092769623E-003 -2.3851394653E-003 -5.0362199545E-005 +7.4457377195E-005 -1.7498016357E-002 -8.8855743408E-002
13825000000.000 -2.2120666504E-001 -3.0152893066E-001 -5.3699016571E-003 +7.7676773071E-004 -1.2226402760E-004 -1.8022954464E-005 +4.7187805176E-003 -1.0301589966E-001
13957500000.000 -2.2348022461E-001 -3.0049133301E-001 -3.8834810257E-003 +3.6598443985E-003 -3.9305537939E-005 -4.3896958232E-005 -2.2888183594E-005 -9.5497131348E-002
14090000000.000 -2.2338867188E-001 -3.0216979980E-001 -1.3422966003E-003 +5.2602291107E-003 +4.6201050282E-005 +5.0231814384E-005 +2.2064208984E-002 -7.0030212402E-002
14222500000.000 -2.2410583496E-001 -3.0636596680E-001 +1.9843578339E-003 +4.9903392792E-003 -4.2742118239E-005 +1.7618760467E-005 +4.4178009033E-002 -7.3883056641E-002
14355000000.000 -2.2825622559E-001 -3.0726623535E-001 +4.3239593506E-003 +3.0353069305E-003 +2.9336661100E-005 -8.9690089226E-005 +3.3306121826E-002 -6.6856384277E-002
14487500000.000 -2.2970581055E-001 -3.0807495117E-001 +5.3973197937E-003 +5.9366226196E-005 -7.6103955507E-005 -6.6664069891E-005 +4.0145874023E-002 -3.3914566040E-002
14620000000.000 -2.2926330566E-001 -3.1047058105E-001 +4.4956207275E-003 -2.9637813568E-003 -7.3660165071E-005 +1.2315809727E-005 +6.0758590698E-002 -3.1274795532E-002
14752500000.000 -2.3236083984E-001 -3.1521606445E-001 +1.9962787628E-003 -4.8935413361E-003 -2.7826987207E-005 -2.6009045541E-005 +4.3149948120E-002 -3.1904220581E-002
14885000000.000 -2.3454284668E-001 -3.1675720215E-001 -1.2054443359E-003 -5.1226615906E-003 +7.4829906225E-005 +4.4517219067E-006 +3.5543441772E-002 +1.6098022461E-003
15017500000.000 -2.3434448242E-001 -3.1808471680E-001 -3.8598775864E-003 -3.6203861237E-003 -6.6205859184E-005 +2.3730099201E-006 +5.2837371826E-002 +8.6460113525E-003
15150000000.000 -2.3463439941E-001 -3.2296752930E-001 -5.1214694977E-003 -8.3637237549E-004 -1.2350082397E-004 -2.6822090149E-006 +3.4818649292E-002 -1.4247894287E-003
15282500000.000 -2.3548889160E-001 -3.2594299316E-001 -4.6949386597E-003 +2.0802021027E-003 +1.5553832054E-004 +2.0809471607E-005 +1.4613151550E-002 +2.3529052734E-002
