!  2-Port S-parameters saved by WinCal
! VAR MeasName=S-Parameters (CALIBRATED_DATA) read from VNA (C)
! VAR MeasDate=10/16/2015 10:48:22 AM
! VAR NAME=M6082_13_13_2_2_20C_1.4mA_-17.5dBm 2
! VAR FILENAME=M6082_13_13_2_2_20C_1.4mA_-17.5dBm 2_1_1.S2P
! VAR DATE=10/16/2015 10:48:22 AM
! VAR PHYS_PORTS=2,1
! VAR ObjTypeName=DATASET
! VAR IndexType=Frequency
!
# Hz S RI R 50
45000000.000 +4.8556518555E-001 -4.3945312500E-003 -1.8024444580E-003 +5.6431293488E-003 +6.2435865402E-004 +6.5010786057E-004 +2.6894569397E-002 +3.2405853271E-003
177500000.000 +4.8316955566E-001 -1.6571044922E-002 +1.7764568329E-003 +3.7808418274E-003 +8.2537531853E-005 +3.5214424133E-004 +1.6339302063E-002 +1.6709327698E-002
310000000.000 +4.8207092285E-001 -2.8610229492E-002 +4.0225982666E-003 +2.9432773590E-003 -1.9412487745E-005 -7.1328133345E-005 +2.9865264893E-002 +6.1532974243E-002
442500000.000 +4.7673034668E-001 -3.7490844727E-002 +4.5025348663E-003 -2.8300285339E-004 +5.7669356465E-005 +1.4925375581E-005 +7.3123931885E-002 +2.3342132568E-002
575000000.000 +4.7274780273E-001 -4.6798706055E-002 +3.2949447632E-003 -2.9247999191E-003 +8.8892877102E-005 +4.8320740461E-005 +2.7785301208E-002 +1.1604309082E-002
707500000.000 +4.7230529785E-001 -5.7418823242E-002 +9.1433525085E-004 -4.0025711060E-003 +4.6066939831E-005 -2.6939436793E-005 +2.6264190674E-003 +1.8848419189E-002
840000000.000 +4.6826171875E-001 -6.5765380859E-002 -1.5553236008E-003 -3.8443803787E-003 -3.2968819141E-006 -3.8711354136E-005 -1.9588470459E-002 +2.6057243347E-002
972500000.000 +4.6539306641E-001 -7.3837280273E-002 -3.5021305084E-003 -2.3673772812E-003 +4.0702521801E-005 +9.3620270491E-005 -3.5861968994E-002 +3.5758972168E-002
1105000000.000 +4.6401977539E-001 -8.4533691406E-002 -4.0335655212E-003 +1.9979476929E-004 -3.7871301174E-005 -6.5024942160E-005 -4.6792984009E-002 +3.8690567017E-002
1237500000.000 +4.6197509766E-001 -9.3200683594E-002 -3.0467510223E-003 +2.5116205215E-003 +3.1795352697E-005 +4.0028244257E-005 -5.8656692505E-002 +3.4147262573E-002
1370000000.000 +4.5759582520E-001 -1.0075378418E-001 -1.1124610901E-003 +3.9916038513E-003 -1.0304152966E-005 -3.5313889384E-005 -7.4131011963E-002 +2.7385711670E-002
1502500000.000 +4.5423889160E-001 -1.0847473145E-001 +1.4679431915E-003 +3.9176940918E-003 -5.8289617300E-005 -3.9152801037E-006 -8.8058471680E-002 +2.1781921387E-002
1635000000.000 +4.5434570313E-001 -1.1846923828E-001 +3.3600330353E-003 +2.1184682846E-003 +1.3944692910E-005 -2.8783455491E-005 -9.9258422852E-002 +1.1981964111E-002
1767500000.000 +4.5018005371E-001 -1.2617492676E-001 +4.2023658752E-003 -2.6822090149E-004 +1.6763806343E-007 +6.1292201281E-005 -1.1223602295E-001 +3.3340454102E-003
1900000000.000 +4.4628906250E-001 -1.3206481934E-001 +3.5089254379E-003 -2.7815103531E-003 -3.3566728234E-005 +2.6902183890E-005 -1.1419677734E-001 -3.2577514648E-003
2032500000.000 +4.4319152832E-001 -1.4013671875E-001 +1.1825561523E-003 -4.2252540588E-003 +5.1634386182E-005 +1.2148171663E-005 -1.1407470703E-001 -2.4215698242E-002
2165000000.000 +4.4006347656E-001 -1.4599609375E-001 -1.4386177063E-003 -4.3897628784E-003 +3.0538067222E-005 +5.7678669691E-005 -1.2297058105E-001 -4.2034149170E-002
2297500000.000 +4.3562316895E-001 -1.5144348145E-001 -3.9153099060E-003 -3.2665729523E-003 -8.7197870016E-005 +4.3272972107E-005 -1.2686920166E-001 -5.3436279297E-002
2430000000.000 +4.3215942383E-001 -1.5731811523E-001 -5.0768852234E-003 -5.3215026855E-004 +8.5480511189E-005 -4.6834349632E-005 -1.2715148926E-001 -6.4956665039E-002
2562500000.000 +4.2947387695E-001 -1.6357421875E-001 -4.6694278717E-003 +2.4702548981E-003 +2.5900080800E-005 +2.9345974326E-006 -1.2603759766E-001 -7.0800781250E-002
2695000000.000 +4.2352294922E-001 -1.6812133789E-001 -2.8800964355E-003 +4.9326419830E-003 -1.8611550331E-004 -1.1026859283E-005 -1.1411666870E-001 -7.3280334473E-002
2827500000.000 +4.2161560059E-001 -1.7327880859E-001 +7.5221061707E-004 +5.8848857880E-003 -4.0452927351E-005 -7.7836215496E-005 -9.9121093750E-002 -8.1912994385E-002
2960000000.000 +4.2184448242E-001 -1.8130493164E-001 +4.3847560883E-003 +3.8223266602E-003 +1.1397898197E-004 +6.2003731728E-005 -8.8886260986E-002 -8.6769104004E-002
3092500000.000 +4.1880798340E-001 -1.8791198730E-001 +6.1378479004E-003 +6.7830085754E-004 -2.9664486647E-005 -1.1596456170E-004 -7.0934295654E-002 -8.5781097412E-002
3225000000.000 +4.1558837891E-001 -1.9599914551E-001 +5.3672790527E-003 -3.3283233643E-003 -2.9914081097E-005 -6.1944127083E-005 -5.2265167236E-002 -9.1194152832E-002
3357500000.000 +4.1452026367E-001 -2.0645141602E-001 +1.0328292847E-003 -6.0915946960E-003 -4.1350722313E-007 +1.9640661776E-005 -4.1873931885E-002 -9.1781616211E-002
3490000000.000 +4.1200256348E-001 -2.1530151367E-001 -3.0701160431E-003 -5.6126117706E-003 +3.8295984268E-005 +9.4324350357E-005 -2.8511047363E-002 -8.3259582520E-002
3622500000.000 +4.0794372559E-001 -2.2499084473E-001 -6.0725212097E-003 -2.5594234467E-003 +3.3501535654E-005 -7.4375420809E-005 -1.1466979980E-002 -7.9185485840E-002
3755000000.000 +4.0080261230E-001 -2.3716735840E-001 -5.4247379303E-003 +2.2566318512E-003 +3.6206096411E-005 -7.0836395025E-005 -5.9432983398E-003 -7.3284149170E-002
3887500000.000 +3.9471435547E-001 -2.4586486816E-001 -2.4383068085E-003 +5.0389766693E-003 +8.0782920122E-005 +6.0033053160E-005 +1.9168853760E-003 -5.6394577026E-002
4020000000.000 +3.8999938965E-001 -2.5257873535E-001 +1.1954307556E-003 +5.5706501007E-003 -6.6738575697E-005 -1.3448297977E-006 +1.3181686401E-002 -4.4584274292E-002
4152500000.000 +3.8305664063E-001 -2.6028442383E-001 +4.0833950043E-003 +3.0953884125E-003 +5.9623271227E-006 -4.6752393246E-005 +1.5701293945E-002 -3.2821655273E-002
4285000000.000 +3.7687683105E-001 -2.6672363281E-001 +4.9240589142E-003 -1.7166137695E-004 -2.6454217732E-006 +1.4618039131E-005 +1.7280578613E-002 -1.3699531555E-002
4417500000.000 +3.7095642090E-001 -2.7293395996E-001 +3.8092136383E-003 -3.0628442764E-003 +7.4114650488E-006 +3.9346516132E-005 +2.5743484497E-002 +3.3283233643E-003
4550000000.000 +3.6570739746E-001 -2.7809143066E-001 +1.1219978333E-003 -4.5385360718E-003 +5.8840960264E-006 -5.2375718951E-005 +2.9428482056E-002 +9.3536376953E-003
4682500000.000 +3.6007690430E-001 -2.8370666504E-001 -1.6351938248E-003 -3.6348104477E-003 +7.9143792391E-005 +2.9794871807E-005 +2.6239395142E-002 +2.0195960999E-002
4815000000.000 +3.5462951660E-001 -2.8887939453E-001 -3.4714937210E-003 -2.0433664322E-003 -4.3435022235E-005 +2.2703781724E-005 +3.1822204590E-002 +2.6962280273E-002
4947500000.000 +3.5057067871E-001 -2.9307556152E-001 -3.8998126984E-003 +3.6919116974E-004 -3.3639371395E-005 -8.6065381765E-005 +2.8319358826E-002 +1.9561767578E-002
5080000000.000 +3.4735107422E-001 -2.9763793945E-001 -2.5660991669E-003 +2.3570060730E-003 +2.8764829040E-005 +5.8403238654E-005 +1.4160156250E-002 +2.0201683044E-002
5212500000.000 +3.4217834473E-001 -3.0253601074E-001 -8.3673000336E-004 +3.5150051117E-003 -5.4623931646E-005 +5.6289136410E-006 +1.0051727295E-002 +2.4540901184E-002
5345000000.000 +3.3766174316E-001 -3.0625915527E-001 +1.3997554779E-003 +3.4115314484E-003 -2.1918676794E-006 -5.4596457630E-006 +6.4592361450E-003 +1.6030311584E-002
5477500000.000 +3.3615112305E-001 -3.0937194824E-001 +2.8141736984E-003 +1.7497539520E-003 +4.0175393224E-005 -8.7041407824E-006 -8.3532333374E-003 +1.0024070740E-002
5610000000.000 +3.3270263672E-001 -3.1387329102E-001 +3.1843185425E-003 -1.9335746765E-004 +2.2537074983E-005 +2.1439045668E-005 -1.4170646667E-002 +1.4647006989E-002
5742500000.000 +3.2760620117E-001 -3.1687927246E-001 +2.5254487991E-003 -2.1135807037E-003 -3.7094578147E-005 +3.2087787986E-005 -1.0570526123E-002 +6.4325332642E-003
5875000000.000 +3.2472229004E-001 -3.1845092773E-001 +9.0777873993E-004 -2.9338598251E-003 +1.5819445252E-005 -1.7294660211E-006 -1.9411087036E-002 -3.1957626343E-003
6007500000.000 +3.2284545898E-001 -3.2159423828E-001 -8.7797641754E-004 -2.7270317078E-003 -3.2318755984E-005 +1.8136575818E-005 -2.2905349731E-002 +6.0749053955E-004
6140000000.000 +3.1759643555E-001 -3.2640075684E-001 -2.4009943008E-003 -1.6748905182E-003 -2.8057955205E-005 +1.1201947927E-005 -1.4816284180E-002 -1.9626617432E-003
6272500000.000 +3.1129455566E-001 -3.2926940918E-001 -2.8265714645E-003 -6.3657760620E-005 -6.8377703428E-006 -4.8035755754E-005 -1.5764236450E-002 -1.1096000671E-002
6405000000.000 +3.0844116211E-001 -3.3030700684E-001 -2.2596120834E-003 +1.4251470566E-003 -4.8514921218E-006 -6.7541841418E-006 -1.9304275513E-002 -5.7487487793E-003
6537500000.000 +3.0627441406E-001 -3.3355712891E-001 -1.0005235672E-003 +2.4801492691E-003 -2.2914260626E-005 -5.0740316510E-005 -9.3703269958E-003 -2.3550987244E-003
6670000000.000 +3.0087280273E-001 -3.3947753906E-001 +6.1571598053E-004 +2.5141239166E-003 -3.7010759115E-006 -2.8887763619E-005 -7.8101158142E-003 -6.2797069550E-003
6802500000.000 +2.9586791992E-001 -3.4283447266E-001 +1.7582178116E-003 +1.6679167747E-003 +1.7464160919E-005 +4.7713518143E-005 -1.1539936066E-002 +6.3753128052E-004
6935000000.000 +2.9243469238E-001 -3.4332275391E-001 +2.1808147430E-003 +4.3153762817E-004 -3.6783516407E-005 -2.8109177947E-005 -6.8435668945E-003 +1.0294914246E-002
7067500000.000 +2.8924560547E-001 -3.4667968750E-001 +2.0798444748E-003 -9.7322463989E-004 +3.5205855966E-005 -8.3055347204E-006 -5.2795410156E-003 +1.0765075684E-002
7200000000.000 +2.8355407715E-001 -3.5224914551E-001 +1.0617971420E-003 -1.9780397415E-003 -1.5288591385E-005 +5.5134296417E-006 -1.5461921692E-002 +1.7534255981E-002
7332500000.000 +2.7828979492E-001 -3.5534667969E-001 -1.4638900757E-004 -2.1005868912E-003 +1.2604519725E-005 -5.2582472563E-005 -1.7539978027E-002 +3.0794143677E-002
7465000000.000 +2.7352905273E-001 -3.5728454590E-001 -1.2338757515E-003 -1.6941428185E-003 -2.5074928999E-005 -8.2598999143E-006 -2.0468711853E-002 +3.1094551086E-002
7597500000.000 +2.6887512207E-001 -3.6221313477E-001 -1.8921494484E-003 -5.7399272919E-004 +4.1902065277E-005 -2.3022294044E-006 -3.6876678467E-002 +3.3479690552E-002
7730000000.000 +2.6577758789E-001 -3.6680603027E-001 -1.7964839935E-003 +5.5277347565E-004 -4.8330053687E-005 +8.6314976215E-006 -4.8448562622E-002 +4.3798446655E-002
7862500000.000 +2.6210021973E-001 -3.7010192871E-001 -1.1482238770E-003 +1.3365745544E-003 -3.5982578993E-005 +3.2609328628E-005 -5.3850173950E-002 +4.2228698730E-002
7995000000.000 +2.5697326660E-001 -3.7286376953E-001 -1.8715858459E-004 +1.7942786217E-003 +4.6454370022E-005 -2.9748305678E-005 -7.3471069336E-002 +3.4908294678E-002
8127500000.000 +2.5415039063E-001 -3.7887573242E-001 +8.3100795746E-004 +1.4551281929E-003 +4.1266903281E-005 +2.8507784009E-005 -9.1381072998E-002 +4.0012359619E-002
8260000000.000 +2.5085449219E-001 -3.8212585449E-001 +1.4318823814E-003 +6.2894821167E-004 -4.0935352445E-005 +8.1770122051E-006 -9.5176696777E-002 +3.4355163574E-002
8392500000.000 +2.4703979492E-001 -3.8529968262E-001 +1.6512274742E-003 -1.8590688705E-004 +3.5447999835E-005 -3.7541612983E-005 -1.0995101929E-001 +1.8508911133E-002
8525000000.000 +2.4537658691E-001 -3.8871765137E-001 +1.1247396469E-003 -9.4580650330E-004 +2.1368265152E-005 +3.4337863326E-005 -1.2222290039E-001 +1.5491485596E-002
8657500000.000 +2.4453735352E-001 -3.9224243164E-001 +4.1973590851E-004 -1.3455748558E-003 -5.9278681874E-005 +9.1250985861E-006 -1.1785125732E-001 +4.7645568848E-003
8790000000.000 +2.4082946777E-001 -3.9561462402E-001 -4.0024518967E-004 -1.3317465782E-003 +8.3157792687E-006 -7.2661787271E-006 -1.1967468262E-001 -1.7089843750E-002
8922500000.000 +2.3744201660E-001 -3.9721679688E-001 -9.9629163742E-004 -8.3291530609E-004 +3.3320859075E-005 -3.7450343370E-005 -1.2245941162E-001 -3.0055999756E-002
9055000000.000 +2.3657226563E-001 -4.0003967285E-001 -1.2633800507E-003 -1.0871887207E-004 -4.2794272304E-005 +3.4978613257E-005 -1.1118316650E-001 -4.3464660645E-002
9187500000.000 +2.3332214355E-001 -4.0168762207E-001 -1.1263489723E-003 +6.1523914337E-004 -3.5693868995E-005 +8.0727040768E-006 -1.0063552856E-001 -6.6009521484E-002
9320000000.000 +2.2891235352E-001 -4.0373229980E-001 -5.9229135513E-004 +1.0712742805E-003 -7.0692040026E-006 -1.2708362192E-005 -9.4116210938E-002 -7.8689575195E-002
9452500000.000 +2.2695922852E-001 -4.0605163574E-001 +1.0091066360E-004 +1.1925697327E-003 +8.6985528469E-006 +6.5874308348E-005 -7.4718475342E-002 -8.6448669434E-002
9585000000.000 +2.2436523438E-001 -4.0876770020E-001 +7.6204538345E-004 +9.3504786491E-004 -1.5946105123E-005 -3.9009377360E-005 -5.5408477783E-002 -1.0097503662E-001
9717500000.000 +2.1771240234E-001 -4.1197204590E-001 +1.1633038521E-003 +3.1578540802E-004 +1.4263205230E-005 -1.3775657862E-005 -4.2308807373E-002 -1.0622787476E-001
9850000000.000 +2.1437072754E-001 -4.1308593750E-001 +1.0485649109E-003 -3.7258863449E-004 +4.1224062443E-005 -1.8935650587E-005 -1.9527435303E-002 -1.0219192505E-001
9982500000.000 +2.1208190918E-001 -4.1584777832E-001 +6.2015652657E-004 -8.9678168297E-004 -1.1600181460E-004 -7.7728182077E-005 +5.2604675293E-003 -1.0402297974E-001
10115000000.000 +2.0681762695E-001 -4.1888427734E-001 +3.4868717194E-005 -1.0373592377E-003 +1.4226883650E-005 -5.3923577070E-005 +1.7601013184E-002 -9.9170684814E-002
10247500000.000 +2.0213317871E-001 -4.2076110840E-001 -4.2751431465E-004 -9.3385577202E-004 +2.2619962692E-005 +1.8583610654E-005 +3.5041809082E-002 -8.0310821533E-002
10380000000.000 +2.0072937012E-001 -4.2376708984E-001 -8.1712007523E-004 -4.5353174210E-004 -9.0297311544E-005 -4.2982399464E-005 +5.6743621826E-002 -6.9164276123E-002
10512500000.000 +1.9357299805E-001 -4.2619323730E-001 -9.1585516930E-004 +8.9377164841E-005 -1.9498169422E-005 -5.0183385611E-005 +6.1668395996E-002 -5.7718276978E-002
10645000000.000 +1.8836975098E-001 -4.2713928223E-001 -6.6453218460E-004 +6.2769651413E-004 +2.8796494007E-006 +6.7196786404E-005 +6.5734863281E-002 -2.9857635498E-002
10777500000.000 +1.8716430664E-001 -4.2991638184E-001 -2.6786327362E-004 +7.8305602074E-004 -2.7188099921E-005 -2.7921050787E-006 +7.7877044678E-002 -9.1590881348E-003
10910000000.000 +1.8258666992E-001 -4.3359375000E-001 +2.9435753822E-004 +8.7192654610E-004 -5.7920813560E-005 -8.6922198534E-005 +7.2734832764E-002 +3.3073425293E-003
11042500000.000 +1.7417907715E-001 -4.3717956543E-001 +6.7514181137E-004 +5.3340196609E-004 +2.8043985367E-005 -1.8335878849E-005 +5.9967041016E-002 +2.9911041260E-002
11175000000.000 +1.7109680176E-001 -4.3991088867E-001 +7.5685977936E-004 +1.1038780212E-004 +6.2212347984E-006 +1.1464953423E-004 +5.8065414429E-002 +5.1807403564E-002
11307500000.000 +1.6996765137E-001 -4.4204711914E-001 +6.3550472260E-004 -3.8096308708E-004 +2.0436942577E-005 -3.5868957639E-005 +4.5511245728E-002 +5.7397842407E-002
11440000000.000 +1.6360473633E-001 -4.4589233398E-001 +3.2126903534E-004 -6.5007805824E-004 +7.3507428169E-005 -1.1019408703E-005 +1.9557952881E-002 +7.1155548096E-002
11572500000.000 +1.6090393066E-001 -4.4966125488E-001 -6.2048435211E-005 -6.9946050644E-004 +3.0539929867E-005 +7.4904412031E-005 +6.0920715332E-003 +8.7348937988E-002
11705000000.000 +1.5841674805E-001 -4.5182800293E-001 -4.1478872299E-004 -4.8017501831E-004 -5.4871663451E-005 -3.3754855394E-005 -7.9689025879E-003 +8.1317901611E-002
11837500000.000 +1.5402221680E-001 -4.5419311523E-001 -6.6655874252E-004 -1.8450617790E-004 +4.9496069551E-005 +2.0660459995E-005 -4.1141510010E-002 +7.7156066895E-002
11970000000.000 +1.5170288086E-001 -4.5544433594E-001 -6.4530968666E-004 +1.9145011902E-004 -3.6098062992E-006 +9.6585601568E-005 -5.7762145996E-002 +8.4148406982E-002
12102500000.000 +1.5240478516E-001 -4.5872497559E-001 -3.2839179039E-004 +5.2112340927E-004 -2.7751550078E-005 +2.3865140975E-005 -6.4105987549E-002 +6.5616607666E-002
12235000000.000 +1.4541625977E-001 -4.5909118652E-001 -1.9529461861E-004 +6.5508484840E-004 -1.4405697584E-005 -7.4710696936E-005 -9.1838836670E-002 +4.5978546143E-002
12367500000.000 +1.4468383789E-001 -4.5932006836E-001 +2.5802850723E-004 +5.5482983589E-004 -2.4940818548E-006 -3.0847266316E-005 -1.0437393188E-001 +4.5005798340E-002
12500000000.000 +1.4067077637E-001 -4.6104431152E-001 +5.7843327522E-004 +2.7346611023E-004 -2.4854205549E-005 -4.6314671636E-006 -9.6797943115E-002 +2.2148132324E-002
12632500000.000 +1.3661193848E-001 -4.6438598633E-001 +5.9181451797E-004 +2.9802322388E-006 +1.5817582607E-005 -7.6502561569E-005 -1.1043930054E-001 -1.1554718018E-002
12765000000.000 +1.3304138184E-001 -4.6357727051E-001 +4.6339631081E-004 -3.5299360752E-004 +7.2456896305E-006 -1.4601275325E-005 -1.1800003052E-001 -1.5251159668E-002
12897500000.000 +1.3031005859E-001 -4.6328735352E-001 +2.0214915276E-004 -5.5789947510E-004 -5.1546841860E-005 +5.2440911531E-005 -9.2319488525E-002 -3.3153533936E-002
13030000000.000 +1.2814331055E-001 -4.6582031250E-001 -1.1241436005E-004 -5.1662325859E-004 +1.4863908291E-006 -3.6533921957E-005 -9.1682434082E-002 -7.0434570313E-002
13162500000.000 +1.2431335449E-001 -4.6778869629E-001 -3.3558905125E-004 -4.1168928146E-004 +4.7523528337E-005 +2.1029263735E-006 -9.4623565674E-002 -7.0884704590E-002
13295000000.000 +1.2042236328E-001 -4.6923828125E-001 -6.0105323792E-004 +1.5646219254E-005 -5.4715201259E-005 +4.5968219638E-005 -6.2644958496E-002 -7.7617645264E-002
13427500000.000 +1.1610412598E-001 -4.6841430664E-001 -3.8512051105E-004 +2.4387240410E-004 +2.2165477276E-005 -2.9526650906E-005 -4.8645019531E-002 -1.0553741455E-001
13560000000.000 +1.1541748047E-001 -4.6833801270E-001 -1.8617510796E-004 +4.8300623894E-004 +5.6974589825E-005 -7.9672783613E-005 -4.9781799316E-002 -1.0219192505E-001
13692500000.000 +1.1305236816E-001 -4.7172546387E-001 +4.9144029617E-005 +4.1322410107E-004 +2.3152679205E-005 -3.0916184187E-005 -1.9626617432E-002 -8.9305877686E-002
13825000000.000 +1.0678100586E-001 -4.7294616699E-001 +2.2487342358E-004 +3.5342574120E-004 -7.2926282883E-005 +1.0680034757E-004 +3.7078857422E-003 -1.0475921631E-001
13957500000.000 +1.0302734375E-001 -4.7161865234E-001 +4.4421851635E-004 +1.8839538097E-004 +2.1893531084E-005 -6.9044530392E-005 -1.4839172363E-003 -9.8026275635E-002
14090000000.000 +1.0116577148E-001 -4.7300720215E-001 +4.5305490494E-004 -4.8488378525E-005 -9.7285956144E-006 +9.4934366643E-006 +2.0645141602E-002 -7.1865081787E-002
14222500000.000 +9.8007202148E-002 -4.7691345215E-001 +2.9626488686E-004 -3.5586953163E-004 -4.0963292122E-005 -2.2711232305E-005 +4.4086456299E-002 -7.5721740723E-002
14355000000.000 +9.2193603516E-002 -4.7717285156E-001 +1.4561414719E-004 -4.4550001621E-004 -3.8629397750E-005 -4.2023137212E-005 +3.4034729004E-002 -6.8775177002E-002
14487500000.000 +8.8546752930E-002 -4.7729492188E-001 -7.6562166214E-005 -3.8877129555E-004 +1.9736588001E-005 -1.4872290194E-005 +4.1215896606E-002 -3.5930633545E-002
14620000000.000 +8.7203979492E-002 -4.8069763184E-001 -2.2974610329E-004 -2.9580295086E-004 +1.0412186384E-005 +6.9774687290E-005 +6.1338424683E-002 -3.2758712769E-002
14752500000.000 +8.1665039063E-002 -4.8513793945E-001 -3.2790005207E-004 -8.3997845650E-005 +1.0688789189E-005 -3.0082650483E-005 +4.4174194336E-002 -3.2081604004E-002
14885000000.000 +7.8781127930E-002 -4.8553466797E-001 -3.4202635288E-004 +1.8519163132E-004 +9.9595636129E-005 -5.5350363255E-005 +3.7870407104E-002 +1.2493133545E-003
15017500000.000 +7.9147338867E-002 -4.8609924316E-001 -1.8729269505E-004 +3.5294890404E-004 -4.6344473958E-005 +5.4091215134E-005 +5.4178237915E-002 +7.4005126953E-003
15150000000.000 +7.8369140625E-002 -4.9153137207E-001 -2.3230910301E-005 +4.0911138058E-004 +1.5087425709E-005 +7.4598938227E-005 +3.5087585449E-002 -8.5067749023E-004
15282500000.000 +7.6278686523E-002 -4.9401855469E-001 +3.2137334347E-004 +3.0857324600E-004 +4.8436224461E-005 -3.1819567084E-005 +1.6140937805E-002 +2.5124549866E-002
