!  2-Port S-parameters saved by WinCal
! VAR MeasName=S-Parameters (CALIBRATED_DATA) read from VNA (C)
! VAR MeasDate=10/16/2015 10:59:38 AM
! VAR NAME=M6082_13_13_2_2_20C_6.4mA_-17.5dBm
! VAR FILENAME=M6082_13_13_2_2_20C_6.4mA_-17.5dBm_1_1.S2P
! VAR DATE=10/16/2015 10:59:38 AM
! VAR PHYS_PORTS=2,1
! VAR ObjTypeName=DATASET
! VAR IndexType=Frequency
!
# Hz S RI R 50
45000000.000 +1.8684387207E-001 +1.0604858398E-003 -2.7217864990E-003 +8.1386566162E-003 +1.1048913002E-003 +6.4951181412E-004 +2.8837203979E-002 +1.7948150635E-003
177500000.000 +1.8689727783E-001 -5.1651000977E-003 +2.4845600128E-003 +6.1638355255E-003 -9.3132257462E-009 +3.5669654608E-005 +1.6406059265E-002 +1.6834259033E-002
310000000.000 +1.8733978271E-001 -1.1283874512E-002 +5.2125453949E-003 +4.3737888336E-003 +5.1610171795E-005 -1.7437338829E-004 +2.9373168945E-002 +6.1838150024E-002
442500000.000 +1.8727874756E-001 -1.7501831055E-002 +7.8520774841E-003 +2.7656555176E-005 -3.5390257835E-008 -4.0750950575E-005 +7.3127746582E-002 +2.3368835449E-002
575000000.000 +1.8681335449E-001 -2.4147033691E-002 +6.1254501343E-003 -4.2479038239E-003 -4.4953078032E-005 +6.8780034781E-005 +2.7770996094E-002 +1.1549949646E-002
707500000.000 +1.8605041504E-001 -2.9846191406E-002 +2.6903152466E-003 -6.7048072815E-003 -6.6597014666E-005 -2.1461397409E-005 +2.4566650391E-003 +1.8862724304E-002
840000000.000 +1.8572998047E-001 -3.6178588867E-002 -1.5547275543E-003 -6.8008899689E-003 +6.6801905632E-005 -2.7272850275E-005 -1.9711494446E-002 +2.6150703430E-002
972500000.000 +1.8534088135E-001 -4.1984558105E-002 -5.0318241119E-003 -4.8460960388E-003 -4.8249959946E-005 -1.3601034880E-005 -3.5743713379E-002 +3.5690307617E-002
1105000000.000 +1.8409729004E-001 -4.8194885254E-002 -6.9460868835E-003 -1.2025833130E-003 -5.6050717831E-005 +2.4810433388E-006 -4.6760559082E-002 +3.8707733154E-002
1237500000.000 +1.8308258057E-001 -5.3680419922E-002 -6.3626766205E-003 +2.7577877045E-003 -4.1436403990E-005 -6.4373016357E-006 -5.8580398560E-002 +3.4088134766E-002
1370000000.000 +1.8206024170E-001 -5.9494018555E-002 -3.7255287170E-003 +5.7778358459E-003 +9.6596777439E-006 +1.2029428035E-005 -7.4157714844E-002 +2.7328491211E-002
1502500000.000 +1.8087768555E-001 -6.5155029297E-002 +1.7642974854E-004 +6.9575309753E-003 -4.2060390115E-005 -5.3200870752E-005 -8.8096618652E-002 +2.1690368652E-002
1635000000.000 +1.8050384521E-001 -7.0617675781E-002 +3.9913654327E-003 +5.6123733521E-003 +5.8226287365E-005 -2.1457672119E-005 -9.9048614502E-002 +1.1978149414E-002
1767500000.000 +1.7936706543E-001 -7.7133178711E-002 +6.3278675079E-003 +2.4595260620E-003 +7.2333961725E-005 +3.8735568523E-005 -1.1204528809E-001 +3.2997131348E-003
1900000000.000 +1.7834472656E-001 -8.2351684570E-002 +6.7327022552E-003 -1.6696453094E-003 -5.9574842453E-005 +4.0624290705E-006 -1.1392211914E-001 -3.1776428223E-003
2032500000.000 +1.7690277100E-001 -8.6959838867E-002 +4.6722888947E-003 -4.9986839294E-003 +2.7795322239E-005 -2.6256777346E-005 -1.1384582520E-001 -2.4303436279E-002
2165000000.000 +1.7659759521E-001 -9.3032836914E-002 +1.0390281677E-003 -6.7782402039E-003 +4.5869499445E-005 +5.2148476243E-005 -1.2283325195E-001 -4.2091369629E-002
2297500000.000 +1.7527770996E-001 -9.8098754883E-002 -2.8328895569E-003 -6.2174797058E-003 -8.5253268480E-005 +3.3609569073E-005 -1.2677001953E-001 -5.3375244141E-002
2430000000.000 +1.7370605469E-001 -1.0258483887E-001 -5.8145523071E-003 -3.4277439117E-003 -4.2106956244E-005 -3.5732984543E-005 -1.2694549561E-001 -6.4880371094E-002
2562500000.000 +1.7278289795E-001 -1.0778808594E-001 -6.8376064301E-003 +3.9386749268E-004 +1.0438263416E-004 +8.4236264229E-005 -1.2576293945E-001 -7.0816040039E-002
2695000000.000 +1.6999053955E-001 -1.1248779297E-001 -5.5165290833E-003 +4.0092468262E-003 -5.1332637668E-005 +1.8052756786E-005 -1.1410522461E-001 -7.3360443115E-002
2827500000.000 +1.6799926758E-001 -1.1576843262E-001 -2.4604797363E-003 +6.4125061035E-003 -2.9496848583E-005 -4.8704445362E-005 -9.9170684814E-002 -8.1825256348E-002
2960000000.000 +1.6687011719E-001 -1.2010955811E-001 +1.5146732330E-003 +6.6010951996E-003 +1.0659545660E-004 +1.2870877981E-004 -8.8897705078E-002 -8.6730957031E-002
3092500000.000 +1.6461944580E-001 -1.2593841553E-001 +4.9421787262E-003 +4.4279098511E-003 -5.9001147747E-005 +2.4922192097E-005 -7.0941925049E-002 -8.5582733154E-002
3225000000.000 +1.6116333008E-001 -1.3042449951E-001 +6.6158771515E-003 +8.1324577332E-004 -1.0865554214E-004 -2.6531517506E-005 -5.2314758301E-002 -9.0980529785E-002
3357500000.000 +1.5897369385E-001 -1.3349151611E-001 +6.0539245605E-003 -2.9165744781E-003 +1.3355165720E-005 +9.4417482615E-005 -4.1950225830E-002 -9.1762542725E-002
3490000000.000 +1.5752410889E-001 -1.3906097412E-001 +3.3771991730E-003 -5.5675506592E-003 -4.3211504817E-005 +4.2714178562E-005 -2.8358459473E-002 -8.3190917969E-002
3622500000.000 +1.5492248535E-001 -1.4458465576E-001 -3.1924247742E-004 -6.7751407623E-003 -1.3236701488E-004 -1.3411045074E-004 -1.1547088623E-002 -7.9017639160E-002
3755000000.000 +1.5187835693E-001 -1.4976501465E-001 -3.9899349213E-003 -5.5317878723E-003 +1.7676502466E-005 +7.2829425335E-007 -5.9051513672E-003 -7.3196411133E-002
3887500000.000 +1.4971923828E-001 -1.5448760986E-001 -6.3807964325E-003 -2.2130012512E-003 -2.9899179935E-005 +7.7329576015E-005 +1.8653869629E-003 -5.6123733521E-002
4020000000.000 +1.4743804932E-001 -1.5869903564E-001 -6.5732002258E-003 +1.5399456024E-003 -8.2328915596E-005 -2.9284507036E-005 +1.3072967529E-002 -4.4523239136E-002
4152500000.000 +1.4558410645E-001 -1.6382598877E-001 -4.5039653778E-003 +4.9984455109E-003 -6.5468251705E-005 -1.1160969734E-005 +1.5497207642E-002 -3.2783508301E-002
4285000000.000 +1.4314270020E-001 -1.6896057129E-001 -1.0223388672E-003 +6.6971778870E-003 +5.6611374021E-005 +2.7867034078E-005 +1.7172813416E-002 -1.3539314270E-002
4417500000.000 +1.4007568359E-001 -1.7344665527E-001 +2.9225349426E-003 +6.0591697693E-003 -1.1799857020E-005 +3.7575140595E-005 +2.5701522827E-002 +3.3540725708E-003
4550000000.000 +1.3847351074E-001 -1.7784881592E-001 +5.7566165924E-003 +3.4167766571E-003 -5.5804848671E-006 -7.2907656431E-005 +2.9399871826E-002 +9.4327926636E-003
4682500000.000 +1.3645935059E-001 -1.8331146240E-001 +6.5970420837E-003 -3.7217140198E-004 +4.8775225878E-005 +6.8217515945E-005 +2.6293754578E-002 +2.0257949829E-002
4815000000.000 +1.3360595703E-001 -1.8785095215E-001 +5.3844451904E-003 -3.9086341858E-003 -7.7303498983E-005 +2.3532658815E-005 +3.1732559204E-002 +2.7021408081E-002
4947500000.000 +1.3225555420E-001 -1.9174957275E-001 +2.3367404938E-003 -6.2296390533E-003 -1.2824311852E-005 -3.8726255298E-005 +2.8334617615E-002 +1.9496917725E-002
5080000000.000 +1.3120269775E-001 -1.9670104980E-001 -1.4977455139E-003 -6.6425800323E-003 +1.9280239940E-005 -1.5164725482E-005 +1.4056205750E-002 +2.0183563232E-002
5212500000.000 +1.2870788574E-001 -2.0132446289E-001 -4.9207210541E-003 -4.6920776367E-003 +5.7457014918E-005 +1.3824552298E-005 +9.9687576294E-003 +2.4386405945E-002
5345000000.000 +1.2652587891E-001 -2.0450592041E-001 -6.8314075470E-003 -1.1284351349E-003 -3.3814460039E-005 -6.7979097366E-005 +6.3800811768E-003 +1.6019821167E-002
5477500000.000 +1.2647247314E-001 -2.0817565918E-001 -6.3366889954E-003 +2.9237270355E-003 +1.2410804629E-005 -2.0030885935E-005 -8.3718299866E-003 +1.0121822357E-002
5610000000.000 +1.2474060059E-001 -2.1297454834E-001 -3.5932064056E-003 +6.0100555420E-003 -1.4748424292E-005 +6.4779073000E-005 -1.4185428619E-002 +1.4664649963E-002
5742500000.000 +1.2191772461E-001 -2.1564483643E-001 +4.3535232544E-004 +7.0302486420E-003 +3.7783756852E-006 -2.7041882277E-005 -1.0504722595E-002 +6.2713623047E-003
5875000000.000 +1.2033843994E-001 -2.1732330322E-001 +4.4260025024E-003 +5.5623054504E-003 +4.6042725444E-005 +6.5825879574E-006 -1.9433975220E-002 -3.2396316528E-003
6007500000.000 +1.1950683594E-001 -2.2093963623E-001 +6.7560672760E-003 +2.2196769714E-003 +3.2758340240E-005 +4.4124200940E-005 -2.2780418396E-002 +5.7411193848E-004
6140000000.000 +1.1691284180E-001 -2.2518920898E-001 +6.8268775940E-003 -1.9557476044E-003 +4.1512772441E-005 +4.2840838432E-007 -1.4727115631E-002 -2.1600723267E-003
6272500000.000 +1.1248016357E-001 -2.2795104980E-001 +4.5557022095E-003 -5.3830146790E-003 +1.4873221517E-005 -4.1538849473E-005 -1.5835762024E-002 -1.1269569397E-002
6405000000.000 +1.0989379883E-001 -2.2915649414E-001 +7.5030326843E-004 -7.0955753326E-003 -2.2515654564E-005 +5.6490302086E-005 -1.9255638123E-002 -5.8269500732E-003
6537500000.000 +1.0942840576E-001 -2.3236083984E-001 -3.4093856812E-003 -6.2749385834E-003 -3.9385631680E-005 -3.4384429455E-005 -9.4370841980E-003 -2.4538040161E-003
6670000000.000 +1.0643005371E-001 -2.3805236816E-001 -6.2172412872E-003 -3.2916069031E-003 +2.2672116756E-005 -5.3329393268E-005 -7.7402591705E-003 -6.4172744751E-003
6802500000.000 +1.0118865967E-001 -2.4131774902E-001 -7.0312023163E-003 +8.0847740173E-004 +1.1561438441E-005 +2.3625791073E-005 -1.1455059052E-002 +5.5789947510E-004
6935000000.000 +9.8426818848E-002 -2.4198150635E-001 -5.3701400757E-003 +4.6002864838E-003 -2.9322691262E-005 +8.3856284618E-006 -6.8292617798E-003 +1.0289192200E-002
7067500000.000 +9.8106384277E-002 -2.4545288086E-001 -1.9042491913E-003 +6.8593025208E-003 +1.0946765542E-005 -4.2829662561E-005 -5.1240921021E-003 +1.0695457458E-002
7200000000.000 +9.3872070313E-002 -2.5097656250E-001 +2.2592544556E-003 +6.7365169525E-003 +1.7326325178E-005 +1.6204081476E-005 -1.5390396118E-002 +1.7441749573E-002
7332500000.000 +8.9065551758E-002 -2.5372314453E-001 +5.6314468384E-003 +4.3849945068E-003 -1.1990312487E-005 +1.3804528862E-005 -1.7534255981E-002 +3.0810356140E-002
7465000000.000 +8.6944580078E-002 -2.5566101074E-001 +7.0986747742E-003 +4.2891502380E-004 -6.9521367550E-005 -1.6219913960E-005 -2.0342826843E-002 +3.1165122986E-002
7597500000.000 +8.4518432617E-002 -2.6074218750E-001 +6.1473846436E-003 -3.6091804504E-003 +7.1208924055E-005 -1.5035271645E-005 -3.6748886108E-002 +3.3496856689E-002
7730000000.000 +8.0825805664E-002 -2.6527404785E-001 +3.0951499939E-003 -6.3164234161E-003 -4.0307641029E-005 +1.2649223208E-005 -4.8357009888E-002 +4.3764114380E-002
7862500000.000 +7.7972412109E-002 -2.6826477051E-001 -9.8633766174E-004 -7.0273876190E-003 -3.4477561712E-005 -6.4864754677E-005 -5.3863525391E-002 +4.2282104492E-002
7995000000.000 +7.6431274414E-002 -2.7162170410E-001 -4.7526359558E-003 -5.2704811096E-003 +5.2250921726E-005 -6.7789107561E-005 -7.3387145996E-002 +3.4843444824E-002
8127500000.000 +7.4249267578E-002 -2.7735900879E-001 -6.8936347961E-003 -1.7671585083E-003 +2.3627653718E-005 -5.0969421864E-005 -9.1289520264E-002 +3.9916992188E-002
8260000000.000 +7.1090698242E-002 -2.8077697754E-001 -6.7057609558E-003 +2.4611949921E-003 -6.9295056164E-006 -1.4637596905E-005 -9.5272064209E-002 +3.4397125244E-002
8392500000.000 +6.9976806641E-002 -2.8398132324E-001 -4.2622089386E-003 +5.8021545410E-003 +2.7231872082E-006 -3.1616538763E-005 -1.0987472534E-001 +1.8558502197E-002
8525000000.000 +6.8984985352E-002 -2.8747558594E-001 -2.8634071350E-004 +7.1847438812E-003 -4.2054802179E-005 +2.5881454349E-005 -1.2217330933E-001 +1.5628814697E-002
8657500000.000 +6.7794799805E-002 -2.9107666016E-001 +3.9534568787E-003 +6.1912536621E-003 -7.8562647104E-005 +8.4899365902E-006 -1.1784362793E-001 +4.7492980957E-003
8790000000.000 +6.6024780273E-002 -2.9464721680E-001 +6.5290927887E-003 +2.9544830322E-003 +1.6506761312E-005 -6.4421445131E-005 -1.1964416504E-001 -1.6979217529E-002
8922500000.000 +6.4453125000E-002 -2.9649353027E-001 +7.1570873260E-003 -1.2264251709E-003 -5.9540616348E-007 -1.0009389371E-006 -1.2250900269E-001 -2.9884338379E-002
9055000000.000 +6.2805175781E-002 -2.9919433594E-001 +5.2342414856E-003 -5.0723552704E-003 -2.2347085178E-005 +8.1462785602E-006 -1.1111831665E-001 -4.3437957764E-002
9187500000.000 +6.1477661133E-002 -3.0139160156E-001 +1.5180110931E-003 -7.1666240692E-003 -8.7888911366E-006 -2.8901733458E-005 -1.0057830811E-001 -6.6013336182E-002
9320000000.000 +5.8258056641E-002 -3.0326843262E-001 -2.8133392334E-003 -6.8333148956E-003 +2.1156854928E-005 -7.4943527579E-006 -9.4161987305E-002 -7.8777313232E-002
9452500000.000 +5.6442260742E-002 -3.0543518066E-001 -6.1194896698E-003 -3.9830207825E-003 +2.5495886803E-005 +1.5776604414E-006 -7.4733734131E-002 -8.6334228516E-002
9585000000.000 +5.4199218750E-002 -3.0801391602E-001 -7.5597763062E-003 +1.4567375183E-004 +3.8944184780E-005 -2.4670735002E-005 -5.5313110352E-002 -1.0097503662E-001
9717500000.000 +4.9865722656E-002 -3.1140136719E-001 -6.0594081879E-003 +4.2176246643E-003 +3.7059187889E-005 -6.4212828875E-005 -4.2274475098E-002 -1.0630798340E-001
9850000000.000 +4.6447753906E-002 -3.1216430664E-001 -2.6412010193E-003 +6.9091320038E-003 +3.6554411054E-005 +4.9795955420E-005 -1.9729614258E-002 -1.0210800171E-001
9982500000.000 +4.5257568359E-002 -3.1492614746E-001 +1.7662048340E-003 +7.3118209839E-003 -3.4134835005E-005 +1.6223639250E-006 +5.1956176758E-003 -1.0392379761E-001
10115000000.000 +4.1671752930E-002 -3.1814575195E-001 +5.5494308472E-003 +4.9393177032E-003 +5.4886564612E-005 -3.3758580685E-005 +1.7520904541E-002 -9.9269866943E-002
10247500000.000 +3.7429809570E-002 -3.1964111328E-001 +7.4284076691E-003 +1.0311603546E-003 +8.0436468124E-005 +5.8557838202E-005 +3.4942626953E-002 -8.0459594727E-002
10380000000.000 +3.5751342773E-002 -3.2217407227E-001 +6.7577362061E-003 -3.3142566681E-003 -7.8780576587E-006 +2.0908191800E-005 +5.6575775146E-002 -6.9149017334E-002
10512500000.000 +3.1631469727E-002 -3.2489013672E-001 +3.7481784821E-003 -6.5293312073E-003 +1.5180557966E-005 -6.8213790655E-005 +6.1834335327E-002 -5.7765960693E-002
10645000000.000 +2.7526855469E-002 -3.2611083984E-001 -5.9008598328E-004 -7.5354576111E-003 +4.0825456381E-005 -1.5469267964E-005 +6.5673828125E-002 -2.9994964600E-002
10777500000.000 +2.5344848633E-002 -3.2830810547E-001 -4.7230720520E-003 -5.8908462524E-003 +1.0479241610E-005 -1.0607764125E-005 +7.7732086182E-002 -9.3078613281E-003
10910000000.000 +2.2506713867E-002 -3.3230590820E-001 -7.2245597839E-003 -2.2637844086E-003 +1.9293278456E-005 -7.2922557592E-005 +7.2727203369E-002 +3.3340454102E-003
11042500000.000 +1.6387939453E-002 -3.3560180664E-001 -7.2026252747E-003 +2.2342205048E-003 -1.8666498363E-005 +2.0057894289E-005 +5.9989929199E-002 +2.9802322388E-002
11175000000.000 +1.3305664063E-002 -3.3815002441E-001 -4.7767162323E-003 +5.9671401978E-003 +4.9669295549E-005 +5.2930787206E-005 +5.8013916016E-002 +5.1713943481E-002
11307500000.000 +1.2069702148E-002 -3.4024047852E-001 -4.9448013306E-004 +7.5833797455E-003 -5.2571296692E-005 -3.2503157854E-005 +4.5385360718E-002 +5.7392120361E-002
11440000000.000 +8.1481933594E-003 -3.4454345703E-001 +3.8278102875E-003 +6.6277980804E-003 -2.8991140425E-005 -2.1656043828E-005 +1.9599914551E-002 +7.1178436279E-002
11572500000.000 +5.9814453125E-003 -3.4829711914E-001 +6.8314075470E-003 +3.3199787140E-003 -1.6428530216E-005 +4.5293942094E-005 +6.0386657715E-003 +8.7299346924E-002
11705000000.000 +3.7078857422E-003 -3.5047912598E-001 +7.5893402100E-003 -1.2085437775E-003 -2.1412968636E-005 -2.3005530238E-005 -8.0795288086E-003 +8.1375122070E-002
11837500000.000 +7.7819824219E-004 -3.5322570801E-001 +5.6035518646E-003 -5.2075386047E-003 +7.8234821558E-005 +6.1094760895E-007 -4.1172027588E-002 +7.7087402344E-002
11970000000.000 -3.3569335938E-004 -3.5464477539E-001 +1.6360282898E-003 -7.4796676636E-003 +5.1751732826E-005 +1.0156258941E-004 -5.7613372803E-002 +8.4136962891E-002
12102500000.000 -2.2888183594E-004 -3.5754394531E-001 -2.8529167175E-003 -7.1594715118E-003 +7.3388218880E-007 -2.2824853659E-005 -6.4132690430E-002 +6.5616607666E-002
12235000000.000 -5.8898925781E-003 -3.5809326172E-001 -6.3502788544E-003 -4.2452812195E-003 +1.9657425582E-005 -1.5261583030E-005 -9.1819763184E-002 +4.5848846436E-002
12367500000.000 -5.3405761719E-003 -3.5884094238E-001 -7.6358318329E-003 +1.7571449280E-004 +3.3292919397E-005 +3.7243589759E-005 -1.0440063477E-001 +4.4841766357E-002
12500000000.000 -8.9111328125E-003 -3.6033630371E-001 -6.2615871429E-003 +4.4639110565E-003 -3.7828460336E-005 +2.8053298593E-005 -9.6881866455E-002 +2.2220611572E-002
12632500000.000 -1.2084960938E-002 -3.6369323730E-001 -2.5770664215E-003 +7.0838928223E-003 +3.2670795918E-006 -7.1093440056E-005 -1.1023712158E-001 -1.1619567871E-002
12765000000.000 -1.4495849609E-002 -3.6320495605E-001 +1.8529891968E-003 +7.3587894440E-003 +7.0631504059E-005 -1.9371509552E-006 -1.1795043945E-001 -1.5460968018E-002
12897500000.000 -1.6738891602E-002 -3.6293029785E-001 +5.6941509247E-003 +5.0213336945E-003 -7.0594251156E-007 +5.2660703659E-005 -9.2510223389E-002 -3.3172607422E-002
13030000000.000 -1.8325805664E-002 -3.6544799805E-001 +7.6410770416E-003 +8.9526176453E-004 +3.8646161556E-005 -5.1036477089E-007 -9.1556549072E-002 -7.0247650146E-002
13162500000.000 -2.1179199219E-002 -3.6770629883E-001 +6.7741870880E-003 -3.4768581390E-003 +3.0448660254E-005 +2.7630478144E-005 -9.4455718994E-002 -7.1056365967E-002
13295000000.000 -2.4398803711E-002 -3.6907958984E-001 +3.5717487335E-003 -6.7315101624E-003 -6.2845647335E-005 +9.1385096312E-005 -6.2648773193E-002 -7.7724456787E-002
13427500000.000 -2.8366088867E-002 -3.6842346191E-001 -9.1743469238E-004 -7.5473785400E-003 -1.4774035662E-005 +3.6992132664E-006 -4.8557281494E-002 -1.0540390015E-001
13560000000.000 -2.8167724609E-002 -3.6853027344E-001 -4.9612522125E-003 -5.7172775269E-003 -1.9978731871E-005 -6.8712979555E-006 -4.9579620361E-002 -1.0223007202E-001
13692500000.000 -2.9800415039E-002 -3.7207031250E-001 -7.2619915009E-003 -1.9631385803E-003 +8.3371996880E-006 +7.1849673986E-005 -1.9573211670E-002 -8.9313507080E-002
13825000000.000 -3.5217285156E-002 -3.7329101563E-001 -7.0414543152E-003 +2.5870800018E-003 -5.8928504586E-005 +1.3010576367E-005 +3.6582946777E-003 -1.0462570190E-001
13957500000.000 -3.8681030273E-002 -3.7207031250E-001 -4.3692588806E-003 +6.2384605408E-003 +2.1370127797E-005 -3.1569972634E-005 -1.4572143555E-003 -9.7812652588E-002
14090000000.000 -4.0008544922E-002 -3.7339782715E-001 -2.2745132446E-004 +7.5314044952E-003 -1.6695819795E-005 +2.9667280614E-005 +2.0744323730E-002 -7.1857452393E-002
14222500000.000 -4.2388916016E-002 -3.7724304199E-001 +4.0647983551E-003 +6.2470436096E-003 +4.9583613873E-006 +1.1429935694E-004 +4.4044494629E-002 -7.5622558594E-002
14355000000.000 -4.7286987305E-002 -3.7777709961E-001 +6.9458484650E-003 +2.8762817383E-003 +8.6747109890E-005 -9.0822577477E-005 +3.3958435059E-002 -6.8950653076E-002
14487500000.000 -5.0170898438E-002 -3.7831115723E-001 +7.3106288910E-003 -1.6441345215E-003 +8.0276280642E-005 +7.7679753304E-005 +4.1011810303E-002 -3.5833358765E-002
14620000000.000 -5.0872802734E-002 -3.8168334961E-001 +4.9750804901E-003 -5.3989887238E-003 -9.5989555120E-005 +2.9008835554E-005 +6.1357498169E-002 -3.2642364502E-002
14752500000.000 -5.5526733398E-002 -3.8633728027E-001 +9.1314315796E-004 -7.3578357697E-003 +2.4125911295E-005 -1.8129125237E-005 +4.4086456299E-002 -3.2329559326E-002
14885000000.000 -5.7952880859E-002 -3.8729858398E-001 -3.3140182495E-003 -6.4933300018E-003 +3.6064535379E-005 +4.5057386160E-006 +3.7654876709E-002 +1.0795593262E-003
15017500000.000 -5.7388305664E-002 -3.8798522949E-001 -6.2761306763E-003 -3.5359859467E-003 -6.4950436354E-005 +1.1079758406E-004 +5.4056167603E-002 +7.4710845947E-003
15150000000.000 -5.7647705078E-002 -3.9341735840E-001 -7.1852207184E-003 +7.9011917114E-004 -2.8621405363E-005 -4.9483031034E-005 +3.5280227661E-002 -9.6893310547E-004
15282500000.000 -5.9280395508E-002 -3.9648437500E-001 -5.4235458374E-003 +4.6403408051E-003 +4.8177316785E-006 -1.1386349797E-005 +1.5999794006E-002 +2.5004386902E-002
