!  2-Port S-parameters saved by WinCal
! VAR MeasName=S-Parameters (CALIBRATED_DATA) read from VNA (C)
! VAR MeasDate=10/16/2015 3:10:14 PM
! VAR NAME=M6082_10_15_2_2_20C_4.8mA_-17.5dBm
! VAR FILENAME=M6082_10_15_2_2_20C_4.8mA_-17.5dBm.S2P
! VAR DATE=10/16/2015 3:10:14 PM
! VAR PHYS_PORTS=2,1
! VAR ObjTypeName=DATASET
! VAR IndexType=Frequency
!
# Hz S RI R 50
45000000.000 -3.2382965088E-002 -1.9588470459E-003 -1.2834072113E-003 +7.7235698700E-003 -2.8699636459E-004 -1.0278224945E-003 +2.7435302734E-002 +2.7179718018E-003
177500000.000 -3.0816078186E-002 -1.0149955750E-002 +2.7873516083E-003 +7.3070526123E-003 -1.6666948795E-005 +1.4051795006E-004 +1.6106605530E-002 +1.6739845276E-002
310000000.000 -3.0599594116E-002 -1.9489288330E-002 +5.6364536285E-003 +4.4455528259E-003 +1.8042325974E-004 -6.4447522163E-005 +2.8968811035E-002 +6.1578750610E-002
442500000.000 -3.0563354492E-002 -2.9095649719E-002 +8.0485343933E-003 -1.1873245239E-004 +1.5106797218E-004 -6.3776969910E-006 +7.2586059570E-002 +2.2495269775E-002
575000000.000 -3.1148910522E-002 -3.9127349854E-002 +6.2429904938E-003 -4.6527385712E-003 -8.1054866314E-005 +3.1683593988E-005 +2.7140617371E-002 +1.1146545410E-002
707500000.000 -3.2308578491E-002 -4.8105239868E-002 +2.5014877319E-003 -7.1616172791E-003 +2.5930814445E-005 +7.1022659540E-006 +2.0112991333E-003 +1.8641471863E-002
840000000.000 -3.3205032349E-002 -5.7865142822E-002 -2.0301342010E-003 -7.2710514069E-003 +4.4716522098E-005 +2.8554350138E-005 -1.9953727722E-002 +2.6016235352E-002
972500000.000 -3.3969879150E-002 -6.7302703857E-002 -5.6009292603E-003 -4.7810077667E-003 +1.5582889318E-005 -3.7690624595E-005 -3.5839080811E-002 +3.5388946533E-002
1105000000.000 -3.5827636719E-002 -7.6927185059E-002 -7.3423385620E-003 -8.4495544434E-004 -1.9388273358E-005 -5.1101669669E-006 -4.6937942505E-002 +3.8156509399E-002
1237500000.000 -3.7719726563E-002 -8.6048126221E-002 -6.4926147461E-003 +3.3831596375E-003 +2.2435560822E-005 -1.9676983356E-005 -5.8584213257E-002 +3.3847808838E-002
1370000000.000 -3.9989471436E-002 -9.5161437988E-002 -3.3936500549E-003 +6.4179897308E-003 -1.8049031496E-005 +2.3923814297E-005 -7.3986053467E-002 +2.6897430420E-002
1502500000.000 -4.2125701904E-002 -1.0404205322E-001 +7.8892707825E-004 +7.0836544037E-003 -6.7979097366E-005 -3.1188130379E-005 -8.7982177734E-002 +2.1301269531E-002
1635000000.000 -4.3849945068E-002 -1.1342620850E-001 +4.6350955963E-003 +5.4533481598E-003 +3.0942261219E-005 +5.5022537708E-006 -9.9033355713E-002 +1.1699676514E-002
1767500000.000 -4.7031402588E-002 -1.2262725830E-001 +6.9313049316E-003 +1.8942356110E-003 +6.4522027969E-006 +6.1538070440E-005 -1.1187744141E-001 +2.8648376465E-003
1900000000.000 -4.9468994141E-002 -1.3058471680E-001 +6.7889690399E-003 -2.4435520172E-003 -7.4669718742E-005 +3.7774443626E-005 -1.1381149292E-001 -3.5171508789E-003
2032500000.000 -5.2230834961E-002 -1.3877868652E-001 +4.1306018829E-003 -5.6622028351E-003 +5.6168064475E-006 -2.6318244636E-005 -1.1356735229E-001 -2.4398803711E-002
2165000000.000 -5.4878234863E-002 -1.4810943604E-001 +2.1386146545E-004 -7.1220397949E-003 +2.0854175091E-005 +7.9445540905E-005 -1.2250137329E-001 -4.2266845703E-002
2297500000.000 -5.8036804199E-002 -1.5598297119E-001 -3.7860870361E-003 -5.9168338776E-003 -2.8833746910E-005 -1.3646669686E-005 -1.2646484375E-001 -5.3421020508E-002
2430000000.000 -6.1241149902E-002 -1.6336822510E-001 -6.3734054565E-003 -2.7143955231E-003 +4.5292079449E-005 -8.6233019829E-005 -1.2640380859E-001 -6.4842224121E-002
2562500000.000 -6.4529418945E-002 -1.7185974121E-001 -6.7989826202E-003 +1.3251304626E-003 -8.6519867182E-006 -4.3094158173E-005 -1.2502288818E-001 -7.0907592773E-002
2695000000.000 -6.9580078125E-002 -1.7852783203E-001 -4.9209594727E-003 +4.8563480377E-003 -1.7768889666E-004 -2.6367604733E-005 -1.1345672607E-001 -7.3455810547E-002
2827500000.000 -7.4043273926E-002 -1.8447113037E-001 -1.3024806976E-003 +6.6699981689E-003 +7.8056007624E-005 -5.6445598602E-005 -9.8567962646E-002 -8.1642150879E-002
2960000000.000 -7.7102661133E-002 -1.9178009033E-001 +2.6345252991E-003 +6.2661170959E-003 +1.3151019812E-004 -9.5888972282E-006 -8.7890625000E-002 -8.6700439453E-002
3092500000.000 -8.2023620605E-002 -1.9985961914E-001 +5.6846141815E-003 +3.6475658417E-003 +4.4532120228E-005 -3.1329691410E-005 -7.0343017578E-002 -8.5990905762E-002
3225000000.000 -8.8226318359E-002 -2.0655059814E-001 +6.7021846771E-003 -1.3017654419E-004 +4.3790787458E-006 +1.5481375158E-005 -5.2154541016E-002 -9.1060638428E-002
3357500000.000 -9.2773437500E-002 -2.1165466309E-001 +5.3634643555E-003 -3.7925243378E-003 +4.9719586968E-005 +2.1174550056E-005 -4.1213989258E-002 -9.1476440430E-002
3490000000.000 -9.6954345703E-002 -2.1945190430E-001 +2.2821426392E-003 -6.1459541321E-003 +1.1043250561E-004 -7.1477144957E-005 -2.7812957764E-002 -8.3381652832E-002
3622500000.000 -1.0218811035E-001 -2.2688293457E-001 -1.5366077423E-003 -6.4370632172E-003 -5.1178038120E-005 -5.1308423281E-005 -1.1405944824E-002 -7.9288482666E-002
3755000000.000 -1.0812377930E-001 -2.3389434814E-001 -4.9600601196E-003 -4.6155452728E-003 -1.3703480363E-005 -1.5218276531E-005 -5.8784484863E-003 -7.2990417480E-002
3887500000.000 -1.1296081543E-001 -2.3991394043E-001 -6.5569877625E-003 -1.0514259338E-003 -3.7632882595E-005 +1.0897219181E-004 +2.2449493408E-003 -5.5767059326E-002
4020000000.000 -1.1761474609E-001 -2.4583435059E-001 -6.0379505157E-003 +2.8560161591E-003 -7.4442476034E-005 +3.3844262362E-005 +1.3404846191E-002 -4.4370651245E-002
4152500000.000 -1.2220764160E-001 -2.5276184082E-001 -3.4811496735E-003 +5.7449340820E-003 +8.6441636086E-005 -5.2470713854E-005 +1.5249252319E-002 -3.2484054565E-002
4285000000.000 -1.2763977051E-001 -2.5910949707E-001 +5.0020217896E-004 +6.6554546356E-003 +3.9556995034E-005 +6.0200691223E-005 +1.7092704773E-002 -1.3018608093E-002
4417500000.000 -1.3368225098E-001 -2.6464843750E-001 +4.1661262512E-003 +5.2134990692E-003 -5.9410929680E-005 -4.2915344238E-005 +2.5624275208E-002 +3.6115646362E-003
4550000000.000 -1.3775634766E-001 -2.6988220215E-001 +6.1414241791E-003 +1.9550323486E-003 +3.2458454370E-005 -8.3386898041E-005 +2.8893470764E-002 +9.5090866089E-003
4682500000.000 -1.4231872559E-001 -2.7633666992E-001 +6.1876773834E-003 -1.7857551575E-003 +1.2371689081E-005 +2.1635554731E-005 +2.5501251221E-002 +2.0655632019E-002
4815000000.000 -1.4805603027E-001 -2.8216552734E-001 +4.2245388031E-003 -4.7931671143E-003 +1.5273690224E-005 +4.8642978072E-005 +3.1149864197E-002 +2.7326583862E-002
4947500000.000 -1.5261840820E-001 -2.8694152832E-001 +7.9154968262E-004 -6.4435005188E-003 -9.8068267107E-006 -5.4003670812E-005 +2.7490615845E-002 +1.9865036011E-002
5080000000.000 -1.5635681152E-001 -2.9246520996E-001 -2.8989315033E-003 -5.8510303497E-003 -2.2986903787E-005 +3.9342790842E-005 +1.3222694397E-002 +2.0572662354E-002
5212500000.000 -1.6127014160E-001 -2.9798889160E-001 -5.7125091553E-003 -3.2250881195E-003 -3.5105273128E-005 +2.3532658815E-005 +9.1409683228E-003 +2.4758338928E-002
5345000000.000 -1.6659545898E-001 -3.0220031738E-001 -6.6158771515E-003 +6.2823295593E-004 -2.5217421353E-005 -2.0420178771E-005 +5.3682327271E-003 +1.6183853149E-002
5477500000.000 -1.6973876953E-001 -3.0590820313E-001 -5.2037239075E-003 +4.2355060577E-003 +6.3452869654E-005 -5.9437006712E-005 -9.2444419861E-003 +1.0324478149E-002
5610000000.000 -1.7376708984E-001 -3.1117248535E-001 -1.9340515137E-003 +6.4043998718E-003 +1.7404556274E-005 +4.6622008085E-005 -1.4943122864E-002 +1.4420032501E-002
5742500000.000 -1.7921447754E-001 -3.1503295898E-001 +2.1014213562E-003 +6.3955783844E-003 -4.4470652938E-006 -2.7836300433E-005 -1.1538028717E-002 +5.9208869934E-003
5875000000.000 -1.8426513672E-001 -3.1687927246E-001 +5.3234100342E-003 +4.0910243988E-003 -1.1823605746E-005 +4.0936283767E-006 -2.0317077637E-002 -3.3903121948E-003
6007500000.000 -1.8797302246E-001 -3.2008361816E-001 +6.7310333252E-003 +3.8051605225E-004 -9.5404684544E-006 +2.8238631785E-005 -2.3233413696E-002 +8.2015991211E-005
6140000000.000 -1.9264221191E-001 -3.2469177246E-001 +5.7969093323E-003 -3.5002231598E-003 -2.6687979698E-005 -2.4867244065E-005 -1.5387535095E-002 -2.9430389404E-003
6272500000.000 -1.9970703125E-001 -3.2759094238E-001 +2.7670860291E-003 -6.1986446381E-003 +2.0394101739E-005 -3.7997961044E-005 -1.6555786133E-002 -1.1935234070E-002
6405000000.000 -2.0570373535E-001 -3.2838439941E-001 -1.2180805206E-003 -6.7138671875E-003 -2.2575259209E-006 +1.1081341654E-005 -1.9279479980E-002 -6.3257217407E-003
6537500000.000 -2.0889282227E-001 -3.3192443848E-001 -4.7585964203E-003 -4.7979354858E-003 -3.2041221857E-005 +4.2114406824E-006 -9.2282295227E-003 -3.3354759216E-003
6670000000.000 -2.1427917480E-001 -3.3706665039E-001 -6.5903663635E-003 -1.2724399567E-003 -8.2142651081E-006 -4.2529776692E-005 -7.8821182251E-003 -7.3466300964E-003
6802500000.000 -2.2235107422E-001 -3.3970642090E-001 -6.0961246490E-003 +2.5928020477E-003 +3.7075951695E-005 +2.9467046261E-005 -1.1432647705E-002 +1.3160705566E-004
6935000000.000 -2.2760009766E-001 -3.4001159668E-001 -3.5583972931E-003 +5.6698322296E-003 -3.9953738451E-005 +2.2871419787E-005 -6.3118934631E-003 +9.9053382874E-003
7067500000.000 -2.3014831543E-001 -3.4332275391E-001 +1.8739700317E-004 +6.6475868225E-003 -4.0657818317E-005 +5.7350844145E-006 -4.5466423035E-003 +1.0166168213E-002
7200000000.000 -2.3614501953E-001 -3.4826660156E-001 +3.8378238678E-003 +5.3586959839E-003 +3.4106895328E-005 -8.7153166533E-006 -1.5048980713E-002 +1.6958236694E-002
7332500000.000 -2.4368286133E-001 -3.4999084473E-001 +6.2520503998E-003 +2.2265911102E-003 -4.6901404858E-006 +3.6196783185E-005 -1.7188072205E-002 +3.0777931213E-002
7465000000.000 -2.4807739258E-001 -3.5145568848E-001 +6.4852237701E-003 -1.5861988068E-003 +2.5778077543E-005 +2.8261914849E-005 -1.9805908203E-002 +3.1255722046E-002
7597500000.000 -2.5189208984E-001 -3.5513305664E-001 +4.4486522675E-003 -4.9438476563E-003 +2.1023675799E-005 -3.9551407099E-005 -3.6293029785E-002 +3.3258438110E-002
7730000000.000 -2.5770568848E-001 -3.5963439941E-001 +7.9369544983E-004 -6.5207481384E-003 -2.9889866710E-005 +5.5398792028E-005 -4.8351287842E-002 +4.3638229370E-002
7862500000.000 -2.6303100586E-001 -3.6180114746E-001 -2.9740333557E-003 -5.8612823486E-003 -6.0036778450E-005 -4.6309083700E-005 -5.3705215454E-002 +4.2736053467E-002
7995000000.000 -2.6651000977E-001 -3.6410522461E-001 -5.7334899902E-003 -3.2536983490E-003 +6.0545280576E-005 -4.2928382754E-005 -7.2830200195E-002 +3.5148620605E-002
8127500000.000 -2.7000427246E-001 -3.6906433105E-001 -6.5577030182E-003 +6.0582160950E-004 -2.6691704988E-006 -8.8233500719E-006 -9.1430664063E-002 +3.9707183838E-002
8260000000.000 -2.7584838867E-001 -3.7164306641E-001 -5.1352977753E-003 +4.0996074677E-003 -7.0698559284E-005 +1.2964010239E-006 -9.5603942871E-002 +3.4450531006E-002
8392500000.000 -2.7877807617E-001 -3.7368774414E-001 -1.9359588623E-003 +6.3099861145E-003 +2.7637928724E-005 -6.6317617893E-005 -1.0970306396E-001 +1.8493652344E-002
8525000000.000 -2.8086853027E-001 -3.7690734863E-001 +1.8959045410E-003 +6.3812732697E-003 +4.3144449592E-005 +5.4258853197E-006 -1.2186431885E-001 +1.4938354492E-002
8657500000.000 -2.8448486328E-001 -3.8029479980E-001 +5.2635669708E-003 +4.1511058807E-003 -3.1556934118E-005 +6.5412372351E-005 -1.1782073975E-001 +4.1809082031E-003
8790000000.000 -2.8924560547E-001 -3.8285827637E-001 +6.7083835602E-003 +3.6573410034E-004 +3.2618641853E-005 +1.9440427423E-005 -1.1962890625E-001 -1.7375946045E-002
8922500000.000 -2.9193115234E-001 -3.8319396973E-001 +5.7570934296E-003 -3.3531188965E-003 -1.4171469957E-005 -3.5353004932E-006 -1.2223815918E-001 -3.0582427979E-002
9055000000.000 -2.9481506348E-001 -3.8592529297E-001 +2.8567314148E-003 -6.0813426971E-003 -1.4987774193E-005 +2.9086135328E-005 -1.1094284058E-001 -4.4124603271E-002
9187500000.000 -2.9849243164E-001 -3.8810729980E-001 -1.0514259338E-003 -6.7026615143E-003 -4.4966116548E-005 +1.2431293726E-005 -1.0010147095E-001 -6.6894531250E-002
9320000000.000 -3.0473327637E-001 -3.8801574707E-001 -4.6679973602E-003 -4.8792362213E-003 +7.5094401836E-005 -4.9345195293E-005 -9.3673706055E-002 -7.9532623291E-002
9452500000.000 -3.0813598633E-001 -3.8841247559E-001 -6.6480636597E-003 -1.4123916626E-003 +3.7997961044E-006 -1.8137507141E-005 -7.4207305908E-002 -8.6643218994E-002
9585000000.000 -3.1188964844E-001 -3.9013671875E-001 -6.3166618347E-003 +2.6457309723E-003 +5.2582472563E-006 -2.4812296033E-005 -5.4210662842E-002 -1.0118484497E-001
9717500000.000 -3.1777954102E-001 -3.9256286621E-001 -3.6489963531E-003 +5.7599544525E-003 -4.1685998440E-005 -1.4277175069E-005 -4.1233062744E-002 -1.0708618164E-001
9850000000.000 -3.2426452637E-001 -3.9079284668E-001 +1.8644332886E-004 +6.8113803864E-003 +4.3159350753E-005 +5.6773424149E-006 -1.9035339355E-002 -1.0227584839E-001
9982500000.000 -3.2621765137E-001 -3.9239501953E-001 +4.0254592896E-003 +5.5136680603E-003 -3.4831464291E-005 +1.0805204511E-005 +6.5078735352E-003 -1.0318756104E-001
10115000000.000 -3.3032226563E-001 -3.9476013184E-001 +6.5290927887E-003 +2.1624565125E-003 +7.2646886110E-005 -7.3984265327E-006 +1.9367218018E-002 -9.9075317383E-002
10247500000.000 -3.3731079102E-001 -3.9541625977E-001 +6.6413879395E-003 -1.8794536591E-003 -2.6755034924E-005 +3.4663826227E-005 +3.5564422607E-002 -8.0055236816E-002
10380000000.000 -3.4150695801E-001 -3.9486694336E-001 +4.3649673462E-003 -5.2633285522E-003 -1.8659979105E-005 +8.7589025497E-005 +5.6991577148E-002 -6.7417144775E-002
10512500000.000 -3.4497070313E-001 -3.9552307129E-001 +6.0439109802E-004 -6.8457126617E-003 -1.5852972865E-005 +7.9069286585E-007 +6.2744140625E-002 -5.5950164795E-002
10645000000.000 -3.4931945801E-001 -3.9689636230E-001 -3.2455921173E-003 -6.0055255890E-003 +3.7850812078E-005 +1.6743317246E-005 +6.6158294678E-002 -2.9201507568E-002
10777500000.000 -3.5472106934E-001 -3.9819335938E-001 -6.1137676239E-003 -3.1127929688E-003 -4.4293701649E-005 +3.3820047975E-005 +7.6976776123E-002 -7.8010559082E-003
10910000000.000 -3.5975646973E-001 -3.9846801758E-001 -6.8919658661E-003 +1.0311603546E-003 -6.0908496380E-006 -2.2831372917E-005 +7.2341918945E-002 +5.6762695313E-003
11042500000.000 -3.6456298828E-001 -3.9932250977E-001 -5.0001144409E-003 +4.6477317810E-003 +6.8206340075E-005 +1.7628073692E-005 +5.9551239014E-002 +3.1234741211E-002
11175000000.000 -3.6822509766E-001 -4.0170288086E-001 -1.5366077423E-003 +6.6435337067E-003 +1.3113021851E-005 +3.1368806958E-005 +5.6421279907E-002 +5.2349090576E-002
11307500000.000 -3.7164306641E-001 -4.0275573730E-001 +2.6214122772E-003 +6.3378810883E-003 -4.8229470849E-005 -4.1546300054E-005 +4.3437957764E-002 +5.8599472046E-002
11440000000.000 -3.7681579590E-001 -4.0396118164E-001 +5.7849884033E-003 +3.6833286285E-003 +5.1576644182E-006 -4.3535605073E-005 +1.8138885498E-002 +7.2044372559E-002
11572500000.000 -3.7889099121E-001 -4.0644836426E-001 +6.8457126617E-003 -1.8596649170E-004 +5.5041164160E-005 -6.8843364716E-006 +4.2953491211E-003 +8.7287902832E-002
11705000000.000 -3.8162231445E-001 -4.0798950195E-001 +5.4435729980E-003 -4.1422843933E-003 -4.9147754908E-005 +1.5716999769E-005 -1.0280609131E-002 +8.0844879150E-002
11837500000.000 -3.8591003418E-001 -4.0927124023E-001 +2.1402835846E-003 -6.4547061920E-003 +4.8628076911E-005 -2.2249296308E-005 -4.3342590332E-002 +7.6519012451E-002
11970000000.000 -3.8777160645E-001 -4.0878295898E-001 -1.8990039825E-003 -6.5324306488E-003 +7.2062015533E-005 +2.6475638151E-005 -5.9581756592E-002 +8.3076477051E-002
12102500000.000 -3.8812255859E-001 -4.1036987305E-001 -5.2516460419E-003 -4.2734146118E-003 -4.9702823162E-005 -1.5586614609E-005 -6.5567016602E-002 +6.4289093018E-002
12235000000.000 -3.9418029785E-001 -4.1014099121E-001 -6.7772865295E-003 -4.8494338989E-004 -2.4178065360E-005 -1.3946555555E-005 -9.2975616455E-002 +4.3869018555E-002
12367500000.000 -3.9529418945E-001 -4.0951538086E-001 -5.8135986328E-003 +3.4379959106E-003 +9.7408890724E-005 +7.0109963417E-006 -1.0560989380E-001 +4.2430877686E-002
12500000000.000 -3.9936828613E-001 -4.0811157227E-001 -2.7089118958E-003 +6.2620639801E-003 +5.0759408623E-006 -8.4470957518E-007 -9.7438812256E-002 +2.0351409912E-002
12632500000.000 -4.0194702148E-001 -4.0965270996E-001 +1.2462139130E-003 +6.6053867340E-003 -3.1117349863E-005 -1.7255544662E-005 -1.0913085938E-001 -1.3607025146E-002
12765000000.000 -4.0530395508E-001 -4.0904235840E-001 +4.7338008881E-003 +4.7545433044E-003 +6.1012804508E-005 -3.7893652916E-005 -1.1719512939E-001 -1.8222808838E-002
12897500000.000 -4.0829467773E-001 -4.0719604492E-001 +6.5550804138E-003 +1.1174678802E-003 -5.1118433475E-005 +3.7502497435E-005 -9.2342376709E-002 -3.4603118896E-002
13030000000.000 -4.1090393066E-001 -4.0692138672E-001 +5.8653354645E-003 -2.8059482574E-003 +1.8818303943E-005 -2.8619542718E-006 -8.9214324951E-002 -7.0899963379E-002
13162500000.000 -4.1361999512E-001 -4.0763854980E-001 +3.3092498779E-003 -5.6045055389E-003 +6.4950436354E-005 -7.3686242104E-006 -9.1323852539E-002 -7.2807312012E-002
13295000000.000 -4.1661071777E-001 -4.0774536133E-001 -5.7268142700E-004 -6.4685344696E-003 -2.0237639546E-005 +1.8761493266E-005 -6.1103820801E-002 -7.8834533691E-002
13427500000.000 -4.2047119141E-001 -4.0557861328E-001 -4.1429996490E-003 -4.9698352814E-003 -1.2446194887E-005 +1.2704636902E-005 -4.6607971191E-002 -1.0394668579E-001
13560000000.000 -4.2109680176E-001 -4.0487670898E-001 -6.1466693878E-003 -1.6970634460E-003 +4.8855319619E-005 -9.3933194876E-006 -4.6257019043E-002 -1.0129547119E-001
13692500000.000 -4.2367553711E-001 -4.0611267090E-001 -5.9778690338E-003 +2.0706653595E-003 -7.8003853559E-005 +5.7071447372E-006 -1.7742156982E-002 -8.9214324951E-002
13825000000.000 -4.2825317383E-001 -4.0579223633E-001 -3.6747455597E-003 +5.1767826080E-003 -4.1784718633E-005 +4.9946829677E-005 +4.3411254883E-003 -1.0296249390E-001
13957500000.000 -4.3145751953E-001 -4.0304565430E-001 +9.0599060059E-006 +6.1953067780E-003 +2.7488917112E-005 -7.2389841080E-005 -8.3923339844E-005 -9.5378875732E-002
14090000000.000 -4.3283081055E-001 -4.0260314941E-001 +3.5417079926E-003 +5.1414966583E-003 -1.1300668120E-005 +2.5148503482E-005 +2.2109985352E-002 -7.0209503174E-002
14222500000.000 -4.3441772461E-001 -4.0505981445E-001 +5.6879520416E-003 +2.0923614502E-003 +1.6876496375E-005 +2.1406449378E-005 +4.3994903564E-002 -7.4184417725E-002
14355000000.000 -4.3994140625E-001 -4.0458679199E-001 +5.8689117432E-003 -1.5070438385E-003 +3.2313168049E-005 -6.4790248871E-005 +3.3115386963E-002 -6.7024230957E-002
14487500000.000 -4.4241333008E-001 -4.0403747559E-001 +3.7994384766E-003 -4.4114589691E-003 +5.4547563195E-005 +4.0253624320E-005 +4.0189743042E-002 -3.3872604370E-002
14620000000.000 -4.4250488281E-001 -4.0486145020E-001 +7.0643424988E-004 -5.8081150055E-003 -1.7881393433E-005 +4.8175454140E-005 +6.0819625854E-002 -3.1433105469E-002
14752500000.000 -4.4567871094E-001 -4.0919494629E-001 -2.7160644531E-003 -5.0196647644E-003 -1.3973563910E-005 -1.0259822011E-004 +4.3094635010E-002 -3.2424926758E-002
14885000000.000 -4.4865417480E-001 -4.1018676758E-001 -5.0883293152E-003 -2.5119781494E-003 +6.3885003328E-005 -8.1688165665E-005 +3.5333633423E-002 +1.6498565674E-003
15017500000.000 -4.4912719727E-001 -4.1076660156E-001 -5.4302215576E-003 +8.3136558533E-004 -6.2782317400E-005 +2.3018568754E-005 +5.2982330322E-002 +8.8138580322E-003
15150000000.000 -4.5002746582E-001 -4.1403198242E-001 -3.9815902710E-003 +3.7140846252E-003 -8.0030411482E-005 +1.1060386896E-005 +3.5106658936E-002 -1.6288757324E-003
15282500000.000 -4.5088195801E-001 -4.1600036621E-001 -1.1818408966E-003 +5.3207874298E-003 +8.7991356850E-005 -3.9406120777E-005 +1.4454841614E-002 +2.3108482361E-002
