!  2-Port S-parameters saved by WinCal
! VAR MeasName=S-Parameters (CALIBRATED_DATA) read from VNA (C)
! VAR MeasDate=10/16/2015 1:59:22 PM
! VAR NAME=M6082_13_17_2_2_20C_12.9mA_-17.5dBm
! VAR FILENAME=M6082_13_17_2_2_20C_12.9mA_-17.5dBm.S2P
! VAR DATE=10/16/2015 1:59:22 PM
! VAR PHYS_PORTS=2,1
! VAR ObjTypeName=DATASET
! VAR IndexType=Frequency
!
# Hz S RI R 50
45000000.000 -1.2307739258E-001 +5.0735473633E-004 -1.0547637939E-003 +6.5517425537E-003 +7.2151422501E-005 -7.6362490654E-004 +2.6991844177E-002 +4.3516159058E-003
177500000.000 -1.2165069580E-001 -4.3525695801E-003 +2.1681785583E-003 +5.8712959290E-003 +9.8139047623E-005 +2.0653754473E-004 +1.5867233276E-002 +1.6897201538E-002
310000000.000 -1.2108612061E-001 -8.5906982422E-003 +4.7147274017E-003 +4.1568279266E-003 -8.2492828369E-005 +1.6465783119E-005 +2.9104232788E-002 +6.1614990234E-002
442500000.000 -1.2074279785E-001 -1.2836456299E-002 +6.9537162781E-003 +1.5974044800E-004 -1.3331882656E-006 +1.0371208191E-005 +7.2711944580E-002 +2.2705078125E-002
575000000.000 -1.2080383301E-001 -1.7963409424E-002 +5.2087306976E-003 -3.6602020264E-003 +4.7322362661E-005 +3.6913901567E-005 +2.7147293091E-002 +1.1290550232E-002
707500000.000 -1.2108993530E-001 -2.1961212158E-002 +2.2537708282E-003 -5.9707164764E-003 -3.4146010876E-005 -2.0936131477E-006 +2.0656585693E-003 +1.8743515015E-002
840000000.000 -1.2067031860E-001 -2.6992797852E-002 -1.2962818146E-003 -6.0813426971E-003 -5.6231394410E-005 -1.6573816538E-005 -1.9890785217E-002 +2.5986671448E-002
972500000.000 -1.2044906616E-001 -3.1749725342E-002 -4.4925212860E-003 -4.2154788971E-003 -5.2671879530E-005 -5.3865835071E-005 -3.5800933838E-002 +3.5520553589E-002
1105000000.000 -1.2080383301E-001 -3.6716461182E-002 -6.1321258545E-003 -1.0089874268E-003 -4.2943283916E-005 +4.8670917749E-006 -4.6895980835E-002 +3.8164138794E-002
1237500000.000 -1.2128067017E-001 -4.1061401367E-002 -5.5937767029E-003 +2.5792121887E-003 +5.2576884627E-005 +3.2763928175E-006 -5.8628082275E-002 +3.3872604370E-002
1370000000.000 -1.2189483643E-001 -4.5516967773E-002 -3.2594203949E-003 +5.0425529480E-003 +1.8192455173E-005 +1.9516795874E-005 -7.4005126953E-002 +2.7061462402E-002
1502500000.000 -1.2196731567E-001 -4.9964904785E-002 +3.2067298889E-004 +6.1094760895E-003 -4.4301152229E-005 -7.7717006207E-005 -8.8085174561E-002 +2.1392822266E-002
1635000000.000 -1.2189483643E-001 -5.5194854736E-002 +3.6814212799E-003 +4.9483776093E-003 +2.0166859031E-005 +1.0848045349E-005 -9.9040985107E-002 +1.1745452881E-002
1767500000.000 -1.2268066406E-001 -5.9791564941E-002 +5.7151317596E-003 +2.1462440491E-003 -5.2649993449E-006 -5.3851399571E-006 -1.1187744141E-001 +2.9602050781E-003
1900000000.000 -1.2279891968E-001 -6.3858032227E-002 +6.0031414032E-003 -1.6241073608E-003 -4.2552128434E-005 +2.3642554879E-005 -1.1381149292E-001 -3.3798217773E-003
2032500000.000 -1.2329483032E-001 -6.7966461182E-002 +3.8890838623E-003 -4.4846534729E-003 +4.4122338295E-005 -1.0223686695E-004 -1.1368179321E-001 -2.4295806885E-002
2165000000.000 -1.2327575684E-001 -7.3123931885E-002 +7.4338912964E-004 -5.9745311737E-003 +1.9488856196E-005 +5.0932168961E-005 -1.2248992920E-001 -4.2285919189E-002
2297500000.000 -1.2380599976E-001 -7.7049255371E-002 -2.5408267975E-003 -5.3896903992E-003 +6.5803527832E-005 +4.4282525778E-005 -1.2661743164E-001 -5.3466796875E-002
2430000000.000 -1.2414932251E-001 -8.1237792969E-002 -5.2952766418E-003 -2.9625892639E-003 -1.5992671251E-005 -3.3887103200E-005 -1.2651824951E-001 -6.4903259277E-002
2562500000.000 -1.2496185303E-001 -8.6078643799E-002 -5.7232379913E-003 +2.6178359985E-004 +2.1141022444E-005 +4.0089711547E-005 -1.2510681152E-001 -7.0823669434E-002
2695000000.000 -1.2679290771E-001 -8.9347839355E-002 -4.6076774597E-003 +3.6411285400E-003 +7.3228031397E-005 -6.3009560108E-005 -1.1359405518E-001 -7.3348999023E-002
2827500000.000 -1.2789916992E-001 -9.2147827148E-002 -1.5447139740E-003 +5.7024955750E-003 -6.1094760895E-005 -5.8483332396E-005 -9.8506927490E-002 -8.1630706787E-002
2960000000.000 -1.2814331055E-001 -9.6107482910E-002 +1.6741752625E-003 +5.6576728821E-003 +9.7680836916E-005 -1.3470649719E-005 -8.8157653809E-002 -8.6711883545E-002
3092500000.000 -1.2988281250E-001 -1.0115814209E-001 +4.3885707855E-003 +3.7944316864E-003 -2.7551315725E-005 +7.1208924055E-006 -7.0453643799E-002 -8.6013793945E-002
3225000000.000 -1.3262939453E-001 -1.0487365723E-001 +5.8796405792E-003 +6.2823295593E-004 -2.4372711778E-006 +1.1712312698E-005 -5.2116394043E-002 -9.1094970703E-002
3357500000.000 -1.3405609131E-001 -1.0743713379E-001 +5.1944255829E-003 -2.5904178619E-003 +5.2565708756E-005 +3.7636607885E-005 -4.1419982910E-002 -9.1472625732E-002
3490000000.000 -1.3492584229E-001 -1.1252593994E-001 +2.7916431427E-003 -4.9538612366E-003 -8.2783401012E-005 +2.3778527975E-005 -2.7942657471E-002 -8.3377838135E-002
3622500000.000 -1.3655090332E-001 -1.1755371094E-001 -3.9386749268E-004 -5.7406425476E-003 -9.1873109341E-005 -1.0210275650E-004 -1.1524200439E-002 -7.9074859619E-002
3755000000.000 -1.3905334473E-001 -1.2229156494E-001 -3.7114620209E-003 -4.5764446259E-003 +6.9193542004E-005 -3.8757920265E-005 -5.9661865234E-003 -7.2864532471E-002
3887500000.000 -1.4048767090E-001 -1.2599182129E-001 -5.5730342865E-003 -1.9342899323E-003 +1.2344866991E-004 +1.1296570301E-004 +2.3040771484E-003 -5.5942535400E-002
4020000000.000 -1.4172363281E-001 -1.2991333008E-001 -5.6064128876E-003 +1.7416477203E-003 -8.5819512606E-005 -5.9939920902E-005 +1.3389587402E-002 -4.4361114502E-002
4152500000.000 -1.4289093018E-001 -1.3492584229E-001 -3.7691593170E-003 +4.4775009155E-003 +7.0322304964E-005 -2.6032328606E-005 +1.5203475952E-002 -3.2566070557E-002
4285000000.000 -1.4484405518E-001 -1.3944244385E-001 -4.0340423584E-004 +5.7086944580E-003 +9.2390924692E-005 +1.6789883375E-005 +1.7084121704E-002 -1.3143539429E-002
4417500000.000 -1.4721679688E-001 -1.4334869385E-001 +2.7580261230E-003 +4.9927234650E-003 -5.6745484471E-005 +2.9832124710E-005 +2.5641441345E-002 +3.5905838013E-003
4550000000.000 -1.4776611328E-001 -1.4702606201E-001 +5.0127506256E-003 +2.6507377625E-003 -2.0528212190E-005 -4.0441751480E-005 +2.9026985168E-002 +9.5071792603E-003
4682500000.000 -1.4898681641E-001 -1.5208435059E-001 +5.5675506592E-003 -5.3119659424E-004 +5.4899603128E-005 -8.3055347204E-006 +2.5652885437E-002 +2.0573616028E-002
4815000000.000 -1.5119171143E-001 -1.5658569336E-001 +4.3888092041E-003 -3.4329891205E-003 -5.4523348808E-005 +3.5017728806E-005 +3.1133651733E-002 +2.7325630188E-002
4947500000.000 -1.5213775635E-001 -1.6004943848E-001 +1.6145706177E-003 -5.2537918091E-003 -1.6361474991E-005 -8.7060034275E-005 +2.7701377869E-002 +1.9749641418E-002
5080000000.000 -1.5248107910E-001 -1.6446685791E-001 -1.5563964844E-003 -5.3148269653E-003 +4.1471794248E-005 +5.3048133850E-006 +1.3474464417E-002 +2.0383834839E-002
5212500000.000 -1.5400695801E-001 -1.6895294189E-001 -4.3585300446E-003 -3.7219524384E-003 -1.9252300262E-005 +5.7313591242E-006 +9.2506408691E-003 +2.4619102478E-002
5345000000.000 -1.5590667725E-001 -1.7214202881E-001 -5.6381225586E-003 -6.2203407288E-004 -8.8799744844E-005 -1.1179596186E-004 +5.6762695313E-003 +1.6155242920E-002
5477500000.000 -1.5557861328E-001 -1.7517852783E-001 -5.2101612091E-003 +2.7115345001E-003 +8.5476785898E-005 -4.5448541641E-006 -9.0236663818E-003 +1.0209560394E-002
5610000000.000 -1.5632629395E-001 -1.7971038818E-001 -2.6361942291E-003 +5.1417350769E-003 +3.2328069210E-005 +7.2568655014E-005 -1.4679431915E-002 +1.4509201050E-002
5742500000.000 -1.5845489502E-001 -1.8277740479E-001 +6.4015388489E-004 +5.8453083038E-003 +1.8440186977E-005 -3.0525028706E-005 -1.1356830597E-002 +5.9194564819E-003
5875000000.000 -1.6015625000E-001 -1.8408203125E-001 +3.8013458252E-003 +4.3730735779E-003 +1.9323080778E-005 -3.1663104892E-005 -2.0072937012E-002 -3.3779144287E-003
6007500000.000 -1.6035461426E-001 -1.8689727783E-001 +5.6173801422E-003 +1.6410350800E-003 +1.3135373592E-005 +4.7307461500E-005 -2.3148536682E-002 +1.7738342285E-004
6140000000.000 -1.6189575195E-001 -1.9116210938E-001 +5.5005550385E-003 -1.8472671509E-003 -1.4590565115E-005 +1.3840850443E-005 -1.5297412872E-002 -2.8367042542E-003
6272500000.000 -1.6569519043E-001 -1.9391632080E-001 +3.4475326538E-003 -4.6155452728E-003 +1.0978430510E-005 -2.6400201023E-005 -1.6341209412E-002 -1.1775016785E-002
6405000000.000 -1.6812896729E-001 -1.9440460205E-001 +3.2663345337E-004 -5.6548118591E-003 +1.5435740352E-005 +1.1019408703E-005 -1.9297599792E-002 -6.2694549561E-003
6537500000.000 -1.6829681396E-001 -1.9751739502E-001 -2.9754638672E-003 -4.8480033875E-003 +5.0757080317E-006 +3.8759782910E-005 -9.1905593872E-003 -3.2577514648E-003
6670000000.000 -1.7057800293E-001 -2.0285034180E-001 -5.1593780518E-003 -2.4352073669E-003 -2.3636966944E-005 -4.4513493776E-005 -7.8220367432E-003 -7.2493553162E-003
6802500000.000 -1.7536163330E-001 -2.0570373535E-001 -5.5146217346E-003 +8.9931488037E-004 +4.9520283937E-005 -1.7471611500E-006 -1.1447906494E-002 +1.9121170044E-004
6935000000.000 -1.7759704590E-001 -2.0600891113E-001 -4.1315555573E-003 +3.8738250732E-003 +1.9915401936E-005 +3.6481767893E-005 -6.3552856445E-003 +9.9353790283E-003
7067500000.000 -1.7739105225E-001 -2.0960235596E-001 -1.3308525085E-003 +5.5112838745E-003 +3.4714117646E-005 -3.3689662814E-005 -4.6248435974E-003 +1.0270595551E-002
7200000000.000 -1.8049621582E-001 -2.1500396729E-001 +2.0320415497E-003 +5.2523612976E-003 +1.2777745724E-006 -5.7492405176E-005 -1.5096664429E-002 +1.7060279846E-002
7332500000.000 -1.8508148193E-001 -2.1731567383E-001 +4.5044422150E-003 +3.1909942627E-003 -5.4936856031E-005 +1.5730038285E-005 -1.7102241516E-002 +3.0624389648E-002
7465000000.000 -1.8669128418E-001 -2.1906280518E-001 +5.5243968964E-003 +1.8334388733E-004 -5.4096803069E-005 +1.1902302504E-005 -1.9844055176E-002 +3.1259536743E-002
7597500000.000 -1.8791198730E-001 -2.2348785400E-001 +4.6648979187E-003 -2.9919147491E-003 +2.3049302399E-005 +6.6803768277E-006 -3.6289215088E-002 +3.3325195313E-002
7730000000.000 -1.9090270996E-001 -2.2831726074E-001 +2.1817684174E-003 -5.0826072693E-003 -4.5720487833E-005 +2.2100284696E-005 -4.8223495483E-002 +4.3695449829E-002
7862500000.000 -1.9350433350E-001 -2.3127746582E-001 -9.1290473938E-004 -5.4216384888E-003 -4.6188011765E-005 +9.3095004559E-006 -5.3709030151E-002 +4.2636871338E-002
7995000000.000 -1.9435882568E-001 -2.3403167725E-001 -3.6885738373E-003 -3.9389133453E-003 +6.8303197622E-005 -7.1614980698E-005 -7.2937011719E-002 +3.5125732422E-002
8127500000.000 -1.9570922852E-001 -2.3961639404E-001 -5.4399967194E-003 -1.1229515076E-003 -1.6555190086E-005 +2.5932677090E-005 -9.1331481934E-002 +3.9878845215E-002
8260000000.000 -1.9882202148E-001 -2.4282073975E-001 -5.1765441895E-003 +2.0744800568E-003 -4.7381967306E-005 -5.3662806749E-005 -9.5550537109E-002 +3.4385681152E-002
8392500000.000 -1.9933319092E-001 -2.4566650391E-001 -3.0684471130E-003 +4.5680999756E-003 -3.6768615246E-005 -6.3531100750E-005 -1.0977172852E-001 +1.8516540527E-002
8525000000.000 -1.9946289063E-001 -2.4926757813E-001 -9.0360641479E-005 +5.4483413696E-003 +7.0676207542E-005 +3.4838914871E-005 -1.2194442749E-001 +1.5110015869E-002
8657500000.000 -2.0065307617E-001 -2.5338745117E-001 +3.0441284180E-003 +4.5828819275E-003 -1.2403354049E-005 +1.5444122255E-005 -1.1779785156E-001 +4.3869018555E-003
8790000000.000 -2.0286560059E-001 -2.5677490234E-001 +5.1350593567E-003 +2.1014213562E-003 +1.2373551726E-005 -4.7486275434E-005 -1.1957931519E-001 -1.7429351807E-002
8922500000.000 -2.0362854004E-001 -2.5796508789E-001 +5.3703784943E-003 -1.0564327240E-003 +4.4956803322E-005 -1.6389414668E-005 -1.2231826782E-001 -3.0498504639E-002
9055000000.000 -2.0405578613E-001 -2.6141357422E-001 +3.9131641388E-003 -3.8857460022E-003 +8.2235783339E-007 +2.1218322217E-005 -1.1100769043E-001 -4.3933868408E-002
9187500000.000 -2.0555114746E-001 -2.6402282715E-001 +1.0502338409E-003 -5.4273605347E-003 -9.1511756182E-006 -3.8612633944E-005 -1.0017776489E-001 -6.6730499268E-002
9320000000.000 -2.0912170410E-001 -2.6516723633E-001 -2.1901130676E-003 -5.1000118256E-003 +4.5407563448E-005 -6.0647726059E-006 -9.3750000000E-002 -7.9387664795E-002
9452500000.000 -2.1029663086E-001 -2.6652526855E-001 -4.6465396881E-003 -2.9578208923E-003 -1.8281862140E-005 +4.7398731112E-005 -7.4333190918E-002 -8.6563110352E-002
9585000000.000 -2.1173095703E-001 -2.6882934570E-001 -5.5389404297E-003 +1.1539459229E-004 -2.9332935810E-005 -6.6928565502E-005 -5.4393768311E-002 -1.0113525391E-001
9717500000.000 -2.1557617188E-001 -2.7232360840E-001 -4.4507980347E-003 +3.1409263611E-003 +1.3007782400E-005 -1.4690216631E-005 -4.1442871094E-002 -1.0694503784E-001
9850000000.000 -2.1946716309E-001 -2.7198791504E-001 -1.9237995148E-003 +5.1164627075E-003 +3.1240284443E-005 +2.9081478715E-005 -1.9309997559E-002 -1.0220718384E-001
9982500000.000 -2.1983337402E-001 -2.7438354492E-001 +1.2340545654E-003 +5.2430629730E-003 -6.8835914135E-005 -2.8274953365E-006 +6.1950683594E-003 -1.0336685181E-001
10115000000.000 -2.2230529785E-001 -2.7774047852E-001 +4.0051937103E-003 +3.7066936493E-003 -4.1667371988E-006 -4.6893954277E-005 +1.8985748291E-002 -9.9086761475E-002
10247500000.000 -2.2703552246E-001 -2.7964782715E-001 +5.3560733795E-003 +7.7104568481E-004 +7.6558440924E-005 +4.3507665396E-005 +3.5533905029E-002 -8.0112457275E-002
10380000000.000 -2.2929382324E-001 -2.8060913086E-001 +4.9583911896E-003 -2.2351741791E-003 -5.3754076362E-005 +2.8667971492E-005 +5.6892395020E-002 -6.7821502686E-002
10512500000.000 -2.3130798340E-001 -2.8273010254E-001 +2.8259754181E-003 -4.6405792236E-003 -2.3033469915E-005 +2.5229528546E-006 +6.2511444092E-002 -5.6163787842E-002
10645000000.000 -2.3382568359E-001 -2.8523254395E-001 -2.1958351135E-004 -5.4280757904E-003 +5.1917508245E-005 +7.8193843365E-006 +6.5937042236E-002 -2.9369354248E-002
10777500000.000 -2.3730468750E-001 -2.8765869141E-001 -3.2033920288E-003 -4.3179988861E-003 -1.2869946659E-005 +1.7419457436E-005 +7.7205657959E-002 -8.1062316895E-003
10910000000.000 -2.4018859863E-001 -2.8971862793E-001 -5.0215721130E-003 -1.7297267914E-003 -5.9163197875E-005 -2.0787119865E-006 +7.2303771973E-002 +5.2986145020E-003
11042500000.000 -2.4357604980E-001 -2.9194641113E-001 -5.1729679108E-003 +1.3344287872E-003 +7.1469694376E-005 -1.3645738363E-005 +5.9635162354E-002 +3.1089782715E-002
11175000000.000 -2.4592590332E-001 -2.9539489746E-001 -3.5285949707E-003 +4.1167736053E-003 -4.0942803025E-005 +1.2591481209E-006 +5.6638717651E-002 +5.2270889282E-002
11307500000.000 -2.4754333496E-001 -2.9756164551E-001 -6.3610076904E-004 +5.3236484528E-003 -1.1828728020E-005 -2.9938295484E-005 +4.3813705444E-002 +5.8336257935E-002
11440000000.000 -2.5114440918E-001 -3.0039978027E-001 +2.4125576019E-003 +4.7450065613E-003 +4.7685578465E-005 -1.9228085876E-005 +1.8363952637E-002 +7.1895599365E-002
11572500000.000 -2.5219726563E-001 -3.0404663086E-001 +4.7247409821E-003 +2.6581287384E-003 -3.6414712667E-005 +1.3262033463E-005 +4.6195983887E-003 +8.7242126465E-002
11705000000.000 -2.5389099121E-001 -3.0641174316E-001 +5.3644180298E-003 -4.5323371887E-004 -6.3959509134E-005 -5.4728239775E-005 -9.7732543945E-003 +8.0791473389E-002
11837500000.000 -2.5657653809E-001 -3.0909729004E-001 +4.1427612305E-003 -3.3218860626E-003 -7.4747949839E-006 +9.8138116300E-006 -4.2789459229E-002 +7.6629638672E-002
11970000000.000 -2.5724792480E-001 -3.1008911133E-001 +1.5838146210E-003 -5.1112174988E-003 +7.4516981840E-005 -1.6532838345E-005 -5.9127807617E-002 +8.3160400391E-002
12102500000.000 -2.5642395020E-001 -3.1311035156E-001 -1.5108585358E-003 -5.1121711731E-003 -4.5010820031E-005 -4.5634806156E-006 -6.5216064453E-002 +6.4483642578E-002
12235000000.000 -2.6110839844E-001 -3.1430053711E-001 -4.0895938873E-003 -3.3605098724E-003 -1.2895092368E-005 -5.0058588386E-005 -9.2514038086E-002 +4.4227600098E-002
12367500000.000 -2.6057434082E-001 -3.1484985352E-001 -5.2566528320E-003 -4.6658515930E-004 -1.4997553080E-005 +6.4442865551E-006 -1.0523986816E-001 +4.2842864990E-002
12500000000.000 -2.6338195801E-001 -3.1530761719E-001 -4.5335292816E-003 +2.5353431702E-003 -3.4481287003E-005 +9.6578150988E-005 -9.7175598145E-002 +2.0645141602E-002
12632500000.000 -2.6448059082E-001 -3.1826782227E-001 -2.3982524872E-003 +4.6811103821E-003 -2.9702670872E-005 +8.8009983301E-006 -1.0924530029E-001 -1.3271331787E-002
12765000000.000 -2.6643371582E-001 -3.1877136230E-001 +6.4110755920E-004 +5.1305294037E-003 +4.2296946049E-005 +4.7326087952E-005 -1.1726379395E-001 -1.7662048340E-002
12897500000.000 -2.6814270020E-001 -3.1848144531E-001 +3.3659934998E-003 +3.9012432098E-003 +4.4282525778E-005 +7.0329755545E-005 -9.2231750488E-002 -3.4511566162E-002
13030000000.000 -2.6965332031E-001 -3.1944274902E-001 +4.9207210541E-003 +1.3184547424E-003 -2.2388994694E-005 -1.0753422976E-004 -8.9660644531E-002 -7.0854187012E-002
13162500000.000 -2.7174377441E-001 -3.2136535645E-001 +4.8680305481E-003 -1.6753673553E-003 +7.8197568655E-005 +1.1537224054E-005 -9.1743469238E-002 -7.2345733643E-002
13295000000.000 -2.7395629883E-001 -3.2269287109E-001 +3.1232833862E-003 -4.1594505310E-003 +2.1286308765E-005 +7.9523772001E-005 -6.1203002930E-002 -7.8578948975E-002
13427500000.000 -2.7713012695E-001 -3.2211303711E-001 +3.2854080200E-004 -5.0950050354E-003 -1.5113502741E-005 -3.4263357520E-005 -4.6939849854E-002 -1.0419845581E-001
13560000000.000 -2.7691650391E-001 -3.2286071777E-001 -2.5439262390E-003 -4.3580532074E-003 +5.9776008129E-005 +3.4661963582E-005 -4.6840667725E-002 -1.0149765015E-001
13692500000.000 -2.7886962891E-001 -3.2572937012E-001 -4.6563148499E-003 -2.3274421692E-003 -3.6489218473E-005 +6.7219138145E-005 -1.8108367920E-002 -8.9195251465E-002
13825000000.000 -2.8292846680E-001 -3.2702636719E-001 -5.1605701447E-003 +7.6031684875E-004 +1.2125819921E-006 -4.2915344238E-005 +4.2495727539E-003 -1.0321426392E-001
13957500000.000 -2.8524780273E-001 -3.2595825195E-001 -3.8650035858E-003 +3.5213232040E-003 +2.9176473618E-005 -2.4173408747E-005 -1.9073486328E-004 -9.5829010010E-002
14090000000.000 -2.8555297852E-001 -3.2720947266E-001 -1.1875629425E-003 +5.0928592682E-003 +6.9838017225E-005 -6.1992555857E-005 +2.1881103516E-002 -7.0510864258E-002
14222500000.000 -2.8642272949E-001 -3.3119201660E-001 +1.7659664154E-003 +4.7538280487E-003 -1.6115605831E-005 +3.9651989937E-005 +4.3899536133E-002 -7.4314117432E-002
14355000000.000 -2.9098510742E-001 -3.3203125000E-001 +4.1244029999E-003 +2.9122829437E-003 -4.4785439968E-005 -8.5569918156E-006 +3.3317565918E-002 -6.7268371582E-002
14487500000.000 -2.9286193848E-001 -3.3271789551E-001 +5.1374435425E-003 -5.7220458984E-006 +1.2122094631E-005 +1.0753050447E-004 +4.0504455566E-002 -3.4252166748E-002
14620000000.000 -2.9252624512E-001 -3.3491516113E-001 +4.3222904205E-003 -2.8884410858E-003 +6.4447522163E-007 -9.9646858871E-006 +6.0899734497E-002 -3.1480789185E-002
14752500000.000 -2.9556274414E-001 -3.3981323242E-001 +1.8475055695E-003 -4.6234130859E-003 -6.8042427301E-005 -6.1880797148E-005 +4.3325424194E-002 -3.2375335693E-002
14885000000.000 -2.9798889160E-001 -3.4159851074E-001 -9.7942352295E-004 -4.8940181732E-003 -2.0992010832E-006 -1.0902527720E-005 +3.5644531250E-002 +1.4190673828E-003
15017500000.000 -2.9849243164E-001 -3.4309387207E-001 -3.4675598145E-003 -3.4669637680E-003 -6.2827020884E-005 +4.4740736485E-005 +5.3123474121E-002 +8.4838867188E-003
15150000000.000 -2.9898071289E-001 -3.4759521484E-001 -4.9388408661E-003 -8.8572502136E-004 -8.1017613411E-005 -7.1782618761E-005 +3.5152435303E-002 -1.4591217041E-003
15282500000.000 -2.9978942871E-001 -3.5061645508E-001 -4.5118331909E-003 +1.9891262054E-003 +5.2694231272E-005 -6.6086649895E-005 +1.4648437500E-002 +2.3435592651E-002
