!  2-Port S-parameters saved by WinCal
! VAR MeasName=S-Parameters (CALIBRATED_DATA) read from VNA (C)
! VAR MeasDate=10/16/2015 2:26:51 PM
! VAR NAME=M6082_10_13_2_2_20C_1.4mA_-17.5dBm
! VAR FILENAME=M6082_10_13_2_2_20C_1.4mA_-17.5dBm.S2P
! VAR DATE=10/16/2015 2:26:51 PM
! VAR PHYS_PORTS=2,1
! VAR ObjTypeName=DATASET
! VAR IndexType=Frequency
!
# Hz S RI R 50
45000000.000 +1.8776702881E-001 -2.9754638672E-003 -1.7993450165E-003 +5.3422451019E-003 +5.2714347839E-004 +6.3219666481E-004 +2.9335975647E-002 +3.7622451782E-003
177500000.000 +1.7726898193E-001 -2.8060913086E-002 +1.8103122711E-003 +4.2231082916E-003 -7.2136521339E-005 +2.7908384800E-004 +1.5922546387E-002 +1.6625404358E-002
310000000.000 +1.7511749268E-001 -4.9301147461E-002 +3.0995607376E-003 +2.1011829376E-003 -3.9197504520E-005 -1.3484805822E-004 +2.9195785522E-002 +6.1185836792E-002
442500000.000 +1.6170501709E-001 -6.0150146484E-002 +4.9362182617E-003 -4.5824050903E-004 +9.2457979918E-005 -4.3205916882E-005 +7.2391510010E-002 +2.2487640381E-002
575000000.000 +1.5177154541E-001 -7.0320129395E-002 +3.4514665604E-003 -3.3028125763E-003 -2.7261674404E-005 +7.7679753304E-005 +2.7103424072E-002 +1.1151313782E-002
707500000.000 +1.4591979980E-001 -8.2962036133E-002 +8.6641311646E-004 -4.4913291931E-003 +1.2847594917E-006 -1.4965888113E-005 +2.0246505737E-003 +1.8692970276E-002
840000000.000 +1.3914489746E-001 -9.1896057129E-002 -2.0003318787E-003 -4.1928291321E-003 +5.1829963923E-005 -3.9903447032E-005 -1.9905090332E-002 +2.6067733765E-002
972500000.000 +1.3515472412E-001 -1.0378265381E-001 -4.0824413300E-003 -2.1646022797E-003 -1.9083730876E-005 +2.7257017791E-005 -3.5852432251E-002 +3.5390853882E-002
1105000000.000 +1.2960052490E-001 -1.1401367188E-001 -4.4515132904E-003 +5.5503845215E-004 +7.3313713074E-006 -5.1168724895E-005 -4.6934127808E-002 +3.8253784180E-002
1237500000.000 +1.2570190430E-001 -1.2519836426E-001 -3.2339096069E-003 +3.0168294907E-003 +5.8408826590E-005 -1.2073665857E-005 -5.8563232422E-002 +3.3901214600E-002
1370000000.000 +1.2068176270E-001 -1.3626098633E-001 -7.6532363892E-004 +4.2948722839E-003 -7.6480209827E-005 +8.7276101112E-005 -7.4028015137E-002 +2.6920318604E-002
1502500000.000 +1.1450195313E-001 -1.4240264893E-001 +1.8837451935E-003 +4.1329860687E-003 -2.5139190257E-005 -9.2983245850E-006 -8.7974548340E-002 +2.1240234375E-002
1635000000.000 +1.1135864258E-001 -1.5488433838E-001 +3.9143562317E-003 +2.1469593048E-003 +5.2964314818E-005 -2.7468428016E-005 -9.9018096924E-002 +1.1638641357E-002
1767500000.000 +1.0656738281E-001 -1.6495513916E-001 +4.3661594391E-003 -6.1011314392E-004 +2.8524547815E-005 +2.0109117031E-005 -1.1187362671E-001 +2.8572082520E-003
1900000000.000 +1.0176086426E-001 -1.6835784912E-001 +3.4252405167E-003 -3.2843351364E-003 -1.4483928680E-005 -3.1083822250E-005 -1.1379623413E-001 -3.4141540527E-003
2032500000.000 +9.6977233887E-002 -1.7646026611E-001 +9.0003013611E-004 -4.8000812531E-003 +4.5815482736E-005 -4.5951455832E-005 -1.1358261108E-001 -2.4368286133E-002
2165000000.000 +9.3055725098E-002 -1.8482208252E-001 -2.1145343781E-003 -4.4047832489E-003 -6.4894556999E-006 +1.2004375458E-004 -1.2257766724E-001 -4.2331695557E-002
2297500000.000 +8.8142395020E-002 -1.8870544434E-001 -4.5611858368E-003 -2.7544498444E-003 +3.0314549804E-007 -1.0113231838E-005 -1.2661743164E-001 -5.3382873535E-002
2430000000.000 +8.3847045898E-002 -1.9402313232E-001 -5.5656433105E-003 +3.3903121948E-004 -1.7488375306E-005 +2.2740103304E-005 -1.2651062012E-001 -6.4880371094E-002
2562500000.000 +7.9696655273E-002 -2.0269775391E-001 -4.2901039124E-003 +3.3943653107E-003 +1.4646351337E-004 +1.2127310038E-004 -1.2519836426E-001 -7.0938110352E-002
2695000000.000 +7.3791503906E-002 -2.0709228516E-001 -1.8410682678E-003 +5.6388378143E-003 -2.4434179068E-005 -2.0639039576E-005 -1.1358261108E-001 -7.3497772217E-002
2827500000.000 +6.9213867188E-002 -2.1240234375E-001 +1.6765594482E-003 +5.8434009552E-003 -6.9335103035E-005 -5.6196004152E-005 -9.8461151123E-002 -8.1741333008E-002
2960000000.000 +6.6841125488E-002 -2.2239685059E-001 +4.9304962158E-003 +3.5319328308E-003 +1.9129365683E-004 -3.2536685467E-005 -8.7997436523E-002 -8.6662292480E-002
3092500000.000 +6.3453674316E-002 -2.3279571533E-001 +6.3245296478E-003 -1.5616416931E-004 +3.4244731069E-005 -2.3355707526E-005 -7.0472717285E-002 -8.6071014404E-002
3225000000.000 +5.8517456055E-002 -2.4169158936E-001 +4.9409866333E-003 -4.0385723114E-003 +5.2042305470E-006 -8.4500759840E-005 -5.1990509033E-002 -9.1068267822E-002
3357500000.000 +5.4824829102E-002 -2.5427246094E-001 +1.0910034180E-003 -6.1986446381E-003 +8.8747590780E-005 -8.2496553659E-005 -4.1324615479E-002 -9.1617584229E-002
3490000000.000 +5.0262451172E-002 -2.6943969727E-001 -3.1862258911E-003 -5.3672790527E-003 -6.3590705395E-006 +5.1461160183E-005 -2.7858734131E-002 -8.3148956299E-002
3622500000.000 +4.3945312500E-002 -2.8140258789E-001 -5.9967041016E-003 -2.3355484009E-003 -3.6997720599E-005 -1.1343508959E-005 -1.1447906494E-002 -7.9082489014E-002
3755000000.000 +3.3447265625E-002 -2.9528808594E-001 -5.7940483093E-003 +2.0906925201E-003 +1.9900500774E-005 +1.0863691568E-004 -5.8898925781E-003 -7.2772979736E-002
3887500000.000 +2.2491455078E-002 -3.0645751953E-001 -2.7232170105E-003 +5.0597190857E-003 +4.0046870708E-006 +6.7677348852E-005 +2.1781921387E-003 -5.5866241455E-002
4020000000.000 +1.3793945313E-002 -3.1562805176E-001 +1.1804103851E-003 +5.6328773499E-003 -4.3727457523E-005 +9.0990215540E-006 +1.3395309448E-002 -4.4431686401E-002
4152500000.000 +3.8909912109E-003 -3.2478332520E-001 +4.2927265167E-003 +3.6089420319E-003 +4.8853456974E-005 -3.8538128138E-005 +1.5317916870E-002 -3.2598495483E-002
4285000000.000 -7.6904296875E-003 -3.3192443848E-001 +5.1882266998E-003 -1.2159347534E-005 +5.6248158216E-005 +3.6843121052E-005 +1.7058372498E-002 -1.3088226318E-002
4417500000.000 -1.9073486328E-002 -3.3795166016E-001 +3.8287639618E-003 -3.1368732452E-003 -1.6190111637E-005 +6.8515539169E-005 +2.5563240051E-002 +3.6964416504E-003
4550000000.000 -2.7404785156E-002 -3.4307861328E-001 +1.0340213776E-003 -4.7502517700E-003 +3.6716461182E-005 -6.4712017775E-005 +2.8726577759E-002 +9.5624923706E-003
4682500000.000 -3.7475585938E-002 -3.4765625000E-001 -1.7483234406E-003 -3.9567947388E-003 +1.0012835264E-004 +2.1420419216E-005 +2.5512695313E-002 +2.0705223083E-002
4815000000.000 -4.6966552734E-002 -3.5177612305E-001 -3.6163330078E-003 -1.9555091858E-003 -1.8020160496E-005 +5.9185549617E-006 +3.1151771545E-002 +2.7467727661E-002
4947500000.000 -5.4504394531E-002 -3.5537719727E-001 -4.0259361267E-003 +5.1951408386E-004 +2.4512410164E-006 -5.5063515902E-005 +2.7602195740E-002 +1.9828796387E-002
5080000000.000 -6.1431884766E-002 -3.5856628418E-001 -2.7947425842E-003 +2.7199983597E-003 +4.7864392400E-005 -3.0392780900E-005 +1.3305664063E-002 +2.0567893982E-002
5212500000.000 -6.8969726563E-002 -3.6160278320E-001 -5.6838989258E-004 +3.6497116089E-003 -5.2532181144E-005 +3.0001625419E-005 +9.2105865479E-003 +2.4825096130E-002
5345000000.000 -7.5958251953E-002 -3.6447143555E-001 +1.6676187515E-003 +3.3272504807E-003 -1.6846694052E-005 -2.0098872483E-005 +5.4111480713E-003 +1.6196250916E-002
5477500000.000 -8.0627441406E-002 -3.6621093750E-001 +3.1758546829E-003 +1.7215013504E-003 +3.8582831621E-005 -6.9353729486E-005 -9.2663764954E-003 +1.0243415833E-002
5610000000.000 -8.6441040039E-002 -3.6904907227E-001 +3.3837556839E-003 -4.7540664673E-004 +5.7848170400E-005 +4.5638531446E-005 -1.4994144440E-002 +1.4481544495E-002
5742500000.000 -9.2926025391E-002 -3.7133789063E-001 +2.4434328079E-003 -2.2752285004E-003 +1.0136049241E-005 -7.4040144682E-006 -1.1521816254E-002 +5.9909820557E-003
5875000000.000 -9.8602294922E-002 -3.7210083008E-001 +6.7067146301E-004 -3.3048391342E-003 +1.9283033907E-005 -2.0815990865E-005 -2.0242691040E-002 -3.4360885620E-003
6007500000.000 -1.0317993164E-001 -3.7306213379E-001 -1.2408494949E-003 -2.9284954071E-003 -1.8882565200E-005 +1.9076280296E-005 -2.3201942444E-002 +1.4972686768E-004
6140000000.000 -1.0862731934E-001 -3.7591552734E-001 -2.5510787964E-003 -1.6181468964E-003 -8.2768499851E-005 -1.8753111362E-005 -1.5376091003E-002 -2.7613639832E-003
6272500000.000 -1.1654663086E-001 -3.7825012207E-001 -3.0884742737E-003 +1.4901161194E-004 +3.2445415854E-005 -1.2325122952E-005 -1.6469001770E-002 -1.1721611023E-002
6405000000.000 -1.2294006348E-001 -3.7759399414E-001 -2.3748874664E-003 +1.7868280411E-003 +4.1902065277E-005 +3.6934390664E-005 -1.9396781921E-002 -6.2789916992E-003
6537500000.000 -1.2626647949E-001 -3.7875366211E-001 -9.2053413391E-004 +2.5665760040E-003 -1.1721625924E-005 +2.9175542295E-005 -9.2992782593E-003 -3.2358169556E-003
6670000000.000 -1.3236999512E-001 -3.8354492188E-001 +7.6580047607E-004 +2.7189254761E-003 +7.3388218880E-006 -1.9188970327E-005 -7.9627037048E-003 -7.3261260986E-003
6802500000.000 -1.4091491699E-001 -3.8494873047E-001 +2.1747350693E-003 +1.7647743225E-003 +7.0165842772E-006 -7.1669928730E-006 -1.1408805847E-002 +1.2254714966E-004
6935000000.000 -1.4546203613E-001 -3.8238525391E-001 +2.3336410522E-003 +4.2033195496E-004 +2.8722919524E-005 +1.5623867512E-005 -6.4043998718E-003 +9.8795890808E-003
7067500000.000 -1.4880371094E-001 -3.8523864746E-001 +2.2193193436E-003 -1.1014938354E-003 -5.4977834225E-005 -2.8437003493E-005 -4.6916007996E-003 +1.0066509247E-002
7200000000.000 -1.5577697754E-001 -3.9028930664E-001 +1.0930299759E-003 -2.4180412292E-003 +1.4420598745E-005 -9.9141150713E-005 -1.5044212341E-002 +1.6978263855E-002
7332500000.000 -1.6322326660E-001 -3.9033508301E-001 -3.2007694244E-004 -2.4709701538E-003 -3.4621916711E-006 +3.8624275476E-006 -1.7045021057E-002 +3.0733108521E-002
7465000000.000 -1.6755676270E-001 -3.9051818848E-001 -1.5186071396E-003 -1.6702413559E-003 -5.8142468333E-005 +2.4549663067E-005 -1.9784927368E-002 +3.1242370605E-002
7597500000.000 -1.7245483398E-001 -3.9433288574E-001 -2.6065111160E-003 -5.0842761993E-004 +4.2121857405E-005 +1.2641772628E-005 -3.6308288574E-002 +3.3260345459E-002
7730000000.000 -1.7794799805E-001 -3.9730834961E-001 -2.1747350693E-003 +8.6748600006E-004 +5.1315873861E-005 +4.5858323574E-005 -4.8282623291E-002 +4.3624877930E-002
7862500000.000 -1.8226623535E-001 -3.9762878418E-001 -1.2682676315E-003 +1.5644431114E-003 -3.6656856537E-005 +1.9887462258E-005 -5.3586959839E-002 +4.2711257935E-002
7995000000.000 -1.8673706055E-001 -3.9990234375E-001 +6.9141387939E-006 +2.2130012512E-003 +4.0303915739E-005 +1.6635283828E-005 -7.2799682617E-002 +3.5106658936E-002
8127500000.000 -1.9052124023E-001 -4.0400695801E-001 +1.3378262520E-003 +1.7426609993E-003 +1.5506520867E-005 +4.5102089643E-005 -9.1365814209E-002 +3.9775848389E-002
8260000000.000 -1.9563293457E-001 -4.0528869629E-001 +1.8231868744E-003 +7.5423717499E-004 +2.6667490602E-005 +4.6370550990E-005 -9.5561981201E-002 +3.4427642822E-002
8392500000.000 -1.9876098633E-001 -4.0673828125E-001 +1.8871426582E-003 -4.7183036804E-004 -2.5359913707E-005 -2.6008114219E-005 -1.0973358154E-001 +1.8474578857E-002
8525000000.000 -2.0098876953E-001 -4.0937805176E-001 +1.3487339020E-003 -1.4688372612E-003 +2.9847025871E-005 +8.5052102804E-005 -1.2199020386E-001 +1.4968872070E-002
8657500000.000 -2.0414733887E-001 -4.1163635254E-001 +2.8592348099E-004 -1.7644166946E-003 -5.2652321756E-006 +1.4421530068E-005 -1.1788940430E-001 +4.2190551758E-003
8790000000.000 -2.0855712891E-001 -4.1351318359E-001 -6.8557262421E-004 -1.5758872032E-003 -1.1888332665E-005 -2.2170133889E-005 -1.1968231201E-001 -1.7398834229E-002
8922500000.000 -2.1138000488E-001 -4.1343688965E-001 -1.5125870705E-003 -9.2291831970E-004 -3.2675452530E-006 -9.8380260170E-006 -1.2236404419E-001 -3.0502319336E-002
9055000000.000 -2.1372985840E-001 -4.1540527344E-001 -1.7231702805E-003 +9.6440315247E-005 -2.3929402232E-005 +3.1722709537E-005 -1.1091613770E-001 -4.4029235840E-002
9187500000.000 -2.1720886230E-001 -4.1667175293E-001 -1.3160109520E-003 +9.3305110931E-004 -2.6433728635E-005 +4.3865293264E-007 -1.0018920898E-001 -6.6856384277E-002
9320000000.000 -2.2328186035E-001 -4.1661071777E-001 -5.4430961609E-004 +1.4699101448E-003 +1.3753771782E-005 -3.2499432564E-005 -9.3605041504E-002 -7.9608917236E-002
9452500000.000 -2.2636413574E-001 -4.1654968262E-001 +3.6966800690E-004 +1.4493465424E-003 -2.9604882002E-005 +8.4623694420E-005 -7.4211120605E-002 -8.6643218994E-002
9585000000.000 -2.2981262207E-001 -4.1761779785E-001 +1.1065602303E-003 +9.8854303360E-004 -2.5650486350E-005 -3.4231692553E-005 -5.4153442383E-002 -1.0120391846E-001
9717500000.000 -2.3562622070E-001 -4.1972351074E-001 +1.4446973801E-003 +1.6039609909E-004 +1.2751668692E-004 -3.4421682358E-005 -4.1236877441E-002 -1.0698318481E-001
9850000000.000 -2.4166870117E-001 -4.1778564453E-001 +1.2416839600E-003 -5.2225589752E-004 +9.6932053566E-006 +3.5934150219E-005 -1.9096374512E-002 -1.0222625732E-001
9982500000.000 -2.4362182617E-001 -4.1883850098E-001 +6.4796209335E-004 -1.1571645737E-003 -2.2981315851E-005 +1.9052997231E-005 +6.4620971680E-003 -1.0327911377E-001
10115000000.000 -2.4763488770E-001 -4.2080688477E-001 -7.9751014709E-005 -1.3293623924E-003 +4.9246475101E-005 -5.8535486460E-005 +1.9268035889E-002 -9.9071502686E-002
10247500000.000 -2.5419616699E-001 -4.2114257813E-001 -8.3851814270E-004 -1.0616779327E-003 +2.7120113373E-006 +7.1201473475E-005 +3.5633087158E-002 -8.0017089844E-002
10380000000.000 -2.5813293457E-001 -4.2036437988E-001 -1.1575222015E-003 -4.0382146835E-004 -8.4042549133E-006 +5.1703304052E-005 +5.7075500488E-002 -6.7520141602E-002
10512500000.000 -2.6159667969E-001 -4.2080688477E-001 -1.2090206146E-003 +3.3259391785E-004 +1.6236677766E-005 -3.6826357245E-005 +6.2664031982E-002 -5.5942535400E-002
10645000000.000 -2.6573181152E-001 -4.2195129395E-001 -7.4601173401E-004 +9.8490715027E-004 +1.8114224076E-006 -2.1061860025E-005 +6.6104888916E-002 -2.9243469238E-002
10777500000.000 -2.7093505859E-001 -4.2283630371E-001 -2.1326541901E-004 +1.0797977448E-003 -2.9734335840E-005 -1.7117708921E-005 +7.7152252197E-002 -7.7629089355E-003
10910000000.000 -2.7554321289E-001 -4.2303466797E-001 +4.3275952339E-004 +9.1892480850E-004 -7.5682997704E-005 -4.2445957661E-005 +7.2326660156E-002 +5.6533813477E-003
11042500000.000 -2.8041076660E-001 -4.2375183105E-001 +9.2145800591E-004 +4.4822692871E-004 +1.9453465939E-005 -6.6675245762E-005 +5.9484481812E-002 +3.1394958496E-002
11175000000.000 -2.8404235840E-001 -4.2582702637E-001 +1.0088086128E-003 -5.9962272644E-005 +6.8109482527E-005 +7.7839940786E-005 +5.6430816650E-002 +5.2473068237E-002
11307500000.000 -2.8727722168E-001 -4.2652893066E-001 +7.5915455818E-004 -5.7378411293E-004 -5.3234398365E-005 -1.6652047634E-006 +4.3533325195E-002 +5.8650970459E-002
11440000000.000 -2.9211425781E-001 -4.2779541016E-001 +3.1703710556E-004 -8.8533759117E-004 +3.6513432860E-005 +5.6568533182E-006 +1.8085479736E-002 +7.2158813477E-002
11572500000.000 -2.9382324219E-001 -4.3005371094E-001 -2.0694732666E-004 -8.6298584938E-004 +2.4252571166E-005 -8.1472098827E-006 +4.3487548828E-003 +8.7429046631E-002
11705000000.000 -2.9661560059E-001 -4.3109130859E-001 -6.6009163857E-004 -6.0069561005E-004 -3.1612813473E-005 -2.6032328606E-005 -1.0269165039E-002 +8.0959320068E-002
11837500000.000 -3.0038452148E-001 -4.3240356445E-001 -7.8156590462E-004 -1.4898180962E-004 +4.9136579037E-005 -1.0394677520E-004 -4.3243408203E-002 +7.6618194580E-002
11970000000.000 -3.0203247070E-001 -4.3180847168E-001 -7.1328878403E-004 +2.5305151939E-004 +5.0645321608E-005 +1.0145455599E-004 -5.9494018555E-002 +8.3137512207E-002
12102500000.000 -3.0218505859E-001 -4.3331909180E-001 -4.0239095688E-004 +6.3228607178E-004 -3.0168332160E-005 -8.2664191723E-006 -6.5460205078E-002 +6.4334869385E-002
12235000000.000 -3.0805969238E-001 -4.3315124512E-001 +3.6358833313E-005 +7.3209404945E-004 -4.1723251343E-005 -7.0057809353E-005 -9.2891693115E-002 +4.3945312500E-002
12367500000.000 -3.0876159668E-001 -4.3257141113E-001 +3.9362907410E-004 +6.8208575249E-004 +1.5397090465E-006 +1.1242227629E-006 -1.0556411743E-001 +4.2514801025E-002
12500000000.000 -3.1289672852E-001 -4.3116760254E-001 +7.3629617691E-004 +1.9776821136E-004 +2.0055100322E-005 -5.8971345425E-006 -9.7286224365E-002 +2.0378112793E-002
12632500000.000 -3.1523132324E-001 -4.3266296387E-001 +7.7438354492E-004 -1.2767314911E-004 +2.2072345018E-005 -2.1385028958E-005 -1.0926055908E-001 -1.3568878174E-002
12765000000.000 -3.1820678711E-001 -4.3193054199E-001 +5.1316618919E-004 -5.7548284531E-004 -6.7036598921E-006 +1.6066245735E-005 -1.1719131470E-001 -1.8081665039E-002
12897500000.000 -3.2101440430E-001 -4.3025207520E-001 +8.4340572357E-005 -6.9740414619E-004 +1.4259945601E-005 +1.2005679309E-005 -9.2243194580E-002 -3.4721374512E-002
13030000000.000 -3.2331848145E-001 -4.2994689941E-001 -3.5166740417E-004 -6.3869357109E-004 -3.9916485548E-006 -4.0285289288E-005 -8.9424133301E-002 -7.1014404297E-002
13162500000.000 -3.2589721680E-001 -4.3075561523E-001 -5.9083104134E-004 -3.5822391510E-004 +4.7136098146E-005 -1.6033649445E-005 -9.1434478760E-002 -7.2761535645E-002
13295000000.000 -3.2870483398E-001 -4.3093872070E-001 -6.8721175194E-004 +9.9033117294E-005 -5.0798058510E-005 +1.1185556650E-004 -6.0993194580E-002 -7.8678131104E-002
13427500000.000 -3.3253479004E-001 -4.2886352539E-001 -4.4320523739E-004 +4.3506920338E-004 -5.3511932492E-005 +3.7370249629E-005 -4.6684265137E-002 -1.0414123535E-001
13560000000.000 -3.3271789551E-001 -4.2817687988E-001 -1.9326806068E-004 +5.8218836784E-004 +1.0978430510E-005 +2.9031187296E-005 -4.6291351318E-002 -1.0146331787E-001
13692500000.000 -3.3523559570E-001 -4.2965698242E-001 +2.1487474442E-005 +5.5804848671E-004 -2.2809952497E-005 +8.4102153778E-005 -1.7761230469E-002 -8.9126586914E-002
13825000000.000 -3.3992004395E-001 -4.2939758301E-001 +4.3271481991E-004 +3.2725930214E-004 -1.6780570149E-005 +4.3755397201E-005 +4.3945312500E-003 -1.0310745239E-001
13957500000.000 -3.4281921387E-001 -4.2672729492E-001 +6.1106681824E-004 +3.6954879761E-006 +4.6905130148E-005 -9.5181167126E-005 +2.2888183594E-005 -9.5485687256E-002
14090000000.000 -3.4408569336E-001 -4.2662048340E-001 +5.3858757019E-004 -1.5226006508E-004 +3.4287571907E-005 +7.5846910477E-005 +2.2003173828E-002 -7.0137023926E-002
14222500000.000 -3.4573364258E-001 -4.2912292480E-001 +2.6510655880E-004 -3.5406649113E-004 -7.6398253441E-005 +1.0621175170E-004 +4.4155120850E-002 -7.4291229248E-002
14355000000.000 -3.5104370117E-001 -4.2897033691E-001 +3.4391880035E-005 -4.9564242363E-004 +1.1182948947E-004 -8.8982284069E-005 +3.3271789551E-002 -6.7062377930E-002
14487500000.000 -3.5357666016E-001 -4.2831420898E-001 -2.0834803581E-004 -3.4916400909E-004 +5.9735029936E-005 +8.1051141024E-005 +4.0252685547E-002 -3.4080505371E-002
14620000000.000 -3.5365295410E-001 -4.2932128906E-001 -3.8827955723E-004 -2.3186206818E-004 +6.0319900513E-005 +7.8100711107E-005 +6.1077117920E-002 -3.1461715698E-002
14752500000.000 -3.5668945313E-001 -4.3345642090E-001 -4.3541193008E-004 -9.6589326859E-005 -6.3266605139E-005 -1.7836689949E-005 +4.3203353882E-002 -3.2342910767E-002
14885000000.000 -3.5934448242E-001 -4.3447875977E-001 -3.6840140820E-004 +3.4458935261E-004 +1.5130266547E-005 +3.4116208553E-005 +3.5526275635E-002 +1.4915466309E-003
15017500000.000 -3.5986328125E-001 -4.3515014648E-001 -2.6448071003E-004 +4.3936073780E-004 +4.8488378525E-005 -1.8665567040E-005 +5.3110122681E-002 +8.7070465088E-003
15150000000.000 -3.6047363281E-001 -4.3869018555E-001 +9.8377466202E-005 +4.8615038395E-004 -5.3821131587E-005 -4.1022896767E-005 +3.5245895386E-002 -1.6040802002E-003
15282500000.000 -3.6112976074E-001 -4.4085693359E-001 +2.4913251400E-004 +3.1447410583E-004 +1.4310330153E-004 +6.0945749283E-006 +1.4568328857E-002 +2.3282051086E-002
