!  2-Port S-parameters saved by WinCal
! VAR MeasName=S-Parameters (CALIBRATED_DATA) read from VNA (C)
! VAR MeasDate=10/16/2015 3:02:39 PM
! VAR NAME=M6082_10_15_2_2_20C_1.4mA_-17.5dBm
! VAR FILENAME=M6082_10_15_2_2_20C_1.4mA_-17.5dBm.S2P
! VAR DATE=10/16/2015 3:02:39 PM
! VAR PHYS_PORTS=2,1
! VAR ObjTypeName=DATASET
! VAR IndexType=Frequency
!
# Hz S RI R 50
45000000.000 +2.0574188232E-001 -1.2069702148E-002 +4.9209594727E-004 +3.6438703537E-003 +3.0378997326E-004 +1.1196732521E-004 +2.7565002441E-002 +1.9950866699E-003
177500000.000 +1.9153594971E-001 -3.7139892578E-002 +1.5468597412E-003 +3.3456087112E-003 +1.2950971723E-005 -3.8128346205E-005 +1.5927314758E-002 +1.6715049744E-002
310000000.000 +1.8057250977E-001 -6.3423156738E-002 +3.9660930634E-003 +2.4051666260E-003 +4.1350722313E-005 -1.9877403975E-004 +2.9151916504E-002 +6.1283111572E-002
442500000.000 +1.7122650146E-001 -8.0787658691E-002 +4.0261745453E-003 -4.7874450684E-004 +7.2229653597E-005 -7.8156590462E-006 +7.2513580322E-002 +2.2415161133E-002
575000000.000 +1.5856933594E-001 -9.5520019531E-002 +2.6433467865E-003 -2.7618408203E-003 -8.4731727839E-005 +3.7275254726E-005 +2.7121543884E-002 +1.1223793030E-002
707500000.000 +1.4935302734E-001 -1.1190032959E-001 +4.5871734619E-004 -3.7651062012E-003 -8.2224607468E-005 -7.8324228525E-005 +2.0828247070E-003 +1.8623352051E-002
840000000.000 +1.4073181152E-001 -1.2496185303E-001 -1.8148422241E-003 -3.2659769058E-003 +3.4969300032E-005 +4.0438026190E-006 -1.9893646240E-002 +2.6114463806E-002
972500000.000 +1.3319396973E-001 -1.3957214355E-001 -3.3490657806E-003 -1.4922618866E-003 -2.4843029678E-005 -1.3792887330E-005 -3.5774230957E-002 +3.5367965698E-002
1105000000.000 +1.2516021729E-001 -1.5270233154E-001 -3.5197734833E-003 +8.3804130554E-004 +2.1696090698E-005 -1.4799647033E-005 -4.6907424927E-002 +3.8089752197E-002
1237500000.000 +1.1773681641E-001 -1.6693878174E-001 -2.3229122162E-003 +2.7456283569E-003 -1.1881813407E-005 +4.0099024773E-005 -5.8523178101E-002 +3.3893585205E-002
1370000000.000 +1.0962677002E-001 -1.8004608154E-001 -1.9609928131E-004 +3.5421848297E-003 -5.9815123677E-005 +1.9287690520E-005 -7.3951721191E-002 +2.6855468750E-002
1502500000.000 +1.0205078125E-001 -1.8931579590E-001 +1.9363164902E-003 +3.0740499496E-003 -7.9534947872E-006 -2.1740794182E-005 -8.8043212891E-002 +2.1255493164E-002
1635000000.000 +9.5520019531E-002 -2.0427703857E-001 +3.2589435577E-003 +1.2117624283E-003 +1.7121434212E-005 -6.5363943577E-005 -9.9040985107E-002 +1.1554718018E-002
1767500000.000 +8.6174011230E-002 -2.1655273438E-001 +3.2234191895E-003 -9.3436241150E-004 +2.4475157261E-005 +9.4350427389E-005 -1.1182785034E-001 +2.8457641602E-003
1900000000.000 +7.7209472656E-002 -2.2171783447E-001 +2.3355484009E-003 -2.9927492142E-003 -6.9212168455E-005 -5.2943825722E-005 -1.1373901367E-001 -3.5400390625E-003
2032500000.000 +6.9572448730E-002 -2.3011016846E-001 +1.3971328735E-004 -3.7850141525E-003 +7.2117894888E-005 -5.9537589550E-005 -1.1361312866E-001 -2.4402618408E-002
2165000000.000 +6.4071655273E-002 -2.4052429199E-001 -2.2232532501E-003 -3.1622648239E-003 -5.4100528359E-006 +2.0070932806E-005 -1.2235641479E-001 -4.2289733887E-002
2297500000.000 +5.9394836426E-002 -2.4736785889E-001 -4.1296482086E-003 -1.2271404266E-003 -1.4127232134E-005 -7.0058740675E-006 -1.2641906738E-001 -5.3558349609E-002
2430000000.000 +5.5297851563E-002 -2.5648498535E-001 -4.2016506195E-003 +1.6019344330E-003 -6.1601400375E-005 -2.5813281536E-004 -1.2644195557E-001 -6.4712524414E-002
2562500000.000 +4.9758911133E-002 -2.7029418945E-001 -2.2197961807E-003 +3.8056373596E-003 +1.4272332191E-004 +2.4899840355E-005 -1.2513732910E-001 -7.1121215820E-002
2695000000.000 +4.3502807617E-002 -2.8097534180E-001 +6.7543983459E-004 +4.7395229340E-003 +2.9744580388E-005 +3.8705766201E-005 -1.1344528198E-001 -7.3448181152E-002
2827500000.000 +3.6743164063E-002 -2.9216003418E-001 +3.6956071854E-003 +3.1658411026E-003 +2.6591122150E-005 -1.9202381372E-004 -9.8461151123E-002 -8.1832885742E-002
2960000000.000 +2.6763916016E-002 -3.0567932129E-001 +4.6648979187E-003 +1.0633468628E-004 +5.2873045206E-005 +2.4825334549E-005 -8.7741851807E-002 -8.6723327637E-002
3092500000.000 +1.5594482422E-002 -3.1962585449E-001 +3.4554004669E-003 -2.8545856476E-003 +2.0287930965E-005 +6.6619366407E-005 -7.0213317871E-002 -8.6120605469E-002
3225000000.000 +3.4332275391E-003 -3.3033752441E-001 +7.4577331543E-004 -4.4872760773E-003 -7.9184770584E-005 +3.1761825085E-005 -5.1921844482E-002 -9.1003417969E-002
3357500000.000 -9.9792480469E-003 -3.3865356445E-001 -2.1408796310E-003 -3.8402080536E-003 +1.5692412853E-004 -2.9958784580E-005 -4.1160583496E-002 -9.1503143311E-002
3490000000.000 -2.2842407227E-002 -3.4829711914E-001 -3.9238929749E-003 -1.5320777893E-003 -3.4168362617E-005 +7.8238546848E-005 -2.7732849121E-002 -8.3274841309E-002
3622500000.000 -3.5400390625E-002 -3.5733032227E-001 -4.0950775146E-003 +1.2247562408E-003 -7.2199851274E-005 +9.2387199402E-006 -1.1356353760E-002 -7.9101562500E-002
3755000000.000 -4.9514770508E-002 -3.6369323730E-001 -2.1481513977E-003 +3.2885074615E-003 +6.2961131334E-005 -5.5167824030E-005 -5.8937072754E-003 -7.2784423828E-002
3887500000.000 -6.2164306641E-002 -3.6769104004E-001 +2.7632713318E-004 +3.5845041275E-003 +1.0556355119E-004 +6.8657100201E-005 +2.2430419922E-003 -5.5774688721E-002
4020000000.000 -7.3333740234E-002 -3.7234497070E-001 +2.3450851440E-003 +2.4939775467E-003 -5.5953860283E-005 +2.8517097235E-005 +1.3351440430E-002 -4.4361114502E-002
4152500000.000 -8.3984375000E-002 -3.7736511230E-001 +3.3414363861E-003 +5.3894519806E-004 +8.3986669779E-005 -3.9629638195E-005 +1.5369415283E-002 -3.2432556152E-002
4285000000.000 -9.4863891602E-002 -3.8035583496E-001 +2.7186870575E-003 -1.4777183533E-003 -1.3567507267E-005 +6.7524611950E-005 +1.7118453979E-002 -1.2797355652E-002
4417500000.000 -1.0601806641E-001 -3.8296508789E-001 +1.2445449829E-003 -2.5991201401E-003 -2.7884729207E-005 -8.3073973656E-007 +2.5668144226E-002 +3.7860870361E-003
4550000000.000 -1.1427307129E-001 -3.8574218750E-001 -5.7971477509E-004 -2.7521848679E-003 +9.0550631285E-005 +4.4379383326E-005 +2.8702735901E-002 +9.6607208252E-003
4682500000.000 -1.2234497070E-001 -3.8850402832E-001 -1.8771290779E-003 -1.6286969185E-003 +4.4133514166E-005 +1.1013820767E-005 +2.5363922119E-002 +2.0871162415E-002
4815000000.000 -1.3125610352E-001 -3.9120483398E-001 -2.3645162582E-003 -2.6309490204E-004 -1.8302351236E-005 +4.4481828809E-005 +3.0856132507E-002 +2.7616500854E-002
4947500000.000 -1.3874816895E-001 -3.9350891113E-001 -2.0787715912E-003 +1.0172128677E-003 -1.9825994968E-005 -1.3064593077E-005 +2.7355194092E-002 +2.0060539246E-002
5080000000.000 -1.4489746094E-001 -3.9610290527E-001 -1.0557770729E-003 +1.9051432610E-003 -1.0989606380E-007 -2.4559907615E-005 +1.3019561768E-002 +2.0647048950E-002
5212500000.000 -1.5203857422E-001 -3.9862060547E-001 +1.5938282013E-004 +2.0444393158E-003 -4.7795474529E-006 +2.3107044399E-005 +8.9673995972E-003 +2.4860382080E-002
5345000000.000 -1.5917968750E-001 -4.0069580078E-001 +1.2584328651E-003 +1.6120076180E-003 +1.4663673937E-006 +3.2015377656E-006 +5.2080154419E-003 +1.6279220581E-002
5477500000.000 -1.6381835938E-001 -4.0211486816E-001 +1.8182396889E-003 +6.2358379364E-004 +5.2785500884E-005 +8.0820173025E-006 -9.4428062439E-003 +1.0308742523E-002
5610000000.000 -1.6944885254E-001 -4.0469360352E-001 +1.7286539078E-003 -4.0614604950E-004 -4.0762126446E-005 +2.3202970624E-005 -1.5133380890E-002 +1.4446258545E-002
5742500000.000 -1.7622375488E-001 -4.0646362305E-001 +1.2228488922E-003 -1.1714100838E-003 -5.7116150856E-005 -4.0672719479E-005 -1.1854648590E-002 +5.8608055115E-003
5875000000.000 -1.8258666992E-001 -4.0661621094E-001 +5.1712989807E-004 -1.5944242477E-003 +1.5295110643E-005 -1.3978220522E-005 -2.0469665527E-002 -3.4017562866E-003
6007500000.000 -1.8766784668E-001 -4.0756225586E-001 -4.1109323502E-004 -1.5918016434E-003 -1.5826895833E-005 +5.6449323893E-005 -2.3315429688E-002 +7.7247619629E-005
6140000000.000 -1.9372558594E-001 -4.1044616699E-001 -1.1867880821E-003 -1.0516047478E-003 -2.5825574994E-005 +5.6916847825E-005 -1.5563964844E-002 -3.0379295349E-003
6272500000.000 -2.0220947266E-001 -4.1148376465E-001 -1.5413761139E-003 -2.3287534714E-004 +3.1389296055E-005 -7.9210847616E-005 -1.6592025757E-002 -1.2012481689E-002
6405000000.000 -2.0954895020E-001 -4.1047668457E-001 -1.3769268990E-003 +6.0009956360E-004 +3.8109719753E-005 +3.0990689993E-005 -1.9443511963E-002 -6.4849853516E-003
6537500000.000 -2.1405029297E-001 -4.1215515137E-001 -7.9071521759E-004 +1.2434124947E-003 -1.6072764993E-005 -4.4165179133E-005 -9.3026161194E-003 -3.3855438232E-003
6670000000.000 -2.2097778320E-001 -4.1549682617E-001 +9.9062919617E-005 +1.4920234680E-003 +2.1683052182E-005 -3.6658719182E-005 -7.9212188721E-003 -7.5421333313E-003
6802500000.000 -2.3049926758E-001 -4.1639709473E-001 +9.2279911041E-004 +1.0595917702E-003 +2.9531307518E-005 +6.0871243477E-006 -1.1372089386E-002 -9.6321105957E-005
6935000000.000 -2.3693847656E-001 -4.1476440430E-001 +1.3268589973E-003 +3.5756826401E-004 -1.1696480215E-005 +1.3978686184E-005 -6.2651634216E-003 +9.7551345825E-003
7067500000.000 -2.4058532715E-001 -4.1654968262E-001 +1.2348890305E-003 -4.8434734344E-004 +4.5634806156E-006 -7.2754919529E-005 -4.5490264893E-003 +9.9768638611E-003
7200000000.000 -2.4794006348E-001 -4.1972351074E-001 +6.9862604141E-004 -1.2119412422E-003 +2.6730820537E-005 +3.8223341107E-005 -1.4978408813E-002 +1.6875267029E-002
7332500000.000 -2.5622558594E-001 -4.1976928711E-001 -3.4153461456E-005 -1.3796687126E-003 -6.4183026552E-005 -1.0013580322E-005 -1.6928672791E-002 +3.0653953552E-002
7465000000.000 -2.6156616211E-001 -4.1944885254E-001 -7.2550773621E-004 -9.5793604851E-004 -5.2848830819E-005 -2.9997900128E-005 -1.9677162170E-002 +3.1197547913E-002
7597500000.000 -2.6696777344E-001 -4.2156982422E-001 -1.1819601059E-003 -1.7631053925E-004 -8.5635110736E-006 -1.1838972569E-005 -3.6302566528E-002 +3.3212661743E-002
7730000000.000 -2.7311706543E-001 -4.2430114746E-001 -1.0652542114E-003 +5.5575370789E-004 -5.7220458984E-006 +5.3394585848E-005 -4.8257827759E-002 +4.3653488159E-002
7862500000.000 -2.7888488770E-001 -4.2478942871E-001 -5.9181451797E-004 +9.9748373032E-004 -6.4369291067E-005 +9.5032155514E-006 -5.3588867188E-002 +4.2715072632E-002
7995000000.000 -2.8327941895E-001 -4.2538452148E-001 +1.2528896332E-004 +1.1789798737E-003 -2.4996697903E-006 -4.4273212552E-005 -7.2849273682E-002 +3.5148620605E-002
8127500000.000 -2.8747558594E-001 -4.2886352539E-001 +8.8468194008E-004 +8.5103511810E-004 -9.2945992947E-006 +6.4220279455E-005 -9.1415405273E-002 +3.9733886719E-002
8260000000.000 -2.9364013672E-001 -4.2977905273E-001 +1.0010600090E-003 +2.4360418320E-004 +6.1988830566E-006 -1.7898157239E-005 -9.5584869385E-002 +3.4477233887E-002
8392500000.000 -2.9696655273E-001 -4.3025207520E-001 +9.7611546516E-004 -4.5767426491E-004 -1.1101365089E-006 -4.8581510782E-005 -1.0971832275E-001 +1.8520355225E-002
8525000000.000 -2.9954528809E-001 -4.3223571777E-001 +5.4264068604E-004 -8.2167983055E-004 -2.7553178370E-005 +4.9388036132E-006 -1.2189483643E-001 +1.4942169189E-002
8657500000.000 -3.0346679688E-001 -4.3415832520E-001 +1.7881393433E-006 -9.4518065453E-004 +4.2496249080E-006 +2.0851381123E-005 -1.1782836914E-001 +4.1313171387E-003
8790000000.000 -3.0845642090E-001 -4.3560791016E-001 -5.2297115326E-004 -7.2467327118E-004 -4.6504661441E-005 -2.2901222110E-005 -1.1964416504E-001 -1.7417907715E-002
8922500000.000 -3.1147766113E-001 -4.3476867676E-001 -8.8551640511E-004 -3.3783912659E-004 +5.5622309446E-005 -6.0070306063E-006 -1.2236022949E-001 -3.0548095703E-002
9055000000.000 -3.1451416016E-001 -4.3635559082E-001 -8.8810920715E-004 +1.6307830811E-004 -1.3273209333E-005 +5.7632103562E-005 -1.1098861694E-001 -4.4086456299E-002
9187500000.000 -3.1838989258E-001 -4.3725585938E-001 -5.3122639656E-004 +5.9387087822E-004 -4.7592446208E-005 -9.6317380667E-006 -1.0021591187E-001 -6.6940307617E-002
9320000000.000 -3.2505798340E-001 -4.3601989746E-001 -1.3640522957E-004 +7.9461932182E-004 +2.1718442440E-006 -5.4150819778E-005 -9.3677520752E-002 -7.9708099365E-002
9452500000.000 -3.2835388184E-001 -4.3518066406E-001 +2.8043985367E-004 +7.0410966873E-004 +1.4189630747E-005 +6.6354870796E-005 -7.4157714844E-002 -8.6631774902E-002
9585000000.000 -3.3216857910E-001 -4.3571472168E-001 +6.6357851028E-004 +3.6922097206E-004 -1.7489306629E-005 -1.8624588847E-005 -5.4073333740E-002 -1.0129928589E-001
9717500000.000 -3.3824157715E-001 -4.3701171875E-001 +7.8377127647E-004 +3.4689903259E-005 +4.1194260120E-005 -2.0971521735E-005 -4.1206359863E-002 -1.0709381104E-001
9850000000.000 -3.4494018555E-001 -4.3383789063E-001 +5.9306621552E-004 -4.5189261436E-004 -3.3676624298E-006 +5.5037438869E-005 -1.9058227539E-002 -1.0230255127E-001
9982500000.000 -3.4701538086E-001 -4.3435668945E-001 +2.8631091118E-004 -6.4304471016E-004 -4.2190775275E-005 +1.2489035726E-005 +6.6413879395E-003 -1.0317230225E-001
10115000000.000 -3.5124206543E-001 -4.3562316895E-001 -2.0536780357E-004 -6.7237019539E-004 -1.8671154976E-005 -2.8922222555E-005 +1.9557952881E-002 -9.9147796631E-002
10247500000.000 -3.5838317871E-001 -4.3519592285E-001 -5.2824616432E-004 -4.0194392204E-004 +6.6846609116E-005 +2.5890767574E-005 +3.5785675049E-002 -7.9936981201E-002
10380000000.000 -3.6262512207E-001 -4.3360900879E-001 -6.5013766289E-004 -9.4711780548E-005 -5.5957585573E-005 +6.4220279455E-005 +5.7109832764E-002 -6.7249298096E-002
10512500000.000 -3.6596679688E-001 -4.3330383301E-001 -5.7095289230E-004 +2.0819902420E-004 +7.7102333307E-005 +8.0578029156E-006 +6.2725067139E-002 -5.5610656738E-002
10645000000.000 -3.7023925781E-001 -4.3376159668E-001 -2.8732419014E-004 +5.2464008331E-004 +5.0557777286E-005 -4.3891370296E-005 +6.6226959229E-002 -2.9010772705E-002
10777500000.000 -3.7561035156E-001 -4.3411254883E-001 +4.1633844376E-005 +5.7256221771E-004 -5.2249059081E-005 +2.1139159799E-005 +7.6950073242E-002 -7.5378417969E-003
10910000000.000 -3.8027954102E-001 -4.3342590332E-001 +3.4677982330E-004 +4.6604871750E-004 +4.4982880354E-006 -3.5833567381E-005 +7.2219848633E-002 +6.1416625977E-003
11042500000.000 -3.8481140137E-001 -4.3325805664E-001 +5.0219893456E-004 +1.2540817261E-004 +7.3160976171E-005 +1.7978250980E-005 +5.9383392334E-002 +3.1581878662E-002
11175000000.000 -3.8825988770E-001 -4.3481445313E-001 +4.3876469135E-004 -1.6209483147E-004 +2.5160610676E-005 +5.8753415942E-005 +5.6060791016E-002 +5.2576065063E-002
11307500000.000 -3.9149475098E-001 -4.3484497070E-001 +2.8549134731E-004 -3.5221874714E-004 +7.9609453678E-006 -4.7834590077E-005 +4.3182373047E-002 +5.8799743652E-002
11440000000.000 -3.9651489258E-001 -4.3507385254E-001 +4.0486454964E-005 -4.0383636951E-004 +3.8223341107E-005 -3.3956021070E-005 +1.7837524414E-002 +7.2288513184E-002
11572500000.000 -3.9823913574E-001 -4.3676757813E-001 -1.6196072102E-004 -4.4403970242E-004 +7.9620629549E-005 +2.2534281015E-005 +3.9062500000E-003 +8.7318420410E-002
11705000000.000 -4.0089416504E-001 -4.3740844727E-001 -3.7312507629E-004 -2.5948882103E-004 -1.4237128198E-005 -1.0444317013E-005 -1.0707855225E-002 +8.0841064453E-002
11837500000.000 -4.0518188477E-001 -4.3801879883E-001 -3.4092366695E-004 +1.9535422325E-005 -3.1180679798E-006 -1.8274411559E-005 -4.3655395508E-002 +7.6465606689E-002
11970000000.000 -4.0695190430E-001 -4.3687438965E-001 -4.0929019451E-004 +2.1447241306E-004 +6.7498534918E-005 +8.5540115833E-005 -5.9829711914E-002 +8.2660675049E-002
12102500000.000 -4.0696716309E-001 -4.3788146973E-001 -2.4212896824E-004 +3.9705634117E-004 -2.8256326914E-006 -2.2877939045E-005 -6.5723419189E-002 +6.4014434814E-002
12235000000.000 -4.1256713867E-001 -4.3717956543E-001 +7.0974230766E-005 +3.9295852184E-004 -1.6950070858E-005 -7.4084848166E-005 -9.3074798584E-002 +4.3445587158E-002
12367500000.000 -4.1336059570E-001 -4.3605041504E-001 +3.3079087734E-004 +2.9140710831E-004 +8.6061656475E-005 +3.1892210245E-005 -1.0570526123E-001 +4.2034149170E-002
12500000000.000 -4.1711425781E-001 -4.3394470215E-001 +3.4697353840E-004 +3.6224722862E-005 -9.2023983598E-006 -1.7658807337E-005 -9.7419738770E-002 +1.9866943359E-002
12632500000.000 -4.1899108887E-001 -4.3492126465E-001 +2.8227269650E-004 -9.4965100288E-005 -2.9926188290E-005 -1.4504417777E-005 -1.0901641846E-001 -1.4064788818E-002
12765000000.000 -4.2185974121E-001 -4.3391418457E-001 +3.1247735023E-004 -2.6975572109E-004 +3.6735087633E-005 -1.7231330276E-005 -1.1708068848E-001 -1.8566131592E-002
12897500000.000 -4.2456054688E-001 -4.3138122559E-001 +5.1409006119E-006 -4.3612718582E-004 +4.7463923693E-005 +7.3708593845E-005 -9.2117309570E-002 -3.5156250000E-002
13030000000.000 -4.2674255371E-001 -4.3020629883E-001 -2.4883449078E-004 -2.1699070930E-004 -2.7440488338E-005 -2.1114945412E-005 -8.8764190674E-002 -7.1414947510E-002
13162500000.000 -4.2933654785E-001 -4.3043518066E-001 -2.9756128788E-004 -1.2689828873E-004 +6.9413334131E-005 -2.4404376745E-005 -9.0713500977E-002 -7.2963714600E-002
13295000000.000 -4.3235778809E-001 -4.2997741699E-001 -3.2739341259E-004 +6.1020255089E-005 +1.8939375877E-005 +7.9087913036E-005 -6.0543060303E-002 -7.8815460205E-002
13427500000.000 -4.3618774414E-001 -4.2730712891E-001 -2.2864341736E-004 +2.3010373116E-004 +1.5558674932E-005 -5.9539452195E-006 -4.6211242676E-002 -1.0393142700E-001
13560000000.000 -4.3655395508E-001 -4.2626953125E-001 +2.8103590012E-005 +2.7264654636E-004 -1.0717660189E-005 -7.4867159128E-005 -4.5829772949E-002 -1.0116577148E-001
13692500000.000 -4.3899536133E-001 -4.2732238770E-001 +8.2209706306E-005 +3.6709010601E-004 +6.6310167313E-005 -3.3870339394E-005 -1.7314910889E-002 -8.8943481445E-002
13825000000.000 -4.4322204590E-001 -4.2700195313E-001 +1.9811093807E-004 +5.9641897678E-005 -9.7379088402E-006 -1.3178586960E-004 +4.6997070313E-003 -1.0263442993E-001
13957500000.000 -4.4598388672E-001 -4.2393493652E-001 +1.9417703152E-004 -1.9259750843E-005 -7.7197328210E-006 -2.7185305953E-005 +3.2043457031E-004 -9.4928741455E-002
14090000000.000 -4.4657897949E-001 -4.2340087891E-001 +2.2225081921E-004 -8.2544982433E-005 -6.8418681622E-005 +6.6809356213E-005 +2.2174835205E-002 -6.9614410400E-002
14222500000.000 -4.4746398926E-001 -4.2576599121E-001 +9.5009803772E-005 -2.2507458925E-004 -3.0370429158E-005 -1.1408701539E-006 +4.3987274170E-002 -7.3726654053E-002
14355000000.000 -4.5252990723E-001 -4.2527770996E-001 -1.0219961405E-004 -2.4343281984E-004 +6.5483152866E-005 -1.3319402933E-004 +3.2939910889E-002 -6.6528320313E-002
14487500000.000 -4.5463562012E-001 -4.2414855957E-001 -6.8277120590E-005 -1.2544542551E-004 -1.7331913114E-006 +2.0459294319E-005 +3.9945602417E-002 -3.3569335938E-002
14620000000.000 -4.5429992676E-001 -4.2481994629E-001 -2.2391229868E-004 -2.0913779736E-004 +1.4283694327E-005 +1.9883736968E-006 +6.0663223267E-002 -3.1063079834E-002
14752500000.000 -4.5733642578E-001 -4.2855834961E-001 -2.7051568031E-004 -3.1366944313E-005 -4.0628015995E-005 -4.7385692596E-005 +4.2739868164E-002 -3.2155990601E-002
14885000000.000 -4.6044921875E-001 -4.2913818359E-001 -1.3113766909E-004 +1.3542175293E-004 +4.5951455832E-005 +1.0216236115E-004 +3.5024642944E-002 +1.6021728516E-003
15017500000.000 -4.6093750000E-001 -4.2941284180E-001 -7.6889991760E-005 +1.7033517361E-004 +3.9335340261E-005 +1.0249763727E-004 +5.2707672119E-002 +8.9302062988E-003
15150000000.000 -4.6191406250E-001 -4.3246459961E-001 +7.5727701187E-005 +2.3070722818E-004 -8.1151723862E-005 -4.1257590055E-005 +3.4942626953E-002 -1.8005371094E-003
15282500000.000 -4.6293640137E-001 -4.3458557129E-001 +1.9256770611E-004 +4.0575861931E-005 +7.0039182901E-005 +2.7373433113E-005 +1.4188766479E-002 +2.2968292236E-002
