!  2-Port S-parameters saved by WinCal
! VAR MeasName=S-Parameters (CALIBRATED_DATA) read from VNA (C)
! VAR MeasDate=10/16/2015 2:33:06 PM
! VAR NAME=M6082_10_13_2_2_20C_3.5mA_-17.5dBm
! VAR FILENAME=M6082_10_13_2_2_20C_3.5mA_-17.5dBm.S2P
! VAR DATE=10/16/2015 2:33:06 PM
! VAR PHYS_PORTS=2,1
! VAR ObjTypeName=DATASET
! VAR IndexType=Frequency
!
# Hz S RI R 50
45000000.000 +1.0561943054E-002 -1.9750595093E-003 -3.0679702759E-003 +7.9340934753E-003 +7.4100494385E-004 +6.5439939499E-004 +2.8463363647E-002 +2.2258758545E-003
177500000.000 +1.1209011078E-002 -8.6431503296E-003 +2.6566982269E-003 +6.7200660706E-003 -1.5519559383E-004 -5.3405761719E-005 +1.5712738037E-002 +1.6833305359E-002
310000000.000 +1.1607170105E-002 -1.6523361206E-002 +5.5296421051E-003 +4.4989585876E-003 -1.2060999870E-004 -7.4915587902E-006 +2.9014587402E-002 +6.1557769775E-002
442500000.000 +1.1685371399E-002 -2.4522781372E-002 +7.9784393311E-003 -1.0919570923E-004 +5.7687982917E-005 +3.0292198062E-005 +7.2452545166E-002 +2.2518157959E-002
575000000.000 +1.1251449585E-002 -3.3159255981E-002 +6.1101913452E-003 -4.4610500336E-003 -5.3085386753E-008 +2.2361986339E-005 +2.7105331421E-002 +1.1194229126E-002
707500000.000 +1.0437011719E-002 -4.0826797485E-002 +2.5048255920E-003 -6.9458484650E-003 -1.6605481505E-006 -1.9858591259E-005 +2.0380020142E-003 +1.8594741821E-002
840000000.000 +9.9544525146E-003 -4.9198150635E-002 -1.8711090088E-003 -7.0743560791E-003 +4.1509047151E-005 -1.5823170543E-005 -1.9937515259E-002 +2.6028633118E-002
972500000.000 +9.5214843750E-003 -5.7365417480E-002 -5.4776668549E-003 -4.8003196716E-003 -2.5466084480E-005 +9.8209828138E-005 -3.5827636719E-002 +3.5362243652E-002
1105000000.000 +7.9650878906E-003 -6.5692901611E-002 -7.1518421173E-003 -8.4781646729E-004 -1.5692785382E-005 +3.5211443901E-005 -4.6884536743E-002 +3.8188934326E-002
1237500000.000 +6.6490173340E-003 -7.3413848877E-002 -6.4017772675E-003 +3.3099651337E-003 +5.6456774473E-005 -1.8455088139E-005 -5.8456420898E-002 +3.3758163452E-002
1370000000.000 +5.1422119141E-003 -8.1264495850E-002 -3.3473968506E-003 +6.2737464905E-003 +2.4102628231E-006 +7.0322304964E-005 -7.3959350586E-002 +2.6844024658E-002
1502500000.000 +3.5133361816E-003 -8.9038848877E-002 +6.6876411438E-004 +7.0478916168E-003 -7.7538192272E-005 -4.1589140892E-005 -8.7970733643E-002 +2.1240234375E-002
1635000000.000 +2.6321411133E-003 -9.7129821777E-002 +4.5220851898E-003 +5.4934024811E-003 +7.5865536928E-005 -4.8138201237E-005 -9.8911285400E-002 +1.1608123779E-002
1767500000.000 +3.3187866211E-004 -1.0527801514E-001 +6.7927837372E-003 +1.9493103027E-003 -2.6244670153E-005 +6.8768858910E-005 -1.1183547974E-001 +2.8877258301E-003
1900000000.000 -1.4801025391E-003 -1.1219787598E-001 +6.6485404968E-003 -2.2397041321E-003 +2.1243467927E-006 +2.1764077246E-005 -1.1379241943E-001 -3.4637451172E-003
2032500000.000 -3.6277770996E-003 -1.1932754517E-001 +4.2352676392E-003 -5.5971145630E-003 +1.5687197447E-005 -9.1396272182E-005 -1.1360549927E-001 -2.4440765381E-002
2165000000.000 -4.9819946289E-003 -1.2758636475E-001 +4.2557716370E-004 -7.0264339447E-003 -3.2382085919E-005 +4.6839937568E-005 -1.2255859375E-001 -4.2293548584E-002
2297500000.000 -7.4462890625E-003 -1.3446807861E-001 -3.5700798035E-003 -5.9173107147E-003 -6.2726438046E-005 +2.3975968361E-005 -1.2652587891E-001 -5.3451538086E-002
2430000000.000 -9.7656250000E-003 -1.4104461670E-001 -6.3254833221E-003 -2.8991699219E-003 -2.3248605430E-005 -1.2133270502E-005 -1.2651062012E-001 -6.4903259277E-002
2562500000.000 -1.2084960938E-002 -1.4847564697E-001 -6.8101882935E-003 +1.0914802551E-003 +5.3469091654E-005 +7.9385936260E-005 -1.2519836426E-001 -7.1014404297E-002
2695000000.000 -1.6021728516E-002 -1.5460205078E-001 -5.0082206726E-003 +4.6920776367E-003 -1.2534856796E-004 -3.3654272556E-005 -1.1370468140E-001 -7.3440551758E-002
2827500000.000 -1.9348144531E-002 -1.5973663330E-001 -1.4848709106E-003 +6.6843032837E-003 +5.8166682720E-005 -8.2779675722E-005 -9.8495483398E-002 -8.1790924072E-002
2960000000.000 -2.1446228027E-002 -1.6594696045E-001 +2.4540424347E-003 +6.3607692719E-003 +7.5273215771E-005 -8.1222504377E-005 -8.8073730469E-002 -8.6757659912E-002
3092500000.000 -2.5207519531E-002 -1.7357635498E-001 +5.4800510406E-003 +3.8175582886E-003 -3.3246353269E-005 +1.1825934052E-005 -7.0350646973E-002 -8.6120605469E-002
3225000000.000 -3.0067443848E-002 -1.7960357666E-001 +6.6816806793E-003 -3.1709671021E-005 -8.2470476627E-005 -9.3460083008E-005 -5.1864624023E-002 -9.1056823730E-002
3357500000.000 -3.3645629883E-002 -1.8418121338E-001 +5.6204795837E-003 -3.8139820099E-003 -2.1073967218E-005 -4.5508146286E-005 -4.1362762451E-002 -9.1434478760E-002
3490000000.000 -3.6621093750E-002 -1.9165802002E-001 +2.5784969330E-003 -6.3018798828E-003 -2.8426758945E-005 -1.9473955035E-006 -2.7965545654E-002 -8.3179473877E-002
3622500000.000 -4.0672302246E-002 -1.9886016846E-001 -1.3358592987E-003 -6.5703392029E-003 -1.5497952700E-004 +4.3176114559E-005 -1.1386871338E-002 -7.9124450684E-002
3755000000.000 -4.5600891113E-002 -2.0534515381E-001 -4.8439502716E-003 -4.8239231110E-003 +6.6872686148E-005 +1.0777264833E-005 -5.9204101563E-003 -7.2818756104E-002
3887500000.000 -4.9247741699E-002 -2.1110534668E-001 -6.6981315613E-003 -1.3239383698E-003 +9.9934637547E-005 +9.9942088127E-005 +2.1896362305E-003 -5.5988311768E-002
4020000000.000 -5.2696228027E-002 -2.1672058105E-001 -6.3395500183E-003 +2.7954578400E-003 +9.0040266514E-006 -6.6835433245E-005 +1.3326644897E-002 -4.4380187988E-002
4152500000.000 -5.6076049805E-002 -2.2356414795E-001 -3.5805702209E-003 +5.6786537170E-003 +2.9731541872E-005 -6.3315033913E-005 +1.5245437622E-002 -3.2501220703E-002
4285000000.000 -6.0272216797E-002 -2.2943878174E-001 +2.6440620422E-004 +6.7288875580E-003 +3.0067749321E-005 +2.0456500351E-005 +1.7018318176E-002 -1.2938499451E-002
4417500000.000 -6.5078735352E-002 -2.3509979248E-001 +4.0204524994E-003 +5.5048465729E-003 -1.2227334082E-005 +2.1914020181E-005 +2.5515556335E-002 +3.6926269531E-003
4550000000.000 -6.8145751953E-002 -2.4017333984E-001 +6.3381195068E-003 +2.2437572479E-003 +1.7041340470E-005 -1.0570511222E-006 +2.8885841370E-002 +9.6149444580E-003
4682500000.000 -7.1624755859E-002 -2.4668884277E-001 +6.4783096313E-003 -1.5707015991E-003 -6.4456835389E-006 -1.8684193492E-005 +2.5512695313E-002 +2.0749092102E-002
4815000000.000 -7.6095581055E-002 -2.5253295898E-001 +4.5211315155E-003 -4.9715042114E-003 +4.6346336603E-005 +3.4270808101E-005 +3.1105041504E-002 +2.7430534363E-002
4947500000.000 -7.9528808594E-002 -2.5723266602E-001 +1.1186599731E-003 -6.6871643066E-003 +6.7282468081E-005 -9.7341835499E-006 +2.7502059937E-002 +1.9869804382E-002
5080000000.000 -8.2183837891E-002 -2.6283264160E-001 -2.9144287109E-003 -6.1335563660E-003 +5.2761286497E-005 +1.5949830413E-005 +1.3158798218E-002 +2.0495414734E-002
5212500000.000 -8.5937500000E-002 -2.6864624023E-001 -5.9783458710E-003 -3.5688877106E-003 +5.2060931921E-007 +2.1641142666E-005 +9.0799331665E-003 +2.4771690369E-002
5345000000.000 -9.0316772461E-002 -2.7287292480E-001 -6.9859027863E-003 +4.5061111450E-004 -3.0856579542E-005 -1.9036233425E-006 +5.3644180298E-003 +1.6230583191E-002
5477500000.000 -9.2193603516E-002 -2.7688598633E-001 -5.6235790253E-003 +4.3778419495E-003 +2.6954337955E-005 -2.6936642826E-005 -9.2730522156E-003 +1.0191917419E-002
5610000000.000 -9.5245361328E-002 -2.8237915039E-001 -2.1131038666E-003 +6.8743228912E-003 +1.9028782845E-005 +6.0809776187E-005 -1.4881610870E-002 +1.4369964600E-002
5742500000.000 -9.9731445313E-002 -2.8645324707E-001 +2.0866394043E-003 +6.8423748016E-003 -2.5208108127E-005 +2.1937303245E-005 -1.1578559875E-002 +5.9165954590E-003
5875000000.000 -1.0366821289E-001 -2.8855895996E-001 +5.7272911072E-003 +4.4417381287E-003 +1.1688563973E-005 -9.0836547315E-006 -2.0256042480E-002 -3.4494400024E-003
6007500000.000 -1.0632324219E-001 -2.9212951660E-001 +7.2560310364E-003 +4.4751167297E-004 +5.0799921155E-005 +3.1253322959E-005 -2.3189544678E-002 +1.0681152344E-004
6140000000.000 -1.1003112793E-001 -2.9714965820E-001 +6.3061714172E-003 -3.8115978241E-003 -6.8366527557E-005 -8.4713101387E-006 -1.5305042267E-002 -2.8672218323E-003
6272500000.000 -1.1624145508E-001 -3.0056762695E-001 +3.0126571655E-003 -6.7191123962E-003 +3.7034973502E-005 -1.4577060938E-005 -1.6427040100E-002 -1.1848449707E-002
6405000000.000 -1.2107849121E-001 -3.0186462402E-001 -1.3279914856E-003 -7.2758197784E-003 +5.5922195315E-005 -6.0964375734E-006 -1.9306182861E-002 -6.3819885254E-003
6537500000.000 -1.2336730957E-001 -3.0564880371E-001 -5.1689147949E-003 -5.2404403687E-003 -4.8456713557E-005 -6.4950436354E-006 -9.3035697937E-003 -3.3378601074E-003
6670000000.000 -1.2796020508E-001 -3.1124877930E-001 -7.1933269501E-003 -1.4185905457E-003 -1.4334917068E-005 -3.3518299460E-005 -7.8315734863E-003 -7.3633193970E-003
6802500000.000 -1.3499450684E-001 -3.1457519531E-001 -6.7203044891E-003 +2.9304027557E-003 -7.7923759818E-006 +8.8308006525E-006 -1.1388301849E-002 +7.5340270996E-005
6935000000.000 -1.3943481445E-001 -3.1550598145E-001 -3.9119720459E-003 +6.2761306763E-003 -2.5048851967E-005 +5.1446259022E-006 -6.2522888184E-003 +9.8805427551E-003
7067500000.000 -1.4132690430E-001 -3.1935119629E-001 +3.1661987305E-004 +7.3802471161E-003 +4.8382207751E-006 -2.5168992579E-005 -4.5433044434E-003 +1.0129451752E-002
7200000000.000 -1.4654541016E-001 -3.2466125488E-001 +4.3704509735E-003 +5.9220790863E-003 +3.2022595406E-005 -2.1066516638E-006 -1.5007019043E-002 +1.7004966736E-002
7332500000.000 -1.5335083008E-001 -3.2727050781E-001 +7.1606636047E-003 +2.4588108063E-003 -2.0739622414E-005 -6.8079680204E-007 -1.7004013062E-002 +3.0735969543E-002
7465000000.000 -1.5707397461E-001 -3.2936096191E-001 +7.2119235992E-003 -1.9879341125E-003 -4.3444335461E-005 -7.8119337559E-006 -1.9704818726E-002 +3.1220436096E-002
7597500000.000 -1.6038513184E-001 -3.3352661133E-001 +4.8451423645E-003 -5.7277679443E-003 +3.1236559153E-005 -2.2295862436E-006 -3.6252975464E-002 +3.3351898193E-002
7730000000.000 -1.6535949707E-001 -3.3883666992E-001 +7.5626373291E-004 -7.4503421783E-003 -5.7483091950E-005 +2.0597130060E-005 -4.8171997070E-002 +4.3777465820E-002
7862500000.000 -1.7022705078E-001 -3.4191894531E-001 -3.5951137543E-003 -6.6361427307E-003 -5.5641867220E-006 +1.3507902622E-005 -5.3480148315E-002 +4.2709350586E-002
7995000000.000 -1.7308044434E-001 -3.4449768066E-001 -6.7741870880E-003 -3.4399032593E-003 +1.4873221517E-005 -8.0438330770E-006 -7.2837829590E-002 +3.5099029541E-002
8127500000.000 -1.7602539063E-001 -3.5025024414E-001 -7.5874328613E-003 +9.4842910767E-004 +4.7653913498E-005 +3.4341588616E-005 -9.1396331787E-002 +3.9833068848E-002
8260000000.000 -1.8125915527E-001 -3.5371398926E-001 -5.7058334351E-003 +5.1360130310E-003 -1.6108155251E-005 +3.0046328902E-005 -9.5592498779E-002 +3.4393310547E-002
8392500000.000 -1.8367004395E-001 -3.5629272461E-001 -1.7669200897E-003 +7.5578689575E-003 +2.8041191399E-005 -2.2938475013E-005 -1.0979080200E-001 +1.8566131592E-002
8525000000.000 -1.8534851074E-001 -3.6022949219E-001 +2.7525424957E-003 +7.1842670441E-003 +6.0891732574E-005 +3.5356730223E-005 -1.2192916870E-001 +1.5068054199E-002
8657500000.000 -1.8846130371E-001 -3.6431884766E-001 +6.5739154816E-003 +4.4040679932E-003 -5.0883740187E-005 +4.1350722313E-005 -1.1788177490E-001 +4.3182373047E-003
8790000000.000 -1.9255065918E-001 -3.6781311035E-001 +7.9603195190E-003 -1.8119812012E-004 -7.8920274973E-006 -3.9556995034E-005 -1.1962127686E-001 -1.7341613770E-002
8922500000.000 -1.9485473633E-001 -3.6886596680E-001 +6.4311027527E-003 -4.6470165253E-003 +1.0045245290E-005 -4.8035755754E-005 -1.2241363525E-001 -3.0506134033E-002
9055000000.000 -1.9726562500E-001 -3.7234497070E-001 +2.7177333832E-003 -7.5528621674E-003 -2.5122426450E-005 +1.4873221517E-006 -1.1099624634E-001 -4.3998718262E-002
9187500000.000 -2.0060729980E-001 -3.7515258789E-001 -2.1963119507E-003 -7.7862739563E-003 -3.3112242818E-005 -2.2757798433E-005 -1.0023880005E-001 -6.6745758057E-002
9320000000.000 -2.0629882813E-001 -3.7611389160E-001 -6.3209533691E-003 -5.1352977753E-003 +1.9918195903E-005 +2.6077032089E-006 -9.3681335449E-002 -7.9544067383E-002
9452500000.000 -2.0930480957E-001 -3.7745666504E-001 -8.1682205200E-003 -6.5326690674E-004 -3.4481287003E-005 +7.4278563261E-005 -7.4287414551E-002 -8.6654663086E-002
9585000000.000 -2.1293640137E-001 -3.8000488281E-001 -7.0364475250E-003 +4.2409896851E-003 -1.1088326573E-005 -2.1008774638E-005 -5.4306030273E-002 -1.0115432739E-001
9717500000.000 -2.1858215332E-001 -3.8328552246E-001 -3.3912658691E-003 +7.5211524963E-003 +3.3296644688E-005 +1.4230608940E-006 -4.1366577148E-002 -1.0703277588E-001
9850000000.000 -2.2470092773E-001 -3.8267517090E-001 +1.5654563904E-003 +8.1429481506E-003 +1.6279518604E-005 +6.6455453634E-005 -1.9218444824E-002 -1.0227203369E-001
9982500000.000 -2.2686767578E-001 -3.8526916504E-001 +6.0479640961E-003 +5.7377815247E-003 -3.5291537642E-005 +1.4619901776E-005 +6.4582824707E-003 -1.0320281982E-001
10115000000.000 -2.3086547852E-001 -3.8833618164E-001 +8.2340240479E-003 +1.2526512146E-003 -2.3908913136E-005 +5.9055164456E-006 +1.9184112549E-002 -9.9102020264E-002
10247500000.000 -2.3780822754E-001 -3.8990783691E-001 +7.4870586395E-003 -3.7248134613E-003 +4.1574239731E-005 -6.8824738264E-006 +3.5537719727E-002 -7.9998016357E-002
10380000000.000 -2.4232482910E-001 -3.9048767090E-001 +3.7858486176E-003 -7.3502063751E-003 -4.1672959924E-005 +1.6294419765E-005 +5.6957244873E-002 -6.7592620850E-002
10512500000.000 -2.4589538574E-001 -3.9204406738E-001 -1.1267662048E-003 -8.2807540894E-003 +4.1723251343E-007 -8.1118196249E-005 +6.2664031982E-002 -5.6030273438E-002
10645000000.000 -2.5009155273E-001 -3.9385986328E-001 -5.5499076843E-003 -6.2339305878E-003 +2.2023916245E-005 +6.0554593801E-005 +6.6040039063E-002 -2.9251098633E-002
10777500000.000 -2.5593566895E-001 -3.9604187012E-001 -8.0795288086E-003 -1.7566680908E-003 -1.4082528651E-005 +1.4502555132E-005 +7.7022552490E-002 -7.9612731934E-003
10910000000.000 -2.6110839844E-001 -3.9736938477E-001 -7.6220035553E-003 +3.3211708069E-003 +5.1092356443E-006 -1.7492100596E-005 +7.2238922119E-002 +5.6304931641E-003
11042500000.000 -2.6625061035E-001 -3.9878845215E-001 -4.3833255768E-003 +6.9079399109E-003 +1.9706785679E-006 -3.4118071198E-005 +5.9577941895E-002 +3.1188964844E-002
11175000000.000 -2.7043151855E-001 -4.0185546875E-001 +4.8589706421E-004 +8.2149505615E-003 +2.8265640140E-006 +2.6819296181E-005 +5.6447982788E-002 +5.2331924438E-002
11307500000.000 -2.7436828613E-001 -4.0354919434E-001 +5.2146911621E-003 +6.2751770020E-003 -5.9865415096E-006 -1.1573545635E-005 +4.3558120728E-002 +5.8498382568E-002
11440000000.000 -2.7964782715E-001 -4.0534973145E-001 +7.8425407410E-003 +2.1624565125E-003 +5.7043507695E-005 -1.6361474991E-005 +1.8253326416E-002 +7.2093963623E-002
11572500000.000 -2.8182983398E-001 -4.0823364258E-001 +7.6651573181E-003 -2.7303695679E-003 -5.4348260164E-005 +4.1872262955E-006 +4.4746398926E-003 +8.7337493896E-002
11705000000.000 -2.8538513184E-001 -4.1017150879E-001 +4.5046806335E-003 -6.5946578979E-003 -5.8205798268E-005 -5.4314732552E-006 -1.0082244873E-002 +8.0802917480E-002
11837500000.000 -2.8981018066E-001 -4.1189575195E-001 -1.3542175293E-004 -7.8911781311E-003 -8.9034438133E-007 -3.0399300158E-005 -4.3060302734E-002 +7.6480865479E-002
11970000000.000 -2.9174804688E-001 -4.1178894043E-001 -4.5704841614E-003 -6.3259601593E-003 +3.0312687159E-005 +2.7507543564E-005 -5.9322357178E-002 +8.3026885986E-002
12102500000.000 -2.9263305664E-001 -4.1366577148E-001 -7.3332786560E-003 -2.4507045746E-003 -1.9183382392E-005 +5.1315873861E-007 -6.5277099609E-002 +6.4300537109E-002
12235000000.000 -2.9907226563E-001 -4.1381835938E-001 -7.2298049927E-003 +2.1786689758E-003 -6.9905072451E-005 -2.0492821932E-005 -9.2674255371E-002 +4.3926239014E-002
12367500000.000 -3.0020141602E-001 -4.1352844238E-001 -4.5483112335E-003 +5.9573650360E-003 -4.2777508497E-005 -2.6937574148E-005 -1.0539245605E-001 +4.2663574219E-002
12500000000.000 -3.0476379395E-001 -4.1249084473E-001 -3.3092498779E-004 +7.4353218079E-003 -1.2778677046E-005 -1.6371719539E-005 -9.7175598145E-002 +2.0404815674E-002
12632500000.000 -3.0776977539E-001 -4.1410827637E-001 +3.9412975311E-003 +6.0734748840E-003 -1.4308840036E-005 -3.5194680095E-005 -1.0914611816E-001 -1.3454437256E-002
12765000000.000 -3.1112670898E-001 -4.1369628906E-001 +6.6242218018E-003 +2.6762485504E-003 -9.9241733551E-006 +4.6476721764E-005 -1.1714553833E-001 -1.8013000488E-002
12897500000.000 -3.1428527832E-001 -4.1217041016E-001 +6.8907737732E-003 -1.6064643860E-003 -2.7608126402E-005 +7.5414776802E-005 -9.2281341553E-002 -3.4626007080E-002
13030000000.000 -3.1710815430E-001 -4.1197204590E-001 +4.5347213745E-003 -5.0890445709E-003 +9.6727162600E-006 -3.7958845496E-005 -8.9313507080E-002 -7.0983886719E-002
13162500000.000 -3.2009887695E-001 -4.1270446777E-001 +7.4911117554E-004 -6.7214965820E-003 +4.6117231250E-005 -2.0412728190E-005 -9.1464996338E-002 -7.2586059570E-002
13295000000.000 -3.2327270508E-001 -4.1304016113E-001 -3.1292438507E-003 -5.7961940765E-003 +3.0573457479E-005 +3.2866373658E-005 -6.0962677002E-002 -7.8567504883E-002
13427500000.000 -3.2733154297E-001 -4.1093444824E-001 -5.8126449585E-003 -2.9010772705E-003 -4.1848048568E-005 -2.3869797587E-005 -4.6661376953E-002 -1.0400772095E-001
13560000000.000 -3.2780456543E-001 -4.1026306152E-001 -6.2620639801E-003 +9.1624259949E-004 -2.2150576115E-005 +2.8698705137E-005 -4.6340942383E-002 -1.0111618042E-001
13692500000.000 -3.3055114746E-001 -4.1178894043E-001 -4.5266151428E-003 +4.3687820435E-003 +5.6784600019E-005 +6.0902908444E-005 -1.7757415771E-002 -8.9118957520E-002
13825000000.000 -3.3554077148E-001 -4.1146850586E-001 -1.3890266418E-003 +6.0310363770E-003 -2.1530315280E-005 -5.1910057664E-005 +4.1542053223E-003 -1.0295867920E-001
13957500000.000 -3.3874511719E-001 -4.0885925293E-001 +2.3038387299E-003 +5.4185390472E-003 +1.5351921320E-005 +2.5052577257E-005 -2.7847290039E-004 -9.5485687256E-002
14090000000.000 -3.4024047852E-001 -4.0866088867E-001 +4.8754215240E-003 +3.0913352966E-003 -6.3061714172E-005 -1.9147992134E-006 +2.1995544434E-002 -7.0075988770E-002
14222500000.000 -3.4188842773E-001 -4.1119384766E-001 +5.6729316711E-003 -1.2040138245E-004 +2.1059997380E-005 -7.6284632087E-006 +4.3869018555E-002 -7.4127197266E-002
14355000000.000 -3.4742736816E-001 -4.1091918945E-001 +4.2545795441E-003 -3.4067630768E-003 -1.6938894987E-005 -5.3362920880E-005 +3.3100128174E-002 -6.7089080811E-002
14487500000.000 -3.4999084473E-001 -4.1036987305E-001 +1.6305446625E-003 -5.1586627960E-003 +4.2747706175E-005 +8.6426734924E-007 +4.0187835693E-002 -3.4059524536E-002
14620000000.000 -3.5021972656E-001 -4.1146850586E-001 -1.4650821686E-003 -5.0728321075E-003 -4.1255727410E-005 +1.5893951058E-005 +6.0934066772E-002 -3.1320571899E-002
14752500000.000 -3.5356140137E-001 -4.1539001465E-001 -3.9927959442E-003 -3.1743049622E-003 +3.3764168620E-005 -5.0796195865E-005 +4.3136596680E-002 -3.2474517822E-002
14885000000.000 -3.5629272461E-001 -4.1636657715E-001 -5.0654411316E-003 -3.9863586426E-004 +3.9335340261E-005 -5.1967799664E-006 +3.5448074341E-002 +1.5277862549E-003
15017500000.000 -3.5670471191E-001 -4.1714477539E-001 -4.1766166687E-003 +2.5045871735E-003 -3.7154182792E-005 +2.7738511562E-005 +5.3113937378E-002 +8.7432861328E-003
15150000000.000 -3.5743713379E-001 -4.2060852051E-001 -2.1200180054E-003 +4.2583942413E-003 -1.8037855625E-005 -3.6681070924E-005 +3.5112380981E-002 -1.6784667969E-003
15282500000.000 -3.5818481445E-001 -4.2247009277E-001 +8.6045265198E-004 +4.4717788696E-003 +4.5269262046E-006 -5.5062118918E-006 +1.4315605164E-002 +2.3240089417E-002
