!  2-Port S-parameters saved by WinCal
! VAR MeasName=S-Parameters (CALIBRATED_DATA) read from VNA (C)
! VAR MeasDate=10/16/2015 2:39:28 PM
! VAR NAME=M6082_10_13_2_2_20C_8.3mA_-17.5dBm
! VAR FILENAME=M6082_10_13_2_2_20C_8.3mA_-17.5dBm.S2P
! VAR DATE=10/16/2015 2:39:28 PM
! VAR PHYS_PORTS=2,1
! VAR ObjTypeName=DATASET
! VAR IndexType=Frequency
!
# Hz S RI R 50
45000000.000 -8.5033416748E-002 +4.0435791016E-004 -5.3143501282E-004 +7.7099800110E-003 +9.4875693321E-005 -3.6047399044E-004 +2.8135299683E-002 +2.7284622192E-003
177500000.000 -8.2889556885E-002 -4.9514770508E-003 +2.7930736542E-003 +6.8266391754E-003 -1.8104910851E-004 +4.0096044540E-004 +1.5817642212E-002 +1.6554832458E-002
310000000.000 -8.2176208496E-002 -1.0692596436E-002 +5.7728290558E-003 +4.7512054443E-003 -3.4146010876E-005 -2.3651123047E-004 +2.9123306274E-002 +6.1452865601E-002
442500000.000 -8.1615447998E-002 -1.6586303711E-002 +8.4233283997E-003 +1.0967254639E-004 +8.7454915047E-005 -3.8579106331E-005 +7.2666168213E-002 +2.2769927979E-002
575000000.000 -8.1512451172E-002 -2.3147583008E-002 +6.4227581024E-003 -4.4665336609E-003 +4.4623389840E-005 +3.4159049392E-005 +2.7229309082E-002 +1.1165618896E-002
707500000.000 -8.1893920898E-002 -2.8778076172E-002 +2.7549266815E-003 -7.2243213654E-003 +4.5165419579E-005 -4.2797997594E-005 +2.0980834961E-003 +1.8761634827E-002
840000000.000 -8.1729888916E-002 -3.5114288330E-002 -1.7528533936E-003 -7.3797702789E-003 +6.8627297878E-005 -1.4126300812E-005 -1.9837379456E-002 +2.6061058044E-002
972500000.000 -8.1665039063E-002 -4.1309356689E-002 -5.4957866669E-003 -5.1887035370E-003 +1.9771978259E-005 +2.3016706109E-005 -3.5758972168E-002 +3.5409927368E-002
1105000000.000 -8.2275390625E-002 -4.7744750977E-002 -7.4007511139E-003 -1.1277198792E-003 -7.8391283751E-005 +1.1291354895E-005 -4.6895980835E-002 +3.8242340088E-002
1237500000.000 -8.2977294922E-002 -5.3588867188E-002 -6.6964626312E-003 +3.0848979950E-003 +6.1329454184E-005 +9.1120600700E-006 -5.8553695679E-002 +3.3948898315E-002
1370000000.000 -8.3869934082E-002 -5.9463500977E-002 -3.8285255432E-003 +6.3877105713E-003 +1.0307412595E-005 -1.1795200408E-006 -7.3936462402E-002 +2.7000427246E-002
1502500000.000 -8.4403991699E-002 -6.5296173096E-002 +3.6358833313E-004 +7.3151588440E-003 -4.9576163292E-005 -2.3018568754E-005 -8.7951660156E-002 +2.1274566650E-002
1635000000.000 -8.4697723389E-002 -7.1788787842E-002 +4.4627189636E-003 +5.9220790863E-003 +5.7574361563E-005 -1.6050413251E-005 -9.8926544189E-002 +1.1692047119E-002
1767500000.000 -8.5960388184E-002 -7.7919006348E-002 +6.9646835327E-003 +2.4843215942E-003 -1.9755214453E-005 -3.6945566535E-006 -1.1191558838E-001 +2.9563903809E-003
1900000000.000 -8.6540222168E-002 -8.3229064941E-002 +7.1191787720E-003 -1.9879341125E-003 -8.3275139332E-005 -7.1749091148E-006 -1.1384201050E-001 -3.3645629883E-003
2032500000.000 -8.7615966797E-002 -8.8687896729E-002 +4.7922134399E-003 -5.4848194122E-003 -1.0862946510E-005 -1.0554865003E-004 -1.1372375488E-001 -2.4333953857E-002
2165000000.000 -8.8180541992E-002 -9.5378875732E-002 +8.2635879517E-004 -7.2987079620E-003 +1.9302591681E-005 -2.1110288799E-005 -1.2250518799E-001 -4.2255401611E-002
2297500000.000 -8.9233398438E-002 -1.0054779053E-001 -3.4420490265E-003 -6.3371658325E-003 -8.4344297647E-005 -7.1883201599E-005 -1.2648773193E-001 -5.3482055664E-002
2430000000.000 -9.0244293213E-002 -1.0582733154E-001 -6.1304569244E-003 -3.3333301544E-003 +1.2938678265E-004 -9.1627240181E-005 -1.2648773193E-001 -6.4849853516E-002
2562500000.000 -9.1506958008E-002 -1.1177825928E-001 -7.1043968201E-003 +5.3215026855E-004 +9.0133398771E-005 -5.1371753216E-005 -1.2512969971E-001 -7.0945739746E-002
2695000000.000 -9.4337463379E-002 -1.1652755737E-001 -5.6631565094E-003 +4.4035911560E-003 -1.9036978483E-004 -8.7402760983E-005 -1.1365890503E-001 -7.3425292969E-002
2827500000.000 -9.6237182617E-002 -1.2034606934E-001 -2.0987987518E-003 +6.8290233612E-003 +6.1653554440E-007 -4.7322362661E-005 -9.8640441895E-002 -8.1741333008E-002
2960000000.000 -9.6969604492E-002 -1.2541198730E-001 +2.1522045135E-003 +6.6709518433E-003 +2.7447938919E-005 -1.9976869226E-006 -8.7947845459E-002 -8.6746215820E-002
3092500000.000 -9.9472045898E-002 -1.3169860840E-001 +5.5279731750E-003 +4.4839382172E-003 +3.0025839806E-006 +6.4305961132E-005 -7.0327758789E-002 -8.6017608643E-002
3225000000.000 -1.0317993164E-001 -1.3652801514E-001 +6.9730281830E-003 +5.4955482483E-004 -6.3221901655E-005 -5.6270509958E-005 -5.1990509033E-002 -9.1220855713E-002
3357500000.000 -1.0527801514E-001 -1.3995361328E-001 +5.9800148010E-003 -3.2875537872E-003 +3.6478042603E-005 -1.2651830912E-004 -4.1286468506E-002 -9.1556549072E-002
3490000000.000 -1.0711669922E-001 -1.4625549316E-001 +3.3755302429E-003 -6.1364173889E-003 -1.4136731625E-004 +6.8396329880E-005 -2.7992248535E-002 -8.3240509033E-002
3622500000.000 -1.0961151123E-001 -1.5240478516E-001 -9.2625617981E-004 -7.1067810059E-003 -1.2747943401E-005 +5.8971345425E-005 -1.1436462402E-002 -7.9257965088E-002
3755000000.000 -1.1320495605E-001 -1.5792846680E-001 -4.4779777527E-003 -5.3343772888E-003 +4.7523528337E-005 -8.5093080997E-005 -5.8670043945E-003 -7.2868347168E-002
3887500000.000 -1.1557006836E-001 -1.6275024414E-001 -6.6297054291E-003 -1.8265247345E-003 -8.1453472376E-005 +6.8105757236E-005 +2.1343231201E-003 -5.5852890015E-002
4020000000.000 -1.1772155762E-001 -1.6749572754E-001 -6.5357685089E-003 +2.1464824677E-003 -3.1244009733E-005 -7.0706009865E-005 +1.3502120972E-002 -4.4361114502E-002
4152500000.000 -1.1968231201E-001 -1.7354583740E-001 -4.2080879211E-003 +5.4962635040E-003 -6.4633786678E-006 -8.5879117250E-005 +1.5367507935E-002 -3.2562255859E-002
4285000000.000 -1.2256622314E-001 -1.7871856689E-001 -4.3296813965E-004 +6.9291591644E-003 +6.6649168730E-005 +5.8874487877E-005 +1.7140388489E-002 -1.3054847717E-002
4417500000.000 -1.2593078613E-001 -1.8342590332E-001 +3.4632682800E-003 +5.9907436371E-003 -1.8700025976E-005 +2.6007182896E-005 +2.5752067566E-002 +3.6029815674E-003
4550000000.000 -1.2763977051E-001 -1.8793487549E-001 +6.2334537506E-003 +2.9006004333E-003 -6.3791871071E-005 -1.2408941984E-005 +2.8968811035E-002 +9.5157623291E-003
4682500000.000 -1.2991333008E-001 -1.9378662109E-001 +6.7121982574E-003 -9.1838836670E-004 +2.8460286558E-005 -1.1552125216E-005 +2.5691032410E-002 +2.0670890808E-002
4815000000.000 -1.3307189941E-001 -1.9892120361E-001 +5.1534175873E-003 -4.3737888336E-003 -2.5046989322E-005 -2.6312656701E-005 +3.1284332275E-002 +2.7402877808E-002
4947500000.000 -1.3513183594E-001 -2.0320129395E-001 +1.7251968384E-003 -6.5095424652E-003 +2.2761523724E-006 -1.5116296709E-005 +2.7635574341E-002 +1.9958496094E-002
5080000000.000 -1.3648223877E-001 -2.0827484131E-001 -2.1314620972E-003 -6.4873695374E-003 +5.3731724620E-005 -1.3241544366E-005 +1.3336181641E-002 +2.0527839661E-002
5212500000.000 -1.3898468018E-001 -2.1348571777E-001 -5.3565502167E-003 -4.3027400970E-003 -2.1271407604E-006 +2.8994865716E-005 +9.1915130615E-003 +2.4844169617E-002
5345000000.000 -1.4197540283E-001 -2.1723175049E-001 -6.9162845612E-003 -5.2118301392E-004 -1.3209879398E-005 -4.8022717237E-005 +5.5036544800E-003 +1.6209602356E-002
5477500000.000 -1.4270019531E-001 -2.2085571289E-001 -5.9745311737E-003 +3.5254955292E-003 +6.2070321292E-006 -6.4494088292E-006 -9.2630386353E-003 +1.0277271271E-002
5610000000.000 -1.4443969727E-001 -2.2587585449E-001 -2.9997825623E-003 +6.2744617462E-003 +3.8500875235E-005 +6.5438449383E-005 -1.4890670776E-002 +1.4520645142E-002
5742500000.000 -1.4762878418E-001 -2.2952270508E-001 +1.0745525360E-003 +7.0421695709E-003 -5.7693570852E-005 +5.5432319641E-006 -1.1523246765E-002 +5.9528350830E-003
5875000000.000 -1.5039062500E-001 -2.3138427734E-001 +4.7299861908E-003 +5.1009654999E-003 +3.4762546420E-005 -1.6000121832E-005 -2.0270347595E-002 -3.2958984375E-003
6007500000.000 -1.5174102783E-001 -2.3449707031E-001 +6.7901611328E-003 +1.5413761139E-003 +2.2538006306E-007 +2.6399269700E-005 -2.3230552673E-002 +1.7642974854E-004
6140000000.000 -1.5427398682E-001 -2.3921203613E-001 +6.5970420837E-003 -2.6123523712E-003 -2.2951513529E-005 -1.6186386347E-005 -1.5414237976E-002 -2.8252601624E-003
6272500000.000 -1.5928649902E-001 -2.4241638184E-001 +3.8735866547E-003 -5.8803558350E-003 +4.0633603930E-005 -1.8909573555E-005 -1.6510963440E-002 -1.1760711670E-002
6405000000.000 -1.6283416748E-001 -2.4339294434E-001 -2.9802322388E-005 -6.9036483765E-003 +1.1964701116E-005 +2.0372681320E-005 -1.9365310669E-002 -6.3495635986E-003
6537500000.000 -1.6406250000E-001 -2.4691772461E-001 -3.9033889771E-003 -5.7888031006E-003 -1.2541189790E-005 -1.9535422325E-005 -9.2411041260E-003 -3.2601356506E-003
6670000000.000 -1.6743469238E-001 -2.5248718262E-001 -6.4327716827E-003 -2.6183128357E-003 +2.4447217584E-005 -3.6079436541E-005 -7.9016685486E-003 -7.2860717773E-003
6802500000.000 -1.7329406738E-001 -2.5556945801E-001 -6.7553520203E-003 +1.4584064484E-003 +1.4786608517E-005 +3.3057294786E-006 -1.1417388916E-002 +1.0156631470E-004
6935000000.000 -1.7662048340E-001 -2.5627136230E-001 -4.7783851624E-003 +4.9200057983E-003 +2.6086345315E-005 -1.3185665011E-005 -6.4058303833E-003 +9.8800659180E-003
7067500000.000 -1.7729187012E-001 -2.6008605957E-001 -1.2266635895E-003 +6.7787170410E-003 +3.3397227526E-005 -3.5308301449E-005 -4.6443939209E-003 +1.0225772858E-002
7200000000.000 -1.8154907227E-001 -2.6560974121E-001 +2.8078556061E-003 +6.2468051910E-003 +7.8614801168E-005 +2.3785978556E-005 -1.5140533447E-002 +1.7003059387E-002
7332500000.000 -1.8714904785E-001 -2.6792907715E-001 +5.7613849640E-003 +3.6430358887E-003 +8.9406967163E-008 +1.9808299839E-005 -1.7086029053E-002 +3.0684471130E-002
7465000000.000 -1.8974304199E-001 -2.6992797852E-001 +6.7124366760E-003 -2.1266937256E-004 -2.8173439205E-005 -2.0286068320E-005 -1.9836425781E-002 +3.1284332275E-002
7597500000.000 -1.9203186035E-001 -2.7445983887E-001 +5.4023265839E-003 -3.9079189301E-003 +4.1309744120E-005 -2.7352944016E-005 -3.6310195923E-002 +3.3288955688E-002
7730000000.000 -1.9612121582E-001 -2.7932739258E-001 +2.3467540741E-003 -6.3512325287E-003 +1.7840415239E-005 +6.6559761763E-005 -4.8412322998E-002 +4.3601989746E-002
7862500000.000 -1.9978332520E-001 -2.8234863281E-001 -1.5137195587E-003 -6.4365863800E-003 -5.4558739066E-005 -5.0030648708E-005 -5.3680419922E-002 +4.2575836182E-002
7995000000.000 -2.0162963867E-001 -2.8511047363E-001 -4.9004554749E-003 -4.5037269592E-003 +3.8810074329E-005 -3.1329691410E-005 -7.2891235352E-002 +3.5045623779E-002
8127500000.000 -2.0378112793E-001 -2.9084777832E-001 -6.6213607788E-003 -1.0921955109E-003 +1.6304664314E-005 -1.5896745026E-005 -9.1442108154E-002 +3.9615631104E-002
8260000000.000 -2.0790100098E-001 -2.9406738281E-001 -6.0551166534E-003 +2.8154850006E-003 -7.4267387390E-005 -1.8607825041E-005 -9.5546722412E-002 +3.4362792969E-002
8392500000.000 -2.0941162109E-001 -2.9696655273E-001 -3.4708976746E-003 +5.7437419891E-003 +2.8569251299E-005 -6.0282647610E-005 -1.0968017578E-001 +1.8455505371E-002
8525000000.000 -2.1023559570E-001 -3.0068969727E-001 +3.1566619873E-004 +6.6411495209E-003 +3.8811936975E-005 -3.0664727092E-005 -1.2198257446E-001 +1.4991760254E-002
8657500000.000 -2.1229553223E-001 -3.0476379395E-001 +4.0242671967E-003 +5.2769184113E-003 +1.5492551029E-005 +5.7015568018E-006 -1.1787414551E-001 +4.1313171387E-003
8790000000.000 -2.1562194824E-001 -3.0809020996E-001 +6.3750743866E-003 +2.1972656250E-003 -4.6886503696E-005 +2.0600855350E-006 -1.1956787109E-001 -1.7425537109E-002
8922500000.000 -2.1707153320E-001 -3.0918884277E-001 +6.4077377319E-003 -1.7442703247E-003 -1.7862766981E-005 +1.9690953195E-005 -1.2233734131E-001 -3.0506134033E-002
9055000000.000 -2.1838378906E-001 -3.1251525879E-001 +4.3959617615E-003 -5.1331520081E-003 -6.7729502916E-005 +2.2314488888E-006 -1.1100006104E-001 -4.4113159180E-002
9187500000.000 -2.2097778320E-001 -3.1526184082E-001 +7.6937675476E-004 -6.6528320313E-003 -4.2306259274E-005 -4.6100467443E-006 -1.0012817383E-001 -6.6841125488E-002
9320000000.000 -2.2560119629E-001 -3.1626892090E-001 -3.0593872070E-003 -6.0219764709E-003 +2.1081417799E-005 -3.9618462324E-005 -9.3647003174E-002 -7.9570770264E-002
9452500000.000 -2.2776794434E-001 -3.1741333008E-001 -5.8743953705E-003 -3.0992031097E-003 -3.9452686906E-005 +5.1891431212E-005 -7.4234008789E-002 -8.6639404297E-002
9585000000.000 -2.3010253906E-001 -3.1988525391E-001 -6.6978931427E-003 +7.0762634277E-004 -2.2413209081E-005 -1.4672987163E-005 -5.4225921631E-002 -1.0118484497E-001
9717500000.000 -2.3477172852E-001 -3.2315063477E-001 -5.1889419556E-003 +4.2581558228E-003 +3.5054981709E-006 -6.2543898821E-005 -4.1118621826E-002 -1.0688400269E-001
9850000000.000 -2.3976135254E-001 -3.2261657715E-001 -1.8489360809E-003 +6.4067840576E-003 -3.1292438507E-006 +3.4676864743E-005 -1.9149780273E-002 -1.0223770142E-001
9982500000.000 -2.4084472656E-001 -3.2502746582E-001 +2.0740032196E-003 +6.3488483429E-003 -7.8853219748E-005 +4.2762607336E-005 +6.5879821777E-003 -1.0318374634E-001
10115000000.000 -2.4386596680E-001 -3.2815551758E-001 +5.2525997162E-003 +4.0597915649E-003 -4.7162175179E-005 -1.0460615158E-004 +1.9287109375E-002 -9.9102020264E-002
10247500000.000 -2.4969482422E-001 -3.2986450195E-001 +6.6626071930E-003 +4.2390823364E-004 -4.3287873268E-005 +9.4313174486E-005 +3.5781860352E-002 -7.9944610596E-002
10380000000.000 -2.5282287598E-001 -3.3035278320E-001 +5.6657791138E-003 -3.3655166626E-003 -4.9594789743E-005 +9.4156712294E-006 +5.7197570801E-002 -6.7443847656E-002
10512500000.000 -2.5532531738E-001 -3.3213806152E-001 +2.9568672180E-003 -5.9154033661E-003 -1.0396819562E-005 +1.8673017621E-007 +6.2694549561E-002 -5.5908203125E-002
10645000000.000 -2.5872802734E-001 -3.3439636230E-001 -9.0074539185E-004 -6.5834522247E-003 +3.0472874641E-005 -2.0747072995E-005 +6.6127777100E-002 -2.9182434082E-002
10777500000.000 -2.6318359375E-001 -3.3659362793E-001 -4.4622421265E-003 -4.8596858978E-003 -1.2164935470E-005 +1.9134022295E-005 +7.7060699463E-002 -7.7629089355E-003
10910000000.000 -2.6712036133E-001 -3.3804321289E-001 -6.3514709473E-003 -1.5850067139E-003 +2.6198104024E-006 -2.3344531655E-005 +7.2307586670E-002 +5.7411193848E-003
11042500000.000 -2.7120971680E-001 -3.3996582031E-001 -6.2084197998E-003 +2.2671222687E-003 +8.6240470409E-005 -4.9881637096E-006 +5.9549331665E-002 +3.1284332275E-002
11175000000.000 -2.7418518066E-001 -3.4338378906E-001 -3.9103031158E-003 +5.3553581238E-003 +1.0028481483E-005 +5.0174072385E-005 +5.6367874146E-002 +5.2469253540E-002
11307500000.000 -2.7662658691E-001 -3.4530639648E-001 -2.2792816162E-004 +6.5681934357E-003 -3.7441030145E-005 -5.6318938732E-005 +4.3479919434E-002 +5.8656692505E-002
11440000000.000 -2.8103637695E-001 -3.4783935547E-001 +3.5822391510E-003 +5.5913925171E-003 +1.5828758478E-005 -4.8490241170E-005 +1.8081665039E-002 +7.2200775146E-002
11572500000.000 -2.8222656250E-001 -3.5119628906E-001 +6.0138702393E-003 +2.6128292084E-003 +1.0004267097E-005 +3.2225623727E-005 +4.2839050293E-003 +8.7463378906E-002
11705000000.000 -2.8459167480E-001 -3.5339355469E-001 +6.4375400543E-003 -1.1479854584E-003 -1.4467164874E-005 -4.0657818317E-005 -1.0406494141E-002 +8.0940246582E-002
11837500000.000 -2.8788757324E-001 -3.5588073730E-001 +4.6989917755E-003 -4.6348571777E-003 -3.5751610994E-005 -9.3732029200E-005 -4.3334960938E-002 +7.6587677002E-002
11970000000.000 -2.8889465332E-001 -3.5630798340E-001 +1.2812614441E-003 -6.4349174500E-003 +2.7297064662E-006 +2.8755515814E-005 -5.9516906738E-002 +8.3122253418E-002
12102500000.000 -2.8868103027E-001 -3.5879516602E-001 -2.5720596313E-003 -6.0644149780E-003 -8.1494450569E-005 +4.0959566832E-005 -6.5666198730E-002 +6.4350128174E-002
12235000000.000 -2.9420471191E-001 -3.5969543457E-001 -5.4965019226E-003 -3.5624504089E-003 +6.0051679611E-006 -6.4585357904E-005 -9.2899322510E-002 +4.3842315674E-002
12367500000.000 -2.9446411133E-001 -3.5992431641E-001 -6.5248012543E-003 +1.8882751465E-004 +4.4453889132E-005 +5.6862831116E-005 -1.0567092896E-001 +4.2510986328E-002
12500000000.000 -2.9800415039E-001 -3.5972595215E-001 -5.2583217621E-003 +3.8444995880E-003 +1.0281801224E-005 +4.5554712415E-005 -9.7400665283E-002 +2.0278930664E-002
12632500000.000 -3.0009460449E-001 -3.6235046387E-001 -2.2146701813E-003 +6.0994625092E-003 +6.1295926571E-005 -4.4904649258E-005 -1.0918045044E-001 -1.3652801514E-002
12765000000.000 -3.0268859863E-001 -3.6251831055E-001 +1.5239715576E-003 +6.1817169189E-003 +1.0585784912E-004 +3.4447759390E-005 -1.1735153198E-001 -1.8173217773E-002
12897500000.000 -3.0508422852E-001 -3.6183166504E-001 +4.8224925995E-003 +4.2881965637E-003 -3.7785619497E-005 +9.4994902611E-006 -9.2262268066E-002 -3.4690856934E-002
13030000000.000 -3.0712890625E-001 -3.6260986328E-001 +6.4043998718E-003 +8.7761878967E-004 -3.5140663385E-005 -7.1924179792E-005 -8.9328765869E-002 -7.1155548096E-002
13162500000.000 -3.0947875977E-001 -3.6430358887E-001 +5.6729316711E-003 -2.8712749481E-003 +2.5166198611E-005 +3.4606084228E-005 -9.1419219971E-002 -7.2887420654E-002
13295000000.000 -3.1202697754E-001 -3.6531066895E-001 +3.1909942627E-003 -5.5203437805E-003 -9.2126429081E-006 +1.1086463928E-004 -6.1004638672E-002 -7.8769683838E-002
13427500000.000 -3.1555175781E-001 -3.6436462402E-001 -5.2905082703E-004 -6.3638687134E-003 -4.5849010348E-005 -3.6368146539E-005 -4.6596527100E-002 -1.0408401489E-001
13560000000.000 -3.1570434570E-001 -3.6442565918E-001 -4.0457248688E-003 -4.9600601196E-003 +6.6358596087E-005 -6.7040324211E-005 -4.6360015869E-002 -1.0140991211E-001
13692500000.000 -3.1796264648E-001 -3.6683654785E-001 -6.1051845551E-003 -1.9299983978E-003 -7.8260898590E-005 -8.1472098827E-006 -1.7581939697E-002 -8.9225769043E-002
13825000000.000 -3.2241821289E-001 -3.6758422852E-001 -6.1006546021E-003 +1.9447803497E-003 -5.0496309996E-005 -5.1347538829E-005 +4.4250488281E-003 -1.0314178467E-001
13957500000.000 -3.2536315918E-001 -3.6569213867E-001 -4.0109157562E-003 +4.8923492432E-003 +5.5672600865E-005 +1.0928139091E-005 +2.6702880859E-005 -9.5409393311E-002
14090000000.000 -3.2635498047E-001 -3.6648559570E-001 -6.6947937012E-004 +6.3874721527E-003 +3.2901763916E-005 +1.5210360289E-005 +2.2090911865E-002 -7.0064544678E-002
14222500000.000 -3.2780456543E-001 -3.6996459961E-001 +3.1888484955E-003 +5.5055618286E-003 -7.4323266745E-005 +5.9071928263E-005 +4.4071197510E-002 -7.4066162109E-002
14355000000.000 -3.3311462402E-001 -3.7048339844E-001 +5.7754516602E-003 +2.7704238892E-003 +4.2909756303E-005 +9.3989074230E-006 +3.3123016357E-002 -6.7001342773E-002
14487500000.000 -3.3563232422E-001 -3.7071228027E-001 +6.1867237091E-003 -9.3698501587E-004 +5.0110742450E-005 -1.4439225197E-005 +4.0277481079E-002 -3.3834457397E-002
14620000000.000 -3.3554077148E-001 -3.7260437012E-001 +4.6224594116E-003 -4.3380260468E-003 -9.9092721939E-005 +1.3570487499E-004 +6.1031341553E-002 -3.1444549561E-002
14752500000.000 -3.3860778809E-001 -3.7741088867E-001 +1.5318393707E-003 -6.0703754425E-003 -5.6803226471E-005 -3.1352043152E-005 +4.3235778809E-002 -3.2310485840E-002
14885000000.000 -3.4136962891E-001 -3.7910461426E-001 -2.2034645081E-003 -5.7673454285E-003 +7.9385936260E-006 +6.4123421907E-005 +3.5512924194E-002 +1.6326904297E-003
15017500000.000 -3.4181213379E-001 -3.8064575195E-001 -5.1443576813E-003 -3.4055709839E-003 +3.2370910048E-005 +7.9553574324E-006 +5.3047180176E-002 +8.8539123535E-003
15150000000.000 -3.4252929688E-001 -3.8459777832E-001 -6.1373710632E-003 -1.1754035950E-004 -1.1233985424E-004 -1.0600686073E-004 +3.5139083862E-002 -1.5964508057E-003
15282500000.000 -3.4297180176E-001 -3.8717651367E-001 -5.0470829010E-003 +3.3569335938E-003 +3.9517879486E-005 -7.1965157986E-005 +1.4472961426E-002 +2.3263931274E-002
