!  2-Port S-parameters saved by WinCal
! VAR MeasName=S-Parameters (CALIBRATED_DATA) read from VNA (C)
! VAR MeasDate=10/16/2015 2:28:56 PM
! VAR NAME=M6082_10_13_2_2_20C_1.8mA_-17.5dBm
! VAR FILENAME=M6082_10_13_2_2_20C_1.8mA_-17.5dBm.S2P
! VAR DATE=10/16/2015 2:28:56 PM
! VAR PHYS_PORTS=2,1
! VAR ObjTypeName=DATASET
! VAR IndexType=Frequency
!
# Hz S RI R 50
45000000.000 +1.0591125488E-001 +2.4604797363E-003 -1.4071464539E-003 +7.6313018799E-003 +7.4321031570E-004 -1.1771917343E-005 +2.9160499573E-002 +3.2167434692E-003
177500000.000 +1.0021591187E-001 -1.4598846436E-002 +2.3608207703E-003 +5.3560733795E-003 -2.5790929794E-004 +1.7218291759E-004 +1.5839576721E-002 +1.6752243042E-002
310000000.000 +1.0277557373E-001 -2.5592803955E-002 +4.5077800751E-003 +3.2966136932E-003 +7.2699040174E-006 -5.5683776736E-005 +2.9121398926E-002 +6.1489105225E-002
442500000.000 +9.6599578857E-002 -3.5583496094E-002 +6.5538883209E-003 -4.0364265442E-004 -7.9721212387E-006 -5.1528215408E-005 +7.2578430176E-002 +2.2617340088E-002
575000000.000 +9.1968536377E-002 -4.4254302979E-002 +4.7047138214E-003 -4.0471553802E-003 -7.9706311226E-005 +9.1385096312E-005 +2.7274131775E-002 +1.1233329773E-002
707500000.000 +9.0408325195E-002 -5.4027557373E-002 +1.5542507172E-003 -5.9225559235E-003 -6.7416578531E-005 +4.0780752897E-005 +2.0580291748E-003 +1.8672943115E-002
840000000.000 +8.6887359619E-002 -6.2637329102E-002 -2.1183490753E-003 -5.7749748230E-003 -5.8673322201E-007 +3.1534582376E-005 -1.9916534424E-002 +2.6047706604E-002
972500000.000 +8.7417602539E-002 -7.3589324951E-002 -4.9006938934E-003 -3.4306049347E-003 -8.5383653641E-006 +5.5273994803E-005 -3.5797119141E-002 +3.5409927368E-002
1105000000.000 +8.4579467773E-002 -8.3087921143E-002 -5.9504508972E-003 -2.3841857910E-005 -5.6330114603E-005 -2.6516616344E-005 -4.6907424927E-002 +3.8263320923E-002
1237500000.000 +8.3122253418E-002 -9.2929840088E-002 -4.9741268158E-003 +3.4124851227E-003 +6.6041946411E-005 +2.8964132071E-005 -5.8551788330E-002 +3.3948898315E-002
1370000000.000 +8.1588745117E-002 -1.0390472412E-001 -1.9812583923E-003 +5.5613517761E-003 -6.6675245762E-005 +8.4266066551E-006 -7.3951721191E-002 +2.6969909668E-002
1502500000.000 +7.7060699463E-002 -1.1032867432E-001 +1.5480518341E-003 +5.8629512787E-003 -2.7404166758E-005 +1.1350028217E-005 -8.8047027588E-002 +2.1419525146E-002
1635000000.000 +7.6786041260E-002 -1.2191390991E-001 +4.6517848969E-003 +3.8390159607E-003 +6.4499676228E-005 -5.8066099882E-005 -9.9052429199E-002 +1.1699676514E-002
1767500000.000 +7.3654174805E-002 -1.3186645508E-001 +6.0622692108E-003 +5.0687789917E-004 -4.0937215090E-005 +6.4186751842E-006 -1.1197280884E-001 +2.9449462891E-003
1900000000.000 +6.7886352539E-002 -1.3629150391E-001 +5.4559707642E-003 -3.0052661896E-003 -9.4834715128E-005 -2.1733343601E-005 -1.1389541626E-001 -3.3798217773E-003
2032500000.000 +6.3835144043E-002 -1.4402770996E-001 +2.8417110443E-003 -5.5179595947E-003 +1.0927021503E-004 -1.4001876116E-004 -1.1368942261E-001 -2.4383544922E-002
2165000000.000 +5.9997558594E-002 -1.5310668945E-001 -6.5708160400E-004 -6.2007904053E-003 +5.5108219385E-005 +4.4699758291E-005 -1.2261962891E-001 -4.2259216309E-002
2297500000.000 +5.4199218750E-002 -1.6053771973E-001 -3.9050579071E-003 -4.7345161438E-003 -4.8050656915E-005 -1.0298565030E-005 -1.2644195557E-001 -5.3504943848E-002
2430000000.000 +4.9758911133E-002 -1.6755676270E-001 -5.8240890503E-003 -1.8515586853E-003 -2.1781772375E-005 -8.7045133114E-005 -1.2654113770E-001 -6.4773559570E-002
2562500000.000 +4.7134399414E-002 -1.7610168457E-001 -5.8901309967E-003 +1.8458366394E-003 -1.0709278286E-005 +7.5567513704E-006 -1.2527465820E-001 -7.0960998535E-002
2695000000.000 +4.1336059570E-002 -1.8309020996E-001 -3.9641857147E-003 +4.8089027405E-003 -7.9181045294E-005 -7.9292804003E-005 -1.1365890503E-001 -7.3425292969E-002
2827500000.000 +3.7170410156E-002 -1.8889617920E-001 -4.8804283142E-004 +6.0656070709E-003 -2.8020702302E-005 -1.1656433344E-005 -9.8419189453E-002 -8.1802368164E-002
2960000000.000 +3.4797668457E-002 -1.9653320313E-001 +3.1230449677E-003 +5.4101943970E-003 +8.6013227701E-005 +4.6409666538E-005 -8.8043212891E-002 -8.6780548096E-002
3092500000.000 +3.0639648438E-002 -2.0545196533E-001 +5.7334899902E-003 +2.3779869080E-003 -1.1361017823E-004 +3.1959265471E-005 -7.0293426514E-002 -8.6055755615E-002
3225000000.000 +2.4581909180E-002 -2.1261596680E-001 +6.2341690063E-003 -1.0416507721E-003 -2.6583671570E-005 -1.2642890215E-004 -5.2017211914E-002 -9.1083526611E-002
3357500000.000 +2.0454406738E-002 -2.1900939941E-001 +4.5268535614E-003 -4.5781135559E-003 +1.4632195234E-004 +7.5250864029E-006 -4.1385650635E-002 -9.1594696045E-002
3490000000.000 +1.6418457031E-002 -2.2769927979E-001 +1.0740756989E-003 -6.1624050140E-003 -8.5540115833E-005 +4.2986124754E-005 -2.8030395508E-002 -8.3168029785E-002
3622500000.000 +1.0902404785E-002 -2.3574066162E-001 -2.5079250336E-003 -5.9027671814E-003 +2.4408102036E-005 +7.9542398453E-005 -1.1352539063E-002 -7.9051971436E-002
3755000000.000 +4.8751831055E-003 -2.4333953857E-001 -5.5305957794E-003 -3.4134387970E-003 +5.2751973271E-005 -3.6053359509E-005 -5.8021545410E-003 -7.2830200195E-002
3887500000.000 +2.2888183594E-004 -2.5041198730E-001 -6.4892768860E-003 +4.9448013306E-004 +4.7875568271E-005 +3.7007033825E-005 +2.0999908447E-003 -5.5740356445E-002
4020000000.000 -4.4708251953E-003 -2.5657653809E-001 -5.0938129425E-003 +4.1203498840E-003 -1.1149793863E-004 +1.9628554583E-005 +1.3223648071E-002 -4.4273376465E-002
4152500000.000 -8.6364746094E-003 -2.6411437988E-001 -1.7554759979E-003 +6.3724517822E-003 +1.3262033463E-006 -7.8666955233E-005 +1.5195846558E-002 -3.2581329346E-002
4285000000.000 -1.3504028320E-002 -2.7183532715E-001 +2.4263858795E-003 +6.2074661255E-003 +6.7129731178E-006 +2.4436973035E-005 +1.7088890076E-002 -1.3120651245E-002
4417500000.000 -1.8539428711E-002 -2.7909851074E-001 +5.7115554810E-003 +3.5958290100E-003 -1.6720034182E-005 +1.0920688510E-005 +2.5658607483E-002 +3.5934448242E-003
4550000000.000 -2.1942138672E-002 -2.8582763672E-001 +6.7076683044E-003 -5.6958198547E-004 -2.7099624276E-005 -3.1959265471E-005 +2.8940200806E-002 +9.4852447510E-003
4682500000.000 -2.4307250977E-002 -2.9660034180E-001 +4.8823356628E-003 -4.9314498901E-003 +6.1389058828E-005 +1.5683472157E-005 +2.5650978088E-002 +2.0654678345E-002
4815000000.000 -2.8778076172E-002 -3.0729675293E-001 +5.2380561829E-004 -7.0426464081E-003 -6.9960951805E-006 +8.6411833763E-005 +3.1234741211E-002 +2.7391433716E-002
4947500000.000 -3.3081054688E-002 -3.1538391113E-001 -3.9713382721E-003 -6.0713291168E-003 -5.6680291891E-005 -2.1278858185E-005 +2.7637481689E-002 +1.9928932190E-002
5080000000.000 -3.8208007813E-002 -3.2821655273E-001 -7.0564746857E-003 -1.6248226166E-003 +1.2055039406E-005 +2.5439076126E-005 +1.3288497925E-002 +2.0572662354E-002
5212500000.000 -4.6524047852E-002 -3.3934020996E-001 -6.1638355255E-003 +3.5278797150E-003 -1.6856938601E-006 +4.9585476518E-005 +9.3517303467E-003 +2.4780273438E-002
5345000000.000 -5.2566528320E-002 -3.4417724609E-001 -3.0701160431E-003 +6.6137313843E-003 +1.4942139387E-005 -3.1420961022E-005 +5.5913925171E-003 +1.6245841980E-002
5477500000.000 -5.8807373047E-002 -3.5079956055E-001 +1.7495155334E-003 +6.9799423218E-003 +2.6124529541E-005 +3.6554411054E-006 -9.1896057129E-003 +1.0222434998E-002
5610000000.000 -6.7443847656E-002 -3.5836791992E-001 +5.6817531586E-003 +3.9668083191E-003 +2.2029504180E-005 +3.4783035517E-005 -1.4840602875E-002 +1.4489650726E-002
5742500000.000 -7.4478149414E-002 -3.6260986328E-001 +6.9792270660E-003 -1.8215179443E-004 +8.4391795099E-006 -5.1362439990E-007 -1.1455059052E-002 +6.0110092163E-003
5875000000.000 -8.0169677734E-002 -3.6463928223E-001 +5.7818889618E-003 -4.1897296906E-003 +4.7853216529E-005 -1.5344470739E-005 -2.0166397095E-002 -3.2892227173E-003
6007500000.000 -8.7814331055E-002 -3.6839294434E-001 +1.7323493958E-003 -6.5596103668E-003 -5.2656978369E-006 +3.7038698792E-005 -2.3159027100E-002 +2.8133392334E-004
6140000000.000 -9.5703125000E-002 -3.7329101563E-001 -2.6049613953E-003 -6.0489177704E-003 -3.7241727114E-005 -2.3769214749E-005 -1.5386104584E-002 -2.7713775635E-003
6272500000.000 -1.0229492188E-001 -3.7615966797E-001 -5.7194232941E-003 -3.8263797760E-003 +6.2957406044E-006 -4.7726556659E-005 -1.6515731812E-002 -1.1713027954E-002
6405000000.000 -1.1065673828E-001 -3.7675476074E-001 -6.7353248596E-003 +3.5572052002E-004 +3.6951154470E-005 -7.8193843365E-006 -1.9444465637E-002 -6.2217712402E-003
6537500000.000 -1.1734008789E-001 -3.7915039063E-001 -4.7700405121E-003 +4.1906833649E-003 -5.0982460380E-005 +3.7657096982E-005 -9.2396736145E-003 -3.2892227173E-003
6670000000.000 -1.2252807617E-001 -3.8410949707E-001 -1.7554759979E-003 +6.3307285309E-003 +1.4939811081E-005 -9.4650313258E-006 -7.9197883606E-003 -7.2689056396E-003
6802500000.000 -1.3250732422E-001 -3.8594055176E-001 +2.2106170654E-003 +5.9626102448E-003 +5.4387375712E-005 +1.5335157514E-005 -1.1418342590E-002 +1.5211105347E-004
6935000000.000 -1.4143371582E-001 -3.8406372070E-001 +4.9622058868E-003 +2.9363632202E-003 -3.8946047425E-005 -1.5189871192E-005 -6.3905715942E-003 +9.9458694458E-003
7067500000.000 -1.4384460449E-001 -3.8671875000E-001 +5.7554244995E-003 -2.8538703918E-004 -2.6270747185E-005 -3.0365772545E-005 -4.7588348389E-003 +1.0159015656E-002
7200000000.000 -1.4909362793E-001 -3.9167785645E-001 +5.0172805786E-003 -3.3774375916E-003 +1.8073245883E-005 -3.7251040339E-005 -1.5145301819E-002 +1.7041206360E-002
7332500000.000 -1.5905761719E-001 -3.9179992676E-001 +1.9133090973E-003 -5.2938461304E-003 -4.3753534555E-005 +2.2908672690E-005 -1.7095565796E-002 +3.0714988708E-002
7465000000.000 -1.6442871094E-001 -3.9179992676E-001 -1.4836788177E-003 -5.2754878998E-003 -3.6057084799E-005 -1.9952654839E-005 -1.9790649414E-002 +3.1220436096E-002
7597500000.000 -1.6726684570E-001 -3.9611816406E-001 -4.3141841888E-003 -3.9429664612E-003 +1.7620623112E-005 +1.6139820218E-006 -3.6384582520E-002 +3.3330917358E-002
7730000000.000 -1.7460632324E-001 -3.9848327637E-001 -5.4824352264E-003 -5.8865547180E-004 +5.7586003095E-006 +6.5481290221E-006 -4.8330307007E-002 +4.3638229370E-002
7862500000.000 -1.8190002441E-001 -3.9837646484E-001 -4.2479038239E-003 +2.5632381439E-003 +1.7520040274E-005 -7.1585178375E-005 -5.3689956665E-002 +4.2593002319E-002
7995000000.000 -1.8464660645E-001 -4.0095520020E-001 -2.4123191833E-003 +4.6341419220E-003 +6.1649829149E-005 -8.7246298790E-006 -7.2872161865E-002 +3.5171508789E-002
8127500000.000 -1.8864440918E-001 -4.0515136719E-001 +6.2346458435E-004 +5.1121711731E-003 +1.6283243895E-005 +5.8051198721E-005 -9.1472625732E-002 +3.9695739746E-002
8260000000.000 -1.9572448730E-001 -4.0547180176E-001 +3.2566785812E-003 +3.3569335938E-003 -6.5449625254E-005 -2.5250017643E-005 -9.5470428467E-002 +3.4362792969E-002
8392500000.000 -1.9860839844E-001 -4.0721130371E-001 +4.7807693481E-003 +1.0700225830E-003 -3.2093375921E-005 -8.2012265921E-005 -1.0982894897E-001 +1.8516540527E-002
8525000000.000 -2.0080566406E-001 -4.0991210938E-001 +4.5285224915E-003 -1.7976760864E-003 +1.4841556549E-005 +3.6004930735E-005 -1.2200927734E-001 +1.4923095703E-002
8657500000.000 -2.0510864258E-001 -4.1119384766E-001 +2.3859739304E-003 -3.7313699722E-003 -4.7232955694E-005 -1.0820105672E-005 -1.1785888672E-001 +4.1999816895E-003
8790000000.000 -2.0996093750E-001 -4.1281127930E-001 -1.4495849609E-004 -4.3747425079E-003 -1.8590129912E-005 -1.6453675926E-005 -1.1962509155E-001 -1.7448425293E-002
8922500000.000 -2.1270751953E-001 -4.1314697266E-001 -2.6016235352E-003 -3.5557746887E-003 +8.8959932327E-006 +4.6726316214E-005 -1.2224960327E-001 -3.0529022217E-002
9055000000.000 -2.1571350098E-001 -4.1445922852E-001 -4.0187835693E-003 -1.3282299042E-003 -3.2374635339E-005 +5.2757561207E-005 -1.1101150513E-001 -4.4078826904E-002
9187500000.000 -2.1952819824E-001 -4.1532897949E-001 -3.9417743683E-003 +1.1475086212E-003 -4.1045248508E-005 -6.3709914684E-005 -1.0013580322E-001 -6.6791534424E-002
9320000000.000 -2.2578430176E-001 -4.1522216797E-001 -2.6010274887E-003 +3.2137632370E-003 +2.0577572286E-005 +1.4259479940E-005 -9.3692779541E-002 -7.9601287842E-002
9452500000.000 -2.2918701172E-001 -4.1477966309E-001 -1.9311904907E-004 +3.9672851563E-003 -7.1362592280E-008 +2.7101486921E-006 -7.4111938477E-002 -8.6696624756E-002
9585000000.000 -2.3277282715E-001 -4.1525268555E-001 +1.9644498825E-003 +3.1634569168E-003 -2.6075169444E-005 -9.2927366495E-006 -5.4176330566E-002 -1.0130310059E-001
9717500000.000 -2.3864746094E-001 -4.1732788086E-001 +3.3544301987E-003 +1.3871192932E-003 +4.0240585804E-005 -4.3496489525E-005 -4.1172027588E-002 -1.0694885254E-001
9850000000.000 -2.4476623535E-001 -4.1491699219E-001 +3.4962892532E-003 -6.3014030457E-004 +1.6950070858E-005 +5.5471435189E-005 -1.8974304199E-002 -1.0217285156E-001
9982500000.000 -2.4668884277E-001 -4.1566467285E-001 +2.4278163910E-003 -2.4791955948E-003 -2.7218833566E-005 -4.1350722313E-007 +6.5460205078E-003 -1.0316085815E-001
10115000000.000 -2.5062561035E-001 -4.1744995117E-001 +6.1237812042E-004 -3.2235383987E-003 +1.9878149033E-005 -4.0873885155E-005 +1.9332885742E-002 -9.9040985107E-002
10247500000.000 -2.5726318359E-001 -4.1754150391E-001 -1.2845993042E-003 -2.9467344284E-003 +5.3482130170E-005 +5.4022297263E-005 +3.5732269287E-002 -7.9917907715E-002
10380000000.000 -2.6124572754E-001 -4.1647338867E-001 -2.5905370712E-003 -1.5358924866E-003 -4.4204294682E-005 +7.0910900831E-006 +5.7060241699E-002 -6.7504882813E-002
10512500000.000 -2.6449584961E-001 -4.1668701172E-001 -2.9398202896E-003 +1.5223026276E-004 -1.3361219317E-005 -9.7565352917E-006 +6.2549591064E-002 -5.5953979492E-002
10645000000.000 -2.6864624023E-001 -4.1778564453E-001 -2.3276805878E-003 +1.7672777176E-003 +5.1692128181E-005 +4.4591724873E-006 +6.6150665283E-002 -2.9102325439E-002
10777500000.000 -2.7369689941E-001 -4.1841125488E-001 -8.6128711700E-004 +2.6322603226E-003 +9.6634030342E-006 +3.4499913454E-005 +7.7098846436E-002 -7.7171325684E-003
10910000000.000 -2.7824401855E-001 -4.1842651367E-001 +7.5197219849E-004 +2.5050640106E-003 -1.0149553418E-005 +1.8892809749E-005 +7.2303771973E-002 +5.6304931641E-003
11042500000.000 -2.8312683105E-001 -4.1902160645E-001 +1.9410252571E-003 +1.6679763794E-003 +3.0884519219E-005 +6.2510371208E-006 +5.9539794922E-002 +3.1343460083E-002
11175000000.000 -2.8648376465E-001 -4.2112731934E-001 +2.4493932724E-003 +3.2591819763E-004 -2.6972964406E-005 +8.6240470409E-006 +5.6486129761E-002 +5.2469253540E-002
11307500000.000 -2.8953552246E-001 -4.2164611816E-001 +2.0799636841E-003 -1.0948181152E-003 -4.6102330089E-005 -2.4693086743E-005 +4.3502807617E-002 +5.8528900146E-002
11440000000.000 -2.9438781738E-001 -4.2276000977E-001 +1.1028051376E-003 -1.9900798798E-003 -1.3359822333E-005 -1.8362887204E-005 +1.8180847168E-002 +7.2166442871E-002
11572500000.000 -2.9582214355E-001 -4.2503356934E-001 -2.3007392883E-004 -2.1733045578E-003 -1.4817342162E-006 +2.0718201995E-005 +4.2953491211E-003 +8.7364196777E-002
11705000000.000 -2.9862976074E-001 -4.2593383789E-001 -1.3458132744E-003 -1.6732811928E-003 -6.1050057411E-005 +2.6661902666E-005 -1.0234832764E-002 +8.0936431885E-002
11837500000.000 -3.0245971680E-001 -4.2710876465E-001 -1.9025802612E-003 -6.0850381851E-004 +4.1052699089E-005 +2.3892149329E-005 -4.3216705322E-002 +7.6618194580E-002
11970000000.000 -3.0386352539E-001 -4.2660522461E-001 -1.9080042839E-003 +5.7291984558E-004 +3.6161392927E-005 -3.9208680391E-006 -5.9459686279E-002 +8.3080291748E-002
12102500000.000 -3.0397033691E-001 -4.2799377441E-001 -1.2515187263E-003 +1.3956427574E-003 -3.5993754864E-005 -1.2097880244E-005 -6.5433502197E-002 +6.4327239990E-002
12235000000.000 -3.0969238281E-001 -4.2770385742E-001 -2.5546550751E-004 +1.8632411957E-003 +4.7853216529E-005 -1.9112601876E-005 -9.2880249023E-002 +4.3972015381E-002
12367500000.000 -3.1031799316E-001 -4.2712402344E-001 +7.9101324081E-004 +1.6296505928E-003 +6.1318278313E-006 +3.5041943192E-005 -1.0548400879E-001 +4.2621612549E-002
12500000000.000 -3.1433105469E-001 -4.2565917969E-001 +1.5776157379E-003 +8.4370374680E-004 +8.7283551693E-006 +6.2841922045E-005 -9.7244262695E-002 +2.0378112793E-002
12632500000.000 -3.1669616699E-001 -4.2707824707E-001 +1.8138885498E-003 -1.2677907944E-004 +3.7945806980E-005 +3.4030526876E-006 -1.0924530029E-001 -1.3481140137E-002
12765000000.000 -3.1939697266E-001 -4.2645263672E-001 +1.3180375099E-003 -1.0377168655E-003 +8.1274658442E-005 -1.6923993826E-005 -1.1729431152E-001 -1.7990112305E-002
12897500000.000 -3.2221984863E-001 -4.2475891113E-001 +5.0187110901E-004 -1.6566514969E-003 -9.2245638371E-005 +2.8293579817E-005 -9.2327117920E-002 -3.4721374512E-002
13030000000.000 -3.2447814941E-001 -4.2446899414E-001 -4.8112869263E-004 -1.4832019806E-003 -3.4281983972E-005 -1.9907951355E-005 -8.9340209961E-002 -7.1002960205E-002
13162500000.000 -3.2688903809E-001 -4.2524719238E-001 -1.1714696884E-003 -9.7107887268E-004 +8.1405043602E-005 -3.3743679523E-005 -9.1453552246E-002 -7.2669982910E-002
13295000000.000 -3.2971191406E-001 -4.2541503906E-001 -1.4891028404E-003 -1.6212463379E-004 -8.8550150394E-006 +4.1449442506E-005 -6.1088562012E-002 -7.8685760498E-002
13427500000.000 -3.3348083496E-001 -4.2332458496E-001 -1.2384653091E-003 +7.4428319931E-004 -8.4094703197E-005 -2.3078173399E-005 -4.6691894531E-002 -1.0416793823E-001
13560000000.000 -3.3364868164E-001 -4.2271423340E-001 -6.4682960510E-004 +1.1903643608E-003 +3.4037977457E-005 -1.6864389181E-005 -4.6401977539E-002 -1.0124206543E-001
13692500000.000 -3.3601379395E-001 -4.2413330078E-001 +2.1660327911E-004 +1.2598037720E-003 -6.3329935074E-008 +9.9305063486E-005 -1.7700195313E-002 -8.9172363281E-002
13825000000.000 -3.4048461914E-001 -4.2387390137E-001 +8.6021423340E-004 +9.8580121994E-004 +1.6715377569E-005 -1.0018423200E-004 +4.2037963867E-003 -1.0298538208E-001
13957500000.000 -3.4347534180E-001 -4.2127990723E-001 +1.1672377586E-003 +3.9845705032E-004 -5.6847929955E-005 -1.2968480587E-004 -1.4495849609E-004 -9.5390319824E-002
14090000000.000 -3.4461975098E-001 -4.2105102539E-001 +1.1544823647E-003 -3.8188695908E-004 +3.6079436541E-005 -1.3969838619E-005 +2.2037506104E-002 -7.0152282715E-002
14222500000.000 -3.4632873535E-001 -4.2375183105E-001 +7.4505805969E-004 -8.2799792290E-004 +4.1898339987E-005 -2.9612332582E-005 +4.4017791748E-002 -7.4218750000E-002
14355000000.000 -3.5150146484E-001 -4.2349243164E-001 +1.0317564011E-004 -1.1636018753E-003 -8.2202255726E-005 +5.8747828007E-006 +3.3241271973E-002 -6.7150115967E-002
14487500000.000 -3.5400390625E-001 -4.2289733887E-001 -4.1377544403E-004 -9.8031759262E-004 +4.9732625484E-006 -4.9734488130E-005 +4.0231704712E-002 -3.4019470215E-002
14620000000.000 -3.5401916504E-001 -4.2404174805E-001 -7.8067183495E-004 -5.9574842453E-004 +3.5829842091E-005 -1.3019889593E-005 +6.0991287231E-002 -3.1368255615E-002
14752500000.000 -3.5711669922E-001 -4.2822265625E-001 -1.0750889778E-003 +4.9591064453E-005 +4.5850872993E-005 -7.7970325947E-005 +4.3241500854E-002 -3.2312393188E-002
14885000000.000 -3.5980224609E-001 -4.2898559570E-001 -8.0025196075E-004 +6.6068768501E-004 +7.7757984400E-005 -6.5136700869E-005 +3.5528182983E-002 +1.4228820801E-003
15017500000.000 -3.6012268066E-001 -4.3000793457E-001 -3.2502412796E-004 +9.6678733826E-004 -1.5031546354E-005 +8.4966421127E-005 +5.2986145020E-002 +8.7165832520E-003
15150000000.000 -3.6074829102E-001 -4.3347167969E-001 +1.3151764870E-004 +9.4661116600E-004 -3.7629157305E-005 -1.0505691171E-004 +3.5121917725E-002 -1.6498565674E-003
15282500000.000 -3.6131286621E-001 -4.3565368652E-001 +7.3429942131E-004 +6.0322880745E-004 +3.8504600525E-005 -2.9683113098E-005 +1.4509201050E-002 +2.3344039917E-002
