!  2-Port S-parameters saved by WinCal
! VAR MeasName=S-Parameters (CALIBRATED_DATA) read from VNA (C)
! VAR MeasDate=10/16/2015 3:20:24 PM
! VAR NAME=M6082_10_15_2_2_20C_15.6mA_-17.5dBm
! VAR FILENAME=M6082_10_15_2_2_20C_15.6mA_-17.5dBm.S2P
! VAR DATE=10/16/2015 3:20:24 PM
! VAR PHYS_PORTS=2,1
! VAR ObjTypeName=DATASET
! VAR IndexType=Frequency
!
# Hz S RI R 50
45000000.000 -1.4562988281E-001 +1.2969970703E-004 -1.2598037720E-003 +5.0919055939E-003 -2.6544928551E-004 -1.0691583157E-004 +2.9827117920E-002 +2.6597976685E-003
177500000.000 -1.4468383789E-001 -5.7830810547E-003 +1.9242763519E-003 +5.2356719971E-003 +1.3472139835E-004 +3.8464367390E-004 +1.5686035156E-002 +1.6805648804E-002
310000000.000 -1.4367675781E-001 -1.1474609375E-002 +4.4417381287E-003 +3.7620067596E-003 +5.1751732826E-005 -3.1465664506E-005 +2.8818130493E-002 +6.1552047729E-002
442500000.000 -1.4303588867E-001 -1.7440795898E-002 +6.6635608673E-003 +1.6975402832E-004 +3.1441450119E-006 +6.3445419073E-005 +7.2486877441E-002 +2.2377014160E-002
575000000.000 -1.4290618896E-001 -2.4261474609E-002 +5.3191184998E-003 -3.5943984985E-003 -3.8489699364E-005 +1.2657046318E-004 +2.7135848999E-002 +1.1315345764E-002
707500000.000 -1.4314270020E-001 -2.9945373535E-002 +2.2771358490E-003 -5.6273937225E-003 -2.3478642106E-005 -5.5672600865E-005 +1.9721984863E-003 +1.8568992615E-002
840000000.000 -1.4274597168E-001 -3.6712646484E-002 -1.3685226440E-003 -5.8720111847E-003 +5.2103772759E-005 +5.0572678447E-005 -1.9989967346E-002 +2.6016235352E-002
972500000.000 -1.4270019531E-001 -4.3289184570E-002 -4.4450759888E-003 -4.2414665222E-003 -1.6884878278E-005 +4.6679750085E-005 -3.5787582397E-002 +3.5331726074E-002
1105000000.000 -1.4321136475E-001 -5.0003051758E-002 -5.8362483978E-003 -9.3770027161E-004 -3.2220035791E-005 -8.1595033407E-005 -4.6869277954E-002 +3.8152694702E-002
1237500000.000 -1.4382934570E-001 -5.6098937988E-002 -5.4502487183E-003 +2.5784969330E-003 +4.6800822020E-005 -1.9656494260E-005 -5.8496475220E-002 +3.3697128296E-002
1370000000.000 -1.4485168457E-001 -6.2255859375E-002 -3.1080245972E-003 +5.1438808441E-003 +3.9720907807E-005 +2.0567327738E-005 -7.3894500732E-002 +2.6844024658E-002
1502500000.000 -1.4538574219E-001 -6.8428039551E-002 +3.2663345337E-004 +5.8836936951E-003 -2.0081177354E-005 -1.9227154553E-005 -8.7928771973E-002 +2.1217346191E-002
1635000000.000 -1.4572906494E-001 -7.5500488281E-002 +3.5603046417E-003 +4.6422481537E-003 +1.4383345842E-005 -5.7982280850E-005 -9.8937988281E-002 +1.1604309082E-002
1767500000.000 -1.4714813232E-001 -8.1802368164E-002 +5.4163932800E-003 +1.8966197968E-003 +3.9510428905E-005 +6.8321824074E-005 -1.1182785034E-001 +2.8114318848E-003
1900000000.000 -1.4777374268E-001 -8.7387084961E-002 +5.7730674744E-003 -1.6648769379E-003 -6.1664730310E-005 -8.2440674305E-006 -1.1376953125E-001 -3.4713745117E-003
2032500000.000 -1.4881896973E-001 -9.3460083008E-002 +3.6933422089E-003 -4.4424533844E-003 +4.0343031287E-005 -4.8289075494E-005 -1.1366653442E-001 -2.4456024170E-002
2165000000.000 -1.4970397949E-001 -1.0028076172E-001 +5.8412551880E-004 -5.8560371399E-003 -7.3947012424E-007 +3.4125521779E-005 -1.2244796753E-001 -4.2335510254E-002
2297500000.000 -1.5097045898E-001 -1.0580444336E-001 -2.6502609253E-003 -5.0010681152E-003 -2.4223700166E-005 +7.1991235018E-006 -1.2651062012E-001 -5.3398132324E-002
2430000000.000 -1.5212249756E-001 -1.1152648926E-001 -5.0847530365E-003 -2.6292800903E-003 +3.1091272831E-005 -1.5851855278E-004 -1.2642669678E-001 -6.5002441406E-002
2562500000.000 -1.5373229980E-001 -1.1783599854E-001 -5.6338310242E-003 +6.5135955811E-004 +7.6502561569E-005 +6.9122761488E-005 -1.2511444092E-001 -7.0983886719E-002
2695000000.000 -1.5662384033E-001 -1.2265777588E-001 -4.0638446808E-003 +3.6373138428E-003 -1.2274831533E-004 +3.9562582970E-005 -1.1365509033E-001 -7.3524475098E-002
2827500000.000 -1.5859985352E-001 -1.2701416016E-001 -1.4586448669E-003 +5.6281089783E-003 -1.3158470392E-004 +6.8701803684E-005 -9.8480224609E-002 -8.1802368164E-002
2960000000.000 -1.5975952148E-001 -1.3254547119E-001 +1.6875267029E-003 +5.3787231445E-003 +6.3318759203E-005 +6.2100589275E-005 -8.7974548340E-002 -8.6685180664E-002
3092500000.000 -1.6271209717E-001 -1.3883972168E-001 +4.3122768402E-003 +3.2827854156E-003 -8.7652355433E-005 +6.0688704252E-005 -7.0167541504E-002 -8.5960388184E-002
3225000000.000 -1.6648101807E-001 -1.4392852783E-001 +5.6612491608E-003 +3.2615661621E-004 -1.0111927986E-004 -6.0535967350E-005 -5.1986694336E-002 -9.1033935547E-002
3357500000.000 -1.6886138916E-001 -1.4760589600E-001 +4.7821998596E-003 -2.8419494629E-003 +8.2962214947E-006 +1.5989877284E-005 -4.1397094727E-002 -9.1609954834E-002
3490000000.000 -1.7106628418E-001 -1.5419769287E-001 +2.4070739746E-003 -5.1531791687E-003 +2.2616237402E-005 +8.2816928625E-005 -2.7946472168E-002 -8.3435058594E-002
3622500000.000 -1.7401885986E-001 -1.6053771973E-001 -7.7009201050E-004 -5.6033134460E-003 -1.0649114847E-004 +7.4204057455E-005 -1.1474609375E-002 -7.8990936279E-002
3755000000.000 -1.7778015137E-001 -1.6631317139E-001 -3.9360523224E-003 -4.1580200195E-003 +4.6668574214E-005 +4.6715140343E-005 -5.9738159180E-003 -7.2868347168E-002
3887500000.000 -1.8038940430E-001 -1.7121124268E-001 -5.5327415466E-003 -1.3792514801E-003 -3.0770897865E-006 +1.1341646314E-004 +2.2220611572E-003 -5.5887222290E-002
4020000000.000 -1.8293762207E-001 -1.7608642578E-001 -5.3322315216E-003 +1.8994808197E-003 -7.6025724411E-005 -4.6610832214E-005 +1.3118743896E-002 -4.4359207153E-002
4152500000.000 -1.8519592285E-001 -1.8237304688E-001 -3.0918121338E-003 +4.6141147614E-003 -7.1860849857E-006 -9.3247741461E-005 +1.5304565430E-002 -3.2552719116E-002
4285000000.000 -1.8848419189E-001 -1.8781280518E-001 -7.2240829468E-005 +5.5150985718E-003 +4.7504901886E-005 +7.3488801718E-005 +1.7050743103E-002 -1.3066291809E-002
4417500000.000 -1.9234466553E-001 -1.9255065918E-001 +2.9816627502E-003 +4.5623779297E-003 -3.9720907807E-005 -2.5542452931E-005 +2.5705337524E-002 +3.6258697510E-003
4550000000.000 -1.9428253174E-001 -1.9717407227E-001 +4.8966407776E-003 +2.1944046021E-003 +1.4044344425E-006 -5.3729861975E-005 +2.8808593750E-002 +9.5100402832E-003
4682500000.000 -1.9670867920E-001 -2.0318603516E-001 +5.1226615906E-003 -9.7346305847E-004 +5.0041824579E-005 -2.6132911444E-006 +2.5563240051E-002 +2.0618438721E-002
4815000000.000 -2.0032501221E-001 -2.0851135254E-001 +3.8243532181E-003 -3.6696195602E-003 -9.1794878244E-005 +5.5484473705E-005 +3.1128883362E-002 +2.7431488037E-002
4947500000.000 -2.0272827148E-001 -2.1279144287E-001 +1.1837482452E-003 -5.1999092102E-003 +2.1529383957E-005 +1.1865049601E-005 +2.7563095093E-002 +1.9812583923E-002
5080000000.000 -2.0449829102E-001 -2.1797943115E-001 -1.8742084503E-003 -4.9693584442E-003 +6.7569315434E-005 +5.3405761719E-005 +1.3308525085E-002 +2.0503997803E-002
5212500000.000 -2.0736694336E-001 -2.2316741943E-001 -4.2772293091E-003 -3.1344890594E-003 +2.4110078812E-005 -1.2265518308E-005 +9.2372894287E-003 +2.4742126465E-002
5345000000.000 -2.1076965332E-001 -2.2709655762E-001 -5.3360462189E-003 -2.1481513977E-004 +2.8935261071E-005 +4.9304217100E-006 +5.4969787598E-003 +1.6192436218E-002
5477500000.000 -2.1192169189E-001 -2.3075866699E-001 -4.5270919800E-003 +2.9709339142E-003 +2.6933848858E-006 -6.4875930548E-005 -9.2763900757E-003 +1.0242938995E-002
5610000000.000 -2.1405029297E-001 -2.3577117920E-001 -2.2020339966E-003 +5.0649642944E-003 -3.0250288546E-005 +2.2745691240E-005 -1.4940738678E-002 +1.4408111572E-002
5742500000.000 -2.1768188477E-001 -2.3949432373E-001 +1.0788440704E-003 +5.3267478943E-003 -1.6944482923E-005 -2.3610889912E-005 -1.1510372162E-002 +5.8193206787E-003
5875000000.000 -2.2084045410E-001 -2.4131011963E-001 +3.8861036301E-003 +3.8044452667E-003 +8.4140338004E-006 +1.1451542377E-005 -2.0255088806E-002 -3.4542083740E-003
6007500000.000 -2.2265625000E-001 -2.4447631836E-001 +5.3403377533E-003 +9.7584724426E-004 -1.6150996089E-005 +2.3214146495E-005 -2.3177146912E-002 +7.4386596680E-005
6140000000.000 -2.2559356689E-001 -2.4911499023E-001 +4.8892498016E-003 -2.1708011627E-003 -1.5743076801E-005 +3.3337622881E-005 -1.5309810638E-002 -2.8958320618E-003
6272500000.000 -2.3089599609E-001 -2.5230407715E-001 +2.8433799744E-003 -4.5251846313E-003 +3.7813559175E-005 -2.1742656827E-005 -1.6449928284E-002 -1.1863708496E-002
6405000000.000 -2.3484802246E-001 -2.5303649902E-001 -2.1195411682E-004 -5.3012371063E-003 -2.1386891603E-005 -3.5224482417E-005 -1.9351959229E-002 -6.3705444336E-003
6537500000.000 -2.3655700684E-001 -2.5654602051E-001 -3.1499862671E-003 -4.2145252228E-003 +1.3237819076E-005 +2.0690262318E-005 -9.2039108276E-003 -3.3249855042E-003
6670000000.000 -2.4014282227E-001 -2.6211547852E-001 -5.0363540649E-003 -1.7182826996E-003 -4.1451305151E-005 +1.0034069419E-005 -7.8654289246E-003 -7.3337554932E-003
6802500000.000 -2.4638366699E-001 -2.6504516602E-001 -5.0947666168E-003 +1.3427734375E-003 +3.7224963307E-005 +2.9483810067E-005 -1.1358261108E-002 +8.1539154053E-005
6935000000.000 -2.5006103516E-001 -2.6547241211E-001 -3.4537315369E-003 +3.8858652115E-003 -3.6586076021E-005 +3.3700838685E-005 -6.3195228577E-003 +9.8319053650E-003
7067500000.000 -2.5105285645E-001 -2.6931762695E-001 -6.7830085754E-004 +5.1257610321E-003 -1.2964010239E-005 -5.7741999626E-005 -4.6367645264E-003 +1.0136604309E-002
7200000000.000 -2.5555419922E-001 -2.7467346191E-001 +2.3355484009E-003 +4.6381950378E-003 -8.8289380074E-006 +1.6609206796E-005 -1.5067100525E-002 +1.7061233521E-002
7332500000.000 -2.6148986816E-001 -2.7687072754E-001 +4.5812129974E-003 +2.4821758270E-003 -5.2124261856E-005 +5.6879594922E-005 -1.7032623291E-002 +3.0779838562E-002
7465000000.000 -2.6461791992E-001 -2.7864074707E-001 +5.0172805786E-003 -3.5810470581E-004 -1.9840896130E-005 -1.6252510250E-005 -1.9795417786E-002 +3.1190872192E-002
7597500000.000 -2.6686096191E-001 -2.8285217285E-001 +3.9210319519E-003 -3.2005310059E-003 -7.7057629824E-006 -4.2866915464E-005 -3.6188125610E-002 +3.3273696899E-002
7730000000.000 -2.7143859863E-001 -2.8793334961E-001 +1.5504360199E-003 -4.8685073853E-003 +8.3856284618E-006 +1.5908852220E-005 -4.8297882080E-002 +4.3613433838E-002
7862500000.000 -2.7531433105E-001 -2.9074096680E-001 -1.4204978943E-003 -4.8232078552E-003 -5.6836754084E-005 -1.2647360563E-005 -5.3588867188E-002 +4.2812347412E-002
7995000000.000 -2.7755737305E-001 -2.9333496094E-001 -3.8887262344E-003 -3.1871795654E-003 +2.6123598218E-005 -3.2221898437E-005 -7.2727203369E-002 +3.5175323486E-002
8127500000.000 -2.7986145020E-001 -2.9896545410E-001 -4.9986839294E-003 -4.9710273743E-004 +1.6844831407E-005 -6.3404440880E-006 -9.1346740723E-002 +3.9730072021E-002
8260000000.000 -2.8433227539E-001 -3.0210876465E-001 -4.4367313385E-003 +2.2902488708E-003 -1.9086524844E-005 -2.7031637728E-005 -9.5581054688E-002 +3.4595489502E-002
8392500000.000 -2.8607177734E-001 -3.0462646484E-001 -2.3999214172E-003 +4.3942928314E-003 -2.1666288376E-005 -8.6151063442E-005 -1.0973739624E-001 +1.8585205078E-002
8525000000.000 -2.8727722168E-001 -3.0824279785E-001 +4.5919418335E-004 +4.9576759338E-003 -6.1839818954E-006 -5.4975971580E-005 -1.2186813354E-001 +1.5018463135E-002
8657500000.000 -2.8968811035E-001 -3.1239318848E-001 +3.1484365463E-003 +3.8878917694E-003 -4.1365623474E-005 -7.3276460171E-006 -1.1783981323E-001 +4.2991638184E-003
8790000000.000 -2.9324340820E-001 -3.1539916992E-001 +4.7852993011E-003 +1.4233589172E-003 -1.5941448510E-005 +2.7417205274E-005 -1.1962509155E-001 -1.7364501953E-002
8922500000.000 -2.9510498047E-001 -3.1639099121E-001 +4.6496391296E-003 -1.5180110931E-003 -1.2716278434E-005 +3.6950223148E-006 -1.2223052979E-001 -3.0483245850E-002
9055000000.000 -2.9692077637E-001 -3.1958007813E-001 +3.0843019485E-003 -3.8629770279E-003 +7.7662989497E-006 +1.6517937183E-005 -1.1102294922E-001 -4.3914794922E-002
9187500000.000 -2.9956054688E-001 -3.2202148438E-001 +3.3712387085E-004 -4.9493312836E-003 -5.6086108088E-005 +1.9215047359E-005 -1.0022354126E-001 -6.6902160645E-002
9320000000.000 -3.0474853516E-001 -3.2272338867E-001 -2.4960041046E-003 -4.2428970337E-003 +4.9926340580E-005 +1.4603137970E-006 -9.3711853027E-002 -7.9563140869E-002
9452500000.000 -3.0705261230E-001 -3.2365417480E-001 -4.4183731079E-003 -2.1018981934E-003 -3.0454248190E-006 +1.9705854356E-005 -7.4275970459E-002 -8.6605072021E-002
9585000000.000 -3.0981445313E-001 -3.2563781738E-001 -4.7860145569E-003 +7.0118904114E-004 -2.6983208954E-005 -2.5658868253E-005 -5.4218292236E-002 -1.0114288330E-001
9717500000.000 -3.1477355957E-001 -3.2887268066E-001 -3.5325288773E-003 +3.2513141632E-003 +1.6738660634E-005 -1.0789372027E-005 -4.1297912598E-002 -1.0701751709E-001
9850000000.000 -3.2008361816E-001 -3.2768249512E-001 -1.1656284332E-003 +4.7214031219E-003 +1.5806406736E-005 +3.3447518945E-005 -1.9237518311E-002 -1.0228347778E-001
9982500000.000 -3.2127380371E-001 -3.2987976074E-001 +1.6756057739E-003 +4.5101642609E-003 -4.7426670790E-005 -9.3638896942E-005 +6.3743591309E-003 -1.0311508179E-001
10115000000.000 -3.2455444336E-001 -3.3273315430E-001 +3.9315223694E-003 +2.7766227722E-003 +3.3987686038E-005 -4.4740736485E-005 +1.9203186035E-002 -9.9147796631E-002
10247500000.000 -3.3053588867E-001 -3.3415222168E-001 +4.8613548279E-003 +9.6559524536E-005 +4.4278800488E-005 -5.8673322201E-007 +3.5568237305E-002 -8.0120086670E-002
10380000000.000 -3.3378601074E-001 -3.3412170410E-001 +4.0519237518E-003 -2.4836063385E-003 -5.8248639107E-005 +1.9559636712E-005 +5.6869506836E-002 -6.7508697510E-002
10512500000.000 -3.3651733398E-001 -3.3552551270E-001 +1.8754005432E-003 -4.3809413910E-003 +1.4401040971E-005 +7.8985467553E-006 +6.2633514404E-002 -5.5965423584E-002
10645000000.000 -3.3990478516E-001 -3.3753967285E-001 -8.2564353943E-004 -4.6870708466E-003 -1.4236196876E-005 +3.6118552089E-005 +6.6123962402E-002 -2.9438018799E-002
10777500000.000 -3.4469604492E-001 -3.3938598633E-001 -3.2610893250E-003 -3.4011602402E-003 -4.1844323277E-005 +3.7569552660E-006 +7.6988220215E-002 -8.0070495605E-003
10910000000.000 -3.4875488281E-001 -3.4048461914E-001 -4.6296119690E-003 -1.0108947754E-003 +1.2949109077E-005 -6.2339007854E-005 +7.2292327881E-002 +5.5580139160E-003
11042500000.000 -3.5281372070E-001 -3.4188842773E-001 -4.3992996216E-003 +1.7271041870E-003 +4.2214989662E-005 -6.8202614784E-005 +5.9606552124E-002 +3.1131744385E-002
11175000000.000 -3.5594177246E-001 -3.4495544434E-001 -2.6321411133E-003 +3.8614273071E-003 +6.1674509197E-006 +2.2752210498E-006 +5.6367874146E-002 +5.2366256714E-002
11307500000.000 -3.5853576660E-001 -3.4678649902E-001 -2.9087066650E-005 +4.6973228455E-003 -2.3429282010E-005 -2.4565495551E-005 +4.3371200562E-002 +5.8519363403E-002
11440000000.000 -3.6288452148E-001 -3.4877014160E-001 +2.5790929794E-003 +3.8920640945E-003 +5.3080730140E-006 -7.6363794506E-006 +1.8112182617E-002 +7.2063446045E-002
11572500000.000 -3.6436462402E-001 -3.5203552246E-001 +4.3263435364E-003 +1.8150806427E-003 +4.9913302064E-005 +5.2664428949E-005 +4.4364929199E-003 +8.7177276611E-002
11705000000.000 -3.6657714844E-001 -3.5388183594E-001 +4.5297145844E-003 -9.5558166504E-004 -1.7380341887E-005 -4.9993395805E-006 -1.0101318359E-002 +8.0760955811E-002
11837500000.000 -3.7007141113E-001 -3.5592651367E-001 +3.1647682190E-003 -3.3929347992E-003 +1.8130987883E-005 -7.5485557318E-005 -4.3182373047E-002 +7.6530456543E-002
11970000000.000 -3.7142944336E-001 -3.5626220703E-001 +8.0060958862E-004 -4.5571327209E-003 +2.2545456886E-005 +6.1620026827E-005 -5.9413909912E-002 +8.3072662354E-002
12102500000.000 -3.7124633789E-001 -3.5842895508E-001 -1.9357204437E-003 -4.1584968567E-003 -3.0882656574E-006 -4.1117891669E-006 -6.5395355225E-002 +6.4296722412E-002
12235000000.000 -3.7643432617E-001 -3.5884094238E-001 -3.9141178131E-003 -2.5212764740E-003 -3.6608427763E-005 +1.2001022696E-005 -9.2792510986E-002 +4.3865203857E-002
12367500000.000 -3.7713623047E-001 -3.5873413086E-001 -4.5473575592E-003 +1.4996528625E-004 +8.7976455688E-005 +1.9431114197E-005 -1.0548019409E-001 +4.2419433594E-002
12500000000.000 -3.8059997559E-001 -3.5824584961E-001 -3.6791563034E-003 +2.7056932449E-003 -7.8182667494E-005 +4.3407082558E-005 -9.7232818604E-002 +2.0416259766E-002
12632500000.000 -3.8244628906E-001 -3.6045837402E-001 -1.4736652374E-003 +4.2228698730E-003 +1.9537284970E-005 -5.9043988585E-005 -1.0899353027E-001 -1.3568878174E-002
12765000000.000 -3.8525390625E-001 -3.6050415039E-001 +1.0998249054E-003 +4.3320655823E-003 +1.6950070858E-006 +3.6174431443E-005 -1.1713027954E-001 -1.8085479736E-002
12897500000.000 -3.8784790039E-001 -3.5954284668E-001 +3.3923387527E-003 +2.9703378677E-003 -4.3062493205E-005 +3.5634264350E-005 -9.2216491699E-002 -3.4610748291E-002
13030000000.000 -3.8981628418E-001 -3.5977172852E-001 +4.3995380402E-003 +6.3037872314E-004 -4.7305598855E-005 -2.5387853384E-006 -8.9221954346E-002 -7.0880889893E-002
13162500000.000 -3.9221191406E-001 -3.6125183105E-001 +3.9064884186E-003 -1.9178390503E-003 +3.7530437112E-005 -5.1734969020E-005 -9.1255187988E-002 -7.2799682617E-002
13295000000.000 -3.9448547363E-001 -3.6193847656E-001 +2.2287368774E-003 -3.7649869919E-003 -7.2412192822E-005 +3.3289194107E-005 -6.1061859131E-002 -7.8716278076E-002
13427500000.000 -3.9799499512E-001 -3.6059570313E-001 -3.2734870911E-004 -4.4143199921E-003 +4.2545143515E-006 +2.8698705137E-006 -4.6764373779E-002 -1.0389709473E-001
13560000000.000 -3.9830017090E-001 -3.6062622070E-001 -2.6756525040E-003 -3.3743381500E-003 +5.4208561778E-005 -1.9386410713E-005 -4.6333312988E-002 -1.0128402710E-001
13692500000.000 -4.0055847168E-001 -3.6253356934E-001 -4.1077136993E-003 -1.3322830200E-003 -4.3202191591E-005 -1.0311603546E-005 -1.7807006836E-002 -8.9130401611E-002
13825000000.000 -4.0458679199E-001 -3.6302185059E-001 -4.0991306305E-003 +1.1386871338E-003 -7.8197568655E-005 -1.4312565327E-005 +4.2343139648E-003 -1.0276794434E-001
13957500000.000 -4.0776062012E-001 -3.6094665527E-001 -2.8297901154E-003 +3.3348798752E-003 -4.1902065277E-005 +4.4528394938E-005 -1.0299682617E-004 -9.5310211182E-002
14090000000.000 -4.0866088867E-001 -3.6134338379E-001 -4.7516822815E-004 +4.4002532959E-003 +4.9104914069E-005 +3.9046630263E-005 +2.1865844727E-002 -7.0049285889E-002
14222500000.000 -4.0982055664E-001 -3.6436462402E-001 +1.8831491470E-003 +3.7703514099E-003 -9.5311552286E-005 +5.8479607105E-005 +4.3975830078E-002 -7.4058532715E-002
14355000000.000 -4.1510009766E-001 -3.6489868164E-001 +3.7782192230E-003 +2.0501613617E-003 -2.1963380277E-005 -2.0146369934E-005 +3.3069610596E-002 -6.6967010498E-002
14487500000.000 -4.1740417480E-001 -3.6509704590E-001 +4.2314529419E-003 -3.9792060852E-004 +5.0986185670E-005 +3.0385330319E-005 +4.0134429932E-002 -3.3851623535E-002
14620000000.000 -4.1735839844E-001 -3.6648559570E-001 +3.1839609146E-003 -2.7072429657E-003 -9.2577189207E-005 +6.1206519604E-006 +6.0884475708E-002 -3.1410217285E-002
14752500000.000 -4.2045593262E-001 -3.7139892578E-001 +1.0633468628E-003 -4.1201114655E-003 +4.3539330363E-005 -5.9694051743E-005 +4.3174743652E-002 -3.2405853271E-002
14885000000.000 -4.2292785645E-001 -3.7312316895E-001 -1.3308525085E-003 -4.0073394775E-003 +7.4766576290E-005 +1.6227364540E-005 +3.5291671753E-002 +1.5869140625E-003
15017500000.000 -4.2344665527E-001 -3.7438964844E-001 -3.2963752747E-003 -2.5954246521E-003 -5.8006495237E-005 +9.9297612906E-006 +5.2877426147E-002 +8.9187622070E-003
15150000000.000 -4.2424011230E-001 -3.7826538086E-001 -4.1866302490E-003 -2.7394294739E-004 -6.3434243202E-005 -1.8917024136E-005 +3.5238265991E-002 -1.7452239990E-003
15282500000.000 -4.2497253418E-001 -3.8066101074E-001 -3.4595727921E-003 +2.0492076874E-003 +9.6727162600E-006 -5.8650970459E-005 +1.4345169067E-002 +2.3077964783E-002
