!  2-Port S-parameters saved by WinCal
! VAR MeasName=S-Parameters (CALIBRATED_DATA) read from VNA (C)
! VAR MeasDate=10/16/2015 2:30:54 PM
! VAR NAME=M6082_10_13_2_2_20C_2.5mA_-17.5dBm
! VAR FILENAME=M6082_10_13_2_2_20C_2.5mA_-17.5dBm.S2P
! VAR DATE=10/16/2015 2:30:54 PM
! VAR PHYS_PORTS=2,1
! VAR ObjTypeName=DATASET
! VAR IndexType=Frequency
!
# Hz S RI R 50
45000000.000 +4.8589706421E-002 -1.9741058350E-003 -2.0041465759E-003 +6.6449642181E-003 +7.4228644371E-004 +1.7660856247E-004 +2.7946472168E-002 +2.7008056641E-003
177500000.000 +4.9255371094E-002 -1.0354995728E-002 +2.3400783539E-003 +5.9700012207E-003 -5.4400414228E-005 +1.4714896679E-005 +1.6086578369E-002 +1.6698837280E-002
310000000.000 +4.9537658691E-002 -1.9294738770E-002 +5.0842761993E-003 +3.9598941803E-003 +1.1970102787E-004 -7.4468553066E-006 +2.9012680054E-002 +6.1372756958E-002
442500000.000 +4.8959732056E-002 -2.8425216675E-002 +7.1063041687E-003 -1.7285346985E-004 +3.1253322959E-005 -3.2875686884E-005 +7.2452545166E-002 +2.2434234619E-002
575000000.000 +4.8427581787E-002 -3.8061141968E-002 +5.3761005402E-003 -4.1108131409E-003 -4.2941421270E-005 +4.3250620365E-006 +2.7251243591E-002 +1.1233329773E-002
707500000.000 +4.7142028809E-002 -4.6936035156E-002 +2.0453929901E-003 -6.2434673309E-003 -1.8008053303E-005 -3.1491741538E-005 +1.9931793213E-003 +1.8643379211E-002
840000000.000 +4.6239852905E-002 -5.6377410889E-002 -1.8784999847E-003 -6.2582492828E-003 +3.5764649510E-005 +3.9013102651E-005 -1.9906044006E-002 +2.5993347168E-002
972500000.000 +4.5234680176E-002 -6.5448760986E-002 -4.9619674683E-003 -4.1229724884E-003 -1.4908611774E-005 +5.5756419897E-005 -3.5871505737E-002 +3.5333633423E-002
1105000000.000 +4.3231964111E-002 -7.4623107910E-002 -6.2813758850E-003 -5.9700012207E-004 -4.0670856833E-005 -4.1551887989E-005 -4.6895980835E-002 +3.8120269775E-002
1237500000.000 +4.1412353516E-002 -8.3152770996E-002 -5.5897235870E-003 +3.1044483185E-003 -1.9920989871E-005 +2.4365261197E-005 -5.8551788330E-002 +3.3868789673E-002
1370000000.000 +3.9329528809E-002 -9.1968536377E-002 -2.7942657471E-003 +5.6567192078E-003 +1.7308630049E-005 -9.3132257462E-009 -7.3944091797E-002 +2.6935577393E-002
1502500000.000 +3.6582946777E-002 -9.8899841309E-002 +8.2445144653E-004 +6.7033767700E-003 -2.7075409889E-005 -3.0837953091E-005 -8.8100433350E-002 +2.1327972412E-002
1635000000.000 +3.5293579102E-002 -1.0768890381E-001 +4.4741630554E-003 +5.0075054169E-003 +8.5346400738E-006 -1.1343508959E-005 -9.8991394043E-002 +1.1615753174E-002
1767500000.000 +3.2592773438E-002 -1.1658859253E-001 +6.5846443176E-003 +1.7132759094E-003 -5.2824616432E-006 +1.1943280697E-005 -1.1185836792E-001 +2.8839111328E-003
1900000000.000 +3.0128479004E-002 -1.2432479858E-001 +6.3624382019E-003 -2.4521350861E-003 -2.9878690839E-005 +1.8027611077E-005 -1.1382675171E-001 -3.4942626953E-003
2032500000.000 +2.7420043945E-002 -1.3199615479E-001 +3.8311481476E-003 -5.4981708527E-003 +4.4718384743E-005 -1.2096017599E-005 -1.1363220215E-001 -2.4391174316E-002
2165000000.000 +2.5550842285E-002 -1.4082336426E-001 +7.8678131104E-005 -6.6642761230E-003 +1.2945383787E-004 +7.8327953815E-005 -1.2251663208E-001 -4.2175292969E-002
2297500000.000 +2.2529602051E-002 -1.4830780029E-001 -3.6017894745E-003 -5.6087970734E-003 -1.0721758008E-004 -3.2320618629E-005 -1.2643432617E-001 -5.3550720215E-002
2430000000.000 +1.9538879395E-002 -1.5519714355E-001 -6.0124397278E-003 -2.5644302368E-003 -5.6907534599E-005 -1.5932321548E-004 -1.2658691406E-001 -6.4826965332E-002
2562500000.000 +1.6822814941E-002 -1.6323852539E-001 -6.4971446991E-003 +1.3525485992E-003 +1.1046230793E-004 +2.0483136177E-004 -1.2512969971E-001 -7.0793151855E-002
2695000000.000 +1.2191772461E-002 -1.6982269287E-001 -4.4238567352E-003 +4.6424865723E-003 -1.6231089830E-005 +3.7033110857E-005 -1.1370849609E-001 -7.3528289795E-002
2827500000.000 +8.4075927734E-003 -1.7567443848E-001 -1.1279582977E-003 +6.4709186554E-003 -3.2238662243E-005 -8.9272856712E-005 -9.8587036133E-002 -8.1878662109E-002
2960000000.000 +5.7907104492E-003 -1.8226623535E-001 +2.6800632477E-003 +5.9759616852E-003 +1.4977157116E-004 +4.0300190449E-005 -8.8142395020E-002 -8.6734771729E-002
3092500000.000 +1.4495849609E-003 -1.9007873535E-001 +5.5029392242E-003 +3.4821033478E-003 -1.9213184714E-005 -4.5098364353E-005 -7.0411682129E-002 -8.5987091064E-002
3225000000.000 -3.9825439453E-003 -1.9664001465E-001 +6.5407752991E-003 -2.6273727417E-004 -5.2526593208E-006 -1.0149180889E-004 -5.1910400391E-002 -9.1110229492E-002
3357500000.000 -7.9498291016E-003 -2.0156860352E-001 +5.3017139435E-003 -3.9229393005E-003 +5.5361539125E-005 -1.5111640096E-005 -4.1206359863E-002 -9.1503143311E-002
3490000000.000 -1.1421203613E-002 -2.0935058594E-001 +2.1753311157E-003 -6.1368942261E-003 +5.0477683544E-006 +4.4245272875E-005 -2.7919769287E-002 -8.3278656006E-002
3622500000.000 -1.5991210938E-002 -2.1678924561E-001 -1.6596317291E-003 -6.3877105713E-003 -3.3376738429E-005 -4.3427571654E-005 -1.1287689209E-002 -7.9246520996E-002
3755000000.000 -2.1286010742E-002 -2.2366333008E-001 -5.0842761993E-003 -4.4548511505E-003 +4.5439228415E-005 -4.7763809562E-005 -6.0157775879E-003 -7.2940826416E-002
3887500000.000 -2.5032043457E-002 -2.2969055176E-001 -6.8278312683E-003 -8.5949897766E-004 -2.1104700863E-005 +1.2943521142E-005 +2.0980834961E-003 -5.5852890015E-002
4020000000.000 -2.9113769531E-002 -2.3572540283E-001 -6.0923099518E-003 +3.0429363251E-003 -1.0970514268E-005 -5.0249509513E-006 +1.3389587402E-002 -4.4494628906E-002
4152500000.000 -3.3035278320E-002 -2.4279785156E-001 -3.2327175140E-003 +6.1962604523E-003 +4.5172870159E-005 -1.3568997383E-004 +1.5405654907E-002 -3.2554626465E-002
4285000000.000 -3.7559509277E-002 -2.4913024902E-001 +8.0490112305E-004 +6.9587230682E-003 +1.4342367649E-005 -1.7256475985E-005 +1.6963958740E-002 -1.2937545776E-002
4417500000.000 -4.2739868164E-002 -2.5520324707E-001 +4.5964717865E-003 +5.2013397217E-003 -9.3959271908E-005 +5.3767114878E-005 +2.5593757629E-002 +3.6315917969E-003
4550000000.000 -4.6249389648E-002 -2.6058959961E-001 +6.7455768585E-003 +1.6062259674E-003 -1.7061829567E-006 -6.8239867687E-005 +2.8945922852E-002 +9.5720291138E-003
4682500000.000 -5.0125122070E-002 -2.6765441895E-001 +6.4151287079E-003 -2.4528503418E-003 +5.7263299823E-005 -7.7597796917E-006 +2.5528907776E-002 +2.0626068115E-002
4815000000.000 -5.6442260742E-002 -2.7400207520E-001 +3.9498806000E-003 -5.4566860199E-003 +3.3937394619E-006 +1.0401941836E-005 +3.1200408936E-002 +2.7381896973E-002
4947500000.000 -5.9112548828E-002 -2.7894592285E-001 +1.8739700317E-004 -6.9832801819E-003 -7.7076256275E-005 -2.9459595680E-005 +2.7544021606E-002 +1.9928932190E-002
5080000000.000 -6.2271118164E-002 -2.8477478027E-001 -3.8101673126E-003 -5.9721469879E-003 +2.9525719583E-005 -1.3330020010E-005 +1.3260841370E-002 +2.0524978638E-002
5212500000.000 -6.6558837891E-002 -2.9077148438E-001 -6.6013336182E-003 -2.7585029602E-003 +1.8560327590E-005 -2.6201829314E-005 +9.2287063599E-003 +2.4752616882E-002
5345000000.000 -7.1319580078E-002 -2.9516601563E-001 -7.2040557861E-003 +1.5430450439E-003 +1.1331401765E-005 -2.5923363864E-005 +5.4712295532E-003 +1.6210556030E-002
5477500000.000 -7.3684692383E-002 -2.9927062988E-001 -5.1169395447E-003 +5.3937435150E-003 +3.1847506762E-005 -1.6795471311E-005 -9.2153549194E-003 +1.0292053223E-002
5610000000.000 -7.7102661133E-002 -3.0517578125E-001 -1.0232925415E-003 +7.4486732483E-003 +5.3923577070E-007 +1.9093044102E-005 -1.4801502228E-002 +1.4524459839E-002
5742500000.000 -8.2031250000E-002 -3.0921936035E-001 +3.3900737762E-003 +6.7305564880E-003 -8.4904022515E-006 +5.3155235946E-006 -1.1477947235E-002 +5.9008598328E-003
5875000000.000 -8.6273193359E-002 -3.1143188477E-001 +6.8805217743E-003 +3.6861896515E-003 +5.9962272644E-005 -8.3819031715E-008 -2.0236015320E-002 -3.4856796265E-003
6007500000.000 -8.9187622070E-002 -3.1541442871E-001 +7.7431201935E-003 -9.2411041260E-004 +4.3649226427E-005 +2.2996217012E-005 -2.3214340210E-002 +1.3256072998E-004
6140000000.000 -9.3139648438E-002 -3.2072448730E-001 +5.7973861694E-003 -5.3677558899E-003 -6.2584877014E-005 +2.4884939194E-005 -1.5379905701E-002 -2.8486251831E-003
6272500000.000 -9.9655151367E-002 -3.2418823242E-001 +1.8038749695E-003 -7.8005790710E-003 +3.6779791117E-005 -4.5377761126E-005 -1.6466140747E-002 -1.1788368225E-002
6405000000.000 -1.0478210449E-001 -3.2575988770E-001 -3.0894279480E-003 -7.4691772461E-003 +1.0050088167E-004 +2.8032809496E-005 -1.9350051880E-002 -6.3018798828E-003
6537500000.000 -1.0720825195E-001 -3.3044433594E-001 -6.9961547852E-003 -4.2190551758E-003 +4.6556815505E-006 -1.2987293303E-005 -9.2597007751E-003 -3.3340454102E-003
6670000000.000 -1.1204528809E-001 -3.3607482910E-001 -8.2535743713E-003 +4.0674209595E-004 -3.2403040677E-006 -7.1646645665E-006 -7.8377723694E-003 -7.3528289795E-003
6802500000.000 -1.1953735352E-001 -3.4011840820E-001 -6.5677165985E-003 +5.2471160889E-003 +3.0018389225E-005 -2.4735927582E-006 -1.1342525482E-002 +6.2465667725E-005
6935000000.000 -1.2429809570E-001 -3.4257507324E-001 -1.9478797913E-003 +8.1357955933E-003 -1.8372200429E-005 -8.2477927208E-006 -6.3519477844E-003 +9.9110603333E-003
7067500000.000 -1.2649536133E-001 -3.4658813477E-001 +3.1309127808E-003 +7.9550743103E-003 +4.1954219341E-005 -7.0370733738E-005 -4.6377182007E-003 +1.0179519653E-002
7200000000.000 -1.3218688965E-001 -3.5173034668E-001 +7.0750713348E-003 +5.0153732300E-003 +4.2693689466E-005 +3.6135315895E-005 -1.5011787415E-002 +1.6963958740E-002
7332500000.000 -1.3946533203E-001 -3.5595703125E-001 +8.7094306946E-003 -3.8194656372E-004 +4.0806829929E-005 +3.9048492908E-005 -1.6924858093E-002 +3.0748367310E-002
7465000000.000 -1.4402770996E-001 -3.5894775391E-001 +6.8597793579E-003 -5.4852962494E-003 -5.0114467740E-006 -2.8398819268E-005 -1.9710540771E-002 +3.1235694885E-002
7597500000.000 -1.4762878418E-001 -3.6242675781E-001 +2.8352737427E-003 -8.4023475647E-003 +6.6645443439E-006 -5.6061893702E-005 -3.6275863647E-002 +3.3226013184E-002
7730000000.000 -1.5376281738E-001 -3.6921691895E-001 -3.0674934387E-003 -8.2879066467E-003 +5.9897080064E-005 +4.1874125600E-005 -4.8307418823E-002 +4.3546676636E-002
7862500000.000 -1.6035461426E-001 -3.7481689453E-001 -7.6816082001E-003 -4.3687820435E-003 -3.4797936678E-005 -2.8589740396E-005 -5.3564071655E-002 +4.2701721191E-002
7995000000.000 -1.6337585449E-001 -3.7629699707E-001 -9.0026855469E-003 +3.1042098999E-004 +2.8368085623E-006 -2.5253742933E-005 -7.2910308838E-002 +3.5156250000E-002
8127500000.000 -1.6734313965E-001 -3.8253784180E-001 -7.1151256561E-003 +5.4621696472E-003 +6.3363462687E-005 +5.1695853472E-005 -9.1308593750E-002 +3.9802551270E-002
8260000000.000 -1.7514038086E-001 -3.8792419434E-001 -1.8453598022E-003 +8.7270736694E-003 -3.4358352423E-005 +5.0047412515E-005 -9.5500946045E-002 +3.4397125244E-002
8392500000.000 -1.7808532715E-001 -3.9018249512E-001 +3.2401084900E-003 +8.4528923035E-003 -1.8449500203E-005 -2.4734064937E-005 -1.0980606079E-001 +1.8627166748E-002
8525000000.000 -1.8057250977E-001 -3.9360046387E-001 +7.4386596680E-003 +5.0899982452E-003 +5.4391101003E-005 +2.4888664484E-005 -1.2194824219E-001 +1.4957427979E-002
8657500000.000 -1.8656921387E-001 -3.9871215820E-001 +8.7633132935E-003 -8.9788436890E-004 -3.1013041735E-005 +1.6517937183E-005 -1.1786651611E-001 +4.1847229004E-003
8790000000.000 -1.9250488281E-001 -4.0214538574E-001 +6.4175128937E-003 -5.8338642120E-003 -5.8365985751E-006 -2.9825605452E-007 -1.1958694458E-001 -1.7398834229E-002
8922500000.000 -1.9490051270E-001 -4.0260314941E-001 +2.2654533386E-003 -8.6035728455E-003 +2.6543624699E-005 -1.5976838768E-005 -1.2226486206E-001 -3.0529022217E-002
9055000000.000 -1.9958496094E-001 -4.0594482422E-001 -3.4427642822E-003 -7.9407691956E-003 +7.7746808529E-006 +6.2771141529E-005 -1.1103057861E-001 -4.4055938721E-002
9187500000.000 -2.0472717285E-001 -4.0835571289E-001 -7.3742866516E-003 -4.2505264282E-003 +3.3769756556E-006 -5.1358714700E-005 -1.0016250610E-001 -6.6772460938E-002
9320000000.000 -2.1102905273E-001 -4.0856933594E-001 -8.5721015930E-003 +6.1178207397E-004 +6.4261257648E-006 -4.9337744713E-005 -9.3654632568E-002 -7.9578399658E-002
9452500000.000 -2.1528625488E-001 -4.0908813477E-001 -6.4866542816E-003 +5.4433345795E-003 -7.3656439781E-005 +7.1942806244E-005 -7.4241638184E-002 -8.6658477783E-002
9585000000.000 -2.2116088867E-001 -4.1081237793E-001 -1.6674995422E-003 +8.0261230469E-003 -1.8909573555E-005 -7.2315335274E-005 -5.4260253906E-002 -1.0117340088E-001
9717500000.000 -2.2694396973E-001 -4.1319274902E-001 +3.1208992004E-003 +7.6758861542E-003 +5.7868659496E-005 -3.5598874092E-005 -4.1259765625E-002 -1.0692977905E-001
9850000000.000 -2.3440551758E-001 -4.1146850586E-001 +6.8683624268E-003 +4.2829513550E-003 +3.5289674997E-005 +8.0410391092E-005 -1.9153594971E-002 -1.0225677490E-001
9982500000.000 -2.3776245117E-001 -4.1261291504E-001 +7.7357292175E-003 -6.3037872314E-004 -2.1278858185E-005 +2.0563602448E-006 +6.4239501953E-003 -1.0326766968E-001
10115000000.000 -2.4235534668E-001 -4.1467285156E-001 +5.9409141541E-003 -4.9178600311E-003 +1.6381032765E-005 +1.1230818927E-005 +1.9351959229E-002 -9.9063873291E-002
10247500000.000 -2.4966430664E-001 -4.1500854492E-001 +2.0849704742E-003 -7.4050426483E-003 +1.5109777451E-005 +3.7215650082E-005 +3.5690307617E-002 -8.0013275146E-002
10380000000.000 -2.5524902344E-001 -4.1375732422E-001 -2.7554035187E-003 -6.6378116608E-003 -1.6338191926E-005 +1.3589859009E-005 +5.7113647461E-002 -6.7512512207E-002
10512500000.000 -2.5886535645E-001 -4.1424560547E-001 -5.8777332306E-003 -3.9432048798E-003 -3.3149495721E-005 -3.1664967537E-007 +6.2664031982E-002 -5.5965423584E-002
10645000000.000 -2.6316833496E-001 -4.1554260254E-001 -7.1492195129E-003 -1.2874603271E-005 +4.6396628022E-005 +5.1526352763E-005 +6.6123962402E-002 -2.9209136963E-002
10777500000.000 -2.6957702637E-001 -4.1584777832E-001 -5.4373741150E-003 +4.0304660797E-003 -2.5641173124E-005 -1.8036924303E-005 +7.7152252197E-002 -7.7934265137E-003
10910000000.000 -2.7488708496E-001 -4.1557312012E-001 -1.9569396973E-003 +6.2363147736E-003 -3.9855018258E-005 -2.7561560273E-005 +7.2360992432E-002 +5.6724548340E-003
11042500000.000 -2.7989196777E-001 -4.1625976563E-001 +1.8019676208E-003 +6.1430931091E-003 +2.0817853510E-005 -2.6799738407E-005 +5.9524536133E-002 +3.1345367432E-002
11175000000.000 -2.8390502930E-001 -4.1816711426E-001 +4.9128532410E-003 +3.8721561432E-003 -3.9540231228E-005 +4.2427331209E-005 +5.6381225586E-002 +5.2507400513E-002
11307500000.000 -2.8768920898E-001 -4.1825866699E-001 +5.8989524841E-003 +2.8610229492E-004 +5.7183206081E-007 -1.9488856196E-005 +4.3382644653E-002 +5.8610916138E-002
11440000000.000 -2.9246520996E-001 -4.1873168945E-001 +4.4410228729E-003 -2.5546550751E-003 +4.9248337746E-005 -5.0965696573E-005 +1.8119812012E-002 +7.2162628174E-002
11572500000.000 -2.9428100586E-001 -4.2057800293E-001 +2.1250247955E-003 -4.4944286346E-003 +1.0419636965E-005 +9.9521130323E-005 +4.3144226074E-003 +8.7356567383E-002
11705000000.000 -2.9774475098E-001 -4.2205810547E-001 -1.1143684387E-003 -5.3255558014E-003 +1.5228986740E-005 +6.7234039307E-005 -1.0177612305E-002 +8.0902099609E-002
11837500000.000 -3.0175781250E-001 -4.2295837402E-001 -3.8065910339E-003 -3.7177801132E-003 +4.0700659156E-005 +1.7160549760E-005 -4.3205261230E-002 +7.6538085938E-002
11970000000.000 -3.0325317383E-001 -4.2236328125E-001 -5.1455497742E-003 -8.2993507385E-004 -7.1357935667E-006 +5.4029747844E-005 -5.9532165527E-002 +8.2950592041E-002
12102500000.000 -3.0361938477E-001 -4.2335510254E-001 -4.4734477997E-003 +2.1359920502E-003 -2.6611611247E-005 -5.8628618717E-005 -6.5544128418E-002 +6.4231872559E-002
12235000000.000 -3.0906677246E-001 -4.2222595215E-001 -2.3502111435E-003 +3.5742521286E-003 +3.2894313335E-005 +2.4417415261E-005 -9.2922210693E-002 +4.3884277344E-002
12367500000.000 -3.1024169922E-001 -4.2214965820E-001 +3.9744377136E-004 +4.6496391296E-003 +1.4087185264E-005 +1.2223143131E-005 -1.0561370850E-001 +4.2530059814E-002
12500000000.000 -3.1431579590E-001 -4.2060852051E-001 +2.9342174530E-003 +3.5458803177E-003 +1.0593794286E-006 +1.0379590094E-005 -9.7286224365E-002 +2.0275115967E-002
12632500000.000 -3.1669616699E-001 -4.2175292969E-001 +4.1620731354E-003 +1.2607574463E-003 +4.6791508794E-005 -2.6306137443E-005 -1.0921478271E-001 -1.3603210449E-002
12765000000.000 -3.1959533691E-001 -4.2100524902E-001 +4.0028095245E-003 -1.2998580933E-003 -1.0341871530E-005 +7.7919103205E-006 -1.1722564697E-001 -1.8096923828E-002
12897500000.000 -3.2235717773E-001 -4.1909790039E-001 +2.5556087494E-003 -3.2939910889E-003 -8.6948275566E-006 +6.9428235292E-005 -9.2212677002E-002 -3.4690856934E-002
13030000000.000 -3.2460021973E-001 -4.1868591309E-001 +2.2172927856E-004 -3.9474964142E-003 -5.5953860283E-006 -7.9486519098E-005 -8.9237213135E-002 -7.1170806885E-002
13162500000.000 -3.2658386230E-001 -4.1879272461E-001 -1.5830993652E-003 -2.9897689819E-003 +1.0680407286E-005 -4.9436464906E-005 -9.1335296631E-002 -7.2818756104E-002
13295000000.000 -3.2986450195E-001 -4.1929626465E-001 -3.4232139587E-003 -1.5140771866E-003 +1.5992671251E-005 -4.2170286179E-006 -6.1046600342E-002 -7.8842163086E-002
13427500000.000 -3.3351135254E-001 -4.1720581055E-001 -3.5911798477E-003 +7.1239471436E-004 -2.9725953937E-005 -2.9072165489E-005 -4.6653747559E-002 -1.0414123535E-001
13560000000.000 -3.3364868164E-001 -4.1639709473E-001 -2.3971796036E-003 +2.4721622467E-003 +5.4918229580E-005 -7.1085989475E-005 -4.6360015869E-002 -1.0126876831E-001
13692500000.000 -3.3601379395E-001 -4.1778564453E-001 -7.3862075806E-004 +3.2866001129E-003 +3.7929043174E-005 +5.0503760576E-005 -1.7757415771E-002 -8.9145660400E-002
13825000000.000 -3.4059143066E-001 -4.1743469238E-001 +1.2418031693E-003 +3.0250549316E-003 +4.6890228987E-005 +2.8714537621E-005 +4.4136047363E-003 -1.0306167603E-001
13957500000.000 -3.4350585938E-001 -4.1485595703E-001 +2.6950836182E-003 +1.6648769379E-003 -5.8362260461E-005 -2.5868415833E-005 +4.9591064453E-005 -9.5436096191E-002
14090000000.000 -3.4457397461E-001 -4.1461181641E-001 +3.0859708786E-003 -2.5033950806E-005 +1.7575919628E-005 -1.9516795874E-005 +2.1907806396E-002 -7.0030212402E-002
14222500000.000 -3.4622192383E-001 -4.1722106934E-001 +2.3354291916E-003 -1.6638040543E-003 -4.7788023949E-005 +6.3464045525E-005 +4.4078826904E-002 -7.4039459229E-002
14355000000.000 -3.5125732422E-001 -4.1683959961E-001 +1.0267496109E-003 -2.6956796646E-003 +8.3371996880E-006 -7.8767538071E-005 +3.3203125000E-002 -6.6989898682E-002
14487500000.000 -3.5366821289E-001 -4.1629028320E-001 -5.0640106201E-004 -2.8679370880E-003 -1.1593103409E-005 +4.9160793424E-005 +4.0145874023E-002 -3.3994674683E-002
14620000000.000 -3.5365295410E-001 -4.1738891602E-001 -1.9099712372E-003 -1.8840432167E-003 -1.3634562492E-004 +5.1550567150E-005 +6.0739517212E-002 -3.1383514404E-002
14752500000.000 -3.5676574707E-001 -4.2149353027E-001 -2.6012659073E-003 -4.4226646423E-004 -3.3818185329E-005 +1.1945143342E-005 +4.3153762817E-002 -3.2245635986E-002
14885000000.000 -3.5939025879E-001 -4.2240905762E-001 -2.3219585419E-003 +1.0511875153E-003 +8.3364546299E-005 -1.4416873455E-006 +3.5467147827E-002 +1.5163421631E-003
15017500000.000 -3.5974121094E-001 -4.2318725586E-001 -1.3334751129E-003 +2.1346807480E-003 -6.5147876740E-005 +1.7198175192E-004 +5.2867889404E-002 +8.7852478027E-003
15150000000.000 -3.6029052734E-001 -4.2678833008E-001 +6.1154365540E-005 +2.4636983871E-003 -1.1961907148E-004 -3.8519501686E-006 +3.5154342651E-002 -1.5888214111E-003
15282500000.000 -3.6091613770E-001 -4.2878723145E-001 +1.3213753700E-003 +1.8443465233E-003 +4.4532120228E-005 +7.1298331022E-005 +1.4426231384E-002 +2.3103713989E-002
