!  2-Port S-parameters saved by WinCal
! VAR MeasName=S-Parameters (CALIBRATED_DATA) read from VNA (C)
! VAR MeasDate=10/16/2015 4:02:34 PM
! VAR NAME=M6082_10_17_2_2_20C_15.6mA_-17.5dBm
! VAR FILENAME=M6082_10_17_2_2_20C_15.6mA_-17.5dBm.S2P
! VAR DATE=10/16/2015 4:02:34 PM
! VAR PHYS_PORTS=2,1
! VAR ObjTypeName=DATASET
! VAR IndexType=Frequency
!
# Hz S RI R 50
45000000.000 -1.5983581543E-001 +5.3405761719E-005 -1.4480352402E-003 +3.5953521729E-003 +5.7166814804E-004 -5.2928924561E-004 +2.8114318848E-002 +4.7988891602E-003
177500000.000 -1.5705108643E-001 -5.9204101563E-003 +8.3446502686E-004 +4.3127536774E-003 -1.7415732145E-004 +2.0099431276E-004 +1.5562057495E-002 +1.6970634460E-002
310000000.000 -1.5518188477E-001 -1.3732910156E-002 +2.8119087219E-003 +3.4497976303E-003 -2.0582228899E-004 -1.0544806719E-004 +2.8882980347E-002 +6.1622619629E-002
442500000.000 -1.5431213379E-001 -2.1583557129E-002 +5.3620338440E-003 +1.1870861053E-003 -1.0104849935E-005 +4.2447820306E-005 +7.2559356689E-002 +2.2590637207E-002
575000000.000 -1.5426635742E-001 -3.0349731445E-002 +5.0282478333E-003 -2.2678375244E-003 -4.4396147132E-005 +4.0546059608E-005 +2.7229309082E-002 +1.1370658875E-002
707500000.000 -1.5478515625E-001 -3.7971496582E-002 +2.8684139252E-003 -4.7879219055E-003 -7.6476484537E-005 -5.6378543377E-005 +2.0561218262E-003 +1.8779754639E-002
840000000.000 -1.5481567383E-001 -4.6432495117E-002 -3.4809112549E-004 -5.5732727051E-003 +1.4705583453E-005 +5.9541314840E-005 -1.9927024841E-002 +2.6093482971E-002
972500000.000 -1.5493011475E-001 -5.4756164551E-002 -3.6523342133E-003 -4.5015811920E-003 +2.2680498660E-005 -1.1604279280E-006 -3.5814285278E-002 +3.5524368286E-002
1105000000.000 -1.5612792969E-001 -6.3125610352E-002 -5.4371356964E-003 -1.6632080078E-003 +2.2687017918E-006 -1.7977319658E-005 -4.6890258789E-002 +3.8318634033E-002
1237500000.000 -1.5734100342E-001 -7.0907592773E-002 -5.5711269379E-003 +1.7383098602E-003 +1.9771046937E-005 +2.1191313863E-005 -5.8494567871E-002 +3.3823013306E-002
1370000000.000 -1.5898132324E-001 -7.8590393066E-002 -3.6475658417E-003 +4.6131610870E-003 -6.2443315983E-005 +3.4589320421E-005 -7.4016571045E-002 +2.6969909668E-002
1502500000.000 -1.6014099121E-001 -8.6326599121E-002 -3.7479400635E-004 +5.8906078339E-003 -3.8914382458E-005 +2.0628795028E-005 -8.8066101074E-002 +2.1362304688E-002
1635000000.000 -1.6132354736E-001 -9.4955444336E-002 +3.0758380890E-003 +5.0663948059E-003 +3.1404197216E-005 -7.6930969954E-005 -9.9040985107E-002 +1.1726379395E-002
1767500000.000 -1.6359710693E-001 -1.0259246826E-001 +5.4283142090E-003 +2.4304389954E-003 +1.6625970602E-005 -5.5562704802E-006 -1.1184692383E-001 +2.9411315918E-003
1900000000.000 -1.6501617432E-001 -1.0963439941E-001 +5.8717727661E-003 -1.1060237885E-003 -7.7385455370E-005 -4.0479004383E-005 -1.1389160156E-001 -3.5057067871E-003
2032500000.000 -1.6712951660E-001 -1.1697387695E-001 +4.2622089386E-003 -4.2586326599E-003 +2.0172446966E-005 -4.0914863348E-005 -1.1368179321E-001 -2.4368286133E-002
2165000000.000 -1.6887664795E-001 -1.2517547607E-001 +9.6631050110E-004 -5.7165622711E-003 -2.9981136322E-005 +4.0205195546E-005 -1.2259292603E-001 -4.2324066162E-002
2297500000.000 -1.7111968994E-001 -1.3202667236E-001 -2.4406909943E-003 -5.4216384888E-003 +1.9099563360E-005 +9.0546905994E-005 -1.2656402588E-001 -5.3527832031E-002
2430000000.000 -1.7337799072E-001 -1.3887786865E-001 -4.9800872803E-003 -3.1204223633E-003 -2.8460286558E-005 +2.4477951229E-005 -1.2648010254E-001 -6.4811706543E-002
2562500000.000 -1.7584991455E-001 -1.4633941650E-001 -5.8581829071E-003 +3.4546852112E-004 +3.2521784306E-005 +7.6480209827E-006 -1.2524414063E-001 -7.1067810059E-002
2695000000.000 -1.7980957031E-001 -1.5229797363E-001 -4.6784877777E-003 +3.7660598755E-003 -3.5019591451E-005 +1.5188008547E-005 -1.1349105835E-001 -7.3310852051E-002
2827500000.000 -1.8334197998E-001 -1.5762329102E-001 -1.7421245575E-003 +5.5418014526E-003 -3.0010938644E-004 -2.3175776005E-004 -9.8342895508E-002 -8.1569671631E-002
2960000000.000 -1.8540191650E-001 -1.6411590576E-001 +1.8808841705E-003 +5.5940151215E-003 +1.2616813183E-004 +9.7423791885E-005 -8.8142395020E-002 -8.6883544922E-002
3092500000.000 -1.8965911865E-001 -1.7130279541E-001 +4.4598579407E-003 +3.7069320679E-003 +2.2131018341E-005 -4.7096982598E-006 -7.0377349854E-002 -8.6048126221E-002
3225000000.000 -1.9467163086E-001 -1.7755889893E-001 +5.7713985443E-003 +4.5061111450E-004 -8.8576227427E-005 -3.5461038351E-005 -5.2021026611E-002 -9.1186523438E-002
3357500000.000 -1.9834899902E-001 -1.8193817139E-001 +4.9655437469E-003 -2.9551982880E-003 +2.0397827029E-005 -1.4055520296E-005 -4.1328430176E-002 -9.1560363770E-002
3490000000.000 -2.0186614990E-001 -1.8914794922E-001 +2.6414394379E-003 -5.1803588867E-003 -3.9286911488E-005 +9.6175819635E-005 -2.7915954590E-002 -8.3271026611E-002
3622500000.000 -2.0603179932E-001 -1.9622039795E-001 -6.9594383240E-004 -5.5713653564E-003 +5.9193000197E-005 -2.1254643798E-005 -1.1421203613E-002 -7.9238891602E-002
3755000000.000 -2.1107482910E-001 -2.0269012451E-001 -3.8118362427E-003 -4.2440891266E-003 +1.9498169422E-005 -1.3603828847E-005 -5.9051513672E-003 -7.2929382324E-002
3887500000.000 -2.1491241455E-001 -2.0824432373E-001 -5.5358409882E-003 -1.4424324036E-003 -7.9084187746E-005 +9.9297612906E-005 +2.3155212402E-003 -5.5913925171E-002
4020000000.000 -2.1871185303E-001 -2.1379089355E-001 -5.3913593292E-003 +2.0213127136E-003 -5.3491443396E-005 -3.8115307689E-005 +1.3288497925E-002 -4.4492721558E-002
4152500000.000 -2.2255706787E-001 -2.2044372559E-001 -3.2477378845E-003 +4.6813488007E-003 +1.9429251552E-005 -5.5471435189E-005 +1.5390396118E-002 -3.2598495483E-002
4285000000.000 -2.2704315186E-001 -2.2633361816E-001 +1.2397766113E-005 +5.5382251740E-003 +7.9330056906E-006 +5.3547322750E-005 +1.7023086548E-002 -1.3076782227E-002
4417500000.000 -2.3217010498E-001 -2.3149871826E-001 +3.0260086060E-003 +4.5390129089E-003 +1.8887221813E-006 -3.5608187318E-005 +2.5690078735E-002 +3.7012100220E-003
4550000000.000 -2.3551940918E-001 -2.3645782471E-001 +5.0249099731E-003 +1.9950866699E-003 -1.5250407159E-006 -1.0131625459E-006 +2.8914451599E-002 +9.5510482788E-003
4682500000.000 -2.3923492432E-001 -2.4269866943E-001 +5.3400993347E-003 -1.0070800781E-003 +7.0467591286E-005 +1.7393380404E-005 +2.5666236877E-002 +2.0632743835E-002
4815000000.000 -2.4405670166E-001 -2.4835968018E-001 +3.8465261459E-003 -3.7379264832E-003 -2.6434659958E-005 +2.7112662792E-005 +3.1203269958E-002 +2.7438163757E-002
4947500000.000 -2.4798583984E-001 -2.5283813477E-001 +1.0728836060E-003 -5.2292346954E-003 +2.4145469069E-005 -4.9889087677E-005 +2.7601242065E-002 +1.9821166992E-002
5080000000.000 -2.5090026855E-001 -2.5814819336E-001 -2.0179748535E-003 -4.9984455109E-003 +6.4257532358E-005 +7.9311430454E-005 +1.3297080994E-002 +2.0442962646E-002
5212500000.000 -2.5508117676E-001 -2.6351928711E-001 -4.5435428619E-003 -2.9721260071E-003 -3.6740675569E-005 -9.0263783932E-006 +9.2153549194E-003 +2.4677276611E-002
5345000000.000 -2.5971984863E-001 -2.6762390137E-001 -5.5432319641E-003 +1.3351440430E-005 -5.9779733419E-005 -2.4922192097E-006 +5.5437088013E-003 +1.6262054443E-002
5477500000.000 -2.6220703125E-001 -2.7116394043E-001 -4.5065879822E-003 +3.1044483185E-003 +1.9222497940E-005 -1.3001263142E-006 -9.1433525085E-003 +1.0256767273E-002
5610000000.000 -2.6539611816E-001 -2.7629089355E-001 -1.9743442535E-003 +5.2034854889E-003 -2.1778047085E-005 +9.6462666988E-005 -1.4866828918E-002 +1.4418601990E-002
5742500000.000 -2.7038574219E-001 -2.8018188477E-001 +1.1956691742E-003 +5.2456855774E-003 +3.4030526876E-006 -2.4295412004E-005 -1.1449813843E-002 +5.9537887573E-003
5875000000.000 -2.7474975586E-001 -2.8166198730E-001 +3.9668083191E-003 +3.7117004395E-003 +3.9339065552E-005 +5.0961971283E-006 -2.0174026489E-002 -3.2148361206E-003
6007500000.000 -2.7783203125E-001 -2.8483581543E-001 +5.3534507751E-003 +7.8797340393E-004 +2.1319836378E-005 +3.9514154196E-005 -2.3111343384E-002 +2.0980834961E-004
6140000000.000 -2.8190612793E-001 -2.8929138184E-001 +4.8828125000E-003 -2.4392604828E-003 -3.5149976611E-005 -3.5498291254E-005 -1.5285015106E-002 -2.7995109558E-003
6272500000.000 -2.8833007813E-001 -2.9226684570E-001 +2.6099681854E-003 -4.7121047974E-003 +7.6871365309E-006 -3.7547200918E-005 -1.6480445862E-002 -1.1771202087E-002
6405000000.000 -2.9350280762E-001 -2.9258728027E-001 -5.2309036255E-004 -5.2850246429E-003 +3.0495226383E-005 +3.5524368286E-005 -1.9299507141E-002 -6.2189102173E-003
6537500000.000 -2.9641723633E-001 -2.9606628418E-001 -3.3988952637E-003 -4.1079521179E-003 +2.6211142540E-005 +5.5018812418E-005 -9.2620849609E-003 -3.1847953796E-003
6670000000.000 -3.0117797852E-001 -3.0125427246E-001 -4.9943923950E-003 -1.5227794647E-003 +4.5869499445E-005 -2.4309381843E-005 -7.9202651978E-003 -7.2178840637E-003
6802500000.000 -3.0847167969E-001 -3.0368041992E-001 -4.9929618835E-003 +1.5599727631E-003 +7.1186572313E-005 -1.1254101992E-005 -1.1435031891E-002 +1.8405914307E-004
6935000000.000 -3.1327819824E-001 -3.0392456055E-001 -3.1995773315E-003 +4.0836334229E-003 -2.3853033781E-005 +1.3613142073E-005 -6.3271522522E-003 +9.9735260010E-003
7067500000.000 -3.1527709961E-001 -3.0729675293E-001 -3.9458274841E-004 +5.1155090332E-003 +1.3452023268E-005 -4.1918829083E-005 -4.7087669373E-003 +1.0238170624E-002
7200000000.000 -3.2049560547E-001 -3.1231689453E-001 +2.5360584259E-003 +4.3578147888E-003 +3.3952295780E-005 -4.0641054511E-005 -1.5154838562E-002 +1.6987800598E-002
7332500000.000 -3.2745361328E-001 -3.1408691406E-001 +4.5411586761E-003 +2.2108554840E-003 -2.6129186153E-005 +5.9913843870E-005 -1.7139434814E-002 +3.0792236328E-002
7465000000.000 -3.3160400391E-001 -3.1556701660E-001 +5.0330162048E-003 -6.7234039307E-004 -1.8427148461E-005 -1.7578713596E-005 -1.9823074341E-002 +3.1255722046E-002
7597500000.000 -3.3457946777E-001 -3.1915283203E-001 +3.6976337433E-003 -3.3199787140E-003 +2.9555521905E-006 +7.4878334999E-006 -3.6380767822E-002 +3.3292770386E-002
7730000000.000 -3.3990478516E-001 -3.2389831543E-001 +1.2509822845E-003 -4.8186779022E-003 +4.3373554945E-005 +6.2525272369E-005 -4.8408508301E-002 +4.3588638306E-002
7862500000.000 -3.4495544434E-001 -3.2612609863E-001 -1.6036033630E-003 -4.6081542969E-003 -7.0352107286E-005 -6.9878995419E-005 -5.3808212280E-002 +4.2581558228E-002
7995000000.000 -3.4776306152E-001 -3.2817077637E-001 -3.9293766022E-003 -2.9263496399E-003 -2.2677704692E-006 -2.8347596526E-005 -7.2841644287E-002 +3.5041809082E-002
8127500000.000 -3.5081481934E-001 -3.3332824707E-001 -4.9383640289E-003 -3.0350685120E-004 +2.0504929125E-005 +1.7426908016E-005 -9.1426849365E-002 +3.9627075195E-002
8260000000.000 -3.5633850098E-001 -3.3609008789E-001 -4.1346549988E-003 +2.5050640106E-003 +2.6516616344E-005 +3.0789524317E-005 -9.5676422119E-002 +3.4332275391E-002
8392500000.000 -3.5884094238E-001 -3.3802795410E-001 -2.0737648010E-003 +4.3404102325E-003 +3.2268464565E-005 -3.2708048820E-005 -1.0975646973E-001 +1.8527984619E-002
8525000000.000 -3.6076354980E-001 -3.4118652344E-001 +7.5101852417E-004 +4.8646926880E-003 +2.1811574697E-006 +6.0603022575E-005 -1.2199020386E-001 +1.4934539795E-002
8657500000.000 -3.6398315430E-001 -3.4487915039E-001 +3.3489465714E-003 +3.6170482635E-003 -7.2170048952E-005 +2.1148473024E-005 -1.1788177490E-001 +4.1275024414E-003
8790000000.000 -3.6840820313E-001 -3.4732055664E-001 +4.6420097351E-003 +1.0948181152E-003 +6.0163438320E-007 -8.7148509920E-006 -1.1951065063E-001 -1.7471313477E-002
8922500000.000 -3.7091064453E-001 -3.4753417969E-001 +4.4701099396E-003 -1.6949176788E-003 +2.0498409867E-005 -3.9340928197E-005 -1.2229537964E-001 -3.0540466309E-002
9055000000.000 -3.7341308594E-001 -3.5040283203E-001 +2.7844905853E-003 -3.9405822754E-003 -6.3264742494E-006 +2.2186897695E-005 -1.1100387573E-001 -4.4006347656E-002
9187500000.000 -3.7677001953E-001 -3.5238647461E-001 +6.3419342041E-005 -4.7726631165E-003 +8.2226470113E-006 -1.5927478671E-005 -1.0009765625E-001 -6.6818237305E-002
9320000000.000 -3.8276672363E-001 -3.5224914551E-001 -2.6519298553E-003 -3.9494037628E-003 +4.2971223593E-005 -2.1101906896E-005 -9.3673706055E-002 -7.9578399658E-002
9452500000.000 -3.8581848145E-001 -3.5253906250E-001 -4.3351650238E-003 -1.8510818481E-003 +2.6414170861E-005 +5.4309144616E-005 -7.4298858643E-002 -8.6532592773E-002
9585000000.000 -3.8923645020E-001 -3.5391235352E-001 -4.6098232269E-003 +8.4352493286E-004 -1.0200776160E-005 -2.4737790227E-005 -5.4290771484E-002 -1.0113906860E-001
9717500000.000 -3.9456176758E-001 -3.5639953613E-001 -3.2705068588E-003 +3.3133029938E-003 +5.3524971008E-005 +2.9522925615E-006 -4.1297912598E-002 -1.0706329346E-001
9850000000.000 -4.0055847168E-001 -3.5430908203E-001 -8.7046623230E-004 +4.5568943024E-003 +7.3824077845E-005 +5.7298690081E-005 -1.9237518311E-002 -1.0221481323E-001
9982500000.000 -4.0232849121E-001 -3.5585021973E-001 +1.7945766449E-003 +4.2302608490E-003 -1.0238960385E-005 +3.8310885429E-005 +6.4926147461E-003 -1.0315704346E-001
10115000000.000 -4.0617370605E-001 -3.5807800293E-001 +3.8337707520E-003 +2.5558471680E-003 +3.8009136915E-005 -8.0637633801E-005 +1.9222259521E-002 -9.9113464355E-002
10247500000.000 -4.1246032715E-001 -3.5873413086E-001 +4.5247077942E-003 -1.6212463379E-005 +2.4433247745E-005 +2.8334558010E-005 +3.5636901855E-002 -8.0070495605E-002
10380000000.000 -4.1650390625E-001 -3.5791015625E-001 +3.6830902100E-003 -2.6595592499E-003 -1.6327947378E-005 +4.5415014029E-005 +5.7010650635E-002 -6.7340850830E-002
10512500000.000 -4.1938781738E-001 -3.5855102539E-001 +1.6186237335E-003 -4.2562484741E-003 +1.4674849808E-005 -1.7940998077E-005 +6.2858581543E-002 -5.5942535400E-002
10645000000.000 -4.2311096191E-001 -3.6026000977E-001 -1.0709762573E-003 -4.3735504150E-003 +2.9663555324E-005 -3.4170225263E-006 +6.6101074219E-002 -2.9277801514E-002
10777500000.000 -4.2823791504E-001 -3.6119079590E-001 -3.2709836960E-003 -3.0791759491E-003 -2.4303793907E-005 +5.8311969042E-005 +7.6972961426E-002 -7.8620910645E-003
10910000000.000 -4.3283081055E-001 -3.6129760742E-001 -4.3790340424E-003 -6.6637992859E-004 -3.5826116800E-005 -6.2186270952E-005 +7.2357177734E-002 +5.6686401367E-003
11042500000.000 -4.3695068359E-001 -3.6212158203E-001 -3.9830207825E-003 +1.8837451935E-003 +3.6623328924E-005 +1.9850209355E-005 +5.9680938721E-002 +3.1108856201E-002
11175000000.000 -4.4024658203E-001 -3.6457824707E-001 -2.2854804993E-003 +3.8456916809E-003 -3.8553029299E-005 +6.4447522163E-005 +5.6457519531E-002 +5.2206039429E-002
11307500000.000 -4.4343566895E-001 -3.6567687988E-001 +1.5854835510E-004 +4.4870376587E-003 -3.7292018533E-005 -3.4077093005E-005 +4.3581008911E-002 +5.8517456055E-002
11440000000.000 -4.4789123535E-001 -3.6677551270E-001 +2.6662349701E-003 +3.4699440002E-003 +1.0463409126E-005 -1.0807998478E-006 +1.8299102783E-002 +7.2177886963E-002
11572500000.000 -4.4943237305E-001 -3.6932373047E-001 +4.1723251343E-003 +1.4598369598E-003 -3.5874545574E-006 +3.8240104914E-005 +4.3983459473E-003 +8.7207794189E-002
11705000000.000 -4.5205688477E-001 -3.7091064453E-001 +4.2023658752E-003 -1.1582374573E-003 -5.1051378250E-005 +3.4337863326E-005 -1.0131835938E-002 +8.0905914307E-002
11837500000.000 -4.5556640625E-001 -3.7219238281E-001 +2.8564929962E-003 -3.1942129135E-003 +6.4317137003E-006 -3.4945085645E-005 -4.2995452881E-002 +7.6610565186E-002
11970000000.000 -4.5722961426E-001 -3.7173461914E-001 +4.7922134399E-004 -4.2567253113E-003 -2.0995736122E-005 -3.8312748075E-005 -5.9341430664E-002 +8.3057403564E-002
12102500000.000 -4.5730590820E-001 -3.7348937988E-001 -1.9391775131E-003 -3.8959980011E-003 -3.9933249354E-005 -1.6380101442E-005 -6.5425872803E-002 +6.4376831055E-002
12235000000.000 -4.6258544922E-001 -3.7333679199E-001 -3.7040710449E-003 -2.0740032196E-003 -1.5702098608E-006 -3.2307580113E-005 -9.2792510986E-002 +4.3949127197E-002
12367500000.000 -4.6366882324E-001 -3.7242126465E-001 -4.2452812195E-003 +3.0350685120E-004 +1.0150019079E-005 +6.5215863287E-006 -1.0544967651E-001 +4.2629241943E-002
12500000000.000 -4.6726989746E-001 -3.7112426758E-001 -3.2433271408E-003 +2.6879310608E-003 -4.7665089369E-005 -1.8993392587E-005 -9.7091674805E-002 +2.0545959473E-002
12632500000.000 -4.6891784668E-001 -3.7254333496E-001 -1.2156963348E-003 +3.9703845978E-003 +8.3353370428E-008 -1.2968666852E-005 -1.0913085938E-001 -1.3473510742E-002
12765000000.000 -4.7210693359E-001 -3.7219238281E-001 +1.1727809906E-003 +4.0018558502E-003 -7.5660645962E-006 +8.7052583694E-005 -1.1727523804E-001 -1.8058776855E-002
12897500000.000 -4.7474670410E-001 -3.7065124512E-001 +3.3242702484E-003 +2.5893449783E-003 +8.3334743977E-006 +1.8303282559E-005 -9.2300415039E-002 -3.4408569336E-002
13030000000.000 -4.7669982910E-001 -3.7002563477E-001 +4.0354728699E-003 +3.9124488831E-004 +1.2064352632E-005 -5.7388097048E-005 -8.9366912842E-002 -7.0957183838E-002
13162500000.000 -4.7898864746E-001 -3.7110900879E-001 +3.5767555237E-003 -1.9850730896E-003 +2.2312160581E-006 -5.5325217545E-006 -9.1571807861E-002 -7.2746276855E-002
13295000000.000 -4.8165893555E-001 -3.7159729004E-001 +1.8666982651E-003 -3.6182403564E-003 -1.3766810298E-005 +1.2384261936E-005 -6.1180114746E-002 -7.8617095947E-002
13427500000.000 -4.8497009277E-001 -3.6927795410E-001 -4.3034553528E-004 -4.0528774261E-003 -5.7375058532E-005 +6.7427754402E-007 -4.6756744385E-002 -1.0383605957E-001
13560000000.000 -4.8510742188E-001 -3.6900329590E-001 -2.6985406876E-003 -3.1405687332E-003 +4.8125162721E-005 -2.7380883694E-006 -4.6459197998E-002 -1.0135650635E-001
13692500000.000 -4.8736572266E-001 -3.7051391602E-001 -3.8889646530E-003 -1.0756254196E-003 -6.2938779593E-006 +3.4704804420E-005 -1.7848968506E-002 -8.9210510254E-002
13825000000.000 -4.9156188965E-001 -3.7026977539E-001 -3.8558244705E-003 +1.3401508331E-003 -8.3576887846E-005 +1.0260939598E-004 +4.1313171387E-003 -1.0297775269E-001
13957500000.000 -4.9421691895E-001 -3.6758422852E-001 -2.3027658463E-003 +3.2130479813E-003 +1.3105571270E-005 +2.1441839635E-005 -1.5258789063E-005 -9.5489501953E-002
14090000000.000 -4.9536132813E-001 -3.6764526367E-001 -2.7322769165E-004 +3.9551258087E-003 +3.3481046557E-005 +4.3569132686E-005 +2.2064208984E-002 -7.0297241211E-002
14222500000.000 -4.9647521973E-001 -3.7020874023E-001 +2.0545721054E-003 +3.3618211746E-003 -7.3406845331E-005 +3.0152499676E-005 +4.3933868408E-002 -7.4264526367E-002
14355000000.000 -5.0155639648E-001 -3.6996459961E-001 +3.5386085510E-003 +1.6936063766E-003 +1.3858079910E-006 -8.0771744251E-005 +3.3176422119E-002 -6.7256927490E-002
14487500000.000 -5.0369262695E-001 -3.7017822266E-001 +3.9629936218E-003 -4.9066543579E-004 +2.9593706131E-005 -3.4159049392E-005 +4.0229797363E-002 -3.4002304077E-002
14620000000.000 -5.0384521484E-001 -3.7112426758E-001 +2.8302669525E-003 -2.5287866592E-003 +2.0399689674E-005 -3.1009316444E-005 +6.1037063599E-002 -3.1465530396E-002
14752500000.000 -5.0646972656E-001 -3.7576293945E-001 +8.5878372192E-004 -3.8108825684E-003 -4.3760985136E-005 -8.9090317488E-005 +4.3113708496E-002 -3.2356262207E-002
14885000000.000 -5.0927734375E-001 -3.7738037109E-001 -1.3296604156E-003 -3.6975145340E-003 +5.7969242334E-005 -9.7863376141E-005 +3.5335540771E-002 +1.5792846680E-003
15017500000.000 -5.1022338867E-001 -3.7792968750E-001 -3.1321048737E-003 -2.2050142288E-003 -4.9127265811E-005 -2.4493783712E-006 +5.3173065186E-002 +8.8119506836E-003
15150000000.000 -5.1043701172E-001 -3.8128662109E-001 -3.7455558777E-003 -8.2731246948E-005 -2.0608305931E-005 -9.6946954727E-005 +3.5329818726E-002 -1.7166137695E-003
15282500000.000 -5.1132202148E-001 -3.8409423828E-001 -3.1903982162E-003 +2.0157098770E-003 +1.0028481483E-005 -9.8124146461E-005 +1.4305114746E-002 +2.3200988770E-002
