!  2-Port S-parameters saved by WinCal
! VAR MeasName=S-Parameters (CALIBRATED_DATA) read from VNA (C)
! VAR MeasDate=10/16/2015 3:51:27 PM
! VAR NAME=M6082_10_17_2_2_20C_4.8mA_-17.5dBm
! VAR FILENAME=M6082_10_17_2_2_20C_4.8mA_-17.5dBm.S2P
! VAR DATE=10/16/2015 3:51:27 PM
! VAR PHYS_PORTS=2,1
! VAR ObjTypeName=DATASET
! VAR IndexType=Frequency
!
# Hz S RI R 50
45000000.000 -4.4090270996E-002 -1.4610290527E-003 -1.5311241150E-003 +8.9912414551E-003 +8.9949369431E-004 -9.4175338745E-005 +2.8501510620E-002 +3.1824111938E-003
177500000.000 -4.3565750122E-002 -1.3788223267E-002 +2.6035308838E-003 +6.7238807678E-003 +9.9509954453E-005 +2.7272105217E-004 +1.5591621399E-002 +1.6825675964E-002
310000000.000 -4.3291091919E-002 -2.5890350342E-002 +5.8305263519E-003 +4.6362876892E-003 -2.9161572456E-005 -1.3338029385E-004 +2.8984069824E-002 +6.1428070068E-002
442500000.000 -4.3886184692E-002 -3.7759780884E-002 +8.3227157593E-003 -1.9884109497E-004 +2.2836029530E-006 -4.8307701945E-005 +7.2380065918E-002 +2.2495269775E-002
575000000.000 -4.5124053955E-002 -5.0338745117E-002 +6.3538551331E-003 -4.7955513000E-003 -5.2314251661E-005 +6.2212347984E-006 +2.7144432068E-002 +1.1240959167E-002
707500000.000 -4.6976089478E-002 -6.1962127686E-002 +2.4952888489E-003 -7.2901248932E-003 -4.7121196985E-005 +5.1483511925E-005 +2.0542144775E-003 +1.8779754639E-002
840000000.000 -4.8606872559E-002 -7.4146270752E-002 -2.0468235016E-003 -7.3304176331E-003 +7.5269490480E-006 -4.9514696002E-005 -1.9863128662E-002 +2.6155471802E-002
972500000.000 -5.0483703613E-002 -8.6040496826E-002 -5.7621002197E-003 -4.7218799591E-003 +6.6757202148E-006 +4.2604282498E-005 -3.5772323608E-002 +3.5444259644E-002
1105000000.000 -5.3432464600E-002 -9.7976684570E-002 -7.4069499969E-003 -6.8783760071E-004 -5.2098184824E-005 -2.1833926439E-005 -4.6918869019E-002 +3.8303375244E-002
1237500000.000 -5.6610107422E-002 -1.0913848877E-001 -6.4232349396E-003 +3.5614967346E-003 +4.7065317631E-005 -2.0738691092E-005 -5.8532714844E-002 +3.3910751343E-002
1370000000.000 -6.0142517090E-002 -1.2035751343E-001 -3.2663345337E-003 +6.6018104553E-003 +5.7853758335E-005 +6.1243772507E-005 -7.4008941650E-002 +2.7023315430E-002
1502500000.000 -6.3774108887E-002 -1.3124084473E-001 +9.1409683228E-004 +7.2431564331E-003 -2.4421140552E-005 -2.4477951229E-005 -8.8047027588E-002 +2.1324157715E-002
1635000000.000 -6.6986083984E-002 -1.4266967773E-001 +4.8670768738E-003 +5.4082870483E-003 +6.7807734013E-005 -6.3076615334E-005 -9.9063873291E-002 +1.1714935303E-002
1767500000.000 -7.1708679199E-002 -1.5357971191E-001 +7.0300102234E-003 +1.7366409302E-003 -7.7560544014E-006 -7.5357966125E-006 -1.1194229126E-001 +2.9563903809E-003
1900000000.000 -7.5996398926E-002 -1.6326904297E-001 +6.7524909973E-003 -2.6679039001E-003 -2.1843239665E-005 -5.7069584727E-005 -1.1391067505E-001 -3.4027099609E-003
2032500000.000 -8.0604553223E-002 -1.7313385010E-001 +4.0440559387E-003 -5.9893131256E-003 +1.1086836457E-004 +9.3504786491E-007 -1.1372375488E-001 -2.4326324463E-002
2165000000.000 -8.4869384766E-002 -1.8381500244E-001 -7.5340270996E-005 -7.0788860321E-003 +5.7469587773E-006 -3.1371600926E-006 -1.2259292603E-001 -4.2316436768E-002
2297500000.000 -9.0072631836E-002 -1.9294738770E-001 -3.9775371552E-003 -5.8646202087E-003 -9.6060335636E-005 -1.8779188395E-005 -1.2661743164E-001 -5.3520202637E-002
2430000000.000 -9.4924926758E-002 -2.0182800293E-001 -6.6347122192E-003 -2.4471282959E-003 +1.4057010412E-004 -1.3762712479E-004 -1.2650299072E-001 -6.4888000488E-002
2562500000.000 -1.0028839111E-001 -2.1131134033E-001 -6.8519115448E-003 +1.4603137970E-003 +1.7283856869E-004 -3.1411647797E-005 -1.2512969971E-001 -7.1128845215E-002
2695000000.000 -1.0735321045E-001 -2.1921539307E-001 -4.7221183777E-003 +5.1136016846E-003 -1.0593608022E-004 +6.0286372900E-005 -1.1368179321E-001 -7.3314666748E-002
2827500000.000 -1.1362457275E-001 -2.2607421875E-001 -1.0244846344E-003 +6.6528320313E-003 -5.3979456425E-005 -9.9714845419E-005 -9.8644256592E-002 -8.1848144531E-002
2960000000.000 -1.1870574951E-001 -2.3377990723E-001 +2.8808116913E-003 +6.1018466949E-003 +7.8033655882E-005 -3.5285949707E-005 -8.8088989258E-002 -8.6738586426E-002
3092500000.000 -1.2561798096E-001 -2.4272155762E-001 +5.7787895203E-003 +3.4151077271E-003 -5.4391101003E-005 -1.6596168280E-006 -7.0503234863E-002 -8.6170196533E-002
3225000000.000 -1.3381958008E-001 -2.5009155273E-001 +6.6313743591E-003 -4.4012069702E-004 -6.7308545113E-005 -1.5366822481E-004 -5.2059173584E-002 -9.1339111328E-002
3357500000.000 -1.4025878906E-001 -2.5549316406E-001 +5.1827430725E-003 -3.9908885956E-003 +4.8916786909E-005 -7.0940703154E-005 -4.1339874268E-002 -9.1705322266E-002
3490000000.000 -1.4665222168E-001 -2.6390075684E-001 +2.1026134491E-003 -6.2258243561E-003 -6.2666833401E-005 +6.5855681896E-005 -2.7851104736E-002 -8.3473205566E-002
3622500000.000 -1.5374755859E-001 -2.7169799805E-001 -1.8038749695E-003 -6.3502788544E-003 -2.1066516638E-005 +4.2326748371E-005 -1.1497497559E-002 -7.9322814941E-002
3755000000.000 -1.6184997559E-001 -2.7865600586E-001 -5.0323009491E-003 -4.2948722839E-003 +4.9702823162E-005 -1.7447024584E-004 -5.7868957520E-003 -7.2978973389E-002
3887500000.000 -1.6836547852E-001 -2.8474426270E-001 -6.5512657166E-003 -6.7806243896E-004 -7.2695314884E-005 +9.5654278994E-005 +2.2506713867E-003 -5.5921554565E-002
4020000000.000 -1.7497253418E-001 -2.9084777832E-001 -5.8767795563E-003 +3.2088756561E-003 -1.2248009443E-004 -6.9141387939E-005 +1.3271331787E-002 -4.4603347778E-002
4152500000.000 -1.8142700195E-001 -2.9788208008E-001 -3.0345916748E-003 +5.8298110962E-003 +5.6140124798E-006 -5.1200389862E-005 +1.5270233154E-002 -3.2611846924E-002
4285000000.000 -1.8858337402E-001 -3.0398559570E-001 +8.1729888916E-004 +6.3700675964E-003 -3.5725533962E-006 +6.7688524723E-005 +1.7035484314E-002 -1.3073921204E-002
4417500000.000 -1.9635009766E-001 -3.0935668945E-001 +4.2583942413E-003 +4.8148632050E-003 -6.7863613367E-005 -2.1528452635E-005 +2.5653839111E-002 +3.6420822144E-003
4550000000.000 -2.0234680176E-001 -3.1430053711E-001 +6.2351226807E-003 +1.5366077423E-003 +9.6727162600E-005 -7.7325850725E-005 +2.8835296631E-002 +9.5367431641E-003
4682500000.000 -2.0846557617E-001 -3.2035827637E-001 +5.9096813202E-003 -2.0854473114E-003 +7.6334923506E-005 -2.2985041142E-006 +2.5639533997E-002 +2.0639419556E-002
4815000000.000 -2.1565246582E-001 -3.2597351074E-001 +3.8812160492E-003 -5.0129890442E-003 -1.2268126011E-004 +7.4602663517E-005 +3.1148910522E-002 +2.7456283569E-002
4947500000.000 -2.2206115723E-001 -3.3027648926E-001 +3.9482116699E-004 -6.3190460205E-003 +4.0879473090E-005 -7.1078538895E-006 +2.7706146240E-002 +1.9897460938E-002
5080000000.000 -2.2723388672E-001 -3.3526611328E-001 -3.1206607819E-003 -5.4852962494E-003 +8.1621110439E-005 +2.9817223549E-005 +1.3429641724E-002 +2.0542144775E-002
5212500000.000 -2.3355102539E-001 -3.4036254883E-001 -5.7308673859E-003 -2.8395652771E-003 -4.5968219638E-005 +4.2673200369E-005 +9.3269348145E-003 +2.4766921997E-002
5345000000.000 -2.4043273926E-001 -3.4400939941E-001 -6.3157081604E-003 +9.4294548035E-004 +2.1521002054E-005 -4.0378421545E-005 +5.5961608887E-003 +1.6308784485E-002
5477500000.000 -2.4494934082E-001 -3.4719848633E-001 -4.6646595001E-003 +4.3556690216E-003 +8.4429048002E-006 +1.4870427549E-005 -9.0923309326E-003 +1.0272502899E-002
5610000000.000 -2.5032043457E-001 -3.5171508789E-001 -1.4312267303E-003 +6.3338279724E-003 +1.4265533537E-005 +1.5180557966E-005 -1.4839649200E-002 +1.4543533325E-002
5742500000.000 -2.5735473633E-001 -3.5504150391E-001 +2.4259090424E-003 +6.0145854950E-003 -8.9925015345E-007 -4.2677856982E-007 -1.1547088623E-002 +5.9757232666E-003
5875000000.000 -2.6385498047E-001 -3.5607910156E-001 +5.3508281708E-003 +3.5932064056E-003 +3.4514814615E-005 -1.6693025827E-005 -2.0168304443E-002 -3.3378601074E-003
6007500000.000 -2.6860046387E-001 -3.5853576660E-001 +6.5395832062E-003 +8.5830688477E-006 -3.7875026464E-005 +7.4859708548E-005 -2.3139953613E-002 +2.5939941406E-004
6140000000.000 -2.7452087402E-001 -3.6253356934E-001 +5.2647590637E-003 -3.7429332733E-003 -4.4859945774E-005 +5.7296827435E-005 -1.5341758728E-002 -2.7875900269E-003
6272500000.000 -2.8273010254E-001 -3.6465454102E-001 +2.2120475769E-003 -6.0853958130E-003 -4.1715800762E-005 -2.7913600206E-005 -1.6455650330E-002 -1.1648178101E-002
6405000000.000 -2.8997802734E-001 -3.6441040039E-001 -1.4958381653E-003 -6.1638355255E-003 +7.0761889219E-005 +1.0110437870E-005 -1.9402503967E-002 -6.1283111572E-003
6537500000.000 -2.9429626465E-001 -3.6706542969E-001 -4.7130584717E-003 -4.2121410370E-003 -2.2470019758E-005 -4.8801302910E-007 -9.2492103577E-003 -3.3020973206E-003
6670000000.000 -3.0067443848E-001 -3.7139892578E-001 -6.2892436981E-003 -8.4280967712E-004 +5.9463083744E-005 -2.9327347875E-005 -7.9283714294E-003 -7.2932243347E-003
6802500000.000 -3.0963134766E-001 -3.7292480469E-001 -5.6385993958E-003 +2.8440952301E-003 +3.6101788282E-005 +1.0335817933E-005 -1.1431217194E-002 +2.2220611572E-004
6935000000.000 -3.1594848633E-001 -3.7223815918E-001 -3.0686855316E-003 +5.4795742035E-003 -2.3201107979E-005 +5.3064897656E-005 -6.3581466675E-003 +9.9296569824E-003
7067500000.000 -3.1927490234E-001 -3.7480163574E-001 +5.6195259094E-004 +6.2823295593E-003 +1.1287629604E-006 -5.3249299526E-005 -4.6262741089E-003 +1.0178565979E-002
7200000000.000 -3.2582092285E-001 -3.7872314453E-001 +3.9482116699E-003 +4.7647953033E-003 +4.4250860810E-005 -1.0982155800E-005 -1.5105247498E-002 +1.7025947571E-002
7332500000.000 -3.3413696289E-001 -3.7951660156E-001 +5.9220790863E-003 +1.7783641815E-003 -2.8509646654E-005 +3.6630779505E-005 -1.7084121704E-002 +3.0761718750E-002
7465000000.000 -3.3944702148E-001 -3.7992858887E-001 +5.8832168579E-003 -1.8723011017E-003 +2.3186206818E-005 -4.2211264372E-005 -1.9823074341E-002 +3.1305313110E-002
7597500000.000 -3.4370422363E-001 -3.8269042969E-001 +3.8244724274E-003 -4.7588348389E-003 +3.3287331462E-005 -2.0636245608E-005 -3.6340713501E-002 +3.3170700073E-002
7730000000.000 -3.5002136230E-001 -3.8647460938E-001 +4.8375129700E-004 -6.1006546021E-003 +1.7285346985E-005 -5.1498413086E-005 -4.8433303833E-002 +4.3626785278E-002
7862500000.000 -3.5614013672E-001 -3.8768005371E-001 -3.0374526978E-003 -5.3470134735E-003 -3.3099204302E-005 -6.1113387346E-005 -5.3800582886E-002 +4.2751312256E-002
7995000000.000 -3.6009216309E-001 -3.8885498047E-001 -5.5027008057E-003 -2.6674270630E-003 -2.3413449526E-005 -5.7473778725E-005 -7.2895050049E-002 +3.5079956055E-002
8127500000.000 -3.6399841309E-001 -3.9303588867E-001 -6.0460567474E-003 +8.2755088806E-004 +3.1167641282E-005 -4.1015446186E-005 -9.1484069824E-002 +3.9604187012E-002
8260000000.000 -3.7054443359E-001 -3.9480590820E-001 -4.5423507690E-003 +4.0996074677E-003 -1.5356577933E-005 -1.4249235392E-006 -9.5645904541E-002 +3.4450531006E-002
8392500000.000 -3.7391662598E-001 -3.9573669434E-001 -1.5192031860E-003 +5.9590339661E-003 +3.1108036637E-005 -1.8524006009E-005 -1.0966491699E-001 +1.8577575684E-002
8525000000.000 -3.7655639648E-001 -3.9810180664E-001 +2.1278858185E-003 +5.7504177094E-003 +2.1234154701E-005 +8.2768499851E-005 -1.2187576294E-001 +1.4957427979E-002
8657500000.000 -3.8049316406E-001 -4.0077209473E-001 +4.9567222595E-003 +3.4625530243E-003 -3.5259872675E-005 +1.8868595362E-006 -1.1795043945E-001 +4.2190551758E-003
8790000000.000 -3.8581848145E-001 -4.0234375000E-001 +6.1843395233E-003 +9.3221664429E-005 -2.0770356059E-005 -3.1845644116E-005 -1.1956024170E-001 -1.7402648926E-002
8922500000.000 -3.8896179199E-001 -4.0188598633E-001 +5.1114559174E-003 -3.3512115479E-003 +5.5598095059E-005 -3.7513673306E-006 -1.2234115601E-001 -3.0563354492E-002
9055000000.000 -3.9224243164E-001 -4.0385437012E-001 +2.3267269135E-003 -5.6414604187E-003 -6.0971826315E-005 +3.0258670449E-005 -1.1095428467E-001 -4.4094085693E-002
9187500000.000 -3.9649963379E-001 -4.0512084961E-001 -1.3208389282E-003 -6.0203075409E-003 +2.5894492865E-005 -9.9036842585E-005 -1.0016632080E-001 -6.6875457764E-002
9320000000.000 -4.0303039551E-001 -4.0402221680E-001 -4.4710636139E-003 -4.2531490326E-003 +1.5191733837E-005 -4.7998502851E-005 -9.3723297119E-002 -7.9605102539E-002
9452500000.000 -4.0667724609E-001 -4.0344238281E-001 -6.0648918152E-003 -1.1196136475E-003 +1.6883015633E-005 +5.9131532907E-005 -7.4306488037E-002 -8.6608886719E-002
9585000000.000 -4.1090393066E-001 -4.0412902832E-001 -5.5937767029E-003 +2.6152133942E-003 +1.7326325178E-005 -1.0477751493E-004 -5.4214477539E-002 -1.0118865967E-001
9717500000.000 -4.1688537598E-001 -4.0567016602E-001 -3.1058788300E-003 +5.3331851959E-003 +2.6822090149E-005 -4.3150037527E-005 -4.1141510010E-002 -1.0702133179E-001
9850000000.000 -4.2352294922E-001 -4.0264892578E-001 +4.2319297791E-004 +6.0997009277E-003 -1.8602237105E-005 +2.5007873774E-005 -1.9176483154E-002 -1.0226440430E-001
9982500000.000 -4.2590332031E-001 -4.0339660645E-001 +3.8247108459E-003 +4.8274993896E-003 -2.8219074011E-005 -8.4567815065E-005 +6.5231323242E-003 -1.0310363770E-001
10115000000.000 -4.3016052246E-001 -4.0475463867E-001 +5.8543682098E-003 +1.7523765564E-003 +4.8076733947E-005 -3.0580908060E-005 +1.9287109375E-002 -9.9117279053E-002
10247500000.000 -4.3707275391E-001 -4.0458679199E-001 +5.9263706207E-003 -1.8091201782E-003 -1.9064173102E-005 +3.2471492887E-005 +3.5503387451E-002 -8.0070495605E-002
10380000000.000 -4.4161987305E-001 -4.0284729004E-001 +3.8163661957E-003 -4.8360824585E-003 +1.7670914531E-005 -3.5326927900E-005 +5.6983947754E-002 -6.7413330078E-002
10512500000.000 -4.4485473633E-001 -4.0260314941E-001 +3.8313865662E-004 -6.1488151550E-003 +2.5367364287E-005 -3.1556934118E-005 +6.2839508057E-002 -5.5999755859E-002
10645000000.000 -4.4892883301E-001 -4.0327453613E-001 -3.0152797699E-003 -5.2890777588E-003 -7.0407986641E-006 -3.5889446735E-005 +6.6093444824E-002 -2.9300689697E-002
10777500000.000 -4.5465087891E-001 -4.0364074707E-001 -5.5654048920E-003 -2.5002956390E-003 +1.8998980522E-007 +2.7002766728E-005 +7.6961517334E-002 -7.8086853027E-003
10910000000.000 -4.5960998535E-001 -4.0289306641E-001 -6.0095787048E-003 +1.0354518890E-003 -4.1021034122E-005 -3.1270086765E-005 +7.2380065918E-002 +5.7334899902E-003
11042500000.000 -4.6406555176E-001 -4.0266418457E-001 -4.4071674347E-003 +4.2564868927E-003 +1.5159137547E-005 -2.8833746910E-005 +5.9637069702E-002 +3.1158447266E-002
11175000000.000 -4.6749877930E-001 -4.0460205078E-001 -1.1951923370E-003 +5.9616565704E-003 -3.8316473365E-005 +4.0475279093E-006 +5.6390762329E-002 +5.2366256714E-002
11307500000.000 -4.7113037109E-001 -4.0478515625E-001 +2.3798942566E-003 +5.5673122406E-003 -3.9290636778E-005 -7.7776610851E-005 +4.3413162231E-002 +5.8629989624E-002
11440000000.000 -4.7599792480E-001 -4.0501403809E-001 +5.1732063293E-003 +3.2591819763E-003 -1.3094395399E-006 +2.3640692234E-005 +1.8165588379E-002 +7.2132110596E-002
11572500000.000 -4.7767639160E-001 -4.0689086914E-001 +6.1318874359E-003 -2.4151802063E-004 +7.6092779636E-005 +6.0383230448E-005 +4.3411254883E-003 +8.7200164795E-002
11705000000.000 -4.8051452637E-001 -4.0771484375E-001 +4.8642158508E-003 -3.6306381226E-003 -4.9870461226E-005 +4.4252723455E-005 -1.0192871094E-002 +8.0753326416E-002
11837500000.000 -4.8440551758E-001 -4.0843200684E-001 +1.9440650940E-003 -5.7621002197E-003 -4.9173831940E-006 -2.7459114790E-005 -4.3121337891E-002 +7.6618194580E-002
11970000000.000 -4.8631286621E-001 -4.0722656250E-001 -1.6932487488E-003 -5.8336257935E-003 +1.9129365683E-005 +3.8109719753E-005 -5.9391021729E-002 +8.3034515381E-002
12102500000.000 -4.8645019531E-001 -4.0830993652E-001 -4.6896934509E-003 -3.7901401520E-003 -4.8620626330E-005 -1.3593584299E-005 -6.5528869629E-002 +6.4315795898E-002
12235000000.000 -4.9211120605E-001 -4.0733337402E-001 -5.9509277344E-003 -4.9257278442E-004 -2.2884458303E-005 -7.2658061981E-005 -9.2811584473E-002 +4.3876647949E-002
12367500000.000 -4.9345397949E-001 -4.0611267090E-001 -5.1589012146E-003 +2.9549598694E-003 -1.4194753021E-005 +6.3180923462E-006 -1.0565948486E-001 +4.2465209961E-002
12500000000.000 -4.9719238281E-001 -4.0382385254E-001 -2.4921894073E-003 +5.3746700287E-003 -4.5482069254E-005 +8.4944069386E-005 -9.7209930420E-002 +2.0351409912E-002
12632500000.000 -4.9913024902E-001 -4.0458679199E-001 +1.0511875153E-003 +5.8062076569E-003 +1.9589439034E-005 -3.3538788557E-005 -1.0902786255E-001 -1.3633728027E-002
12765000000.000 -5.0231933594E-001 -4.0347290039E-001 +4.1565895081E-003 +4.1608810425E-003 +3.1568109989E-005 +7.0240348577E-005 -1.1716461182E-001 -1.8199920654E-002
12897500000.000 -5.0515747070E-001 -4.0142822266E-001 +5.6869983673E-003 +1.1384487152E-003 +1.2502074242E-005 +5.6488439441E-005 -9.2304229736E-002 -3.4675598145E-002
13030000000.000 -5.0735473633E-001 -3.9996337891E-001 +5.2950382233E-003 -2.3784637451E-003 -4.3634790927E-006 +2.8775539249E-006 -8.9179992676E-002 -7.0968627930E-002
13162500000.000 -5.0979614258E-001 -4.0032958984E-001 +2.9566287994E-003 -4.9033164978E-003 +5.2727758884E-005 +4.6864151955E-005 -9.1339111328E-002 -7.2792053223E-002
13295000000.000 -5.1245117188E-001 -4.0014648438E-001 -4.0745735168E-004 -5.6517124176E-003 -2.4080276489E-005 +6.4909458160E-005 -6.1161041260E-002 -7.8701019287E-002
13427500000.000 -5.1617431641E-001 -3.9712524414E-001 -3.5228729248E-003 -4.3702125549E-003 -3.9251521230E-005 +1.4647841454E-005 -4.6585083008E-002 -1.0380935669E-001
13560000000.000 -5.1629638672E-001 -3.9617919922E-001 -5.4037570953E-003 -1.6803741455E-003 +4.8033893108E-005 -6.6932290792E-005 -4.6211242676E-002 -1.0126495361E-001
13692500000.000 -5.1849365234E-001 -3.9718627930E-001 -5.2654743195E-003 +1.7192363739E-003 +4.2829662561E-005 -4.8844143748E-005 -1.7753601074E-002 -8.9168548584E-002
13825000000.000 -5.2282714844E-001 -3.9630126953E-001 -3.3447742462E-003 +4.4038295746E-003 -1.8311664462E-005 -1.7521902919E-005 +4.1885375977E-003 -1.0279464722E-001
13957500000.000 -5.2569580078E-001 -3.9300537109E-001 -1.3971328735E-004 +5.4683685303E-003 +1.0297447443E-004 -1.2376904488E-004 +7.6293945313E-006 -9.5397949219E-002
14090000000.000 -5.2667236328E-001 -3.9248657227E-001 +2.8557777405E-003 +4.6699047089E-003 +3.5561621189E-005 -2.9895454645E-006 +2.1995544434E-002 -7.0095062256E-002
14222500000.000 -5.2804565430E-001 -3.9437866211E-001 +4.9092769623E-003 +2.0813941956E-003 -5.5506825447E-007 +6.1669852585E-006 +4.3930053711E-002 -7.4123382568E-002
14355000000.000 -5.3305053711E-001 -3.9337158203E-001 +5.1715373993E-003 -9.4175338745E-004 +7.1167945862E-005 -4.0058046579E-005 +3.3184051514E-002 -6.6993713379E-002
14487500000.000 -5.3506469727E-001 -3.9312744141E-001 +3.5829544067E-003 -3.7978887558E-003 +6.1623752117E-005 +1.1893361807E-004 +4.0201187134E-002 -3.3832550049E-002
14620000000.000 -5.3506469727E-001 -3.9352416992E-001 +8.1443786621E-004 -5.1784515381E-003 -2.4393200874E-005 +8.0484896898E-005 +6.1061859131E-002 -3.1366348267E-002
14752500000.000 -5.3762817383E-001 -3.9749145508E-001 -2.3367404938E-003 -4.6470165253E-003 +4.2822211981E-006 -6.0914084315E-005 +4.2934417725E-002 -3.2442092896E-002
14885000000.000 -5.4061889648E-001 -3.9865112305E-001 -4.4665336609E-003 -2.5224685669E-003 +2.8188340366E-005 +9.0533867478E-006 +3.5224914551E-002 +1.5830993652E-003
15017500000.000 -5.4144287109E-001 -3.9883422852E-001 -4.9383640289E-003 +5.5956840515E-004 -4.0870159864E-005 +7.5016170740E-005 +5.2997589111E-002 +8.8939666748E-003
15150000000.000 -5.4162597656E-001 -4.0158081055E-001 -3.6405324936E-003 +3.2026767731E-003 -8.8825821877E-005 -6.2920153141E-005 +3.5324096680E-002 -1.6574859619E-003
15282500000.000 -5.4248046875E-001 -4.0408325195E-001 -1.2483596802E-003 +4.7471523285E-003 +6.4633786678E-006 -3.0802562833E-005 +1.4390945435E-002 +2.3102760315E-002
