!  2-Port S-parameters saved by WinCal
! VAR MeasName=S-Parameters (CALIBRATED_DATA) read from VNA (C)
! VAR MeasDate=10/16/2015 3:53:54 PM
! VAR NAME=M6082_10_17_2_2_20C_6.4mA_-17.5dBm
! VAR FILENAME=M6082_10_17_2_2_20C_6.4mA_-17.5dBm.S2P
! VAR DATE=10/16/2015 3:53:54 PM
! VAR PHYS_PORTS=2,1
! VAR ObjTypeName=DATASET
! VAR IndexType=Frequency
!
# Hz S RI R 50
45000000.000 -7.4226379395E-002 -2.3002624512E-003 -2.3512840271E-003 +8.5177421570E-003 +1.3566017151E-004 -2.8839707375E-004 +2.9351234436E-002 +1.3046264648E-003
177500000.000 -7.3425292969E-002 -1.2413024902E-002 +2.8741359711E-003 +6.9253444672E-003 -4.6297907829E-005 +3.1632184982E-004 +1.5589714050E-002 +1.6754150391E-002
310000000.000 -7.3238372803E-002 -2.3529052734E-002 +5.7778358459E-003 +4.5149326324E-003 -1.5139579773E-004 -1.5032291412E-004 +2.9270172119E-002 +6.1651229858E-002
442500000.000 -7.3692321777E-002 -3.4286499023E-002 +8.3532333374E-003 -1.5878677368E-004 +1.1175870895E-006 -1.0489672422E-004 +7.2441101074E-002 +2.2460937500E-002
575000000.000 -7.4890136719E-002 -4.5665740967E-002 +6.3257217407E-003 -4.6637058258E-003 -1.0430812836E-006 +6.7427754402E-005 +2.7159690857E-002 +1.1236190796E-002
707500000.000 -7.6580047607E-002 -5.5957794189E-002 +2.5753974915E-003 -7.3294639587E-003 -6.4961612225E-005 -6.8951398134E-005 +2.0465850830E-003 +1.8807411194E-002
840000000.000 -7.7922821045E-002 -6.6944122314E-002 -1.9602775574E-003 -7.3158740997E-003 -3.2950192690E-006 -2.4385750294E-005 -1.9836425781E-002 +2.6120185852E-002
972500000.000 -7.9383850098E-002 -7.7754974365E-002 -5.7723522186E-003 -4.9221515656E-003 -1.1308118701E-005 +3.7534162402E-005 -3.5888671875E-002 +3.5404205322E-002
1105000000.000 -8.1871032715E-002 -8.8603973389E-002 -7.4813365936E-003 -8.5115432739E-004 -1.5698373318E-005 -3.9791688323E-005 -4.6941757202E-002 +3.8259506226E-002
1237500000.000 -8.4556579590E-002 -9.8770141602E-002 -6.6628456116E-003 +3.5247802734E-003 +1.4669261873E-005 +6.3013285398E-006 -5.8519363403E-002 +3.3815383911E-002
1370000000.000 -8.7554931641E-002 -1.0898971558E-001 -3.4728050232E-003 +6.5534114838E-003 -1.9900500774E-005 +3.6386772990E-005 -7.3886871338E-002 +2.6863098145E-002
1502500000.000 -9.0511322021E-002 -1.1891174316E-001 +8.1491470337E-004 +7.3618888855E-003 -7.8361481428E-006 -4.6528875828E-005 -8.7944030762E-002 +2.1202087402E-002
1635000000.000 -9.3177795410E-002 -1.2956237793E-001 +4.8670768738E-003 +5.5768489838E-003 +6.0219317675E-005 -1.3452023268E-005 -9.9002838135E-002 +1.1699676514E-002
1767500000.000 -9.7175598145E-002 -1.3949584961E-001 +7.2004795074E-003 +1.8756389618E-003 +3.9879232645E-005 +9.3590468168E-005 -1.1188888550E-001 +2.8190612793E-003
1900000000.000 -1.0051727295E-001 -1.4853668213E-001 +6.9246292114E-003 -2.5045871735E-003 -4.4833868742E-005 -4.7188252211E-005 -1.1379623413E-001 -3.4599304199E-003
2032500000.000 -1.0441589355E-001 -1.5760803223E-001 +4.2643547058E-003 -5.8684349060E-003 +2.1941959858E-006 -7.7545642853E-005 -1.1366653442E-001 -2.4353027344E-002
2165000000.000 -1.0803222656E-001 -1.6767883301E-001 +1.7523765564E-004 -7.3056221008E-003 +6.6500157118E-005 +3.3453106880E-006 -1.2254714966E-001 -4.2339324951E-002
2297500000.000 -1.1219787598E-001 -1.7626953125E-001 -3.8924217224E-003 -5.9304237366E-003 -8.9410692453E-005 +6.6582113504E-005 -1.2645721436E-001 -5.3451538086E-002
2430000000.000 -1.1641693115E-001 -1.8441009521E-001 -6.4435005188E-003 -2.6173591614E-003 -6.3721090555E-005 -5.5722892284E-005 -1.2641143799E-001 -6.5025329590E-002
2562500000.000 -1.2100982666E-001 -1.9348907471E-001 -6.9050788879E-003 +1.3554096222E-003 +1.4082528651E-005 +2.6297755539E-005 -1.2531280518E-001 -7.1037292480E-002
2695000000.000 -1.2704467773E-001 -2.0095062256E-001 -4.9259662628E-003 +4.9417018890E-003 -9.4063580036E-005 +5.7663768530E-005 -1.1355972290E-001 -7.3444366455E-002
2827500000.000 -1.3257598877E-001 -2.0740509033E-001 -1.1017322540E-003 +6.8290233612E-003 -4.8769637942E-005 +1.1160969734E-005 -9.8495483398E-002 -8.1619262695E-002
2960000000.000 -1.3685607910E-001 -2.1495056152E-001 +2.7015209198E-003 +6.3877105713E-003 +1.0041892529E-004 +6.8038702011E-005 -8.8073730469E-002 -8.6818695068E-002
3092500000.000 -1.4305114746E-001 -2.2338867188E-001 +5.7690143585E-003 +3.6911964417E-003 -6.1262398958E-006 -5.0429254770E-005 -7.0369720459E-002 -8.6120605469E-002
3225000000.000 -1.5026092529E-001 -2.3023986816E-001 +6.9251060486E-003 -1.5234947205E-004 -3.8322061300E-005 -1.3068318367E-005 -5.2066802979E-002 -9.1129302979E-002
3357500000.000 -1.5601348877E-001 -2.3558044434E-001 +5.4602622986E-003 -4.0762424469E-003 +8.6158514023E-005 +3.4220516682E-005 -4.1259765625E-002 -9.1705322266E-002
3490000000.000 -1.6149902344E-001 -2.4372863770E-001 +2.3038387299E-003 -6.2577724457E-003 -2.7216970921E-005 +9.0438872576E-005 -2.8007507324E-002 -8.3305358887E-002
3622500000.000 -1.6784667969E-001 -2.5140380859E-001 -1.5439987183E-003 -6.6363811493E-003 -3.0074268579E-005 -2.6891939342E-005 -1.1398315430E-002 -7.9223632813E-002
3755000000.000 -1.7495727539E-001 -2.5817871094E-001 -5.0947666168E-003 -4.4996738434E-003 +1.2210756540E-004 -1.0482221842E-004 -5.9089660645E-003 -7.2792053223E-002
3887500000.000 -1.8086242676E-001 -2.6422119141E-001 -6.7012310028E-003 -9.4342231750E-004 +3.2056123018E-005 +7.5649470091E-005 +2.2335052490E-003 -5.5896759033E-002
4020000000.000 -1.8678283691E-001 -2.7021789551E-001 -6.0052871704E-003 +3.1082630157E-003 +7.7940523624E-005 -1.0389834642E-005 +1.3198852539E-002 -4.4445037842E-002
4152500000.000 -1.9248962402E-001 -2.7711486816E-001 -3.2453536987E-003 +5.8293342590E-003 -3.5993754864E-005 -1.0346248746E-004 +1.5398025513E-002 -3.2554626465E-002
4285000000.000 -1.9886779785E-001 -2.8323364258E-001 +6.2513351440E-004 +6.6726207733E-003 +7.2818249464E-005 -8.6762011051E-006 +1.7013549805E-002 -1.2948989868E-002
4417500000.000 -2.0603942871E-001 -2.8852844238E-001 +4.1105747223E-003 +5.1295757294E-003 -2.2282823920E-005 +2.7538277209E-005 +2.5742530823E-002 +3.5781860352E-003
4550000000.000 -2.1119689941E-001 -2.9371643066E-001 +6.2315464020E-003 +1.9185543060E-003 +1.2277625501E-005 -1.2433156371E-006 +2.8914451599E-002 +9.4308853149E-003
4682500000.000 -2.1669006348E-001 -2.9983520508E-001 +6.0982704163E-003 -1.8699169159E-003 +6.1787664890E-005 +9.2685222626E-006 +2.5602340698E-002 +2.0561218262E-002
4815000000.000 -2.2329711914E-001 -3.0549621582E-001 +4.0621757507E-003 -4.8797130585E-003 -3.1091272831E-005 +1.6111880541E-005 +3.1101226807E-002 +2.7428627014E-002
4947500000.000 -2.2892761230E-001 -3.0989074707E-001 +7.3599815369E-004 -6.3269138336E-003 +5.8308243752E-005 -5.7738274336E-005 +2.7544021606E-002 +1.9885063171E-002
5080000000.000 -2.3358154297E-001 -3.1507873535E-001 -3.0210018158E-003 -5.7222843170E-003 +4.0650367737E-005 +3.1329691410E-006 +1.3271331787E-002 +2.0457267761E-002
5212500000.000 -2.3934936523E-001 -3.2019042969E-001 -5.6636333466E-003 -3.0934810638E-003 -4.0009617805E-005 -3.4989789128E-005 +9.1943740845E-003 +2.4697303772E-002
5345000000.000 -2.4577331543E-001 -3.2403564453E-001 -6.4744949341E-003 +6.3395500183E-004 +7.5194984674E-006 +1.7711427063E-006 +5.4512023926E-003 +1.6257286072E-002
5477500000.000 -2.4971008301E-001 -3.2746887207E-001 -4.9943923950E-003 +4.2006969452E-003 +6.6887587309E-005 +1.4197081327E-005 -9.2172622681E-003 +1.0184288025E-002
5610000000.000 -2.5457763672E-001 -3.3212280273E-001 -1.7335414886E-003 +6.2842369080E-003 +1.3472512364E-005 +3.2715499401E-005 -1.4835834503E-002 +1.4386653900E-002
5742500000.000 -2.6109313965E-001 -3.3566284180E-001 +2.1204948425E-003 +6.1714649200E-003 -5.6250020862E-005 +1.8790364265E-005 -1.1549472809E-002 +5.8526992798E-003
5875000000.000 -2.6695251465E-001 -3.3688354492E-001 +5.2039623260E-003 +3.8940906525E-003 +2.5495886803E-005 +6.8927183747E-006 -2.0280838013E-002 -3.3693313599E-003
6007500000.000 -2.7130126953E-001 -3.3946228027E-001 +6.5131187439E-003 +2.5177001953E-004 +2.4912878871E-006 +2.5928020477E-005 -2.3139953613E-002 +1.8596649170E-004
6140000000.000 -2.7693176270E-001 -3.4364318848E-001 +5.4688453674E-003 -3.4346580505E-003 -3.4138560295E-005 -7.7486038208E-007 -1.5343666077E-002 -2.8800964355E-003
6272500000.000 -2.8471374512E-001 -3.4597778320E-001 +2.6664733887E-003 -5.9099197388E-003 +1.7053447664E-005 -3.0077993870E-005 -1.6528129578E-002 -1.1722564697E-002
6405000000.000 -2.9136657715E-001 -3.4585571289E-001 -1.1732578278E-003 -6.3436031342E-003 +5.5482611060E-005 +3.5880133510E-005 -1.9495010376E-002 -6.1779022217E-003
6537500000.000 -2.9537963867E-001 -3.4887695313E-001 -4.4963359833E-003 -4.5475959778E-003 -4.9991533160E-005 +1.1920928955E-005 -9.3259811401E-003 -3.2515525818E-003
6670000000.000 -3.0134582520E-001 -3.5336303711E-001 -6.2594413757E-003 -1.1906623840E-003 +2.5529414415E-005 -2.4982728064E-005 -7.9369544983E-003 -7.2469711304E-003
6802500000.000 -3.0987548828E-001 -3.5513305664E-001 -5.8012008667E-003 +2.4659633636E-003 +3.0698254704E-005 +5.9213489294E-006 -1.1514663696E-002 +2.1076202393E-004
6935000000.000 -3.1587219238E-001 -3.5469055176E-001 -3.3812522888E-003 +5.2540302277E-003 -2.1482817829E-005 +2.6535242796E-005 -6.3953399658E-003 +9.9167823792E-003
7067500000.000 -3.1878662109E-001 -3.5755920410E-001 +1.5044212341E-004 +6.2003135681E-003 -1.8011778593E-005 -4.1980296373E-005 -4.7039985657E-003 +1.0169982910E-002
7200000000.000 -3.2507324219E-001 -3.6175537109E-001 +3.5703182220E-003 +4.9538612366E-003 +5.2694231272E-005 -1.9924715161E-005 -1.5204429626E-002 +1.6943931580E-002
7332500000.000 -3.3308410645E-001 -3.6277770996E-001 +5.8281421661E-003 +2.1388530731E-003 -8.0969184637E-006 +3.5237520933E-005 -1.7148971558E-002 +3.0717849731E-002
7465000000.000 -3.3807373047E-001 -3.6349487305E-001 +5.9807300568E-003 -1.4703273773E-003 +2.2387132049E-005 -3.6956742406E-005 -1.9910812378E-002 +3.1238555908E-002
7597500000.000 -3.4204101563E-001 -3.6650085449E-001 +4.0965080261E-003 -4.4701099396E-003 -1.0840594769E-005 -6.8973749876E-005 -3.6340713501E-002 +3.3239364624E-002
7730000000.000 -3.4812927246E-001 -3.7049865723E-001 +8.8906288147E-004 -6.0310363770E-003 +1.7462298274E-005 +3.6325305700E-005 -4.8419952393E-002 +4.3573379517E-002
7862500000.000 -3.5406494141E-001 -3.7196350098E-001 -2.6457309723E-003 -5.4304599762E-003 +4.1518360376E-005 -3.5256147385E-005 -5.3573608398E-002 +4.2673110962E-002
7995000000.000 -3.5783386230E-001 -3.7326049805E-001 -5.2163600922E-003 -3.0825138092E-003 +3.5787001252E-005 +2.9988586903E-006 -7.2814941406E-002 +3.5072326660E-002
8127500000.000 -3.6141967773E-001 -3.7774658203E-001 -6.0746669769E-003 +2.3198127747E-004 +6.8068504333E-005 +4.8957765102E-005 -9.1445922852E-002 +3.9661407471E-002
8260000000.000 -3.6764526367E-001 -3.7977600098E-001 -4.7485828400E-003 +3.6537647247E-003 -2.1972693503E-005 +1.9048340619E-005 -9.5615386963E-002 +3.4435272217E-002
8392500000.000 -3.7092590332E-001 -3.8092041016E-001 -1.8830299377E-003 +5.7137012482E-003 +1.2801028788E-005 -8.6897052824E-006 -1.0966491699E-001 +1.8531799316E-002
8525000000.000 -3.7356567383E-001 -3.8357543945E-001 +1.5337467194E-003 +5.7294368744E-003 +7.6107680798E-005 -2.0325183868E-005 -1.2197875977E-001 +1.4888763428E-002
8657500000.000 -3.7715148926E-001 -3.8642883301E-001 +4.5115947723E-003 +3.9522647858E-003 -1.8422491848E-005 -1.8496066332E-006 -1.1790084839E-001 +4.1656494141E-003
8790000000.000 -3.8229370117E-001 -3.8821411133E-001 +5.9862136841E-003 +6.9355964661E-004 +2.2339634597E-005 +3.0091032386E-006 -1.1959457397E-001 -1.7383575439E-002
8922500000.000 -3.8531494141E-001 -3.8790893555E-001 +5.2680969238E-003 -2.8207302094E-003 +5.7978555560E-005 +5.8487057686E-006 -1.2224578857E-001 -3.0460357666E-002
9055000000.000 -3.8838195801E-001 -3.9007568359E-001 +2.8538703918E-003 -5.2752494812E-003 +2.2910535336E-006 +6.5177679062E-005 -1.1097335815E-001 -4.4010162354E-002
9187500000.000 -3.9242553711E-001 -3.9147949219E-001 -6.4921379089E-004 -5.9163570404E-003 -6.0558319092E-005 -4.1948631406E-005 -1.0020065308E-001 -6.6841125488E-002
9320000000.000 -3.9880371094E-001 -3.9059448242E-001 -3.8247108459E-003 -4.5297145844E-003 +1.7027370632E-005 +2.0568259060E-005 -9.3685150146E-002 -7.9624176025E-002
9452500000.000 -4.0254211426E-001 -3.9031982422E-001 -5.7394504547E-003 -1.5914440155E-003 -3.2026320696E-005 -4.2108818889E-005 -7.4340820313E-002 -8.6578369141E-002
9585000000.000 -4.0644836426E-001 -3.9100646973E-001 -5.6436061859E-003 +1.8687248230E-003 -1.4929100871E-005 +2.2931955755E-005 -5.4256439209E-002 -1.0109329224E-001
9717500000.000 -4.1223144531E-001 -3.9273071289E-001 -3.6487579346E-003 +4.6935081482E-003 +4.0631741285E-005 -2.7578324080E-005 -4.1259765625E-002 -1.0704421997E-001
9850000000.000 -4.1876220703E-001 -3.8996887207E-001 -2.7632713318E-004 +5.9242248535E-003 -2.3852102458E-005 -2.1660700440E-005 -1.9176483154E-002 -1.0217285156E-001
9982500000.000 -4.2100524902E-001 -3.9097595215E-001 +3.0205249786E-003 +5.0058364868E-003 -5.7971104980E-005 +6.0573220253E-005 +6.4582824707E-003 -1.0311126709E-001
10115000000.000 -4.2504882813E-001 -3.9250183105E-001 +5.3298473358E-003 +2.4266242981E-003 +8.4340572357E-006 -6.6835433245E-005 +1.9248962402E-002 -9.9143981934E-002
10247500000.000 -4.3186950684E-001 -3.9247131348E-001 +5.7921409607E-003 -9.7393989563E-004 +5.0131231546E-005 +9.2137604952E-005 +3.5495758057E-002 -8.0165863037E-002
10380000000.000 -4.3623352051E-001 -3.9093017578E-001 +4.2116641998E-003 -3.9854049683E-003 -2.0214356482E-005 +2.5963410735E-005 +5.7006835938E-002 -6.7432403564E-002
10512500000.000 -4.3936157227E-001 -3.9082336426E-001 +1.2342929840E-003 -5.6836605072E-003 -1.3954937458E-005 -3.4311786294E-005 +6.2675476074E-002 -5.6015014648E-002
10645000000.000 -4.4331359863E-001 -3.9173889160E-001 -2.1386146545E-003 -5.4149627686E-003 -3.7916004658E-005 +4.6506524086E-005 +6.6070556641E-002 -2.9373168945E-002
10777500000.000 -4.4889831543E-001 -3.9242553711E-001 -4.8048496246E-003 -3.3011436462E-003 -2.5659799576E-005 -4.0847808123E-005 +7.6950073242E-002 -7.8392028809E-003
10910000000.000 -4.5367431641E-001 -3.9186096191E-001 -5.7826042175E-003 -9.2983245850E-006 -2.5588087738E-005 -1.2645497918E-005 +7.2303771973E-002 +5.5770874023E-003
11042500000.000 -4.5802307129E-001 -3.9176940918E-001 -4.7729015350E-003 +3.0868053436E-003 -4.5536085963E-005 -1.4081597328E-005 +5.9679031372E-002 +3.1127929688E-002
11175000000.000 -4.6148681641E-001 -3.9373779297E-001 -2.1116733551E-003 +5.3517818451E-003 +3.9148144424E-006 +1.3690441847E-005 +5.6463241577E-002 +5.2232742310E-002
11307500000.000 -4.6482849121E-001 -3.9414978027E-001 +1.1789798737E-003 +5.5918693542E-003 -2.9206275940E-005 -4.1581690311E-005 +4.3453216553E-002 +5.8525085449E-002
11440000000.000 -4.6952819824E-001 -3.9466857910E-001 +4.1861534119E-003 +3.9377212524E-003 -2.5431625545E-005 -3.0429102480E-005 +1.8226623535E-002 +7.2109222412E-002
11572500000.000 -4.7135925293E-001 -3.9663696289E-001 +5.7559013367E-003 +8.2159042358E-004 +1.7763115466E-005 +2.6871450245E-005 +4.3830871582E-003 +8.7192535400E-002
11705000000.000 -4.7396850586E-001 -3.9756774902E-001 +5.1465034485E-003 -2.3901462555E-003 +5.6205317378E-007 -5.6943390518E-006 -1.0101318359E-002 +8.0924987793E-002
11837500000.000 -4.7781372070E-001 -3.9837646484E-001 +2.8555393219E-003 -4.9612522125E-003 +4.8179179430E-005 -6.1690807343E-005 -4.3033599854E-002 +7.6602935791E-002
11970000000.000 -4.7953796387E-001 -3.9750671387E-001 -4.4536590576E-004 -5.6650638580E-003 +3.6088749766E-005 +4.5413151383E-005 -5.9322357178E-002 +8.3068847656E-002
12102500000.000 -4.7970581055E-001 -3.9868164063E-001 -3.5588741302E-003 -4.5120716095E-003 -5.8747828007E-005 -9.4380229712E-006 -6.5345764160E-002 +6.4411163330E-002
12235000000.000 -4.8510742188E-001 -3.9788818359E-001 -5.4283142090E-003 -1.6431808472E-003 +1.4102086425E-005 -5.1021575928E-005 -9.2735290527E-002 +4.3937683105E-002
12367500000.000 -4.8645019531E-001 -3.9680480957E-001 -5.4075717926E-003 +1.6970634460E-003 -1.6039237380E-005 +2.5304034352E-005 -1.0548400879E-001 +4.2560577393E-002
12500000000.000 -4.9002075195E-001 -3.9482116699E-001 -3.5228729248E-003 +4.4023990631E-003 -2.3691914976E-005 -1.8086284399E-006 -9.7225189209E-002 +2.0549774170E-002
12632500000.000 -4.9180603027E-001 -3.9579772949E-001 -3.7884712219E-004 +5.6526660919E-003 +1.1477619410E-005 -5.4601579905E-005 -1.0907363892E-001 -1.3507843018E-002
12765000000.000 -4.9510192871E-001 -3.9483642578E-001 +2.7842521667E-003 +4.7590732574E-003 +3.3294782043E-005 +2.5913119316E-005 -1.1711883545E-001 -1.8013000488E-002
12897500000.000 -4.9774169922E-001 -3.9288330078E-001 +4.9436092377E-003 +2.3255348206E-003 -1.8109567463E-006 -1.0021030903E-005 -9.2361450195E-002 -3.4553527832E-002
13030000000.000 -4.9977111816E-001 -3.9172363281E-001 +5.4807662964E-003 -9.1099739075E-004 -1.4463439584E-005 -1.7322599888E-006 -8.9206695557E-002 -7.0800781250E-002
13162500000.000 -5.0219726563E-001 -3.9233398438E-001 +3.9758682251E-003 -3.8034915924E-003 -3.7230551243E-005 -7.3939561844E-005 -9.1361999512E-002 -7.2631835938E-002
13295000000.000 -5.0482177734E-001 -3.9227294922E-001 +1.1613368988E-003 -5.3508281708E-003 +1.4816410840E-005 +5.7234428823E-006 -6.1161041260E-002 -7.8670501709E-002
13427500000.000 -5.0833129883E-001 -3.8946533203E-001 -2.0749568939E-003 -5.0125122070E-003 -5.4804608226E-005 -5.9276819229E-005 -4.6730041504E-002 -1.0380935669E-001
13560000000.000 -5.0851440430E-001 -3.8876342773E-001 -4.5106410980E-003 -3.0262470245E-003 +5.0799921155E-005 -3.1467527151E-005 -4.6298980713E-002 -1.0134506226E-001
13692500000.000 -5.1071166992E-001 -3.8995361328E-001 -5.3837299347E-003 +7.8678131104E-005 +3.0701048672E-006 +7.7318400145E-006 -1.7936706543E-002 -8.9244842529E-002
13825000000.000 -5.1510620117E-001 -3.8919067383E-001 -4.4360160828E-003 +3.0143260956E-003 +4.3567270041E-005 -3.1081959605E-005 +4.2076110840E-003 -1.0303115845E-001
13957500000.000 -5.1770019531E-001 -3.8610839844E-001 -1.8892288208E-003 +5.0914287567E-003 -6.1638653278E-005 -8.4090977907E-005 -8.7738037109E-005 -9.5451354980E-002
14090000000.000 -5.1867675781E-001 -3.8577270508E-001 +1.1904239655E-003 +5.2409172058E-003 +3.0335038900E-005 -7.0244073868E-005 +2.2056579590E-002 -7.0175170898E-002
14222500000.000 -5.1995849609E-001 -3.8796997070E-001 +3.8956403732E-003 +3.5812854767E-003 -3.0042603612E-005 +5.8818608522E-005 +4.3914794922E-002 -7.4230194092E-002
14355000000.000 -5.2514648438E-001 -3.8729858398E-001 +5.3019523621E-003 +7.6699256897E-004 +2.6153400540E-005 -4.9922615290E-005 +3.3035278320E-002 -6.7188262939E-002
14487500000.000 -5.2703857422E-001 -3.8729858398E-001 +4.7113895416E-003 -2.3016929626E-003 -1.3874843717E-005 +5.0494447351E-005 +4.0042877197E-002 -3.3975601196E-002
14620000000.000 -5.2719116211E-001 -3.8772583008E-001 +2.5796890259E-003 -4.6970844269E-003 -2.3830682039E-005 +9.1399997473E-006 +6.1096191406E-002 -3.1368255615E-002
14752500000.000 -5.2966308594E-001 -3.9184570313E-001 -5.5480003357E-004 -5.2630901337E-003 -3.9815902710E-005 -6.3963234425E-005 +4.3262481689E-002 -3.2468795776E-002
14885000000.000 -5.3265380859E-001 -3.9321899414E-001 -3.4554004669E-003 -3.9427280426E-003 -3.4395605326E-005 +2.1643936634E-005 +3.5243988037E-002 +1.4991760254E-003
15017500000.000 -5.3347778320E-001 -3.9370727539E-001 -5.0652027130E-003 -1.3048648834E-003 +3.4704804420E-005 +9.6514821053E-005 +5.3071975708E-002 +8.8481903076E-003
15150000000.000 -5.3378295898E-001 -3.9657592773E-001 -4.9221515656E-003 +1.6987323761E-003 -6.7587941885E-005 -8.5141509771E-005 +3.5261154175E-002 -1.7242431641E-003
15282500000.000 -5.3460693359E-001 -3.9907836914E-001 -3.0763149261E-003 +4.0683746338E-003 +3.1385570765E-005 -6.6474080086E-005 +1.4435768127E-002 +2.3142814636E-002
