!  2-Port S-parameters saved by WinCal
! VAR MeasName=S-Parameters (CALIBRATED_DATA) read from VNA (C)
! VAR MeasDate=10/16/2015 3:14:30 PM
! VAR NAME=M6082_10_15_2_2_20C_8.3mA_-17.5dBm
! VAR FILENAME=M6082_10_15_2_2_20C_8.3mA_-17.5dBm.S2P
! VAR DATE=10/16/2015 3:14:30 PM
! VAR PHYS_PORTS=2,1
! VAR ObjTypeName=DATASET
! VAR IndexType=Frequency
!
# Hz S RI R 50
45000000.000 -9.2063903809E-002 -9.7274780273E-004 -2.3317337036E-003 +9.1199874878E-003 +6.5237283707E-004 -1.9609928131E-004 +2.7112960815E-002 +2.9487609863E-003
177500000.000 -8.9820861816E-002 -7.6789855957E-003 +2.3939609528E-003 +6.9687366486E-003 +1.5601515770E-005 +3.6215782166E-004 +1.5816688538E-002 +1.6816139221E-002
310000000.000 -8.9344024658E-002 -1.5281677246E-002 +5.6200027466E-003 +4.7965049744E-003 -1.3563781977E-004 -1.1846423149E-004 +2.9199600220E-002 +6.1555862427E-002
442500000.000 -8.8954925537E-002 -2.2994995117E-002 +8.1758499146E-003 -1.1920928955E-004 +1.2748688459E-004 +7.3634088039E-005 +7.2525024414E-002 +2.2502899170E-002
575000000.000 -8.9191436768E-002 -3.1272888184E-002 +6.3259601593E-003 -4.3404102325E-003 +1.0352581739E-005 +2.9513612390E-005 +2.7153968811E-002 +1.1224746704E-002
707500000.000 -8.9946746826E-002 -3.8669586182E-002 +2.5737285614E-003 -7.0323944092E-003 -8.6098909378E-005 -2.7231872082E-005 +1.9798278809E-003 +1.8676757813E-002
840000000.000 -9.0206146240E-002 -4.6871185303E-002 -1.8200874329E-003 -7.3764324188E-003 +6.4589083195E-005 -4.4815242290E-006 -1.9885063171E-002 +2.6041984558E-002
972500000.000 -9.0492248535E-002 -5.4885864258E-002 -5.5739879608E-003 -4.9934387207E-003 -1.7057172954E-005 -1.0207295418E-006 -3.5842895508E-002 +3.5411834717E-002
1105000000.000 -9.1873168945E-002 -6.3007354736E-002 -7.3816776276E-003 -1.0778903961E-003 -3.2996758819E-005 +1.5202909708E-005 -4.6848297119E-002 +3.8217544556E-002
1237500000.000 -9.3063354492E-002 -7.0461273193E-002 -6.5777301788E-003 +3.2131671906E-003 +8.8937580585E-005 +1.6838312149E-005 -5.8628082275E-002 +3.3828735352E-002
1370000000.000 -9.4680786133E-002 -7.8063964844E-002 -3.6756992340E-003 +6.3712596893E-003 +1.5472993255E-005 +4.1021034122E-005 -7.3966979980E-002 +2.6885986328E-002
1502500000.000 -9.6019744873E-002 -8.5414886475E-002 +5.4454803467E-004 +7.2486400604E-003 -2.6909634471E-005 +4.7795474529E-006 -8.7940216064E-002 +2.1289825439E-002
1635000000.000 -9.6984863281E-002 -9.3700408936E-002 +4.5590400696E-003 +5.6858062744E-003 -5.3383409977E-006 +3.3865217119E-006 -9.9037170410E-002 +1.1619567871E-002
1767500000.000 -9.9246978760E-002 -1.0139083862E-001 +6.9193840027E-003 +2.0971298218E-003 +8.4191560745E-007 +3.4881755710E-005 -1.1177444458E-001 +2.8953552246E-003
1900000000.000 -1.0078811646E-001 -1.0811996460E-001 +6.8850517273E-003 -2.0978450775E-003 -3.0787661672E-005 -1.5255063772E-006 -1.1373901367E-001 -3.5476684570E-003
2032500000.000 -1.0264968872E-001 -1.1503219604E-001 +4.4078826904E-003 -5.6617259979E-003 +3.5045668483E-005 -3.7916004658E-005 -1.1359405518E-001 -2.4406433105E-002
2165000000.000 -1.0422897339E-001 -1.2322235107E-001 +5.5646896362E-004 -7.0157051086E-003 +6.8936496973E-005 -6.0379505157E-005 -1.2243270874E-001 -4.2263031006E-002
2297500000.000 -1.0651397705E-001 -1.2975311279E-001 -3.5119056702E-003 -6.1762332916E-003 -1.0140240192E-004 +1.3848394156E-004 -1.2644958496E-001 -5.3581237793E-002
2430000000.000 -1.0847473145E-001 -1.3633728027E-001 -6.2818527222E-003 -3.1116008759E-003 +3.0327588320E-005 -6.1646103859E-005 -1.2646484375E-001 -6.4880371094E-002
2562500000.000 -1.1086273193E-001 -1.4369201660E-001 -7.0214271545E-003 +1.0619163513E-003 +3.3795833588E-005 -6.2361359596E-005 -1.2516784668E-001 -7.1052551270E-002
2695000000.000 -1.1466217041E-001 -1.4947509766E-001 -5.0942897797E-003 +4.7850608826E-003 +1.8881633878E-005 -3.4626573324E-005 -1.1351776123E-001 -7.3440551758E-002
2827500000.000 -1.1785888672E-001 -1.5460968018E-001 -1.5313625336E-003 +6.6852569580E-003 -3.5904347897E-005 -1.2575089931E-004 -9.8522186279E-002 -8.1722259521E-002
2960000000.000 -1.1991882324E-001 -1.6100311279E-001 +2.2845268250E-003 +6.4783096313E-003 +7.6472759247E-005 +5.6326389313E-006 -8.8096618652E-002 -8.6921691895E-002
3092500000.000 -1.2367248535E-001 -1.6815948486E-001 +5.5961608887E-003 +4.0009021759E-003 -2.3436732590E-005 -1.8402002752E-005 -7.0354461670E-002 -8.6059570313E-002
3225000000.000 -1.2865447998E-001 -1.7410278320E-001 +6.7882537842E-003 +3.3545494080E-004 -1.2347102165E-004 -1.3627111912E-004 -5.2059173584E-002 -9.1178894043E-002
3357500000.000 -1.3204193115E-001 -1.7834472656E-001 +5.6657791138E-003 -3.4985542297E-003 +2.6086345315E-005 +5.2573159337E-006 -4.1339874268E-002 -9.1518402100E-002
3490000000.000 -1.3522338867E-001 -1.8566894531E-001 +2.8338432312E-003 -6.2143802643E-003 +1.3120472431E-005 +1.7015635967E-004 -2.7809143066E-002 -8.3320617676E-002
3622500000.000 -1.3912963867E-001 -1.9255828857E-001 -1.1496543884E-003 -6.5720081329E-003 -1.6737729311E-005 -3.7282705307E-005 -1.1379241943E-002 -7.9277038574E-002
3755000000.000 -1.4383697510E-001 -1.9901275635E-001 -4.6894550323E-003 -4.9648284912E-003 +2.0317733288E-005 -1.1679902673E-004 -5.8631896973E-003 -7.2891235352E-002
3887500000.000 -1.4753723145E-001 -2.0447540283E-001 -6.6723823547E-003 -1.4021396637E-003 +4.0328130126E-005 -4.6882778406E-006 +2.1457672119E-003 -5.5816650391E-002
4020000000.000 -1.5118408203E-001 -2.0989227295E-001 -6.2901973724E-003 +2.5329589844E-003 +1.5441328287E-005 -7.0299953222E-005 +1.3389587402E-002 -4.4481277466E-002
4152500000.000 -1.5448760986E-001 -2.1652984619E-001 -3.7603378296E-003 +5.5942535400E-003 +2.6969239116E-005 -3.0586495996E-005 +1.5338897705E-002 -3.2587051392E-002
4285000000.000 -1.5881347656E-001 -2.2236633301E-001 +3.4332275391E-005 +6.7834854126E-003 -1.0290183127E-005 -2.8256326914E-005 +1.7034530640E-002 -1.2944221497E-002
4417500000.000 -1.6371154785E-001 -2.2755432129E-001 +3.8876533508E-003 +5.4843425751E-003 -1.0864436626E-004 -3.4093856812E-005 +2.5649070740E-002 +3.7088394165E-003
4550000000.000 -1.6674041748E-001 -2.3258209229E-001 +6.1638355255E-003 +2.4356842041E-003 -3.1478703022E-006 -8.5543841124E-005 +2.8786659241E-002 +9.5672607422E-003
4682500000.000 -1.7016601563E-001 -2.3897552490E-001 +6.4215660095E-003 -1.3430118561E-003 +6.3709914684E-005 +5.1055103540E-005 +2.5602340698E-002 +2.0624160767E-002
4815000000.000 -1.7477416992E-001 -2.4453735352E-001 +4.6143531799E-003 -4.5642852783E-003 -5.9884041548E-005 +3.0171126127E-005 +3.1194686890E-002 +2.7461051941E-002
4947500000.000 -1.7823791504E-001 -2.4906158447E-001 +1.3439655304E-003 -6.3953399658E-003 -3.5170465708E-005 -2.1068379283E-005 +2.7579307556E-002 +1.9843101501E-002
5080000000.000 -1.8106079102E-001 -2.5444030762E-001 -2.4833679199E-003 -6.0739517212E-003 +1.0208692402E-005 -1.3737007976E-006 +1.3308525085E-002 +2.0464897156E-002
5212500000.000 -1.8484497070E-001 -2.5988769531E-001 -5.4643154144E-003 -3.7119388580E-003 -7.7966600657E-005 +1.9703060389E-005 +9.1371536255E-003 +2.4782180786E-002
5345000000.000 -1.8925476074E-001 -2.6396179199E-001 -6.6316127777E-003 +3.7193298340E-005 -1.1278316379E-005 -4.0389597416E-005 +5.3701400757E-003 +1.6234397888E-002
5477500000.000 -1.9137573242E-001 -2.6776123047E-001 -5.4590702057E-003 +3.7696361542E-003 +1.2133270502E-005 +3.5695731640E-005 -9.2000961304E-003 +1.0259628296E-002
5610000000.000 -1.9439697266E-001 -2.7294921875E-001 -2.3870468140E-003 +6.2394142151E-003 +5.8567151427E-005 +3.5600736737E-005 -1.4928340912E-002 +1.4417648315E-002
5742500000.000 -1.9905090332E-001 -2.7673339844E-001 +1.5416145325E-003 +6.4311027527E-003 -4.4014304876E-005 -3.1640753150E-005 -1.1501789093E-002 +5.8808326721E-003
5875000000.000 -2.0306396484E-001 -2.7865600586E-001 +4.8789978027E-003 +4.5378208160E-003 +8.2489103079E-005 -2.1159648895E-006 -2.0228385925E-002 -3.3369064331E-003
6007500000.000 -2.0584106445E-001 -2.8193664551E-001 +6.5491199493E-003 +9.3603134155E-004 -3.4134835005E-005 +3.0428171158E-005 -2.3119926453E-002 +1.8310546875E-004
6140000000.000 -2.0957946777E-001 -2.8659057617E-001 +5.9611797333E-003 -2.9468536377E-003 -3.0261464417E-005 -9.4044953585E-006 -1.5313148499E-002 -2.8238296509E-003
6272500000.000 -2.1569824219E-001 -2.8962707520E-001 +3.3013820648E-003 -5.7599544525E-003 +4.8154965043E-005 -4.5411288738E-006 -1.6464233398E-002 -1.1802673340E-002
6405000000.000 -2.2070312500E-001 -2.9054260254E-001 -5.3429603577E-004 -6.6022872925E-003 +2.2986903787E-005 +5.1766633987E-005 -1.9358634949E-002 -6.2026977539E-003
6537500000.000 -2.2325134277E-001 -2.9399108887E-001 -4.0807723999E-003 -5.0842761993E-003 -5.2753835917E-005 +9.1474503279E-006 -9.1943740845E-003 -3.2882690430E-003
6670000000.000 -2.2778320313E-001 -2.9942321777E-001 -6.2189102173E-003 -1.9240379333E-003 -4.4718384743E-005 -2.0517036319E-005 -7.9393386841E-003 -7.2865486145E-003
6802500000.000 -2.3487854004E-001 -3.0221557617E-001 -6.1774253845E-003 +1.9364356995E-003 +3.7621706724E-005 -3.9869919419E-005 -1.1324405670E-002 +9.9182128906E-005
6935000000.000 -2.3941040039E-001 -3.0264282227E-001 -4.0855407715E-003 +5.0351619720E-003 -2.2977590561E-005 +2.6493333280E-005 -6.3304901123E-003 +9.8791122437E-003
7067500000.000 -2.4122619629E-001 -3.0622863770E-001 -5.3358078003E-004 +6.5045356750E-003 -1.5784054995E-005 -2.8921291232E-005 -4.6029090881E-003 +1.0187625885E-002
7200000000.000 -2.4649047852E-001 -3.1141662598E-001 +3.1800270081E-003 +5.5947303772E-003 +7.8279525042E-005 +2.4218112230E-005 -1.4999389648E-002 +1.7020225525E-002
7332500000.000 -2.5317382813E-001 -3.1341552734E-001 +5.6831836700E-003 +2.9227733612E-003 -5.1826238632E-005 +1.2019649148E-005 -1.7094612122E-002 +3.0695915222E-002
7465000000.000 -2.5704956055E-001 -3.1506347656E-001 +6.3562393188E-003 -7.8940391541E-004 -6.1511993408E-005 -5.0045549870E-005 -1.9769668579E-002 +3.1270980835E-002
7597500000.000 -2.6004028320E-001 -3.1916809082E-001 +4.7385692596E-003 -4.2066574097E-003 +6.7226588726E-005 -3.9782375097E-005 -3.6291122437E-002 +3.3323287964E-002
7730000000.000 -2.6524353027E-001 -3.2386779785E-001 +1.6140937805E-003 -6.0775279999E-003 +2.8401613235E-005 +8.8922679424E-005 -4.8250198364E-002 +4.3664932251E-002
7862500000.000 -2.6988220215E-001 -3.2640075684E-001 -2.0453929901E-003 -5.9435367584E-003 -5.5864453316E-005 -3.0517578125E-005 -5.3745269775E-002 +4.2623519897E-002
7995000000.000 -2.7281188965E-001 -3.2873535156E-001 -4.9903392792E-003 -3.7477016449E-003 +2.0693987608E-005 -4.6117231250E-005 -7.2872161865E-002 +3.5068511963E-002
8127500000.000 -2.7580261230E-001 -3.3406066895E-001 -6.1082839966E-003 -3.0303001404E-004 +5.4437667131E-005 +1.3474375010E-005 -9.1506958008E-002 +3.9627075195E-002
8260000000.000 -2.8094482422E-001 -3.3703613281E-001 -5.3696632385E-003 +3.1652450562E-003 -1.6131438315E-005 -1.9932165742E-005 -9.5630645752E-002 +3.4400939941E-002
8392500000.000 -2.8329467773E-001 -3.3929443359E-001 -2.7039051056E-003 +5.6257247925E-003 -4.4493004680E-005 -4.3017789721E-005 -1.0972213745E-001 +1.8543243408E-002
8525000000.000 -2.8504943848E-001 -3.4265136719E-001 +9.0622901917E-004 +6.1812400818E-003 +2.8594397008E-005 +2.5238841772E-007 -1.2186431885E-001 +1.4965057373E-002
8657500000.000 -2.8810119629E-001 -3.4638977051E-001 +4.1675567627E-003 +4.5719146729E-003 -5.1092356443E-006 +3.2344833016E-005 -1.1783981323E-001 +4.2991638184E-003
8790000000.000 -2.9222106934E-001 -3.4919738770E-001 +6.1278343201E-003 +1.3983249664E-003 -2.7008354664E-006 -2.4243257940E-005 -1.1959457397E-001 -1.7360687256E-002
8922500000.000 -2.9455566406E-001 -3.4983825684E-001 +5.7814121246E-003 -2.1729469299E-003 +8.0961734056E-005 -1.8309801817E-005 -1.2231063843E-001 -3.0532836914E-002
9055000000.000 -2.9681396484E-001 -3.5287475586E-001 +3.5827159882E-003 -5.0318241119E-003 -2.3189932108E-005 +6.5963715315E-005 -1.1093902588E-001 -4.4055938721E-002
9187500000.000 -3.0012512207E-001 -3.5513305664E-001 +1.0895729065E-004 -6.2766075134E-003 -3.4675002098E-005 -3.6174431443E-005 -1.0024261475E-001 -6.6787719727E-002
9320000000.000 -3.0592346191E-001 -3.5545349121E-001 -3.4439563751E-003 -5.2118301392E-003 +6.4060091972E-005 -1.7616897821E-005 -9.3711853027E-002 -7.9528808594E-002
9452500000.000 -3.0868530273E-001 -3.5610961914E-001 -5.7177543640E-003 -2.3593902588E-003 +1.6642734408E-005 +4.5763328671E-005 -7.4344635010E-002 -8.6547851563E-002
9585000000.000 -3.1193542480E-001 -3.5781860352E-001 -6.0636997223E-003 +1.2564659119E-003 -4.1443854570E-005 -7.9717487097E-005 -5.4264068604E-002 -1.0114288330E-001
9717500000.000 -3.1745910645E-001 -3.6067199707E-001 -4.2703151703E-003 +4.4162273407E-003 +5.8874487877E-005 -2.4547800422E-005 -4.1225433350E-002 -1.0708999634E-001
9850000000.000 -3.2324218750E-001 -3.5919189453E-001 -1.1270046234E-003 +6.1116218567E-003 +2.3552216589E-005 +2.6049092412E-006 -1.9172668457E-002 -1.0213088989E-001
9982500000.000 -3.2492065430E-001 -3.6102294922E-001 +2.4223327637E-003 +5.5594444275E-003 -3.4911558032E-005 +2.6322901249E-005 +6.4506530762E-003 -1.0322570801E-001
10115000000.000 -3.2861328125E-001 -3.6357116699E-001 +5.2134990692E-003 +3.2269954681E-003 -4.0400773287E-006 -5.3351745009E-005 +1.9226074219E-002 -9.9136352539E-002
10247500000.000 -3.3502197266E-001 -3.6453247070E-001 +6.0851573944E-003 -2.2959709167E-004 +2.4588778615E-005 -2.1426007152E-005 +3.5545349121E-002 -8.0116271973E-002
10380000000.000 -3.3885192871E-001 -3.6418151855E-001 +4.9214363098E-003 -3.5235881805E-003 -7.1398913860E-005 +7.1935355663E-006 +5.6991577148E-002 -6.7455291748E-002
10512500000.000 -3.4204101563E-001 -3.6526489258E-001 +2.0470619202E-003 -5.7065486908E-003 -4.7504901886E-005 -3.5190954804E-005 +6.2633514404E-002 -5.6003570557E-002
10645000000.000 -3.4580993652E-001 -3.6689758301E-001 -1.5432834625E-003 -5.9111118317E-003 +6.6272914410E-005 -4.0385872126E-005 +6.6097259521E-002 -2.9308319092E-002
10777500000.000 -3.5090637207E-001 -3.6837768555E-001 -4.4498443604E-003 -4.0776729584E-003 -1.9063241780E-005 +6.0629099607E-007 +7.7068328857E-002 -7.8887939453E-003
10910000000.000 -3.5542297363E-001 -3.6917114258E-001 -6.0184001923E-003 -8.3041191101E-004 -6.1366707087E-005 -6.6936016083E-005 +7.2246551514E-002 +5.6724548340E-003
11042500000.000 -3.5978698730E-001 -3.7016296387E-001 -5.4478645325E-003 +2.6984214783E-003 +8.3249062300E-005 +6.9964677095E-005 +5.9658050537E-002 +3.1171798706E-002
11175000000.000 -3.6314392090E-001 -3.7289428711E-001 -2.9840469360E-003 +5.2547454834E-003 +4.5932829380E-005 +1.7106533051E-005 +5.6562423706E-002 +5.2253723145E-002
11307500000.000 -3.6614990234E-001 -3.7426757813E-001 +5.0306320190E-004 +5.9561729431E-003 -6.2786042690E-005 +2.4423003197E-005 +4.3502807617E-002 +5.8410644531E-002
11440000000.000 -3.7083435059E-001 -3.7573242188E-001 +3.7298202515E-003 +4.7662258148E-003 +6.8832188845E-005 -3.8448721170E-005 +1.8169403076E-002 +7.2074890137E-002
11572500000.000 -3.7266540527E-001 -3.7850952148E-001 +5.6703090668E-003 +1.7914772034E-003 +3.1073577702E-006 -7.8575685620E-006 +4.4250488281E-003 +8.7230682373E-002
11705000000.000 -3.7509155273E-001 -3.8037109375E-001 +5.7554244995E-003 -1.7588138580E-003 -9.5371156931E-005 -4.5645982027E-005 -1.0215759277E-002 +8.0787658691E-002
11837500000.000 -3.7872314453E-001 -3.8192749023E-001 +3.7515163422E-003 -4.5938491821E-003 +5.4617412388E-006 -1.1864118278E-005 -4.3090820313E-002 +7.6538085938E-002
11970000000.000 -3.8044738770E-001 -3.8177490234E-001 +5.1355361938E-004 -5.8960914612E-003 +2.1641142666E-005 +2.2532418370E-005 -5.9284210205E-002 +8.3034515381E-002
12102500000.000 -3.8040161133E-001 -3.8383483887E-001 -2.9664039612E-003 -5.2213668823E-003 -9.0949237347E-005 -1.5608966351E-005 -6.5437316895E-002 +6.4296722412E-002
12235000000.000 -3.8598632813E-001 -3.8385009766E-001 -5.3684711456E-003 -2.6030540466E-003 -1.8412247300E-005 -5.5095180869E-005 -9.2735290527E-002 +4.3842315674E-002
12367500000.000 -3.8685607910E-001 -3.8352966309E-001 -5.8376789093E-003 +7.9011917114E-004 -4.5448541641E-005 +6.1701983213E-005 -1.0550689697E-001 +4.2572021484E-002
12500000000.000 -3.9057922363E-001 -3.8252258301E-001 -4.3275356293E-003 +3.9830207825E-003 -4.0631741285E-005 -5.9144571424E-005 -9.7194671631E-002 +2.0465850830E-002
12632500000.000 -3.9273071289E-001 -3.8433837891E-001 -1.3325214386E-003 +5.7523250580E-003 +6.3441693783E-006 -5.8749690652E-005 -1.0910797119E-001 -1.3576507568E-002
12765000000.000 -3.9581298828E-001 -3.8409423828E-001 +2.0897388458E-003 +5.4223537445E-003 +7.7625736594E-006 -2.9771588743E-005 -1.1710739136E-001 -1.8169403076E-002
12897500000.000 -3.9859008789E-001 -3.8278198242E-001 +4.7369003296E-003 +3.3714771271E-003 -3.1054019928E-005 +7.3634088039E-005 -9.2304229736E-002 -3.4549713135E-002
13030000000.000 -4.0058898926E-001 -3.8278198242E-001 +5.8088302612E-003 +1.5211105347E-004 +1.0542571545E-006 +3.5647302866E-005 -8.9294433594E-002 -7.0892333984E-002
13162500000.000 -4.0330505371E-001 -3.8389587402E-001 +4.8911571503E-003 -3.1700134277E-003 +4.3278560042E-005 -2.5639310479E-005 -9.1438293457E-002 -7.2769165039E-002
13295000000.000 -4.0588378906E-001 -3.8430786133E-001 +2.2628307343E-003 -5.4087638855E-003 +2.8529204428E-005 +2.9207207263E-005 -6.1042785645E-002 -7.8723907471E-002
13427500000.000 -4.0946960449E-001 -3.8247680664E-001 -1.1546611786E-003 -5.6338310242E-003 -6.0971826315E-005 -9.1042369604E-005 -4.6665191650E-002 -1.0401916504E-001
13560000000.000 -4.0991210938E-001 -3.8232421875E-001 -4.0557384491E-003 -4.1053295135E-003 +2.9493123293E-005 -8.1691890955E-005 -4.6401977539E-002 -1.0132217407E-001
13692500000.000 -4.1204833984E-001 -3.8394165039E-001 -5.6631565094E-003 -1.2154579163E-003 +1.2587755919E-004 +6.6399574280E-005 -1.7768859863E-002 -8.9267730713E-002
13825000000.000 -4.1664123535E-001 -3.8409423828E-001 -5.2511692047E-003 +2.2382736206E-003 -4.5828521252E-005 -6.2901526690E-006 +4.3220520020E-003 -1.0298156738E-001
13957500000.000 -4.1964721680E-001 -3.8177490234E-001 -2.9554367065E-003 +4.8220157623E-003 +1.0052695870E-005 +2.1829269826E-005 -4.5776367188E-005 -9.5462799072E-002
14090000000.000 -4.2073059082E-001 -3.8186645508E-001 +2.3221969604E-004 +5.6235790253E-003 +3.6124140024E-005 +9.8362565041E-005 +2.2060394287E-002 -7.0117950439E-002
14222500000.000 -4.2207336426E-001 -3.8468933105E-001 +3.4277439117E-003 +4.6508312225E-003 -1.1905655265E-004 +1.9770115614E-005 +4.3922424316E-002 -7.4131011963E-002
14355000000.000 -4.2753601074E-001 -3.8458251953E-001 +5.4237842560E-003 +1.9168853760E-003 -3.3389776945E-005 -5.7835131884E-005 +3.3088684082E-002 -6.6967010498E-002
14487500000.000 -4.2977905273E-001 -3.8462829590E-001 +5.4612159729E-003 -1.4739036560E-003 -3.4696422517E-006 +1.1457595974E-005 +4.0115356445E-002 -3.3914566040E-002
14620000000.000 -4.2982482910E-001 -3.8591003418E-001 +3.8073062897E-003 -4.2300224304E-003 -4.5033171773E-005 +1.9557774067E-005 +6.0853958130E-002 -3.1387329102E-002
14752500000.000 -4.3301391602E-001 -3.9060974121E-001 +6.7663192749E-004 -5.5491924286E-003 -6.4887106419E-005 -1.0553747416E-004 +4.3001174927E-002 -3.2352447510E-002
14885000000.000 -4.3572998047E-001 -3.9196777344E-001 -2.5780200958E-003 -4.9231052399E-003 +7.6852738857E-005 -9.5628201962E-006 +3.5207748413E-002 +1.5563964844E-003
15017500000.000 -4.3615722656E-001 -3.9294433594E-001 -4.9653053284E-003 -2.5420188904E-003 -3.1065195799E-005 +4.7961249948E-005 +5.3068161011E-002 +8.8024139404E-003
15150000000.000 -4.3693542480E-001 -3.9657592773E-001 -5.5446624756E-003 +6.6232681274E-004 -3.0547380447E-005 -2.1340325475E-005 +3.5181045532E-002 -1.8577575684E-003
15282500000.000 -4.3794250488E-001 -3.9889526367E-001 -4.1606426239E-003 +3.6079883575E-003 +1.0123103857E-004 -5.2321702242E-005 +1.4297485352E-002 +2.3107528687E-002
