!  2-Port S-parameters saved by WinCal
! VAR MeasName=S-Parameters (CALIBRATED_DATA) read from VNA (C)
! VAR MeasDate=10/16/2015 1:44:12 PM
! VAR NAME=M6082_13_17_2_2_20C_3.5mA_-17.5dBm
! VAR FILENAME=M6082_13_17_2_2_20C_3.5mA_-17.5dBm.S2P
! VAR DATE=10/16/2015 1:44:12 PM
! VAR PHYS_PORTS=2,1
! VAR ObjTypeName=DATASET
! VAR IndexType=Frequency
!
# Hz S RI R 50
45000000.000 +3.7872314453E-002 -2.2068023682E-003 -2.1088123322E-003 +7.0927143097E-003 +1.0119080544E-003 +1.9091367722E-004 +2.8014183044E-002 +4.0435791016E-003
177500000.000 +3.8265228271E-002 -9.7141265869E-003 +2.2871494293E-003 +5.8050155640E-003 +6.4969062805E-006 +1.5296041965E-004 +1.5958786011E-002 +1.6774177551E-002
310000000.000 +3.7885665894E-002 -1.6994476318E-002 +4.8043727875E-003 +3.8065910339E-003 -1.6778707504E-005 -1.3265758753E-004 +2.9363632202E-002 +6.1553955078E-002
442500000.000 +3.7416458130E-002 -2.4740219116E-002 +6.9422721863E-003 -1.3899803162E-004 -2.7030706406E-005 -9.4570219517E-005 +7.2570800781E-002 +2.2640228271E-002
575000000.000 +3.6495208740E-002 -3.2941818237E-002 +5.2433013916E-003 -4.0812492371E-003 -9.0170651674E-006 +5.1504001021E-005 +2.7244567871E-002 +1.1258125305E-002
707500000.000 +3.5142898560E-002 -4.0224075317E-002 +2.0515918732E-003 -6.0758590698E-003 -8.0630183220E-005 +9.6373260021E-006 +2.1018981934E-003 +1.8703460693E-002
840000000.000 +3.4263610840E-002 -4.7992706299E-002 -1.6980171204E-003 -6.0606002808E-003 +1.7073005438E-005 +1.9010156393E-005 -1.9897460938E-002 +2.6064872742E-002
972500000.000 +3.3445358276E-002 -5.5351257324E-002 -4.7471523285E-003 -4.1000843048E-003 +1.8421560526E-006 +4.0639191866E-005 -3.5772323608E-002 +3.5552978516E-002
1105000000.000 +3.1658172607E-002 -6.2980651855E-002 -6.2148571014E-003 -6.8330764771E-004 -1.0466203094E-005 -3.1622126698E-005 -4.6895980835E-002 +3.8272857666E-002
1237500000.000 +3.0059814453E-002 -6.9850921631E-002 -5.4199695587E-003 +2.8727054596E-003 +3.1050294638E-005 -7.9248100519E-005 -5.8546066284E-002 +3.3956527710E-002
1370000000.000 +2.8331756592E-002 -7.6869964600E-002 -2.8679370880E-003 +5.4085254669E-003 -4.8028305173E-005 +2.8835609555E-005 -7.3959350586E-002 +2.7050018311E-002
1502500000.000 +2.6599884033E-002 -8.3717346191E-002 +6.8640708923E-004 +6.0768127441E-003 -4.1194260120E-005 -4.5035034418E-005 -8.7978363037E-002 +2.1293640137E-002
1635000000.000 +2.5672912598E-002 -9.0827941895E-002 +3.9227008820E-003 +4.7299861908E-003 +5.3025782108E-005 +3.0398368835E-006 -9.8995208740E-002 +1.1672973633E-002
1767500000.000 +2.3578643799E-002 -9.8171234131E-002 +5.9137344360E-003 +1.5888214111E-003 +2.8591603041E-006 +3.8104131818E-005 -1.1186599731E-001 +2.9335021973E-003
1900000000.000 +2.1869659424E-002 -1.0418701172E-001 +5.6631565094E-003 -1.9876956940E-003 -2.4421140552E-005 -1.1838041246E-005 -1.1387634277E-001 -3.4217834473E-003
2032500000.000 +1.9920349121E-002 -1.1050796509E-001 +3.6954879761E-003 -4.8279762268E-003 +6.5013766289E-005 -8.1095844507E-005 -1.1369705200E-001 -2.4345397949E-002
2165000000.000 +1.8749237061E-002 -1.1775207520E-001 +3.0231475830E-004 -6.0665607452E-003 +6.7956745625E-005 +9.6268951893E-005 -1.2255859375E-001 -4.2221069336E-002
2297500000.000 +1.6674041748E-002 -1.2404251099E-001 -3.1437873840E-003 -5.1493644714E-003 -5.4301694036E-005 +4.4643878937E-005 -1.2653350830E-001 -5.3497314453E-002
2430000000.000 +1.4427185059E-002 -1.2981414795E-001 -5.3875446320E-003 -2.5184154510E-003 +6.7740678787E-005 -7.0519745350E-006 -1.2657165527E-001 -6.4804077148E-002
2562500000.000 +1.2718200684E-002 -1.3645935059E-001 -5.6812763214E-003 +1.0266304016E-003 +1.2011826038E-004 +6.0714781284E-005 -1.2545013428E-001 -7.0953369141E-002
2695000000.000 +9.0484619141E-003 -1.4206695557E-001 -4.2600631714E-003 +4.0309429169E-003 -2.7701258659E-005 -6.7219138145E-005 -1.1358261108E-001 -7.3383331299E-002
2827500000.000 +6.2561035156E-003 -1.4656066895E-001 -1.2943744659E-003 +5.8641433716E-003 -1.4458596706E-004 +3.1277537346E-005 -9.8617553711E-002 -8.1840515137E-002
2960000000.000 +4.3487548828E-003 -1.5207672119E-001 +2.1998882294E-003 +5.5336952209E-003 +4.0452927351E-005 +5.9595331550E-005 -8.8226318359E-002 -8.6807250977E-002
3092500000.000 +1.2283325195E-003 -1.5908813477E-001 +4.8213005066E-003 +3.2403469086E-003 -8.4485858679E-005 +7.3969364166E-005 -7.0537567139E-002 -8.5975646973E-002
3225000000.000 -3.2043457031E-003 -1.6449737549E-001 +5.9337615967E-003 +1.1849403381E-004 -7.2564929724E-005 -3.4883618355E-005 -5.2047729492E-002 -9.1297149658E-002
3357500000.000 -6.0119628906E-003 -1.6858673096E-001 +4.9448013306E-003 -3.0372142792E-003 -5.7853758335E-005 +8.0402940512E-005 -4.1446685791E-002 -9.1575622559E-002
3490000000.000 -8.4228515625E-003 -1.7517089844E-001 +2.2513866425E-003 -5.5129528046E-003 -1.1015683413E-005 +3.2182782888E-005 -2.8038024902E-002 -8.3297729492E-002
3622500000.000 -1.2138366699E-002 -1.8187713623E-001 -1.0607242584E-003 -5.7318210602E-003 -7.7638775110E-005 -5.5003911257E-005 -1.1539459229E-002 -7.9162597656E-002
3755000000.000 -1.6441345215E-002 -1.8805694580E-001 -4.2717456818E-003 -4.3442249298E-003 +9.9588185549E-005 -6.2771141529E-006 -6.0081481934E-003 -7.2879791260E-002
3887500000.000 -1.9325256348E-002 -1.9329071045E-001 -5.9175491333E-003 -1.2059211731E-003 -4.7158449888E-005 +7.5407326221E-005 +2.1133422852E-003 -5.5921554565E-002
4020000000.000 -2.2094726563E-002 -1.9837951660E-001 -5.5568218231E-003 +2.3558139801E-003 -2.7455389500E-006 +2.2070482373E-005 +1.3273239136E-002 -4.4473648071E-002
4152500000.000 -2.5070190430E-002 -2.0493316650E-001 -3.1743049622E-003 +5.0618648529E-003 +5.8931764215E-006 -6.3802581280E-006 +1.5321731567E-002 -3.2503128052E-002
4285000000.000 -2.8556823730E-002 -2.1053314209E-001 +3.0136108398E-004 +5.9711933136E-003 +8.2673504949E-006 +1.1581927538E-005 +1.7027854919E-002 -1.3077735901E-002
4417500000.000 -3.2730102539E-002 -2.1581268311E-001 +3.6206245422E-003 +4.8074722290E-003 -1.3961642981E-004 +3.0890107155E-005 +2.5598526001E-002 +3.6287307739E-003
4550000000.000 -3.5064697266E-002 -2.2062683105E-001 +5.5980682373E-003 +1.9154548645E-003 -5.1986426115E-005 -9.0494751930E-005 +2.8923034668E-002 +9.5605850220E-003
4682500000.000 -3.7879943848E-002 -2.2685241699E-001 +5.6531429291E-003 -1.4505386353E-003 +7.4230134487E-005 +6.6749751568E-005 +2.5574684143E-002 +2.0576477051E-002
4815000000.000 -4.1809082031E-002 -2.3229217529E-001 +4.0404796600E-003 -4.3950080872E-003 -2.7019530535E-005 +5.5372714996E-005 +3.1267166138E-002 +2.7418136597E-002
4947500000.000 -4.4471740723E-002 -2.3680877686E-001 +9.0265274048E-004 -5.9509277344E-003 -5.7045370340E-005 +4.3399631977E-007 +2.7713775635E-002 +1.9868850708E-002
5080000000.000 -4.6546936035E-002 -2.4223327637E-001 -2.5243759155E-003 -5.4936408997E-003 +8.5227191448E-005 -2.8889626265E-005 +1.3386726379E-002 +2.0494461060E-002
5212500000.000 -4.9720764160E-002 -2.4768066406E-001 -5.2576065063E-003 -3.1630992889E-003 -2.1876767278E-005 +1.4613382518E-005 +9.3650817871E-003 +2.4768829346E-002
5345000000.000 -5.3314208984E-002 -2.5177001953E-001 -6.2034130096E-003 +2.9349327087E-004 -2.9236078262E-005 -6.7330896854E-005 +5.6219100952E-003 +1.6169548035E-002
5477500000.000 -5.4641723633E-002 -2.5563049316E-001 -4.9014091492E-003 +3.8702487946E-003 +3.3628195524E-005 -4.2585656047E-005 -9.0308189392E-003 +1.0279655457E-002
5610000000.000 -5.7098388672E-002 -2.6106262207E-001 -1.8901824951E-003 +6.0043334961E-003 +4.0195882320E-006 +6.9193542004E-005 -1.4801979065E-002 +1.4472961426E-002
5742500000.000 -6.1004638672E-002 -2.6487731934E-001 +1.8632411957E-003 +6.0453414917E-003 -4.5469030738E-005 -2.9450282454E-005 -1.1359214783E-002 +5.9399604797E-003
5875000000.000 -6.4208984375E-002 -2.6693725586E-001 +5.0289630890E-003 +3.9646625519E-003 +4.9643218517E-005 -6.1590224504E-005 -2.0192146301E-002 -3.4189224243E-003
6007500000.000 -6.6116333008E-002 -2.7046203613E-001 +6.3824653625E-003 +3.9649009705E-004 +5.1248352975E-006 +1.8659047782E-006 -2.3121833801E-002 +2.5558471680E-004
6140000000.000 -6.9290161133E-002 -2.7540588379E-001 +5.5682659149E-003 -3.2560825348E-003 -6.0100108385E-005 +3.1486153603E-005 -1.5250682831E-002 -2.7222633362E-003
6272500000.000 -7.4844360352E-002 -2.7876281738E-001 +2.7718544006E-003 -5.8965682983E-003 -2.3730099201E-006 -9.4234943390E-005 -1.6411781311E-002 -1.1730194092E-002
6405000000.000 -7.8979492188E-002 -2.7998352051E-001 -1.1351108551E-003 -6.3250064850E-003 +1.4083459973E-005 +4.0182843804E-005 -1.9327163696E-002 -6.2665939331E-003
6537500000.000 -8.0566406250E-002 -2.8378295898E-001 -4.5883655548E-003 -4.7030448914E-003 -5.5164564401E-006 +5.8584846556E-006 -9.2134475708E-003 -3.2396316528E-003
6670000000.000 -8.4594726563E-002 -2.8948974609E-001 -6.4141750336E-003 -1.3048648834E-003 +1.3770535588E-005 -4.8939138651E-005 -7.8825950623E-003 -7.1606636047E-003
6802500000.000 -9.1156005859E-002 -2.9284667969E-001 -6.0091018677E-003 +2.6590824127E-003 +7.5586140156E-006 +3.3592805266E-005 -1.1447429657E-002 +1.9121170044E-004
6935000000.000 -9.4909667969E-002 -2.9379272461E-001 -3.4518241882E-003 +5.5494308472E-003 +5.9327576309E-006 -6.1932951212E-008 -6.3767433167E-003 +9.9577903748E-003
7067500000.000 -9.6176147461E-002 -2.9766845703E-001 +2.4843215942E-004 +6.6165924072E-003 -4.4576823711E-005 -5.6009739637E-006 -4.6877861023E-003 +1.0198116302E-002
7200000000.000 -1.0107421875E-001 -3.0319213867E-001 +3.9718151093E-003 +5.3486824036E-003 +5.6605786085E-005 +2.1234154701E-005 -1.5151023865E-002 +1.7049789429E-002
7332500000.000 -1.0733032227E-001 -3.0603027344E-001 +6.2654018402E-003 +2.0949840546E-003 -1.2144446373E-006 +4.4284388423E-005 -1.7112731934E-002 +3.0767440796E-002
7465000000.000 -1.1047363281E-001 -3.0821228027E-001 +6.4978599548E-003 -1.7898082733E-003 -3.1977891922E-005 -6.3445419073E-005 -1.9826889038E-002 +3.1253814697E-002
7597500000.000 -1.1323547363E-001 -3.1266784668E-001 +4.3435096741E-003 -5.1677227020E-003 +1.1645257473E-005 -1.6204081476E-005 -3.6287307739E-002 +3.3325195313E-002
7730000000.000 -1.1775207520E-001 -3.1802368164E-001 +5.5360794067E-004 -6.7512989044E-003 -3.9022415876E-005 +8.3651393652E-005 -4.8234939575E-002 +4.3672561646E-002
7862500000.000 -1.2187194824E-001 -3.2136535645E-001 -3.3264160156E-003 -5.8588981628E-003 -1.0590255260E-004 +1.0561197996E-005 -5.3663253784E-002 +4.2625427246E-002
7995000000.000 -1.2405395508E-001 -3.2408142090E-001 -6.1364173889E-003 -3.0050277710E-003 +1.2401957065E-005 -1.2609641999E-005 -7.2898864746E-002 +3.5133361816E-002
8127500000.000 -1.2669372559E-001 -3.2994079590E-001 -6.8540573120E-003 +9.1791152954E-004 -1.9369646907E-005 +3.9122998714E-005 -9.1487884521E-002 +3.9867401123E-002
8260000000.000 -1.3145446777E-001 -3.3364868164E-001 -5.0952434540E-003 +4.6923160553E-003 -7.4483454227E-005 +3.3117830753E-006 -9.5474243164E-002 +3.4538269043E-002
8392500000.000 -1.3348388672E-001 -3.3639526367E-001 -1.5642642975E-003 +6.8569183350E-003 +1.3320241123E-005 -2.9075890779E-006 -1.0974884033E-001 +1.8596649170E-002
8525000000.000 -1.3475036621E-001 -3.4020996094E-001 +2.6316642761E-003 +6.4928531647E-003 +9.7812153399E-007 -5.6470744312E-006 -1.2194442749E-001 +1.5148162842E-002
8657500000.000 -1.3758850098E-001 -3.4484863281E-001 +6.0131549835E-003 +3.8044452667E-003 -2.1094456315E-005 +2.5557354093E-005 -1.1783981323E-001 +4.3449401855E-003
8790000000.000 -1.4125061035E-001 -3.4843444824E-001 +7.2181224823E-003 -2.9945373535E-004 -4.0147453547E-005 -1.9820407033E-005 -1.1962890625E-001 -1.7280578613E-002
8922500000.000 -1.4332580566E-001 -3.4974670410E-001 +5.7444572449E-003 -4.3137073517E-003 -2.4376437068E-005 -2.5293789804E-005 -1.2238311768E-001 -3.0311584473E-002
9055000000.000 -1.4521789551E-001 -3.5359191895E-001 +2.2089481354E-003 -6.9339275360E-003 +3.8740690798E-006 -3.0957162380E-006 -1.1103439331E-001 -4.3956756592E-002
9187500000.000 -1.4811706543E-001 -3.5652160645E-001 -2.2141933441E-003 -6.9367885590E-003 -4.7937035561E-005 -7.5738877058E-005 -1.0027313232E-001 -6.6715240479E-002
9320000000.000 -1.5316772461E-001 -3.5791015625E-001 -5.8126449585E-003 -4.4133663177E-003 +6.8679451942E-005 -2.6572495699E-005 -9.3811035156E-002 -7.9406738281E-002
9452500000.000 -1.5571594238E-001 -3.5949707031E-001 -7.3957443237E-003 -2.6392936707E-004 +3.8858503103E-005 -2.8256326914E-006 -7.4298858643E-002 -8.6643218994E-002
9585000000.000 -1.5878295898E-001 -3.6244201660E-001 -6.1728954315E-003 +4.0872097015E-003 -5.3850933909E-005 -2.0921230316E-005 -5.4405212402E-002 -1.0117721558E-001
9717500000.000 -1.6418457031E-001 -3.6584472656E-001 -2.8073787689E-003 +6.8821907043E-003 +4.9864873290E-005 -2.7203932405E-005 -4.1503906250E-002 -1.0698318481E-001
9850000000.000 -1.6978454590E-001 -3.6566162109E-001 +1.7182826996E-003 +7.2662830353E-003 -2.8684735298E-007 +3.3099204302E-005 -1.9233703613E-002 -1.0222625732E-001
9982500000.000 -1.7184448242E-001 -3.6830139160E-001 +5.7444572449E-003 +4.8413276672E-003 -3.3987686038E-005 -4.9173831940E-007 +6.3056945801E-003 -1.0338592529E-001
10115000000.000 -1.7587280273E-001 -3.7159729004E-001 +7.5283050537E-003 +6.9117546082E-004 -3.0787661672E-005 -4.5597553253E-005 +1.9012451172E-002 -9.9182128906E-002
10247500000.000 -1.8235778809E-001 -3.7338256836E-001 +6.5543651581E-003 -3.7319660187E-003 +5.7477504015E-005 +6.4667314291E-005 +3.5572052002E-002 -8.0146789551E-002
10380000000.000 -1.8664550781E-001 -3.7458801270E-001 +2.9578208923E-003 -6.8931579590E-003 -8.7451189756E-006 -3.9648264647E-005 +5.6999206543E-002 -6.7829132080E-002
10512500000.000 -1.9021606445E-001 -3.7648010254E-001 -1.4686584473E-003 -7.3728561401E-003 -6.5680593252E-005 -8.4403902292E-005 +6.2484741211E-002 -5.6224822998E-002
10645000000.000 -1.9441223145E-001 -3.7864685059E-001 -5.3358078003E-003 -5.2473545074E-003 +1.0063499212E-004 -5.4422765970E-005 +6.6070556641E-002 -2.9369354248E-002
10777500000.000 -1.9976806641E-001 -3.8119506836E-001 -7.3652267456E-003 -1.0805130005E-003 -1.0703224689E-005 +1.0168645531E-005 +7.7224731445E-002 -8.1710815430E-003
10910000000.000 -2.0452880859E-001 -3.8293457031E-001 -6.5088272095E-003 +3.4604072571E-003 -2.8152018785E-005 -1.7224811018E-005 +7.2338104248E-002 +5.2337646484E-003
11042500000.000 -2.0942687988E-001 -3.8475036621E-001 -3.3931732178E-003 +6.5133571625E-003 +3.2514333725E-005 +4.2226165533E-006 +5.9617996216E-002 +3.0990600586E-002
11175000000.000 -2.1336364746E-001 -3.8787841797E-001 +9.8752975464E-004 +7.1742534637E-003 +3.1260773540E-005 -9.6950680017E-006 +5.6703567505E-002 +5.2360534668E-002
11307500000.000 -2.1693420410E-001 -3.8955688477E-001 +5.0740242004E-003 +5.1481723785E-003 -1.0960269719E-005 -1.4563556761E-005 +4.3769836426E-002 +5.8410644531E-002
11440000000.000 -2.2210693359E-001 -3.9152526855E-001 +7.0257186890E-003 +1.3382434845E-003 +9.1247260571E-005 -1.7412006855E-005 +1.8398284912E-002 +7.1868896484E-002
11572500000.000 -2.2436523438E-001 -3.9483642578E-001 +6.4651966095E-003 -2.9473304749E-003 +5.8708712459E-005 +4.2805448174E-005 +4.5967102051E-003 +8.7257385254E-002
11705000000.000 -2.2784423828E-001 -3.9640808105E-001 +3.4925937653E-003 -6.0729980469E-003 -4.9211084843E-005 -2.9586255550E-005 -9.8953247070E-003 +8.0860137939E-002
11837500000.000 -2.3216247559E-001 -3.9839172363E-001 -6.8759918213E-004 -6.8972110748E-003 +7.1078538895E-006 -7.8540295362E-005 -4.2934417725E-002 +7.6644897461E-002
11970000000.000 -2.3408508301E-001 -3.9854431152E-001 -4.4720172882E-003 -5.1105022430E-003 +8.0564059317E-006 +1.1541415006E-005 -5.9219360352E-002 +8.3175659180E-002
12102500000.000 -2.3489379883E-001 -4.0078735352E-001 -6.5264701843E-003 -1.6310214996E-003 -4.4587999582E-005 +7.3041766882E-005 -6.5250396729E-002 +6.4468383789E-002
12235000000.000 -2.4095153809E-001 -4.0112304688E-001 -6.0963630676E-003 +2.4161338806E-003 +2.3014843464E-005 -3.2456591725E-006 -9.2678070068E-002 +4.4174194336E-002
12367500000.000 -2.4163818359E-001 -4.0100097656E-001 -3.5586357117E-003 +5.4595470428E-003 +5.3811818361E-005 -1.4677643776E-006 -1.0533523560E-001 +4.2888641357E-002
12500000000.000 -2.4574279785E-001 -4.0055847168E-001 +2.5820732117E-004 +6.4268112183E-003 +3.1702220440E-006 +7.3838979006E-005 -9.7133636475E-002 +2.0580291748E-002
12632500000.000 -2.4829101563E-001 -4.0252685547E-001 +3.8006305695E-003 +4.9600601196E-003 +3.1622126698E-005 -2.7894973755E-005 -1.0926437378E-001 -1.3351440430E-002
12765000000.000 -2.5122070313E-001 -4.0206909180E-001 +5.8417320251E-003 +1.8196105957E-003 +6.1791390181E-005 +2.5257468224E-006 -1.1722564697E-001 -1.7650604248E-002
12897500000.000 -2.5411987305E-001 -4.0074157715E-001 +5.6612491608E-003 -1.8494129181E-003 +1.5057623386E-005 +3.4471973777E-005 -9.2269897461E-002 -3.4423828125E-002
13030000000.000 -2.5642395020E-001 -4.0058898926E-001 +3.4382343292E-003 -4.6641826630E-003 -4.7821551561E-005 -6.9495290518E-005 -8.9607238770E-002 -7.0949554443E-002
13162500000.000 -2.5941467285E-001 -4.0151977539E-001 +2.1934509277E-004 -5.6915283203E-003 +4.7456473112E-005 +2.1297484636E-005 -9.1693878174E-002 -7.2433471680E-002
13295000000.000 -2.6271057129E-001 -4.0184020996E-001 -3.0553340912E-003 -4.6911239624E-003 -8.0756843090E-005 -8.3819031715E-007 -6.1103820801E-002 -7.8411102295E-002
13427500000.000 -2.6696777344E-001 -3.9999389648E-001 -5.0926208496E-003 -1.9779205322E-003 +8.3041377366E-006 +1.0489020497E-005 -4.6920776367E-002 -1.0415267944E-001
13560000000.000 -2.6756286621E-001 -3.9947509766E-001 -5.2034854889E-003 +1.2321472168E-003 +5.6320801377E-005 +5.1576644182E-006 -4.6794891357E-002 -1.0140609741E-001
13692500000.000 -2.7018737793E-001 -4.0162658691E-001 -3.4198760986E-003 +3.9215087891E-003 -3.4041702747E-005 +8.5510313511E-005 -1.8043518066E-002 -8.9157104492E-002
13825000000.000 -2.7513122559E-001 -4.0193176270E-001 -6.0606002808E-004 +4.9922466278E-003 -7.1544200182E-005 -5.4188072681E-005 +4.2724609375E-003 -1.0324096680E-001
13957500000.000 -2.7807617188E-001 -3.9984130859E-001 +2.3331642151E-003 +4.3461322784E-003 +7.2687864304E-005 -7.0307403803E-005 -2.7084350586E-004 -9.5661163330E-002
14090000000.000 -2.7900695801E-001 -4.0014648438E-001 +4.2476654053E-003 +2.1836757660E-003 +1.1246651411E-004 +1.2110918760E-005 +2.1823883057E-002 -7.0323944092E-002
14222500000.000 -2.8051757813E-001 -4.0316772461E-001 +4.6255588531E-003 -5.2642822266E-004 -7.6211988926E-005 -1.4048069715E-005 +4.3933868408E-002 -7.4359893799E-002
14355000000.000 -2.8549194336E-001 -4.0307617188E-001 +3.4133195877E-003 -3.0016899109E-003 -5.9584155679E-005 -5.4325908422E-005 +3.3126831055E-002 -6.7184448242E-002
14487500000.000 -2.8779602051E-001 -4.0258789063E-001 +1.1072158813E-003 -4.2428970337E-003 -1.1167023331E-005 +8.4573403001E-006 +4.0328979492E-002 -3.4229278564E-002
14620000000.000 -2.8776550293E-001 -4.0377807617E-001 -1.5621185303E-003 -4.0059089661E-003 -1.0314956307E-004 +7.8454613686E-005 +6.0897827148E-002 -3.1513214111E-002
14752500000.000 -2.9113769531E-001 -4.0762329102E-001 -3.4215450287E-003 -2.3360252380E-003 -2.9831193388E-005 -1.4644116163E-005 +4.3270111084E-002 -3.2255172729E-002
14885000000.000 -2.9394531250E-001 -4.0841674805E-001 -4.1244029999E-003 +3.2186508179E-005 +6.8031251431E-005 -2.0865350962E-005 +3.5680770874E-002 +1.4705657959E-003
15017500000.000 -2.9478454590E-001 -4.0888977051E-001 -3.3508539200E-003 +2.1831989288E-003 -7.3388218880E-006 +8.6814165115E-005 +5.3087234497E-002 +8.5830688477E-003
15150000000.000 -2.9557800293E-001 -4.1265869141E-001 -1.5608072281E-003 +3.5629272461E-003 -7.5414776802E-005 -4.4453889132E-005 +3.5049438477E-002 -1.5716552734E-003
15282500000.000 -2.9660034180E-001 -4.1488647461E-001 +8.5413455963E-004 +3.7535429001E-003 +7.1652233601E-005 -7.1283429861E-005 +1.4586448669E-002 +2.3488998413E-002
