!  2-Port S-parameters saved by WinCal
! VAR MeasName=S-Parameters (CALIBRATED_DATA) read from VNA (C)
! VAR MeasDate=10/16/2015 12:43:09 PM
! VAR NAME=M6082_13_15_2_2_20C_3.5mA_-17.5dBm
! VAR FILENAME=M6082_13_15_2_2_20C_3.5mA_-17.5dBm.S2P
! VAR DATE=10/16/2015 12:43:09 PM
! VAR PHYS_PORTS=2,1
! VAR ObjTypeName=DATASET
! VAR IndexType=Frequency
!
# Hz S RI R 50
45000000.000 +9.2300415039E-002 -2.1247863770E-003 -8.1300735474E-005 +6.9508552551E-003 +7.0214271545E-005 -1.9434094429E-003 +2.8547286987E-002 +3.8137435913E-003
177500000.000 +9.1434478760E-002 -8.5716247559E-003 +2.1703243256E-003 +5.8386325836E-003 +4.1194260120E-005 +2.2851675749E-004 +1.6119956970E-002 +1.6675949097E-002
310000000.000 +9.1182708740E-002 -1.4602661133E-002 +5.0592422485E-003 +3.7026405334E-003 +3.0277296901E-005 -1.8901191652E-005 +2.9169082642E-002 +6.1365127563E-002
442500000.000 +9.0465545654E-002 -2.1308898926E-002 +7.0033073425E-003 -6.7472457886E-005 +1.1104624718E-005 +2.2789463401E-006 +7.2582244873E-002 +2.2590637207E-002
575000000.000 +8.9443206787E-002 -2.7744293213E-002 +5.3668022156E-003 -4.0082931519E-003 -1.1000782251E-005 +5.3707510233E-005 +2.7265548706E-002 +1.1305809021E-002
707500000.000 +8.7856292725E-002 -3.3374786377E-002 +2.2485256195E-003 -6.2837600708E-003 -1.6455538571E-005 +2.1290034056E-006 +2.1867752075E-003 +1.8688201904E-002
840000000.000 +8.7318420410E-002 -3.9810180664E-002 -1.6446113586E-003 -6.3347816467E-003 +1.4184508473E-005 +1.5879049897E-006 -1.9970893860E-002 +2.6021003723E-002
972500000.000 +8.6982727051E-002 -4.5948028564E-002 -4.8336982727E-003 -4.3685436249E-003 +6.9640576839E-005 +7.8730285168E-005 -3.5682678223E-002 +3.5381317139E-002
1105000000.000 +8.5765838623E-002 -5.2280426025E-002 -6.3829421997E-003 -8.6641311646E-004 -3.2084062696E-005 -3.6276876926E-005 -4.6838760376E-002 +3.8198471069E-002
1237500000.000 +8.4617614746E-002 -5.7991027832E-002 -5.7275295258E-003 +2.8545856476E-003 -1.9483268261E-006 -5.9723854065E-005 -5.8605194092E-002 +3.3895492554E-002
1370000000.000 +8.3583831787E-002 -6.3995361328E-002 -3.1752586365E-003 +5.5954456329E-003 +3.7280842662E-005 -1.3651326299E-005 -7.3936462402E-002 +2.6996612549E-002
1502500000.000 +8.2351684570E-002 -6.9786071777E-002 +5.3739547729E-004 +6.3447952271E-003 -2.2157095373E-005 +1.4674849808E-005 -8.7955474854E-002 +2.1347045898E-002
1635000000.000 +8.2138061523E-002 -7.5889587402E-002 +3.9854049683E-003 +4.9600601196E-003 +5.0961971283E-006 -9.3296170235E-005 -9.9006652832E-002 +1.1688232422E-002
1767500000.000 +8.0596923828E-002 -8.2424163818E-002 +6.1278343201E-003 +1.8665790558E-003 -3.5669654608E-007 +1.0384246707E-005 -1.1192703247E-001 +2.9411315918E-003
1900000000.000 +7.9498291016E-002 -8.7661743164E-002 +6.0856342316E-003 -1.9197463989E-003 -1.3908371329E-005 -2.5557354093E-005 -1.1382293701E-001 -3.3912658691E-003
2032500000.000 +7.8243255615E-002 -9.2960357666E-002 +3.8304328918E-003 -4.9877166748E-003 +5.2073970437E-005 -2.5449320674E-005 -1.1369323730E-001 -2.4417877197E-002
2165000000.000 +7.7716827393E-002 -9.9411010742E-002 +4.3964385986E-004 -6.2294006348E-003 +2.5287270546E-005 +1.4621019363E-004 -1.2250900269E-001 -4.2182922363E-002
2297500000.000 +7.6034545898E-002 -1.0479354858E-001 -3.1855106354E-003 -5.5153369904E-003 +1.0580755770E-005 +1.7893500626E-005 -1.2653350830E-001 -5.3550720215E-002
2430000000.000 +7.4607849121E-002 -1.0965347290E-001 -5.7168006897E-003 -2.8407573700E-003 +3.0554831028E-005 -7.8737735748E-005 -1.2646484375E-001 -6.4857482910E-002
2562500000.000 +7.3516845703E-002 -1.1544799805E-001 -6.0987472534E-003 +8.5234642029E-004 -4.1691586375E-005 +5.7063996792E-005 -1.2526702881E-001 -7.0861816406E-002
2695000000.000 +7.0636749268E-002 -1.2015914917E-001 -4.5657157898E-003 +4.1403770447E-003 +4.8801302910E-007 +7.3261559010E-005 -1.1357498169E-001 -7.3524475098E-002
2827500000.000 +6.8557739258E-002 -1.2389373779E-001 -1.4662742615E-003 +5.9764385223E-003 -6.1392784119E-006 -1.2999773026E-004 -9.8613739014E-002 -8.1798553467E-002
2960000000.000 +6.7459106445E-002 -1.2879180908E-001 +2.2413730621E-003 +5.8350563049E-003 +9.8694115877E-005 +4.1611492634E-006 -8.8203430176E-002 -8.6727142334E-002
3092500000.000 +6.5055847168E-002 -1.3480377197E-001 +5.0280094147E-003 +3.5820007324E-003 -3.9596110582E-005 +1.7112120986E-005 -7.0526123047E-002 -8.5868835449E-002
3225000000.000 +6.1340332031E-002 -1.3979339600E-001 +6.1058998108E-003 +2.4652481079E-004 -4.5875087380E-005 +6.9476664066E-006 -5.2124023438E-002 -9.1194152832E-002
3357500000.000 +5.9051513672E-002 -1.4315032959E-001 +5.3226947784E-003 -3.3435821533E-003 +2.7247704566E-005 -8.2124024630E-006 -4.1503906250E-002 -9.1445922852E-002
3490000000.000 +5.7525634766E-002 -1.4915466309E-001 +2.5703907013E-003 -5.5959224701E-003 -8.2999467850E-005 -8.2984566689E-005 -2.7927398682E-002 -8.3278656006E-002
3622500000.000 +5.4962158203E-002 -1.5535736084E-001 -1.0199546814E-003 -6.1032772064E-003 +4.0050595999E-005 -5.3888186812E-005 -1.1436462402E-002 -7.9048156738E-002
3755000000.000 +5.1521301270E-002 -1.6088867188E-001 -4.2448043823E-003 -4.5497417450E-003 +5.1153823733E-005 -4.0857121348E-005 -5.8403015137E-003 -7.2921752930E-002
3887500000.000 +4.9423217773E-002 -1.6550445557E-001 -6.1767101288E-003 -1.3341903687E-003 +5.6751072407E-005 +1.2463331223E-004 +2.0484924316E-003 -5.5803298950E-002
4020000000.000 +4.7439575195E-002 -1.7030334473E-001 -5.7647228241E-003 +2.3550987244E-003 +3.4915283322E-006 -1.8012709916E-005 +1.3332366943E-002 -4.4481277466E-002
4152500000.000 +4.5326232910E-002 -1.7612457275E-001 -3.4933090210E-003 +5.2154064178E-003 +5.1030889153E-005 +2.2897496819E-005 +1.5478134155E-002 -3.2484054565E-002
4285000000.000 +4.2709350586E-002 -1.8131256104E-001 +7.7724456787E-005 +6.3054561615E-003 +2.3732893169E-005 +1.9762665033E-005 +1.7023086548E-002 -1.3087272644E-002
4417500000.000 +3.9695739746E-002 -1.8614959717E-001 +3.5705566406E-003 +5.1269531250E-003 -6.6168606281E-005 +3.8266181946E-005 +2.5524139404E-002 +3.7117004395E-003
4550000000.000 +3.7994384766E-002 -1.9069671631E-001 +5.7911872864E-003 +2.1967887878E-003 +1.0849907994E-006 -1.7147511244E-005 +2.8853416443E-002 +9.5777511597E-003
4682500000.000 +3.6033630371E-002 -1.9650268555E-001 +6.1171054840E-003 -1.3072490692E-003 +2.9541552067E-005 +3.8990750909E-005 +2.5563240051E-002 +2.0695686340E-002
4815000000.000 +3.3157348633E-002 -2.0149993896E-001 +4.3067932129E-003 -4.4298171997E-003 -3.0256807804E-005 +2.2655352950E-005 +3.1217575073E-002 +2.7473449707E-002
4947500000.000 +3.1394958496E-002 -2.0579528809E-001 +1.1444091797E-003 -6.2570571899E-003 -1.8445774913E-005 -1.5177763999E-005 +2.7618408203E-002 +1.9865989685E-002
5080000000.000 +3.0288696289E-002 -2.1076202393E-001 -2.5062561035E-003 -5.8655738831E-003 +5.7414174080E-005 -7.7988952398E-006 +1.3325691223E-002 +2.0534515381E-002
5212500000.000 +2.7969360352E-002 -2.1601104736E-001 -5.4540634155E-003 -3.5150051117E-003 -2.2994354367E-005 +2.0793639123E-005 +9.3355178833E-003 +2.4846076965E-002
5345000000.000 +2.5184631348E-002 -2.1982574463E-001 -6.5939426422E-003 +1.7929077148E-004 -3.2870098948E-005 -2.7559697628E-005 +5.6638717651E-003 +1.6230583191E-002
5477500000.000 +2.4909973145E-002 -2.2350311279E-001 -5.4419040680E-003 +3.9439201355E-003 +5.0617381930E-005 -1.6113743186E-005 -9.0875625610E-003 +1.0278224945E-002
5610000000.000 +2.3384094238E-002 -2.2864532471E-001 -2.2101402283E-003 +6.4260959625E-003 -2.4055130780E-005 -6.2799081206E-006 -1.4860630035E-002 +1.4608383179E-002
5742500000.000 +2.0401000977E-002 -2.3226928711E-001 +1.8215179443E-003 +6.5491199493E-003 -8.3900988102E-005 -3.5833567381E-005 -1.1439323425E-002 +6.0110092163E-003
5875000000.000 +1.8112182617E-002 -2.3415374756E-001 +5.2273273468E-003 +4.4748783112E-003 -3.4745782614E-005 -1.8583610654E-005 -2.0169258118E-002 -3.4103393555E-003
6007500000.000 +1.7250061035E-002 -2.3759460449E-001 +6.8325996399E-003 +6.8235397339E-004 +7.4062496424E-005 +1.4487653971E-005 -2.3321151733E-002 +2.0885467529E-004
6140000000.000 +1.4770507813E-002 -2.4245452881E-001 +6.0238838196E-003 -3.3686161041E-003 +1.1092983186E-005 -3.7043355405E-006 -1.5345573425E-002 -2.7217864990E-003
6272500000.000 +1.0017395020E-002 -2.4553680420E-001 +3.1418800354E-003 -6.2465667725E-003 +2.3573637009E-005 -7.6457858086E-005 -1.6428947449E-002 -1.1789321899E-002
6405000000.000 +6.9732666016E-003 -2.4681854248E-001 -1.0199546814E-003 -6.8702697754E-003 -3.0193477869E-006 +3.8366764784E-005 -1.9455909729E-002 -6.3486099243E-003
6537500000.000 +6.3171386719E-003 -2.5061035156E-001 -4.7433376312E-003 -5.1479339600E-003 -2.6767142117E-005 -1.3433396816E-005 -9.3717575073E-003 -3.2310485840E-003
6670000000.000 +2.9907226563E-003 -2.5636291504E-001 -6.8490505219E-003 -1.5413761139E-003 -6.3478946686E-006 -7.4081122875E-005 -7.8339576721E-003 -7.2879791260E-003
6802500000.000 -2.5024414063E-003 -2.5976562500E-001 -6.5381526947E-003 +2.5913715363E-003 +2.1295621991E-005 -8.5784122348E-006 -1.1367797852E-002 +6.1035156250E-005
6935000000.000 -5.2947998047E-003 -2.6094055176E-001 -3.9076805115E-003 +5.9244632721E-003 -9.5106661320E-006 +6.2864273787E-006 -6.3519477844E-003 +9.7432136536E-003
7067500000.000 -6.0119628906E-003 -2.6477050781E-001 +8.7022781372E-005 +7.1284770966E-003 -4.2547471821E-006 +4.3676700443E-006 -4.6668052673E-003 +1.0227203369E-002
7200000000.000 -1.0299682617E-002 -2.7029418945E-001 +4.0659904480E-003 +5.7871341705E-003 +9.7524374723E-005 -3.0979514122E-005 -1.5115737915E-002 +1.7004966736E-002
7332500000.000 -1.5365600586E-002 -2.7339172363E-001 +6.7155361176E-003 +2.4564266205E-003 -5.3746625781E-005 -1.9675120711E-005 -1.7016410828E-002 +3.0645370483E-002
7465000000.000 -1.7700195313E-002 -2.7568054199E-001 +6.9890022278E-003 -1.7745494843E-003 -6.5565109253E-005 -1.3783574104E-006 -1.9819259644E-002 +3.1195640564E-002
7597500000.000 -2.0050048828E-002 -2.8042602539E-001 +4.7686100006E-003 -5.3932666779E-003 +2.1802261472E-006 +8.6529180408E-006 -3.6418914795E-002 +3.3306121826E-002
7730000000.000 -2.3788452148E-002 -2.8564453125E-001 +7.9822540283E-004 -7.2226524353E-003 -2.1459534764E-005 +3.9462000132E-005 -4.8170089722E-002 +4.3626785278E-002
7862500000.000 -2.6870727539E-002 -2.8923034668E-001 -3.4658908844E-003 -6.5009593964E-003 +4.2375177145E-006 -4.1836872697E-005 -5.3604125977E-002 +4.2497634888E-002
7995000000.000 -2.8732299805E-002 -2.9217529297E-001 -6.5166950226E-003 -3.4465789795E-003 +3.0117109418E-005 -2.6781111956E-005 -7.2929382324E-002 +3.5083770752E-002
8127500000.000 -3.0746459961E-002 -2.9835510254E-001 -7.3852539063E-003 +8.9001655579E-004 +4.9620866776E-006 -6.4618885517E-005 -9.1403961182E-002 +3.9821624756E-002
8260000000.000 -3.4423828125E-002 -3.0224609375E-001 -5.5840015411E-003 +4.9850940704E-003 +1.7509795725E-005 +4.2431056499E-006 -9.5531463623E-002 +3.4309387207E-002
8392500000.000 -3.5827636719E-002 -3.0526733398E-001 -1.7766952515E-003 +7.2791576385E-003 +1.4416873455E-005 -8.5081905127E-005 -1.0977554321E-001 +1.8398284912E-002
8525000000.000 -3.6666870117E-002 -3.0934143066E-001 +2.7532577515E-003 +7.1508884430E-003 +3.1901523471E-005 +1.0199844837E-005 -1.2206268311E-001 +1.5048980713E-002
8657500000.000 -3.8574218750E-002 -3.1405639648E-001 +6.4804553986E-003 +4.1615962982E-003 -8.0481171608E-005 +7.7560544014E-005 -1.1773300171E-001 +4.2076110840E-003
8790000000.000 -4.1259765625E-002 -3.1784057617E-001 +7.7998638153E-003 -2.1409988403E-004 +3.5665929317E-005 +1.2349337339E-006 -1.1955261230E-001 -1.7501831055E-002
8922500000.000 -4.2785644531E-002 -3.1961059570E-001 +6.2849521637E-003 -4.6551227570E-003 -9.4110146165E-007 +6.9250818342E-006 -1.2236785889E-001 -3.0509948730E-002
9055000000.000 -4.3991088867E-002 -3.2360839844E-001 +2.5346279144E-003 -7.6131820679E-003 -2.6039779186E-005 +1.5952624381E-005 -1.1099243164E-001 -4.4136047363E-002
9187500000.000 -4.6279907227E-002 -3.2650756836E-001 -2.3279190063E-003 -7.6465606689E-003 -3.0767172575E-005 -2.5393441319E-005 -1.0025405884E-001 -6.6822052002E-002
9320000000.000 -5.0537109375E-002 -3.2835388184E-001 -6.2832832336E-003 -4.9402713776E-003 -2.8200447559E-006 +5.3968280554E-005 -9.3696594238E-002 -7.9528808594E-002
9452500000.000 -5.2352905273E-002 -3.3047485352E-001 -8.0676078796E-003 -3.7145614624E-004 -6.4705964178E-006 +7.4661802500E-006 -7.4176788330E-002 -8.6685180664E-002
9585000000.000 -5.4779052734E-002 -3.3374023438E-001 -6.7470073700E-003 +4.4517517090E-003 -4.0819868445E-005 -2.7591362596E-005 -5.4454803467E-002 -1.0124969482E-001
9717500000.000 -5.9738159180E-002 -3.3728027344E-001 -3.0558109283E-003 +7.5800418854E-003 +6.9338828325E-005 +3.2708048820E-006 -4.1423797607E-002 -1.0685729980E-001
9850000000.000 -6.4468383789E-002 -3.3799743652E-001 +1.9955635071E-003 +7.9622268677E-003 -3.5203993320E-006 +8.7421387434E-005 -1.8989562988E-002 -1.0226058960E-001
9982500000.000 -6.5856933594E-002 -3.4098815918E-001 +6.2077045441E-003 +5.3691864014E-003 -1.3662036508E-005 -1.0822433978E-005 +6.4010620117E-003 -1.0350799561E-001
10115000000.000 -6.9625854492E-002 -3.4468078613E-001 +8.1744194031E-003 +8.5735321045E-004 +7.9348683357E-006 -6.8332999945E-005 +1.9069671631E-002 -9.9056243896E-002
10247500000.000 -7.5469970703E-002 -3.4684753418E-001 +7.1747303009E-003 -4.0509700775E-003 +4.6992674470E-005 -1.1306256056E-006 +3.5804748535E-002 -7.9860687256E-002
10380000000.000 -7.8674316406E-002 -3.4896850586E-001 +3.2312870026E-003 -7.4412822723E-003 -8.8300555944E-005 +6.6868960857E-005 +5.7178497314E-002 -6.7653656006E-002
10512500000.000 -8.2397460938E-002 -3.5125732422E-001 -1.6198158264E-003 -7.9855918884E-003 -5.8148056269E-005 -4.9021095037E-005 +6.2389373779E-002 -5.6123733521E-002
10645000000.000 -8.6471557617E-002 -3.5350036621E-001 -5.8629512787E-003 -5.7058334351E-003 +7.4546784163E-005 +2.8088688850E-006 +6.6024780273E-002 -2.9140472412E-002
10777500000.000 -9.0774536133E-002 -3.5658264160E-001 -7.9283714294E-003 -1.0757446289E-003 +1.3419426978E-005 +1.6228295863E-005 +7.7373504639E-002 -7.8468322754E-003
10910000000.000 -9.4772338867E-002 -3.5925292969E-001 -7.0979595184E-003 +3.7705898285E-003 -2.6991590858E-005 -3.1806528568E-005 +7.2322845459E-002 +5.3558349609E-003
11042500000.000 -9.9945068359E-002 -3.6169433594E-001 -3.6287307739E-003 +7.1299076080E-003 +7.5757503510E-005 +4.6487897635E-005 +5.9364318848E-002 +3.1337738037E-002
11175000000.000 -1.0369873047E-001 -3.6509704590E-001 +1.2135505676E-003 +7.9007148743E-003 -1.7229467630E-006 +4.8421323299E-005 +5.6634902954E-002 +5.2608489990E-002
11307500000.000 -1.0630798340E-001 -3.6712646484E-001 +5.4976940155E-003 +5.4750442505E-003 +4.0512531996E-006 -1.5595927835E-005 +4.3657302856E-002 +5.8504104614E-002
11440000000.000 -1.1119079590E-001 -3.6978149414E-001 +7.6751708984E-003 +1.4200210571E-003 +8.2496553659E-006 -1.3849232346E-005 +1.8138885498E-002 +7.2174072266E-002
11572500000.000 -1.1341857910E-001 -3.7345886230E-001 +6.9637298584E-003 -3.2227039337E-003 -4.9564987421E-005 +6.3195824623E-005 +4.3106079102E-003 +8.7524414063E-002
11705000000.000 -1.1651611328E-001 -3.7559509277E-001 +3.6425590515E-003 -6.5257549286E-003 +4.8838555813E-005 -1.3185665011E-005 -1.0135650635E-002 +8.1012725830E-002
11837500000.000 -1.2037658691E-001 -3.7794494629E-001 -7.3719024658E-004 -7.3966979980E-003 -1.6384758055E-005 +2.0776875317E-005 -4.3094635010E-002 +7.6614379883E-002
11970000000.000 -1.2220764160E-001 -3.7875366211E-001 -4.8673152924E-003 -5.5468082428E-003 +1.4434568584E-005 -2.7040019631E-005 -5.9467315674E-002 +8.3118438721E-002
12102500000.000 -1.2257385254E-001 -3.8148498535E-001 -6.9866180420E-003 -1.6353130341E-003 -5.5139884353E-005 +4.7205016017E-005 -6.5540313721E-002 +6.4323425293E-002
12235000000.000 -1.2841796875E-001 -3.8204956055E-001 -6.5853595734E-003 +2.6578903198E-003 +5.1915645599E-005 -6.8143010139E-005 -9.2994689941E-002 +4.4044494629E-002
12367500000.000 -1.2869262695E-001 -3.8220214844E-001 -3.8464069366E-003 +5.8898925781E-003 +5.0140544772E-005 +5.8040022850E-005 -1.0552215576E-001 +4.2655944824E-002
12500000000.000 -1.3267517090E-001 -3.8259887695E-001 +4.3225288391E-004 +6.8051815033E-003 -6.9100409746E-005 +4.1134655476E-005 -9.7373962402E-002 +2.0233154297E-002
12632500000.000 -1.3514709473E-001 -3.8497924805E-001 +4.1456222534E-003 +5.2754878998E-003 +1.8253922462E-005 -9.2029571533E-005 -1.0945129395E-001 -1.3610839844E-002
12765000000.000 -1.3764953613E-001 -3.8478088379E-001 +6.2906742096E-003 +1.9385814667E-003 +2.7918256819E-005 +2.7745962143E-005 -1.1726379395E-001 -1.7753601074E-002
12897500000.000 -1.4019775391E-001 -3.8374328613E-001 +6.1078071594E-003 -2.0093917847E-003 -3.9139762521E-005 +7.0407986641E-007 -9.2060089111E-002 -3.4893035889E-002
13030000000.000 -1.4251708984E-001 -3.8427734375E-001 +3.6685466766E-003 -5.0785541534E-003 -7.0773065090E-005 -4.2445957661E-005 -8.9599609375E-002 -7.1453094482E-002
13162500000.000 -1.4535522461E-001 -3.8581848145E-001 +8.6307525635E-005 -6.1757564545E-003 +4.3440610170E-005 +1.0907649994E-005 -9.1754913330E-002 -7.2502136230E-002
13295000000.000 -1.4855957031E-001 -3.8642883301E-001 -3.3040046692E-003 -4.9819946289E-003 +7.1078538895E-006 +1.2383610010E-004 -6.0871124268E-002 -7.8582763672E-002
13427500000.000 -1.5286254883E-001 -3.8507080078E-001 -5.4707527161E-003 -2.0933151245E-003 -4.4144690037E-007 -3.8873404264E-005 -4.6573638916E-002 -1.0446166992E-001
13560000000.000 -1.5287780762E-001 -3.8493347168E-001 -5.5904388428E-003 +1.3914108276E-003 +2.4868175387E-005 -5.8528035879E-005 -4.6779632568E-002 -1.0147857666E-001
13692500000.000 -1.5542602539E-001 -3.8742065430E-001 -3.7031173706E-003 +4.0564537048E-003 +9.5728784800E-005 -3.3900141716E-007 -1.7730712891E-002 -8.8954925537E-002
13825000000.000 -1.6055297852E-001 -3.8839721680E-001 -7.0548057556E-004 +5.4593086243E-003 +4.2328611016E-005 -3.5064294934E-005 +4.7225952148E-003 -1.0314941406E-001
13957500000.000 -1.6345214844E-001 -3.8664245605E-001 +2.5808811188E-003 +4.6355724335E-003 +6.6425651312E-005 +2.1606683731E-005 -4.5776367188E-005 -9.5764160156E-002
14090000000.000 -1.6413879395E-001 -3.8740539551E-001 +4.5597553253E-003 +2.2747516632E-003 +1.9557774067E-005 +1.2125447392E-004 +2.1991729736E-002 -7.0079803467E-002
14222500000.000 -1.6575622559E-001 -3.9082336426E-001 +4.9850940704E-003 -5.6695938110E-004 +4.4144690037E-007 +5.2126124501E-005 +4.4048309326E-002 -7.4028015137E-002
14355000000.000 -1.7073059082E-001 -3.9108276367E-001 +3.6404132843E-003 -3.1288862228E-003 -8.7916851044E-007 -8.2973390818E-005 +3.3355712891E-002 -6.6978454590E-002
14487500000.000 -1.7277526855E-001 -3.9070129395E-001 +1.1310577393E-003 -4.5323371887E-003 +1.1799857020E-004 +4.3869018555E-005 +4.0241241455E-002 -3.4070968628E-002
14620000000.000 -1.7286682129E-001 -3.9250183105E-001 -1.6174316406E-003 -4.3742656708E-003 -3.9994716644E-005 -4.8218294978E-005 +6.0749053955E-002 -3.1370162964E-002
14752500000.000 -1.7639160156E-001 -3.9659118652E-001 -3.7435293198E-003 -2.6259422302E-003 -3.0580908060E-005 -4.8363581300E-005 +4.3130874634E-002 -3.2052993774E-002
14885000000.000 -1.7913818359E-001 -3.9732360840E-001 -4.4777393341E-003 +5.7220458984E-006 +9.6848234534E-006 +1.9335187972E-005 +3.5778045654E-002 +1.6231536865E-003
15017500000.000 -1.7945861816E-001 -3.9788818359E-001 -3.5666227341E-003 +2.4653673172E-003 -1.9440427423E-005 +4.2967498302E-005 +5.3079605103E-002 +8.5163116455E-003
15150000000.000 -1.8003845215E-001 -4.0231323242E-001 -1.4936923981E-003 +3.9808750153E-003 -3.2886862755E-005 -7.2337687016E-005 +3.4856796265E-002 -1.3294219971E-003
15282500000.000 -1.8113708496E-001 -4.0470886230E-001 +8.8739395142E-004 +4.1174888611E-003 +2.3924745619E-005 +3.0319206417E-005 +1.4694213867E-002 +2.3630142212E-002
