!  2-Port S-parameters saved by WinCal
! VAR MeasName=S-Parameters (CALIBRATED_DATA) read from VNA (C)
! VAR MeasDate=10/16/2015 1:38:22 PM
! VAR NAME=M6082_13_17_2_2_20C_1.4mA_-17.5dBm
! VAR FILENAME=M6082_13_17_2_2_20C_1.4mA_-17.5dBm.S2P
! VAR DATE=10/16/2015 1:38:22 PM
! VAR PHYS_PORTS=2,1
! VAR ObjTypeName=DATASET
! VAR IndexType=Frequency
!
# Hz S RI R 50
45000000.000 +2.0162963867E-001 -8.2168579102E-003 -1.1529922485E-003 +3.4641027451E-003 +4.2688846588E-004 -1.2096762657E-003 +2.6785850525E-002 +2.9096603394E-003
177500000.000 +2.1052551270E-001 -2.9525756836E-002 +1.5149116516E-003 +3.8201808929E-003 -3.1633675098E-004 -6.2897801399E-005 +1.5967369080E-002 +1.6626358032E-002
310000000.000 +2.1425628662E-001 -5.2078247070E-002 +2.5278329849E-003 +2.0292997360E-003 -9.3713402748E-005 -9.2417001724E-005 +2.9378890991E-002 +6.1403274536E-002
442500000.000 +1.9303131104E-001 -6.1492919922E-002 +4.3847560883E-003 -5.9056282043E-004 +4.8596411943E-005 +9.4618648291E-005 +7.2494506836E-002 +2.2388458252E-002
575000000.000 +1.8275451660E-001 -7.1731567383E-002 +2.9981136322E-003 -2.9810667038E-003 +1.5664845705E-005 +6.5397471189E-005 +2.7142524719E-002 +1.1222839355E-002
707500000.000 +1.7617034912E-001 -8.3755493164E-002 +6.7877769470E-004 -3.9517879486E-003 +4.1041523218E-005 -4.0804967284E-005 +1.9741058350E-003 +1.8664360046E-002
840000000.000 +1.6928863525E-001 -9.2361450195E-002 -1.9135475159E-003 -3.6928653717E-003 +1.2288987637E-004 -4.6715140343E-006 -1.9984245300E-002 +2.5976181030E-002
972500000.000 +1.6420745850E-001 -1.0269927979E-001 -3.5252571106E-003 -1.7509460449E-003 +5.2057206631E-005 -1.4770776033E-006 -3.5837173462E-002 +3.5396575928E-002
1105000000.000 +1.5873718262E-001 -1.1248779297E-001 -3.8608312607E-003 +7.4648857117E-004 -4.2214989662E-005 -5.1274895668E-005 -4.6844482422E-002 +3.8177490234E-002
1237500000.000 +1.5397644043E-001 -1.2248992920E-001 -2.6642084122E-003 +2.7366876602E-003 +5.5739656091E-005 -4.2103230953E-005 -5.8595657349E-002 +3.3739089966E-002
1370000000.000 +1.4841461182E-001 -1.3169860840E-001 -5.0711631775E-004 +3.8248300552E-003 -1.9365921617E-005 +3.2063573599E-005 -7.3925018311E-002 +2.6927947998E-002
1502500000.000 +1.4326477051E-001 -1.3793182373E-001 +1.9217729568E-003 +3.5181045532E-003 -6.6958367825E-005 -8.2597136497E-005 -8.7966918945E-002 +2.1324157715E-002
1635000000.000 +1.4031219482E-001 -1.4955139160E-001 +3.4745931625E-003 +1.5666484833E-003 +7.3734670877E-005 -7.1477144957E-005 -9.9006652832E-002 +1.1604309082E-002
1767500000.000 +1.3488006592E-001 -1.5869140625E-001 +3.7450790405E-003 -7.5781345367E-004 +4.8214569688E-005 +3.1888484955E-005 -1.1191558838E-001 +2.9487609863E-003
1900000000.000 +1.2938690186E-001 -1.6221618652E-001 +2.6797056198E-003 -2.9772520065E-003 -8.4610655904E-006 +1.8947757781E-005 -1.1383056641E-001 -3.4637451172E-003
2032500000.000 +1.2387847900E-001 -1.6866302490E-001 +4.5704841614E-004 -4.1286945343E-003 -3.1296163797E-005 +8.4217637777E-005 -1.1371994019E-001 -2.4345397949E-002
2165000000.000 +1.2078857422E-001 -1.7546844482E-001 -2.0732879639E-003 -3.7779808044E-003 +1.8772669137E-005 -1.8497928977E-005 -1.2240982056E-001 -4.2228698730E-002
2297500000.000 +1.1757659912E-001 -1.7876434326E-001 -4.2443275452E-003 -2.0792484283E-003 +1.3785902411E-005 -2.1699815989E-006 -1.2651062012E-001 -5.3573608398E-002
2430000000.000 +1.1535644531E-001 -1.8446350098E-001 -4.9221515656E-003 +8.5091590881E-004 +1.2896955013E-004 -9.7334384918E-005 -1.2653350830E-001 -6.4888000488E-002
2562500000.000 +1.1355590820E-001 -1.9369506836E-001 -3.5722255707E-003 +3.8459300995E-003 +1.9244104624E-004 -7.7344477177E-005 -1.2524414063E-001 -7.1037292480E-002
2695000000.000 +1.1107635498E-001 -2.0004272461E-001 -6.2751770020E-004 +5.4597854614E-003 -1.1297315359E-004 +1.2441724539E-004 -1.1362838745E-001 -7.3482513428E-002
2827500000.000 +1.0858917236E-001 -2.0872497559E-001 +3.1032562256E-003 +4.6539306641E-003 -1.1452659965E-004 -1.2412667274E-005 -9.8606109619E-002 -8.1729888916E-002
2960000000.000 +1.0478210449E-001 -2.2121429443E-001 +5.1743984222E-003 +1.3706684113E-003 +9.3355774879E-005 -5.9232115746E-006 -8.8024139404E-002 -8.6578369141E-002
3092500000.000 +1.0022735596E-001 -2.3368072510E-001 +5.0148963928E-003 -2.2618770599E-003 -4.1777268052E-005 +2.6248395443E-005 -7.0323944092E-002 -8.6086273193E-002
3225000000.000 +9.3139648438E-002 -2.4434661865E-001 +2.3412704468E-003 -4.8494338989E-003 -1.1109188199E-004 -3.4589320421E-005 -5.2009582520E-002 -9.1197967529E-002
3357500000.000 +8.4701538086E-002 -2.5425720215E-001 -1.1274814606E-003 -5.1677227020E-003 +7.8700482845E-005 +4.5273452997E-005 -4.1301727295E-002 -9.1724395752E-002
3490000000.000 +7.7072143555E-002 -2.6550292969E-001 -4.0156841278E-003 -2.9857158661E-003 -4.3740496039E-005 -4.0449202061E-005 -2.7976989746E-002 -8.3126068115E-002
3622500000.000 +6.8664550781E-002 -2.7589416504E-001 -5.0811767578E-003 +1.9669532776E-004 -1.2014061213E-004 -4.8749148846E-005 -1.1405944824E-002 -7.9265594482E-002
3755000000.000 +5.6976318359E-002 -2.8411865234E-001 -3.4421682358E-003 +3.2732486725E-003 +2.9027462006E-005 -2.6764348149E-005 -5.9089660645E-003 -7.2956085205E-002
3887500000.000 +4.7042846680E-002 -2.9006958008E-001 -6.5612792969E-004 +4.4374465942E-003 -3.8534402847E-005 +8.2585960627E-005 +2.1400451660E-003 -5.5830001831E-002
4020000000.000 +3.8482666016E-002 -2.9647827148E-001 +2.2963285446E-003 +3.8243532181E-003 -6.7137181759E-005 +3.6019831896E-005 +1.3332366943E-002 -4.4305801392E-002
4152500000.000 +2.9830932617E-002 -3.0255126953E-001 +3.9625167847E-003 +1.5208721161E-003 +1.2139324099E-005 -4.4084154069E-006 +1.5350341797E-002 -3.2560348511E-002
4285000000.000 +2.0645141602E-002 -3.0685424805E-001 +3.7634372711E-003 -1.1442899704E-003 +3.5773962736E-005 +9.8127871752E-005 +1.6948699951E-002 -1.3058662415E-002
4417500000.000 +1.1657714844E-002 -3.1080627441E-001 +2.1427869797E-003 -3.0092000961E-003 -8.0641359091E-005 +7.1551650763E-005 +2.5575637817E-002 +3.5648345947E-003
4550000000.000 +5.0659179688E-003 -3.1427001953E-001 -1.0085105896E-004 -3.5861730576E-003 -1.5544705093E-005 -2.7028843760E-005 +2.8915405273E-002 +9.6311569214E-003
4682500000.000 -1.8920898438E-003 -3.1765747070E-001 -1.9695758820E-003 -2.4870634079E-003 -4.1229650378E-005 +3.2130628824E-006 +2.5537490845E-002 +2.0683288574E-002
4815000000.000 -9.2926025391E-003 -3.2112121582E-001 -2.8814077377E-003 -7.1954727173E-004 -1.2217462063E-004 +3.6135315895E-006 +3.1125068665E-002 +2.7464866638E-002
4947500000.000 -1.4755249023E-002 -3.2403564453E-001 -2.8129816055E-003 +9.2840194702E-004 +2.1290034056E-006 -2.5880523026E-005 +2.7563095093E-002 +1.9929885864E-002
5080000000.000 -1.9500732422E-002 -3.2687377930E-001 -1.6644001007E-003 +2.3049116135E-003 +4.3094158173E-005 +1.5864148736E-005 +1.3212203979E-002 +2.0483970642E-002
5212500000.000 -2.4963378906E-002 -3.3013916016E-001 -5.8889389038E-005 +2.6668310165E-003 +2.1686777472E-005 +3.5164877772E-005 +9.1075897217E-003 +2.4767875671E-002
5345000000.000 -3.0517578125E-002 -3.3267211914E-001 +1.4677047729E-003 +2.2317171097E-003 -7.9944729805E-005 -2.9992312193E-005 +5.4082870483E-003 +1.6178131104E-002
5477500000.000 -3.3660888672E-002 -3.3436584473E-001 +2.3137331009E-003 +9.0980529785E-004 +3.2993033528E-005 +4.4610351324E-006 -9.2344284058E-003 +1.0286808014E-002
5610000000.000 -3.7582397461E-002 -3.3760070801E-001 +2.2814273834E-003 -4.9448013306E-004 -4.4604763389E-005 +4.3811276555E-005 -1.4907360077E-002 +1.4572620392E-002
5742500000.000 -4.2770385742E-002 -3.3984375000E-001 +1.5829205513E-003 -1.5112161636E-003 -7.9363584518E-005 +1.0188668966E-005 -1.1493682861E-002 +5.9156417847E-003
5875000000.000 -4.7424316406E-002 -3.4049987793E-001 +4.6145915985E-004 -2.2119283676E-003 +2.5346875191E-005 -8.9677050710E-006 -2.0275115967E-002 -3.3178329468E-003
6007500000.000 -5.0140380859E-002 -3.4187316895E-001 -6.7228078842E-004 -1.9130110741E-003 +2.6067718863E-005 +2.5146640837E-005 -2.3239135742E-002 +1.6212463379E-004
6140000000.000 -5.4443359375E-002 -3.4519958496E-001 -1.4651417732E-003 -1.2310147285E-003 -5.0060451031E-005 +3.6712735891E-006 -1.5404224396E-002 -2.8543472290E-003
6272500000.000 -6.1553955078E-002 -3.4735107422E-001 -1.8801689148E-003 -7.4803829193E-005 +1.4360994101E-006 -5.1982700825E-005 -1.6476631165E-002 -1.1890411377E-002
6405000000.000 -6.6513061523E-002 -3.4695434570E-001 -1.5734434128E-003 +7.7736377716E-004 +6.1025843024E-005 -7.8007578850E-006 -1.9314765930E-002 -6.3629150391E-003
6537500000.000 -6.8511962891E-002 -3.4904479980E-001 -9.3901157379E-004 +1.3583302498E-003 -1.1381693184E-005 +2.3961067200E-005 -9.2878341675E-003 -3.2825469971E-003
6670000000.000 -7.4447631836E-002 -3.5377502441E-001 +1.6456842422E-004 +1.6758441925E-003 +1.4998018742E-005 -2.7947127819E-005 -7.9154968262E-003 -7.3299407959E-003
6802500000.000 -8.2000732422E-002 -3.5578918457E-001 +1.0692477226E-003 +1.2860894203E-003 +3.8137659431E-005 -2.0008534193E-005 -1.1379241943E-002 +8.8691711426E-005
6935000000.000 -8.5922241211E-002 -3.5504150391E-001 +1.4253854752E-003 +6.8694353104E-004 -4.9618538469E-006 +2.2258609533E-007 -6.3624382019E-003 +9.8547935486E-003
7067500000.000 -8.8623046875E-002 -3.5780334473E-001 +1.5548467636E-003 -3.3026933670E-004 -3.7616118789E-005 +2.3653730750E-005 -4.6472549438E-003 +1.0121822357E-002
7200000000.000 -9.5458984375E-002 -3.6235046387E-001 +8.9234113693E-004 -1.3489127159E-003 +2.4072825909E-005 +5.1116570830E-005 -1.5002250671E-002 +1.6968727112E-002
7332500000.000 -1.0183715820E-001 -3.6361694336E-001 +2.5099515915E-004 -1.5238523483E-003 -2.8543174267E-005 +5.1584094763E-005 -1.6989707947E-002 +3.0658721924E-002
7465000000.000 -1.0621643066E-001 -3.6465454102E-001 -7.5024366379E-004 -1.2367367744E-003 -7.3213130236E-005 -4.9587339163E-005 -1.9933700562E-002 +3.1214714050E-002
7597500000.000 -1.1129760742E-001 -3.6831665039E-001 -1.5152096748E-003 -3.2281875610E-004 +7.7486038208E-007 -7.2464346886E-005 -3.6396026611E-002 +3.3287048340E-002
7730000000.000 -1.1592102051E-001 -3.7184143066E-001 -1.4148950577E-003 +4.5591592789E-004 +1.2224540114E-005 +5.8637931943E-005 -4.8192977905E-002 +4.3663024902E-002
7862500000.000 -1.2022399902E-001 -3.7367248535E-001 -1.0116696358E-003 +1.0040998459E-003 -6.1240047216E-005 -2.3245811462E-005 -5.3659439087E-002 +4.2619705200E-002
7995000000.000 -1.2414550781E-001 -3.7548828125E-001 -1.1742115021E-005 +1.3865232468E-003 +5.1066279411E-005 -6.9987028837E-005 -7.2940826416E-002 +3.5160064697E-002
8127500000.000 -1.2757873535E-001 -3.8000488281E-001 +8.1253051758E-004 +1.1074542999E-003 +3.7334859371E-005 -6.4931809902E-006 -9.1369628906E-002 +3.9760589600E-002
8260000000.000 -1.3240051270E-001 -3.8198852539E-001 +1.1477470398E-003 +5.0991773605E-004 -3.6355108023E-005 -1.2192875147E-005 -9.5504760742E-002 +3.4381866455E-002
8392500000.000 -1.3529968262E-001 -3.8365173340E-001 +1.2984275818E-003 -3.1679868698E-004 +3.2195821404E-006 -1.6034580767E-005 -1.0984420776E-001 +1.8409729004E-002
8525000000.000 -1.3710021973E-001 -3.8636779785E-001 +8.5473060608E-004 -1.0022521019E-003 +1.5849247575E-005 +3.0018389225E-005 -1.2198638916E-001 +1.5060424805E-002
8657500000.000 -1.4030456543E-001 -3.8932800293E-001 +1.2183189392E-004 -1.1991262436E-003 -4.4196844101E-005 +6.2808394432E-006 -1.1779022217E-001 +4.2114257813E-003
8790000000.000 -1.4431762695E-001 -3.9161682129E-001 -5.4860115051E-004 -1.0450482368E-003 +2.0277686417E-005 -3.0265189707E-005 -1.1969375610E-001 -1.7433166504E-002
8922500000.000 -1.4665222168E-001 -3.9173889160E-001 -1.0050535202E-003 -5.3185224533E-004 +7.2237104177E-005 +3.9480626583E-005 -1.2234115601E-001 -3.0426025391E-002
9055000000.000 -1.4886474609E-001 -3.9434814453E-001 -1.1291503906E-003 +7.4565410614E-005 +6.7339278758E-006 +1.1921860278E-005 -1.1100769043E-001 -4.4052124023E-002
9187500000.000 -1.5185546875E-001 -3.9599609375E-001 -8.9767575264E-004 +6.9755315781E-004 -4.6519562602E-005 -3.7888064981E-005 -1.0029220581E-001 -6.6802978516E-002
9320000000.000 -1.5719604492E-001 -3.9619445801E-001 -3.1340122223E-004 +1.0073781013E-003 +5.4398551583E-005 -2.2687017918E-006 -9.3742370605E-002 -7.9612731934E-002
9452500000.000 -1.5975952148E-001 -3.9654541016E-001 +2.5689601898E-004 +1.0225176811E-003 -8.4284693003E-006 +5.0466507673E-005 -7.4378967285E-002 -8.6685180664E-002
9585000000.000 -1.6279602051E-001 -3.9816284180E-001 +7.5834989548E-004 +6.3419342041E-004 -1.9175931811E-005 -2.7288682759E-005 -5.4347991943E-002 -1.0118484497E-001
9717500000.000 -1.6827392578E-001 -4.0039062500E-001 +9.4151496887E-004 +1.5684962273E-004 +9.1128051281E-005 -1.2751668692E-005 -4.1336059570E-002 -1.0695266724E-001
9850000000.000 -1.7401123047E-001 -3.9909362793E-001 +8.5234642029E-004 -4.1955709457E-004 -5.5208802223E-006 +4.4353306293E-005 -1.9123077393E-002 -1.0220718384E-001
9982500000.000 -1.7565917969E-001 -4.0045166016E-001 +4.1055679321E-004 -8.1482529640E-004 -7.1443617344E-005 +2.2225081921E-005 +6.4010620117E-003 -1.0328292847E-001
10115000000.000 -1.7947387695E-001 -4.0267944336E-001 -1.6447901726E-004 -9.4354152679E-004 +1.8510967493E-005 -2.5281682611E-005 +1.9187927246E-002 -9.9086761475E-002
10247500000.000 -1.8615722656E-001 -4.0362548828E-001 -5.8531761169E-004 -7.0819258690E-004 -1.3956800103E-005 +4.4936314225E-005 +3.5663604736E-002 -8.0097198486E-002
10380000000.000 -1.8975830078E-001 -4.0335083008E-001 -7.9569220543E-004 -2.2271275520E-004 +9.9949538708E-006 +2.1590851247E-005 +5.7075500488E-002 -6.7630767822E-002
10512500000.000 -1.9305419922E-001 -4.0432739258E-001 -7.8925490379E-004 +2.6959180832E-004 -1.2196600437E-005 -5.0740316510E-005 +6.2486648560E-002 -5.6013107300E-002
10645000000.000 -1.9702148438E-001 -4.0591430664E-001 -4.7066807747E-004 +5.8987736702E-004 +2.2995285690E-005 -4.4358894229E-006 +6.6066741943E-002 -2.9148101807E-002
10777500000.000 -2.0175170898E-001 -4.0734863281E-001 -2.2709369659E-005 +7.1847438812E-004 +1.3095326722E-005 -9.7602605820E-006 +7.7175140381E-002 -7.7743530273E-003
10910000000.000 -2.0597839355E-001 -4.0814208984E-001 +3.6427378654E-004 +6.0731172562E-004 +4.3530017138E-006 -5.1109120250E-005 +7.2349548340E-002 +5.5503845215E-003
11042500000.000 -2.1072387695E-001 -4.0942382813E-001 +6.7338347435E-004 +3.2532215118E-004 +4.8099085689E-005 +1.2636184692E-005 +5.9452056885E-002 +3.1345367432E-002
11175000000.000 -2.1394348145E-001 -4.1183471680E-001 +6.6220760345E-004 -6.5118074417E-005 +1.2294389307E-005 +1.7930753529E-005 +5.6425094604E-002 +5.2455902100E-002
11307500000.000 -2.1665954590E-001 -4.1290283203E-001 +5.2222609520E-004 -4.3332576752E-004 -5.3592026234E-005 -5.2768737078E-005 +4.3548583984E-002 +5.8547973633E-002
11440000000.000 -2.2157287598E-001 -4.1439819336E-001 +2.2318959236E-004 -5.7432055473E-004 +4.7180801630E-006 +4.2486935854E-005 +1.8062591553E-002 +7.2158813477E-002
11572500000.000 -2.2315979004E-001 -4.1699218750E-001 -1.7830729485E-004 -5.8764219284E-004 +1.2468546629E-005 +7.0843845606E-005 +4.2762756348E-003 +8.7352752686E-002
11705000000.000 -2.2605895996E-001 -4.1807556152E-001 -4.0267407894E-004 -3.1559169292E-004 -3.3872202039E-005 -4.3772161007E-006 -1.0276794434E-002 +8.0986022949E-002
11837500000.000 -2.2984313965E-001 -4.1967773438E-001 -6.1237812042E-004 -1.4278292656E-004 +1.3994053006E-005 -3.8538128138E-005 -4.3186187744E-002 +7.6560974121E-002
11970000000.000 -2.3138427734E-001 -4.1954040527E-001 -5.1274895668E-004 +1.7288327217E-004 +1.9581057131E-005 +2.7508474886E-005 -5.9509277344E-002 +8.2981109619E-002
12102500000.000 -2.3153686523E-001 -4.2146301270E-001 -3.5431981087E-004 +5.0643086433E-004 -5.2573159337E-005 -4.8190355301E-005 -6.5513610840E-002 +6.4212799072E-002
12235000000.000 -2.3713684082E-001 -4.2181396484E-001 +3.1381845474E-005 +5.1224231720E-004 +2.2031366825E-005 -6.6477805376E-005 -9.2803955078E-002 +4.3926239014E-002
12367500000.000 -2.3745727539E-001 -4.2149353027E-001 +4.0026009083E-004 +4.1459500790E-004 +4.2239204049E-005 -1.0382384062E-005 -1.0549545288E-001 +4.2587280273E-002
12500000000.000 -2.4119567871E-001 -4.2079162598E-001 +4.6421587467E-004 +2.3470818996E-004 -4.0214508772E-006 +3.1691044569E-005 -9.7362518311E-002 +2.0248413086E-002
12632500000.000 -2.4310302734E-001 -4.2276000977E-001 +5.4028630257E-004 -1.0979175568E-004 +1.8580816686E-005 -1.8421560526E-005 -1.0927200317E-001 -1.3622283936E-002
12765000000.000 -2.4559020996E-001 -4.2236328125E-001 +3.9485096931E-004 -4.2824447155E-004 +5.9781596065E-005 +3.0497089028E-005 -1.1724090576E-001 -1.8001556396E-002
12897500000.000 -2.4824523926E-001 -4.2085266113E-001 +7.0452690125E-005 -5.0342082977E-004 +4.9620866776E-006 +7.7381730080E-005 -9.2067718506E-002 -3.4713745117E-002
13030000000.000 -2.5032043457E-001 -4.2071533203E-001 -1.4783442020E-004 -4.3511390686E-004 -1.9196420908E-005 -1.5006400645E-005 -8.9302062988E-002 -7.1193695068E-002
13162500000.000 -2.5285339355E-001 -4.2163085938E-001 -3.8121640682E-004 -1.9565224648E-004 +2.7908012271E-005 -3.9802864194E-005 -9.1384887695E-002 -7.2578430176E-002
13295000000.000 -2.5582885742E-001 -4.2192077637E-001 -4.7796964645E-004 -1.8522143364E-005 -2.6512891054E-005 +1.3681128621E-005 -6.0783386230E-002 -7.8521728516E-002
13427500000.000 -2.6007080078E-001 -4.2019653320E-001 -3.6475062370E-004 +4.6648085117E-004 -8.8881701231E-005 -3.6854296923E-005 -4.6607971191E-002 -1.0410690308E-001
13560000000.000 -2.6052856445E-001 -4.1961669922E-001 -1.9054114819E-004 +3.7306547165E-004 +2.0671635866E-005 -3.6645680666E-005 -4.6554565430E-002 -1.0132598877E-001
13692500000.000 -2.6316833496E-001 -4.2178344727E-001 +1.3068318367E-004 +3.6181509495E-004 -3.1575560570E-005 +4.4081360102E-005 -1.7681121826E-002 -8.9027404785E-002
13825000000.000 -2.6802062988E-001 -4.2208862305E-001 +3.5589933395E-004 +2.7485191822E-004 +1.7004087567E-005 -4.3921172619E-005 +4.3983459473E-003 -1.0308837891E-001
13957500000.000 -2.7078247070E-001 -4.1998291016E-001 +3.4521520138E-004 +9.1046094894E-006 +2.8640031815E-005 -8.9947134256E-005 -5.7220458984E-005 -9.5645904541E-002
14090000000.000 -2.7156066895E-001 -4.2073059082E-001 +3.0155479908E-004 -2.0703673363E-004 +7.4304640293E-005 +1.3018399477E-004 +2.1923065186E-002 -7.0217132568E-002
14222500000.000 -2.7290344238E-001 -4.2362976074E-001 +1.6228854656E-004 -3.5247206688E-004 -2.1307729185E-005 +2.7247704566E-005 +4.3960571289E-002 -7.3989868164E-002
14355000000.000 -2.7783203125E-001 -4.2367553711E-001 -4.3466687202E-005 -2.7498602867E-004 -2.1312385798E-005 -9.9562108517E-005 +3.3168792725E-002 -6.7028045654E-002
14487500000.000 -2.8012084961E-001 -4.2314147949E-001 -1.8371641636E-004 -2.3738294840E-004 +4.4921413064E-005 +5.8948993683E-005 +4.0105819702E-002 -3.4027099609E-002
14620000000.000 -2.8002929688E-001 -4.2442321777E-001 -2.7009844780E-004 -1.4866888523E-004 -1.1201947927E-004 +2.6747584343E-005 +6.0699462891E-002 -3.1421661377E-002
14752500000.000 -2.8327941895E-001 -4.2837524414E-001 -2.9721856117E-004 +5.7443976402E-005 -9.7129493952E-005 -4.6934932470E-005 +4.3096542358E-002 -3.2199859619E-002
14885000000.000 -2.8637695313E-001 -4.2916870117E-001 -1.6839057207E-004 +2.1238625050E-004 +9.2420727015E-005 +7.3388218880E-006 +3.5533905029E-002 +1.5048980713E-003
15017500000.000 -2.8688049316E-001 -4.2968750000E-001 -1.9085407257E-004 +2.5373697281E-004 +2.6755034924E-005 +9.0084969997E-005 +5.2824020386E-002 +8.6517333984E-003
15150000000.000 -2.8767395020E-001 -4.3310546875E-001 -5.9902667999E-006 +3.4500658512E-004 -7.5239688158E-005 -4.3578445911E-005 +3.4971237183E-002 -1.5907287598E-003
15282500000.000 -2.8881835938E-001 -4.3569946289E-001 +2.0812451839E-004 +2.6905536652E-004 +1.2604519725E-005 -4.5295804739E-005 +1.4547348022E-002 +2.3292541504E-002
