!  2-Port S-parameters saved by WinCal
! VAR MeasName=S-Parameters (CALIBRATED_DATA) read from VNA (C)
! VAR MeasDate=10/16/2015 12:52:01 PM
! VAR NAME=M6082_13_15_2_2_20C_10.4mA_-17.5dBm
! VAR FILENAME=M6082_13_15_2_2_20C_10.4mA_-17.5dBm.S2P
! VAR DATE=10/16/2015 12:52:01 PM
! VAR PHYS_PORTS=2,1
! VAR ObjTypeName=DATASET
! VAR IndexType=Frequency
!
# Hz S RI R 50
45000000.000 -7.0632934570E-002 -7.9345703125E-004 -7.9989433289E-004 +6.6468715668E-003 +4.3606758118E-004 +1.2391805649E-003 +2.8836250305E-002 +2.4509429932E-003
177500000.000 -6.9763183594E-002 -4.1160583496E-003 +2.0666122437E-003 +5.9320926666E-003 +5.4255127907E-005 +1.9482523203E-004 +1.5933990479E-002 +1.6582489014E-002
310000000.000 -6.9534301758E-002 -8.2206726074E-003 +4.8987865448E-003 +4.3292045593E-003 -1.3480335474E-004 -9.9539756775E-006 +2.9056549072E-002 +6.1521530151E-002
442500000.000 -6.9297790527E-002 -1.2557983398E-002 +7.2815418243E-003 +1.9884109497E-004 +7.0892274380E-005 +1.4498084784E-004 +7.2463989258E-002 +2.2544860840E-002
575000000.000 -6.9374084473E-002 -1.7280578613E-002 +5.6114196777E-003 -3.8523674011E-003 -5.2575021982E-005 +1.7030164599E-005 +2.7248382568E-002 +1.1244773865E-002
707500000.000 -6.9740295410E-002 -2.1076202393E-002 +2.5141239166E-003 -6.1767101288E-003 -4.1499733925E-006 +3.5963952541E-005 +2.0751953125E-003 +1.8634796143E-002
840000000.000 -6.9400787354E-002 -2.5844573975E-002 -1.4688968658E-003 -6.5443515778E-003 +6.7021697760E-005 -1.6301870346E-005 -1.9927978516E-002 +2.6091575623E-002
972500000.000 -6.9316864014E-002 -3.0189514160E-002 -4.7309398651E-003 -4.4932365417E-003 +8.8214874268E-006 +3.2402575016E-005 -3.5797119141E-002 +3.5396575928E-002
1105000000.000 -6.9911956787E-002 -3.4759521484E-002 -6.4601898193E-003 -1.0440349579E-003 -4.0650367737E-005 -1.3656914234E-005 -4.6894073486E-002 +3.8204193115E-002
1237500000.000 -7.0262908936E-002 -3.8848876953E-002 -5.9564113617E-003 +2.6404857635E-003 +6.4063817263E-005 -2.7693808079E-005 -5.8546066284E-002 +3.3803939819E-002
1370000000.000 -7.0858001709E-002 -4.2896270752E-002 -3.4620761871E-003 +5.5594444275E-003 +7.3611736298E-005 +1.6309320927E-005 -7.3863983154E-002 +2.6908874512E-002
1502500000.000 -7.1079254150E-002 -4.7023773193E-002 +2.7990341187E-004 +6.5410137177E-003 -1.9654631615E-005 -5.2854418755E-005 -8.7959289551E-002 +2.1255493164E-002
1635000000.000 -7.1056365967E-002 -5.1795959473E-002 +3.6766529083E-003 +5.3045749664E-003 +6.0092657804E-005 +2.6626512408E-005 -9.9010467529E-002 +1.1684417725E-002
1767500000.000 -7.1796417236E-002 -5.6209564209E-002 +6.0722827911E-003 +2.3121833801E-003 -1.2916512787E-005 +7.3555856943E-006 -1.1184310913E-001 +3.0288696289E-003
1900000000.000 -7.1849822998E-002 -5.9810638428E-002 +6.2863826752E-003 -1.5308856964E-003 +4.6472996473E-007 +2.9639340937E-005 -1.1383438110E-001 -3.5018920898E-003
2032500000.000 -7.2444915771E-002 -6.3755035400E-002 +4.3303966522E-003 -4.6441555023E-003 +2.8606504202E-005 -6.8087130785E-005 -1.1361312866E-001 -2.4391174316E-002
2165000000.000 -7.2284698486E-002 -6.8435668945E-002 +9.2530250549E-004 -6.3514709473E-003 +4.0885061026E-005 +1.7005950212E-006 -1.2254714966E-001 -4.2247772217E-002
2297500000.000 -7.2711944580E-002 -7.2147369385E-002 -2.7427673340E-003 -5.8131217957E-003 -1.7360784113E-005 -1.3454817235E-005 -1.2640380859E-001 -5.3543090820E-002
2430000000.000 -7.3093414307E-002 -7.6019287109E-002 -5.5274963379E-003 -3.2336711884E-003 +1.2530386448E-004 -1.7464160919E-005 -1.2644958496E-001 -6.4888000488E-002
2562500000.000 -7.3688507080E-002 -8.0261230469E-002 -6.1821937561E-003 +3.9243698120E-004 +7.9553574324E-005 -1.4916062355E-005 -1.2515258789E-001 -7.1022033691E-002
2695000000.000 -7.5496673584E-002 -8.3305358887E-002 -4.9402713776E-003 +3.9587020874E-003 -2.7690082788E-005 +3.5673379898E-005 -1.1355590820E-001 -7.3329925537E-002
2827500000.000 -7.6469421387E-002 -8.5803985596E-002 -1.9543170929E-003 +6.0727596283E-003 -1.2414902449E-004 -1.9343942404E-004 -9.8442077637E-002 -8.1806182861E-002
2960000000.000 -7.6847076416E-002 -8.9324951172E-002 +1.5993118286E-003 +6.0667991638E-003 +1.6516074538E-005 +3.2810494304E-005 -8.7959289551E-002 -8.6769104004E-002
3092500000.000 -7.8330993652E-002 -9.4062805176E-002 +4.8120021820E-003 +4.0230751038E-003 -6.0304999352E-005 +1.9229203463E-004 -7.0323944092E-002 -8.5865020752E-002
3225000000.000 -8.0852508545E-002 -9.7686767578E-002 +6.1330795288E-003 +7.4195861816E-004 -1.2672692537E-004 +6.7993998528E-005 -5.1883697510E-002 -9.0988159180E-002
3357500000.000 -8.2332611084E-002 -9.9918365479E-002 +5.5444240570E-003 -2.7012825012E-003 +2.7520582080E-005 +5.1626935601E-005 -4.1412353516E-002 -9.1526031494E-002
3490000000.000 -8.3065032959E-002 -1.0451507568E-001 +3.0303001404E-003 -5.4571628571E-003 -5.8207660913E-006 +4.9939379096E-005 -2.7927398682E-002 -8.3087921143E-002
3622500000.000 -8.4445953369E-002 -1.0932922363E-001 -3.7002563477E-004 -6.1478614807E-003 +5.0120055676E-005 -9.0964138508E-005 -1.1260986328E-002 -7.9147338867E-002
3755000000.000 -8.6925506592E-002 -1.1375045776E-001 -3.7984848022E-003 -4.8806667328E-003 +3.9413571358E-005 -9.5717608929E-005 -5.8059692383E-003 -7.3020935059E-002
3887500000.000 -8.8123321533E-002 -1.1716079712E-001 -5.9628486633E-003 -1.9810199738E-003 +2.2076070309E-005 +4.6201050282E-005 +2.1896362305E-003 -5.5839538574E-002
4020000000.000 -8.9073181152E-002 -1.2088394165E-001 -6.0083866119E-003 +1.6713142395E-003 -2.9358081520E-005 -1.9818544388E-005 +1.3292312622E-002 -4.4420242310E-002
4152500000.000 -9.0095520020E-002 -1.2558746338E-001 -3.9410591125E-003 +4.8031806946E-003 +1.4017522335E-004 -2.2605061531E-005 +1.5375137329E-002 -3.2402038574E-002
4285000000.000 -9.1781616211E-002 -1.2976074219E-001 -5.9103965759E-004 +6.2270164490E-003 -1.6290694475E-005 +5.4661184549E-005 +1.6979217529E-002 -1.3051033020E-002
4417500000.000 -9.3811035156E-002 -1.3335418701E-001 +2.8884410858E-003 +5.3989887238E-003 +3.2758340240E-005 -1.0780990124E-005 +2.5609016418E-002 +3.7355422974E-003
4550000000.000 -9.4314575195E-002 -1.3687896729E-001 +5.3381919861E-003 +2.9189586639E-003 +3.5101547837E-005 -8.8475644588E-006 +2.8898239136E-002 +9.5844268799E-003
4682500000.000 -9.5199584961E-002 -1.4165496826E-001 +6.0107707977E-003 -6.8068504333E-004 +5.7039782405E-005 -1.1231750250E-006 +2.5546073914E-002 +2.0620346069E-002
4815000000.000 -9.7160339355E-002 -1.4580535889E-001 +4.6718120575E-003 -3.7717819214E-003 +9.2829577625E-006 +6.3441693783E-006 +3.1161308289E-002 +2.7436256409E-002
4947500000.000 -9.7854614258E-002 -1.4913177490E-001 +1.8787384033E-003 -5.7587623596E-003 -2.8318725526E-005 -2.4318695068E-005 +2.7569770813E-002 +1.9963264465E-002
5080000000.000 -9.8022460938E-002 -1.5318298340E-001 -1.6136169434E-003 -5.9149265289E-003 +5.2707269788E-005 -1.0561197996E-006 +1.3278007507E-002 +2.0587921143E-002
5212500000.000 -9.9243164063E-002 -1.5744781494E-001 -4.6665668488E-003 -4.1310787201E-003 -3.2767653465E-005 +5.2845105529E-005 +9.1600418091E-003 +2.4805068970E-002
5345000000.000 -1.0089874268E-001 -1.6050720215E-001 -6.0818195343E-003 -8.2278251648E-004 -2.5625340641E-005 -1.1045485735E-006 +5.4512023926E-003 +1.6188621521E-002
5477500000.000 -1.0034179688E-001 -1.6320037842E-001 -5.4948329926E-003 +2.7985572815E-003 +3.7590041757E-005 -2.7365982533E-005 -9.1376304626E-003 +1.0220050812E-002
5610000000.000 -1.0080718994E-001 -1.6746520996E-001 -3.0744075775E-003 +5.5181980133E-003 +1.5702098608E-005 +2.1467916667E-005 -1.4980792999E-002 +1.4495849609E-002
5742500000.000 -1.0271453857E-001 -1.7034912109E-001 +6.1702728271E-004 +6.2990188599E-003 +4.9397349358E-006 -7.5124204159E-005 -1.1615276337E-002 +5.8865547180E-003
5875000000.000 -1.0404205322E-001 -1.7139434814E-001 +4.0318965912E-003 +4.8525333405E-003 +3.3605843782E-005 -4.2876228690E-005 -2.0323753357E-002 -3.3874511719E-003
6007500000.000 -1.0395050049E-001 -1.7403411865E-001 +6.0646533966E-003 +1.7595291138E-003 +4.5299530029E-006 +5.1906332374E-005 -2.3340225220E-002 +1.6593933105E-004
6140000000.000 -1.0520935059E-001 -1.7812347412E-001 +5.9590339661E-003 -1.9567012787E-003 -7.3928385973E-006 +4.7979876399E-005 -1.5441894531E-002 -2.8381347656E-003
6272500000.000 -1.0890960693E-001 -1.8056488037E-001 +3.8330554962E-003 -4.9977302551E-003 -7.9236924648E-006 -6.7766755819E-005 -1.6509056091E-002 -1.1768341064E-002
6405000000.000 -1.1096954346E-001 -1.8093109131E-001 +4.6801567078E-004 -6.3381195068E-003 +2.2614374757E-005 -7.8091397882E-006 -1.9466400146E-002 -6.3419342041E-003
6537500000.000 -1.1071777344E-001 -1.8400573730E-001 -3.1526088715E-003 -5.4039955139E-003 +6.7628920078E-005 -8.9332461357E-006 -9.2420578003E-003 -3.3283233643E-003
6670000000.000 -1.1286926270E-001 -1.8916320801E-001 -5.6545734406E-003 -2.6769638062E-003 -1.5907920897E-005 -8.4545463324E-006 -7.8463554382E-003 -7.3242187500E-003
6802500000.000 -1.1733245850E-001 -1.9171905518E-001 -6.1669349670E-003 +9.2840194702E-004 -1.4811754227E-005 +2.0680017769E-006 -1.1357307434E-002 +9.5367431641E-007
6935000000.000 -1.1914062500E-001 -1.9212341309E-001 -4.5466423035E-003 +4.1861534119E-003 -1.0062009096E-005 +1.8826685846E-005 -6.4182281494E-003 +9.8280906677E-003
7067500000.000 -1.1886596680E-001 -1.9553375244E-001 -1.4586448669E-003 +5.9931278229E-003 -2.0040199161E-005 +4.9047172070E-005 -4.6563148499E-003 +1.0145187378E-002
7200000000.000 -1.2184906006E-001 -2.0054626465E-001 +2.2156238556E-003 +5.7067871094E-003 +1.8874183297E-005 -3.5224482417E-005 -1.5056610107E-002 +1.6902923584E-002
7332500000.000 -1.2590026855E-001 -2.0285797119E-001 +4.9784183502E-003 +3.5541057587E-003 +2.9316172004E-005 +1.3172626495E-005 -1.7005920410E-002 +3.0611991882E-002
7465000000.000 -1.2715911865E-001 -2.0472717285E-001 +6.2024593353E-003 +1.6498565674E-004 -2.4572014809E-005 -6.1940401793E-005 -1.9792556763E-002 +3.1203269958E-002
7597500000.000 -1.2846374512E-001 -2.0903015137E-001 +5.1481723785E-003 -3.2544136047E-003 +4.7944486141E-005 -2.5657936931E-005 -3.6464691162E-002 +3.3267974854E-002
7730000000.000 -1.3115692139E-001 -2.1353912354E-001 +2.4726390839E-003 -5.5606365204E-003 -2.3920089006E-005 +4.8054382205E-005 -4.8128128052E-002 +4.3668746948E-002
7862500000.000 -1.3323211670E-001 -2.1636199951E-001 -1.1162757874E-003 -5.9723854065E-003 -6.5337866545E-005 -2.1420419216E-005 -5.3579330444E-002 +4.2537689209E-002
7995000000.000 -1.3395690918E-001 -2.1903228760E-001 -4.1975975037E-003 -4.4443607330E-003 +3.1782314181E-005 -2.5302171707E-005 -7.2898864746E-002 +3.5133361816E-002
8127500000.000 -1.3484191895E-001 -2.2458648682E-001 -5.9700012207E-003 -1.3749599457E-003 +4.9356371164E-005 +9.4220042229E-005 -9.1400146484E-002 +3.9813995361E-002
8260000000.000 -1.3775634766E-001 -2.2769165039E-001 -5.6743621826E-003 +2.2430419922E-003 -6.6265463829E-005 -6.9104135036E-006 -9.5394134521E-002 +3.4332275391E-002
8392500000.000 -1.3793945313E-001 -2.3040008545E-001 -3.4632682800E-003 +4.9288272858E-003 -1.0460615158E-005 -4.5042484999E-005 -1.0982513428E-001 +1.8478393555E-002
8525000000.000 -1.3771820068E-001 -2.3388671875E-001 -7.8201293945E-005 +6.0610771179E-003 +1.2576580048E-005 +4.8846006393E-005 -1.2202835083E-001 +1.5026092529E-002
8657500000.000 -1.3881683350E-001 -2.3789978027E-001 +3.3092498779E-003 +5.1400661469E-003 +2.2004358470E-005 +2.5972723961E-005 -1.1774826050E-001 +4.2190551758E-003
8790000000.000 -1.4060211182E-001 -2.4121856689E-001 +5.6900978088E-003 +2.3741722107E-003 +4.7471374273E-005 -5.0624832511E-005 -1.1962127686E-001 -1.7387390137E-002
8922500000.000 -1.4089202881E-001 -2.4239349365E-001 +6.0260295868E-003 -1.1596679688E-003 +4.2464584112E-005 +3.3700838685E-005 -1.2241363525E-001 -3.0479431152E-002
9055000000.000 -1.4119720459E-001 -2.4574279785E-001 +4.2965412140E-003 -4.3952465057E-003 -5.7242810726E-005 +8.4400177002E-005 -1.1097717285E-001 -4.4075012207E-002
9187500000.000 -1.4248657227E-001 -2.4829864502E-001 +1.1751651764E-003 -6.0458183289E-003 +2.2421590984E-005 -8.9602544904E-006 -1.0030364990E-001 -6.6814422607E-002
9320000000.000 -1.4553070068E-001 -2.4942779541E-001 -2.4249553680E-003 -5.6204795837E-003 +6.4425170422E-005 -2.8982758522E-005 -9.3681335449E-002 -7.9589843750E-002
9452500000.000 -1.4620971680E-001 -2.5079345703E-001 -5.1226615906E-003 -3.4248828888E-003 +4.0363520384E-006 +4.7201290727E-005 -7.4249267578E-002 -8.6734771729E-002
9585000000.000 -1.4741516113E-001 -2.5326538086E-001 -6.1051845551E-003 +1.4019012451E-004 -1.7784535885E-005 -2.2922642529E-005 -5.4374694824E-002 -1.0129547119E-001
9717500000.000 -1.5113830566E-001 -2.5656127930E-001 -4.9946308136E-003 +3.5166740417E-003 +6.4477324486E-005 -8.1233680248E-005 -4.1267395020E-002 -1.0687637329E-001
9850000000.000 -1.5454101563E-001 -2.5627136230E-001 -2.1545886993E-003 +5.7480335236E-003 +1.0151416063E-006 +3.6586076021E-005 -1.8997192383E-002 -1.0225296021E-001
9982500000.000 -1.5452575684E-001 -2.5878906250E-001 +1.3804435730E-003 +5.9728622437E-003 -5.7825818658E-005 +6.6477805376E-006 +6.4277648926E-003 -1.0346221924E-001
10115000000.000 -1.5682983398E-001 -2.6205444336E-001 +4.4772624969E-003 +4.0860176086E-003 +5.1502138376E-005 -8.5912644863E-005 +1.9123077393E-002 -9.9060058594E-002
10247500000.000 -1.6133117676E-001 -2.6394653320E-001 +6.0296058655E-003 +9.6368789673E-004 -9.3951821327E-006 +4.0464103222E-005 +3.5774230957E-002 -7.9868316650E-002
10380000000.000 -1.6317749023E-001 -2.6521301270E-001 +5.5274963379E-003 -2.6214122772E-003 +1.4043413103E-005 -2.7061440051E-005 +5.7106018066E-002 -6.7749023438E-002
10512500000.000 -1.6522216797E-001 -2.6741027832E-001 +3.0808448792E-003 -5.2418708801E-003 +6.0323625803E-005 -1.4249235392E-005 +6.2395095825E-002 -5.6180953979E-002
10645000000.000 -1.6763305664E-001 -2.6966857910E-001 -2.9468536377E-004 -6.0977935791E-003 +4.8451125622E-005 +3.5265460610E-005 +6.5994262695E-002 -2.9155731201E-002
10777500000.000 -1.7057800293E-001 -2.7223205566E-001 -3.7825107574E-003 -4.8437118530E-003 -1.8826685846E-005 +2.6096589863E-005 +7.7274322510E-002 -7.8430175781E-003
10910000000.000 -1.7303466797E-001 -2.7462768555E-001 -5.7797431946E-003 -1.9428730011E-003 -1.9267201424E-005 -3.3125281334E-005 +7.2341918945E-002 +5.4664611816E-003
11042500000.000 -1.7648315430E-001 -2.7722167969E-001 -5.8920383453E-003 +1.6682147980E-003 +6.4037740231E-006 +4.9361959100E-005 +5.9379577637E-002 +3.1194686890E-002
11175000000.000 -1.7851257324E-001 -2.8065490723E-001 -3.9978027344E-003 +4.7104358673E-003 -3.9044767618E-005 +2.9148533940E-005 +5.6509017944E-002 +5.2610397339E-002
11307500000.000 -1.7971801758E-001 -2.8271484375E-001 -7.0214271545E-004 +5.9673786163E-003 -6.8689696491E-006 +9.1432593763E-006 +4.3600082397E-002 +5.8416366577E-002
11440000000.000 -1.8313598633E-001 -2.8565979004E-001 +2.8545856476E-003 +5.2995681763E-003 +6.6287815571E-005 +8.7916851044E-007 +1.8203735352E-002 +7.2063446045E-002
11572500000.000 -1.8376159668E-001 -2.8941345215E-001 +5.3815841675E-003 +2.8853416443E-003 +3.5259872675E-006 +5.2236020565E-005 +4.2953491211E-003 +8.7448120117E-002
11705000000.000 -1.8528747559E-001 -2.9174804688E-001 +6.0470104218E-003 -6.6351890564E-004 -3.7249177694E-005 -8.1613659859E-005 -1.0055541992E-002 +8.0966949463E-002
11837500000.000 -1.8791198730E-001 -2.9452514648E-001 +4.6606063843E-003 -4.0299892426E-003 +2.3602508008E-005 +3.0314549804E-006 -4.3148040771E-002 +7.6633453369E-002
11970000000.000 -1.8826293945E-001 -2.9566955566E-001 +1.7459392548E-003 -5.8119297028E-003 +3.1910836697E-005 +6.7412853241E-005 -5.9459686279E-002 +8.3000183105E-002
12102500000.000 -1.8733215332E-001 -2.9884338379E-001 -1.8906593323E-003 -5.7451725006E-003 -3.2231211662E-005 -4.0497630835E-005 -6.5395355225E-002 +6.4262390137E-002
12235000000.000 -1.9187927246E-001 -3.0009460449E-001 -4.8930644989E-003 -3.6129951477E-003 +1.6035512090E-005 -4.4114887714E-005 -9.2899322510E-002 +4.4067382813E-002
12367500000.000 -1.9104003906E-001 -3.0076599121E-001 -5.9702396393E-003 -3.9172172546E-004 -2.5818124413E-005 -5.8244913816E-005 -1.0562896729E-001 +4.2610168457E-002
12500000000.000 -1.9360351563E-001 -3.0151367188E-001 -5.1293373108E-003 +3.0488967896E-003 -1.3572629541E-005 +7.3043629527E-006 -9.7164154053E-002 +2.0267486572E-002
12632500000.000 -1.9494628906E-001 -3.0468750000E-001 -2.6397705078E-003 +5.4240226746E-003 -7.4051320553E-005 -2.9336661100E-005 -1.0926437378E-001 -1.3526916504E-002
12765000000.000 -1.9625854492E-001 -3.0509948730E-001 +9.4437599182E-004 +5.9328079224E-003 +4.2514875531E-005 -1.1973083019E-005 -1.1712646484E-001 -1.7848968506E-002
12897500000.000 -1.9779968262E-001 -3.0464172363E-001 +4.1148662567E-003 +4.3430328369E-003 -2.0898878574E-005 +3.1486153603E-005 -9.2014312744E-002 -3.4767150879E-002
13030000000.000 -1.9906616211E-001 -3.0595397949E-001 +5.8624744415E-003 +1.3110637665E-003 -4.2954459786E-005 -5.1574781537E-005 -8.9347839355E-002 -7.1311950684E-002
13162500000.000 -2.0088195801E-001 -3.0790710449E-001 +5.6188106537E-003 -2.1889209747E-003 +7.0609152317E-005 -2.6922672987E-005 -9.1560363770E-002 -7.2540283203E-002
13295000000.000 -2.0306396484E-001 -3.0928039551E-001 +3.4332275391E-003 -4.8615932465E-003 -1.7468817532E-005 -2.6822090149E-007 -6.0939788818E-002 -7.8475952148E-002
13427500000.000 -2.0642089844E-001 -3.0876159668E-001 +1.1634826660E-004 -5.8963298798E-003 -1.6983598471E-005 -7.3622912169E-005 -4.6569824219E-002 -1.0440063477E-001
13560000000.000 -2.0599365234E-001 -3.0903625488E-001 -3.2448768616E-003 -5.0382614136E-003 +9.7788870335E-006 +1.1085718870E-004 -4.6573638916E-002 -1.0148620605E-001
13692500000.000 -2.0755004883E-001 -3.1256103516E-001 -5.5105686188E-003 -2.3438930511E-003 -3.2037496567E-005 +4.0411949158E-005 -1.7646789551E-002 -8.8985443115E-002
13825000000.000 -2.1182250977E-001 -3.1417846680E-001 -5.8443546295E-003 +1.1048316956E-003 -3.3207237720E-005 -2.1426007152E-005 +4.5051574707E-003 -1.0292816162E-001
13957500000.000 -2.1406555176E-001 -3.1309509277E-001 -4.1747093201E-003 +4.1117668152E-003 +4.7046691179E-005 +3.8519501686E-006 -3.4332275391E-005 -9.5516204834E-002
14090000000.000 -2.1424865723E-001 -3.1469726563E-001 -9.6392631531E-004 +5.8257579803E-003 -1.5415251255E-005 +6.4972788095E-005 +2.1903991699E-002 -6.9942474365E-002
14222500000.000 -2.1499633789E-001 -3.1890869141E-001 +2.4116039276E-003 +5.3825378418E-003 -2.1187588573E-005 +3.9443373680E-005 +4.4044494629E-002 -7.3989868164E-002
14355000000.000 -2.1939086914E-001 -3.1986999512E-001 +5.0237178802E-003 +3.1595230103E-003 +5.2314251661E-005 -7.4509531260E-005 +3.3321380615E-002 -6.7111968994E-002
14487500000.000 -2.2103881836E-001 -3.2029724121E-001 +5.8264732361E-003 -3.0231475830E-004 +4.8719346523E-005 +7.1793794632E-005 +4.0100097656E-002 -3.4034729004E-002
14620000000.000 -2.2056579590E-001 -3.2276916504E-001 +4.7914981842E-003 -3.4954547882E-003 -3.9162114263E-005 +2.2955238819E-005 +6.0760498047E-002 -3.1274795532E-002
14752500000.000 -2.2367858887E-001 -3.2757568359E-001 +1.9371509552E-003 -5.5541992188E-003 +2.7307309210E-005 +1.7421320081E-005 +4.3092727661E-002 -3.2096862793E-002
14885000000.000 -2.2619628906E-001 -3.2894897461E-001 -1.4402866364E-003 -5.6743621826E-003 +2.9871240258E-005 -1.5885569155E-005 +3.5686492920E-002 +1.4743804932E-003
15017500000.000 -2.2610473633E-001 -3.3036804199E-001 -4.3525695801E-003 -3.7791728973E-003 -7.2490423918E-005 +3.2968819141E-005 +5.2888870239E-002 +8.4457397461E-003
15150000000.000 -2.2645568848E-001 -3.3517456055E-001 -5.8329105377E-003 -7.4028968811E-004 -1.2318044901E-004 -1.1913478374E-005 +3.4799575806E-002 -1.4839172363E-003
15282500000.000 -2.2738647461E-001 -3.3802795410E-001 -5.1202774048E-003 +2.6049613953E-003 +3.7897378206E-005 -1.1348351836E-004 +1.4548301697E-002 +2.3350715637E-002
