!  2-Port S-parameters saved by WinCal
! VAR MeasName=S-Parameters (CALIBRATED_DATA) read from VNA (C)
! VAR MeasDate=10/16/2015 2:01:17 PM
! VAR NAME=M6082_13_17_2_2_20C_15.6mA_-17.5dBm
! VAR FILENAME=M6082_13_17_2_2_20C_15.6mA_-17.5dBm.S2P
! VAR DATE=10/16/2015 2:01:17 PM
! VAR PHYS_PORTS=2,1
! VAR ObjTypeName=DATASET
! VAR IndexType=Frequency
!
# Hz S RI R 50
45000000.000 -1.3770294189E-001 -1.4648437500E-003 -1.8048286438E-004 +6.4363479614E-003 -5.5590271950E-004 -7.9065561295E-004 +2.9268264771E-002 +3.7288665771E-003
177500000.000 -1.3671875000E-001 -3.9825439453E-003 +1.8231868744E-003 +5.1522254944E-003 -1.6408413649E-004 +1.4036148787E-004 +1.5825271606E-002 +1.6590118408E-002
310000000.000 -1.3655853271E-001 -7.9879760742E-003 +4.1389465332E-003 +3.2880306244E-003 -1.0697916150E-004 -9.2905014753E-005 +2.9077529907E-002 +6.1592102051E-002
442500000.000 -1.3586425781E-001 -1.1657714844E-002 +6.0396194458E-003 +6.0558319092E-005 +1.0635331273E-004 +2.1263957024E-005 +7.2624206543E-002 +2.2689819336E-002
575000000.000 -1.3591003418E-001 -1.6441345215E-002 +4.5332908630E-003 -3.2274723053E-003 -4.9397349358E-006 +1.2937188148E-004 +2.7165412903E-002 +1.1389732361E-002
707500000.000 -1.3601684570E-001 -2.0141601563E-002 +2.0849704742E-003 -5.1198005676E-003 -5.5497512221E-005 -3.9596110582E-005 +2.1600723267E-003 +1.8694877625E-002
840000000.000 -1.3543701172E-001 -2.4833679199E-002 -1.2876987457E-003 -5.3834915161E-003 +2.5497749448E-005 +3.2551586628E-005 -1.9889831543E-002 +2.5930404663E-002
972500000.000 -1.3488769531E-001 -2.9335021973E-002 -3.9792060852E-003 -3.7901401520E-003 -5.7740136981E-005 +5.3022056818E-005 -3.5846710205E-002 +3.5472869873E-002
1105000000.000 -1.3534545898E-001 -3.4042358398E-002 -5.3205490112E-003 -9.2792510986E-004 -4.5839697123E-005 +3.4663826227E-006 -4.6838760376E-002 +3.8223266602E-002
1237500000.000 -1.3552856445E-001 -3.8139343262E-002 -4.9247741699E-003 +2.2161006927E-003 +8.7317079306E-005 -9.6559524536E-006 -5.8507919312E-002 +3.3893585205E-002
1370000000.000 -1.3596343994E-001 -4.2388916016E-002 -2.8715133667E-003 +4.5287609100E-003 -1.2228265405E-005 +3.8452446461E-005 -7.3974609375E-002 +2.6958465576E-002
1502500000.000 -1.3603973389E-001 -4.6592712402E-002 +1.8787384033E-004 +5.4528713226E-003 -5.0516799092E-005 -4.3490901589E-005 -8.7932586670E-002 +2.1324157715E-002
1635000000.000 -1.3584899902E-001 -5.1651000977E-002 +3.0474662781E-003 +4.3277740479E-003 +3.6178156734E-005 -3.0323863029E-005 -9.9002838135E-002 +1.1684417725E-002
1767500000.000 -1.3652801514E-001 -5.5984497070E-002 +4.9841403961E-003 +1.9128322601E-003 +3.3242627978E-005 +9.5143914223E-006 -1.1190795898E-001 +2.8724670410E-003
1900000000.000 -1.3635253906E-001 -5.9829711914E-002 +5.1472187042E-003 -1.2483596802E-003 +8.6617656052E-006 +7.6871365309E-006 -1.1376571655E-001 -3.4484863281E-003
2032500000.000 -1.3674926758E-001 -6.3812255859E-002 +3.4575462341E-003 -4.0538311005E-003 -7.2073191404E-005 -1.9092112780E-005 -1.1368179321E-001 -2.4406433105E-002
2165000000.000 -1.3673400879E-001 -6.8695068359E-002 +5.9199333191E-004 -5.3012371063E-003 -6.1765313148E-005 +4.7113746405E-005 -1.2243652344E-001 -4.2160034180E-002
2297500000.000 -1.3706207275E-001 -7.2502136230E-002 -2.3474693298E-003 -4.6193599701E-003 +2.3450702429E-006 +5.1777809858E-005 -1.2657165527E-001 -5.3451538086E-002
2430000000.000 -1.3742828369E-001 -7.6515197754E-002 -4.3802261353E-003 -2.4912357330E-003 -9.2137604952E-005 +3.4257769585E-005 -1.2643432617E-001 -6.4689636230E-002
2562500000.000 -1.3784790039E-001 -8.0993652344E-002 -5.1603317261E-003 +3.6191940308E-004 +1.6554445028E-004 +3.7603080273E-005 -1.2527465820E-001 -7.0976257324E-002
2695000000.000 -1.3969421387E-001 -8.4213256836E-002 -3.9913654327E-003 +3.1576156616E-003 -1.2954324484E-004 +1.2801587582E-004 -1.1364746094E-001 -7.3303222656E-002
2827500000.000 -1.4073181152E-001 -8.6730957031E-002 -1.5225410461E-003 +4.7643184662E-003 -1.0073930025E-004 -1.1895969510E-004 -9.8548889160E-002 -8.1726074219E-002
2960000000.000 -1.4060211182E-001 -9.0606689453E-002 +1.4362335205E-003 +4.8642158508E-003 +2.6848167181E-005 -1.1005438864E-005 -8.7913513184E-002 -8.6685180664E-002
3092500000.000 -1.4231109619E-001 -9.5458984375E-002 +4.0240287781E-003 +3.3173561096E-003 +5.9574842453E-005 +8.7752938271E-005 -7.0461273193E-002 -8.5910797119E-002
3225000000.000 -1.4479064941E-001 -9.9075317383E-002 +4.9982070923E-003 +6.3014030457E-004 -1.2782402337E-005 +2.7399510145E-005 -5.1952362061E-002 -9.1041564941E-002
3357500000.000 -1.4596557617E-001 -1.0140228271E-001 +4.5433044434E-003 -2.1324157715E-003 +1.3831257820E-004 +1.5713274479E-005 -4.1446685791E-002 -9.1514587402E-002
3490000000.000 -1.4672851563E-001 -1.0650634766E-001 +2.4023056030E-003 -4.2815208435E-003 -1.8637627363E-005 +8.8308006525E-005 -2.7965545654E-002 -8.3370208740E-002
3622500000.000 -1.4830780029E-001 -1.1128234863E-001 -2.9206275940E-004 -5.0387382507E-003 -1.0145083070E-004 -7.0955604315E-005 -1.1550903320E-002 -7.9143524170E-002
3755000000.000 -1.5071105957E-001 -1.1578369141E-001 -3.1113624573E-003 -4.0071010590E-003 +9.1023743153E-005 +3.8072466850E-006 -5.9547424316E-003 -7.2841644287E-002
3887500000.000 -1.5196228027E-001 -1.1952209473E-001 -4.8656463623E-003 -1.4870166779E-003 +1.7538666725E-005 +6.5363943577E-005 +2.1495819092E-003 -5.5906295776E-002
4020000000.000 -1.5302276611E-001 -1.2316894531E-001 -4.8680305481E-003 +1.6407966614E-003 -9.0457499027E-005 -9.5136463642E-005 +1.3141632080E-002 -4.4475555420E-002
4152500000.000 -1.5408325195E-001 -1.2816619873E-001 -3.2796859741E-003 +3.9763450623E-003 +6.8079680204E-007 +2.5812536478E-005 +1.5253067017E-002 -3.2529830933E-002
4285000000.000 -1.5581512451E-001 -1.3255310059E-001 -4.5895576477E-004 +5.0640106201E-003 +7.6182186604E-005 -2.7429312468E-005 +1.6998291016E-002 -1.3167381287E-002
4417500000.000 -1.5798950195E-001 -1.3630676270E-001 +2.3834705353E-003 +4.4326782227E-003 +3.5857781768E-005 +4.3880194426E-005 +2.5694847107E-002 +3.5600662231E-003
4550000000.000 -1.5848541260E-001 -1.3982391357E-001 +4.4088363647E-003 +2.1557807922E-003 -2.1692365408E-005 -6.1150640249E-005 +2.8934478760E-002 +9.4861984253E-003
4682500000.000 -1.5951538086E-001 -1.4482116699E-001 +4.8372745514E-003 -5.7482719421E-004 +3.7107616663E-005 +2.2863969207E-005 +2.5774002075E-002 +2.0533561707E-002
4815000000.000 -1.6156005859E-001 -1.4910888672E-001 +3.7516355515E-003 -3.0806064606E-003 -2.6457943022E-005 -2.5527551770E-005 +3.1278610229E-002 +2.7360916138E-002
4947500000.000 -1.6233062744E-001 -1.5255737305E-001 +1.4309883118E-003 -4.6796798706E-003 +5.2602961659E-005 -2.4287030101E-005 +2.7614593506E-002 +1.9779205322E-002
5080000000.000 -1.6245269775E-001 -1.5682983398E-001 -1.2814998627E-003 -4.8472881317E-003 -3.8908328861E-006 +2.0244624466E-006 +1.3463973999E-002 +2.0494461060E-002
5212500000.000 -1.6390228271E-001 -1.6127777100E-001 -3.7584304810E-003 -3.3068656921E-003 -4.5644119382E-005 -3.1106173992E-006 +9.3135833740E-003 +2.4681091309E-002
5345000000.000 -1.6575622559E-001 -1.6431427002E-001 -4.9650669098E-003 -6.4563751221E-004 -7.0594251156E-005 -2.6892870665E-005 +5.5465698242E-003 +1.6119956970E-002
5477500000.000 -1.6515350342E-001 -1.6725158691E-001 -4.5232772827E-003 +2.3286342621E-003 +2.2584572434E-005 +7.1916729212E-006 -9.0150833130E-003 +1.0233402252E-002
5610000000.000 -1.6568756104E-001 -1.7168426514E-001 -2.3853778839E-003 +4.4732093811E-003 -1.7479062080E-005 -3.8575381041E-005 -1.4718055725E-002 +1.4461040497E-002
5742500000.000 -1.6784667969E-001 -1.7468261719E-001 +5.1736831665E-004 +5.1503181458E-003 -3.2097101212E-005 -1.1092051864E-005 -1.1392116547E-002 +5.9008598328E-003
5875000000.000 -1.6924285889E-001 -1.7584228516E-001 +3.3088922501E-003 +3.8259029388E-003 +4.5958906412E-005 -3.8631260395E-006 -2.0065307617E-002 -3.3073425293E-003
6007500000.000 -1.6928100586E-001 -1.7858123779E-001 +4.9440860748E-003 +1.3766288757E-003 +3.0873343349E-005 +3.2268464565E-005 -2.3098945618E-002 +2.2125244141E-004
6140000000.000 -1.7070007324E-001 -1.8267059326E-001 +4.7919750214E-003 -1.6438961029E-003 -4.1831284761E-005 -4.2859464884E-006 -1.5248775482E-002 -2.6593208313E-003
6272500000.000 -1.7432403564E-001 -1.8544769287E-001 +3.1816959381E-003 -4.0197372437E-003 -8.8568776846E-006 -2.0189210773E-005 -1.6315460205E-002 -1.1652946472E-002
6405000000.000 -1.7652130127E-001 -1.8582153320E-001 +3.0422210693E-004 -5.0499439240E-003 +4.3027102947E-005 +1.2775883079E-005 -1.9309043884E-002 -6.2294006348E-003
6537500000.000 -1.7652893066E-001 -1.8890380859E-001 -2.6187896729E-003 -4.3523311615E-003 -4.6154484153E-005 +2.5780871511E-005 -9.2449188232E-003 -3.2138824463E-003
6670000000.000 -1.7867279053E-001 -1.9418334961E-001 -4.5895576477E-003 -2.1262168884E-003 +2.6611611247E-005 -2.8278678656E-005 -7.8177452087E-003 -7.1997642517E-003
6802500000.000 -1.8337249756E-001 -1.9686126709E-001 -4.9006938934E-003 +7.0095062256E-004 +4.2784959078E-005 +2.7621164918E-005 -1.1370182037E-002 +1.5735626221E-004
6935000000.000 -1.8540954590E-001 -1.9719696045E-001 -3.6927461624E-003 +3.4390687943E-003 -5.2964314818E-005 +1.6912817955E-006 -6.3676834106E-003 +9.9229812622E-003
7067500000.000 -1.8492889404E-001 -2.0069885254E-001 -1.0414123535E-003 +4.7740936279E-003 -1.3204291463E-005 -4.4917687774E-005 -4.7640800476E-003 +1.0324001312E-002
7200000000.000 -1.8795776367E-001 -2.0606994629E-001 +1.7995834351E-003 +4.6734809875E-003 +4.3496489525E-005 -2.2426247597E-006 -1.5077590942E-002 +1.7096519470E-002
7332500000.000 -1.9230651855E-001 -2.0831298828E-001 +4.0121078491E-003 +2.8252601624E-003 +1.7963349819E-005 +6.8198889494E-005 -1.7147064209E-002 +3.0690193176E-002
7465000000.000 -1.9375610352E-001 -2.1011352539E-001 +4.8918724060E-003 +5.5789947510E-005 +8.8866800070E-006 -3.6252662539E-005 -2.0057678223E-002 +3.1182289124E-002
7597500000.000 -1.9491577148E-001 -2.1448516846E-001 +4.0903091431E-003 -2.6054382324E-003 +5.5622309446E-005 +1.1231750250E-006 -3.6430358887E-002 +3.3317565918E-002
7730000000.000 -1.9776916504E-001 -2.1936798096E-001 +1.8746852875E-003 -4.4500827789E-003 +3.0267983675E-005 +6.2871724367E-005 -4.8233032227E-002 +4.3708801270E-002
7862500000.000 -2.0016479492E-001 -2.2220611572E-001 -8.4590911865E-004 -4.8372745514E-003 +4.1952356696E-005 -3.4771859646E-005 -5.3731918335E-002 +4.2564392090E-002
7995000000.000 -2.0082092285E-001 -2.2481536865E-001 -3.2846927643E-003 -3.5309791565E-003 +2.4661421776E-006 +2.3771077394E-005 -7.2895050049E-002 +3.5190582275E-002
8127500000.000 -2.0195007324E-001 -2.3046112061E-001 -4.6818256378E-003 -9.6988677979E-004 +7.8715384007E-005 +2.6583671570E-005 -9.1350555420E-002 +3.9752960205E-002
8260000000.000 -2.0497894287E-001 -2.3365020752E-001 -4.4703483582E-003 +1.7511844635E-003 -3.2175332308E-005 +4.4481828809E-005 -9.5508575439E-002 +3.4420013428E-002
8392500000.000 -2.0532989502E-001 -2.3646545410E-001 -2.6915073395E-003 +3.9951801300E-003 -6.4086169004E-005 -3.2018870115E-005 -1.0971832275E-001 +1.8543243408E-002
8525000000.000 -2.0523071289E-001 -2.4010467529E-001 -1.4305114746E-005 +4.8193931580E-003 +4.8825517297E-005 +1.9242987037E-005 -1.2191009521E-001 +1.5026092529E-002
8657500000.000 -2.0640563965E-001 -2.4413299561E-001 +2.6490688324E-003 +4.0762424469E-003 +2.2681429982E-005 +1.9409693778E-005 -1.1786270142E-001 +4.3563842773E-003
8790000000.000 -2.0838928223E-001 -2.4753570557E-001 +4.4443607330E-003 +1.8506050110E-003 -3.3648684621E-005 -3.8830563426E-005 -1.1960601807E-001 -1.7391204834E-002
8922500000.000 -2.0903778076E-001 -2.4866485596E-001 +4.8320293427E-003 -1.0573863983E-003 +6.2853097916E-005 -8.5197389126E-006 -1.2230300903E-001 -3.0391693115E-002
9055000000.000 -2.0928955078E-001 -2.5213623047E-001 +3.3470392227E-003 -3.4968852997E-003 -2.2982247174E-005 -8.1425532699E-006 -1.1097717285E-001 -4.3869018555E-002
9187500000.000 -2.1066284180E-001 -2.5469970703E-001 +8.8596343994E-004 -4.7712326050E-003 -2.0692124963E-005 -5.0855800509E-005 -1.0029220581E-001 -6.6619873047E-002
9320000000.000 -2.1412658691E-001 -2.5592041016E-001 -1.9519329071E-003 -4.3964385986E-003 +5.8326870203E-005 -2.5978311896E-005 -9.3738555908E-002 -7.9387664795E-002
9452500000.000 -2.1505737305E-001 -2.5717163086E-001 -4.1487216949E-003 -2.5792121887E-003 +6.2268227339E-005 +4.7057867050E-005 -7.4287414551E-002 -8.6578369141E-002
9585000000.000 -2.1643066406E-001 -2.5952148438E-001 -4.7779083252E-003 +1.2350082397E-004 +1.1267606169E-005 +1.3857614249E-005 -5.4500579834E-002 -1.0103607178E-001
9717500000.000 -2.2012329102E-001 -2.6303100586E-001 -3.8740634918E-003 +2.7210712433E-003 +4.0855258703E-005 +4.1633844376E-005 -4.1477203369E-002 -1.0684204102E-001
9850000000.000 -2.2386169434E-001 -2.6261901855E-001 -1.6450881958E-003 +4.5075416565E-003 -1.6950070858E-006 +1.0083615780E-004 -1.9245147705E-002 -1.0224914551E-001
9982500000.000 -2.2407531738E-001 -2.6509094238E-001 +1.1053085327E-003 +4.6744346619E-003 -2.3929402232E-005 +3.1089410186E-005 +6.2484741211E-003 -1.0331726074E-001
10115000000.000 -2.2642517090E-001 -2.6838684082E-001 +3.4765005112E-003 +3.2944679260E-003 +5.6913122535E-005 -2.8870999813E-005 +1.8936157227E-002 -9.9182128906E-002
10247500000.000 -2.3098754883E-001 -2.7032470703E-001 +4.6114921570E-003 +7.3242187500E-004 +5.4068863392E-005 -3.8716942072E-005 +3.5602569580E-002 -8.0158233643E-002
10380000000.000 -2.3310852051E-001 -2.7130126953E-001 +4.3118000031E-003 -1.9972324371E-003 -3.4205615520E-005 -9.9595636129E-006 +5.6938171387E-002 -6.7813873291E-002
10512500000.000 -2.3504638672E-001 -2.7339172363E-001 +2.4325847626E-003 -3.9558410645E-003 -3.0685216188E-005 -2.6475638151E-005 +6.2522888184E-002 -5.6236267090E-002
10645000000.000 -2.3739624023E-001 -2.7589416504E-001 -2.8610229492E-004 -4.7650337219E-003 +3.4943223000E-006 +6.5192580223E-005 +6.5982818604E-002 -2.9464721680E-002
10777500000.000 -2.4069213867E-001 -2.7842712402E-001 -2.8988122940E-003 -3.8104057312E-003 -2.4577602744E-005 +3.9871782064E-005 +7.7095031738E-002 -8.1138610840E-003
10910000000.000 -2.4349975586E-001 -2.8044128418E-001 -4.4560432434E-003 -1.5285015106E-003 -2.7954578400E-005 -5.1200389862E-005 +7.2296142578E-002 +5.1727294922E-003
11042500000.000 -2.4678039551E-001 -2.8276062012E-001 -4.5495033264E-003 +1.2323856354E-003 +4.6297907829E-005 -1.8296763301E-005 +5.9700012207E-002 +3.0977249146E-002
11175000000.000 -2.4894714355E-001 -2.8633117676E-001 -3.1069517136E-003 +3.4995079041E-003 -4.1883438826E-005 +8.0157071352E-005 +5.6686401367E-002 +5.2179336548E-002
11307500000.000 -2.5042724609E-001 -2.8843688965E-001 -5.2618980408E-004 +4.6696662903E-003 +1.5832483768E-006 -5.4769217968E-005 +4.3800354004E-002 +5.8313369751E-002
11440000000.000 -2.5396728516E-001 -2.9132080078E-001 +2.0987987518E-003 +4.0893554688E-003 +7.8205019236E-005 -4.9982219934E-005 +1.8386840820E-002 +7.1876525879E-002
11572500000.000 -2.5473022461E-001 -2.9507446289E-001 +4.0581226349E-003 +2.2614002228E-003 +2.0489096642E-005 +3.5537406802E-005 +4.7416687012E-003 +8.7165832520E-002
11705000000.000 -2.5631713867E-001 -2.9743957520E-001 +4.6160221100E-003 -4.0864944458E-004 -6.6529959440E-005 -2.9541552067E-005 -9.7579956055E-003 +8.0863952637E-002
11837500000.000 -2.5901794434E-001 -3.0014038086E-001 +3.5634040833E-003 -2.8947591782E-003 +2.2205524147E-005 -2.0811334252E-005 -4.2652130127E-002 +7.6591491699E-002
11970000000.000 -2.5946044922E-001 -3.0119323730E-001 +1.3704299927E-003 -4.4486522675E-003 -1.6648322344E-005 -3.4600496292E-005 -5.9032440186E-002 +8.3148956299E-002
12102500000.000 -2.5863647461E-001 -3.0426025391E-001 -1.3763904572E-003 -4.3487548828E-003 -9.1895461082E-005 +2.0042061806E-006 -6.5055847168E-002 +6.4426422119E-002
12235000000.000 -2.6307678223E-001 -3.0545043945E-001 -3.6134719849E-003 -2.8502941132E-003 +5.5294483900E-005 -5.9869140387E-005 -9.2514038086E-002 +4.4189453125E-002
12367500000.000 -2.6255798340E-001 -3.0609130859E-001 -4.6396255493E-003 -4.3892860413E-004 +4.6471133828E-005 +3.1340867281E-005 -1.0508728027E-001 +4.2884826660E-002
12500000000.000 -2.6519775391E-001 -3.0657958984E-001 -3.9006471634E-003 +2.1657943726E-003 -4.8451125622E-005 +3.3788383007E-005 -9.7080230713E-002 +2.0614624023E-002
12632500000.000 -2.6631164551E-001 -3.0966186523E-001 -2.0270347595E-003 +4.1062831879E-003 -1.5464611351E-006 -1.4538411051E-005 -1.0923385620E-001 -1.3195037842E-002
12765000000.000 -2.6800537109E-001 -3.1015014648E-001 +5.8841705322E-004 +4.5239925385E-003 +5.8306381106E-005 -2.9196962714E-005 -1.1716079712E-001 -1.7627716064E-002
12897500000.000 -2.6969909668E-001 -3.0986022949E-001 +2.8470754623E-003 +3.3501386642E-003 +2.7557834983E-005 -2.9455870390E-005 -9.2220306396E-002 -3.4362792969E-002
13030000000.000 -2.7104187012E-001 -3.1089782715E-001 +4.4155120850E-003 +1.1208057404E-003 -9.9543482065E-005 -5.2880495787E-005 -8.9626312256E-002 -7.0758819580E-002
13162500000.000 -2.7304077148E-001 -3.1280517578E-001 +4.2345523834E-003 -1.4431476593E-003 -2.8372742236E-006 -1.4338642359E-005 -9.1846466064E-002 -7.2265625000E-002
13295000000.000 -2.7503967285E-001 -3.1434631348E-001 +2.6987791061E-003 -3.6026239395E-003 +2.6442110538E-005 +4.0255486965E-005 -6.1363220215E-002 -7.8403472900E-002
13427500000.000 -2.7825927734E-001 -3.1369018555E-001 +2.6941299438E-004 -4.5256614685E-003 -7.8078359365E-005 -2.9232352972E-005 -4.7115325928E-002 -1.0409164429E-001
13560000000.000 -2.7790832520E-001 -3.1439208984E-001 -2.2555589676E-003 -3.8138628006E-003 +5.0324946642E-005 +1.0931864381E-005 -4.6787261963E-002 -1.0134124756E-001
13692500000.000 -2.7980041504E-001 -3.1741333008E-001 -4.0593147278E-003 -1.8699169159E-003 +1.6479752958E-005 +1.3118609786E-005 -1.8047332764E-002 -8.9176177979E-002
13825000000.000 -2.8372192383E-001 -3.1875610352E-001 -4.4710636139E-003 +6.2322616577E-004 -1.1323392391E-004 +6.3408166170E-005 +4.1007995605E-003 -1.0317993164E-001
13957500000.000 -2.8596496582E-001 -3.1774902344E-001 -3.3059120178E-003 +2.9668807983E-003 -9.2443078756E-005 -3.4570693970E-005 -3.5858154297E-004 -9.5767974854E-002
14090000000.000 -2.8607177734E-001 -3.1909179688E-001 -9.3436241150E-004 +4.2603015900E-003 -1.9706785679E-006 -3.6850571632E-005 +2.1686553955E-002 -7.0259094238E-002
14222500000.000 -2.8694152832E-001 -3.2305908203E-001 +1.5330314636E-003 +4.2586326599E-003 -1.6912817955E-006 +4.6616420150E-005 +4.3853759766E-002 -7.4371337891E-002
14355000000.000 -2.9147338867E-001 -3.2403564453E-001 +3.7140846252E-003 +2.3691654205E-003 -8.2369893789E-005 -4.9158930779E-005 +3.3096313477E-002 -6.7253112793E-002
14487500000.000 -2.9324340820E-001 -3.2479858398E-001 +4.5137405396E-003 +8.1062316895E-005 -2.2710300982E-006 +1.4404300600E-005 +4.0119171143E-002 -3.4189224243E-002
14620000000.000 -2.9286193848E-001 -3.2696533203E-001 +3.6600828171E-003 -2.4333000183E-003 -2.0638108253E-006 -1.7195008695E-005 +6.0977935791E-002 -3.1480789185E-002
14752500000.000 -2.9586791992E-001 -3.3187866211E-001 +1.5864372253E-003 -3.9529800415E-003 +2.6347115636E-005 -7.0501118898E-006 +4.3327331543E-002 -3.2373428345E-002
14885000000.000 -2.9832458496E-001 -3.3377075195E-001 -8.5949897766E-004 -4.2555332184E-003 +4.8832967877E-005 -2.8355047107E-005 +3.5768508911E-002 +1.2969970703E-003
15017500000.000 -2.9856872559E-001 -3.3543395996E-001 -3.1446218491E-003 -2.9395818710E-003 -1.1060386896E-005 +8.3491206169E-005 +5.3169250488E-002 +8.5716247559E-003
15150000000.000 -2.9893493652E-001 -3.3984375000E-001 -4.2641162872E-003 -6.7090988159E-004 -1.3235956430E-004 -2.2523105145E-005 +3.5209655762E-002 -1.4877319336E-003
15282500000.000 -2.9977416992E-001 -3.4301757813E-001 -3.8551092148E-003 +1.8292665482E-003 +1.7631798983E-005 -3.9495527744E-005 +1.4879226685E-002 +2.3502349854E-002
