!  2-Port S-parameters saved by WinCal
! VAR MeasName=S-Parameters (CALIBRATED_DATA) read from VNA (C)
! VAR MeasDate=9/29/2015 4:35:10 PM
! VAR NAME=M6082_19_17_2_2_20C_1.8mA_-17.5dBm
! VAR FILENAME=M6082_19_17_2_2_20C_1.8mA_-17.5dBm.S2P
! VAR DATE=9/29/2015 4:35:10 PM
! VAR PHYS_PORTS=2,1
! VAR ObjTypeName=DATASET
! VAR IndexType=Frequency
!
# Hz S DB R 50
45000000.000 -1.7846622088E+001 -4.1930486712E+000 -6.3227923503E+001 +1.7405411180E+002 -6.2462915519E+001 -4.6427047498E+001 -3.1060263702E+001 +9.0649850621E+000
177500000.000 -1.7336286231E+001 -7.7406815728E+000 -5.7247655825E+001 +7.0239415510E+001 -6.8518855956E+001 +1.4473941042E+002 -3.2689229036E+001 +4.5694409830E+001
310000000.000 -1.7224944111E+001 -1.3870638060E+001 -5.6492628912E+001 +3.9414884287E+001 -7.5106428531E+001 -1.5092037591E+002 -2.3330772415E+001 +6.4265430586E+001
442500000.000 -1.7476718384E+001 -1.7527209165E+001 -5.6654084567E+001 -2.3239461028E+000 -8.6845923115E+001 +2.4508253240E+001 -2.2402426168E+001 +1.6806076388E+001
575000000.000 -1.7642192033E+001 -2.1770780789E+001 -5.7316394584E+001 -4.2497508730E+001 -8.6550034196E+001 -1.6300284882E+002 -3.0642794621E+001 +2.2268201702E+001
707500000.000 -1.7564586028E+001 -2.6134524912E+001 -5.7746570240E+001 -7.5766302445E+001 -9.2347678831E+001 -1.3474358879E+002 -3.4675289098E+001 +8.3462049151E+001
840000000.000 -1.7586863280E+001 -2.9866646786E+001 -5.7208632009E+001 -1.1260252961E+002 -8.4673326356E+001 -1.0586196317E+001 -2.9655561542E+001 +1.2786638993E+002
972500000.000 -1.7300658769E+001 -3.3720721945E+001 -5.7277208241E+001 -1.5114929116E+002 -8.7682649248E+001 +9.9076087293E+001 -2.5940551159E+001 +1.3499693736E+002
1105000000.000 -1.7150487328E+001 -3.7500918293E+001 -5.7347289559E+001 +1.7491537925E+002 -8.3030993117E+001 -1.5497908510E+002 -2.4399492675E+001 +1.4090033512E+002
1237500000.000 -1.6906006674E+001 -4.0885696698E+001 -5.7409089093E+001 +1.4259890648E+002 -9.0226927727E+001 +1.0301746604E+002 -2.3398602458E+001 +1.5006708756E+002
1370000000.000 -1.6644594557E+001 -4.4417094819E+001 -5.7930316267E+001 +1.0351279432E+002 -8.7930930889E+001 +1.0483222680E+002 -2.2060100173E+001 +1.5990184947E+002
1502500000.000 -1.6576840634E+001 -4.6893842054E+001 -5.7263206478E+001 +7.3132711734E+001 -8.7333177537E+001 -2.9844343414E+001 -2.0863166824E+001 +1.6624596197E+002
1635000000.000 -1.6172183157E+001 -5.0021527375E+001 -5.7376530553E+001 +3.1965774014E+001 -8.3958849593E+001 +4.9095963602E+001 -2.0015054823E+001 +1.7323861579E+002
1767500000.000 -1.5934257813E+001 -5.2920423161E+001 -5.7761471586E+001 -2.9783862927E+000 -9.2613304471E+001 -1.0532407721E+001 -1.9008711395E+001 +1.7839304976E+002
1900000000.000 -1.5952662737E+001 -5.4412895494E+001 -5.6773521970E+001 -3.4564205768E+001 -8.5996690992E+001 +1.7211433054E+002 -1.8875297356E+001 -1.7835031605E+002
2032500000.000 -1.5759864863E+001 -5.6532420454E+001 -5.6850059160E+001 -6.9854474797E+001 -8.5105537808E+001 +8.8720589236E+000 -1.8677121106E+001 -1.6801902709E+002
2165000000.000 -1.5488703149E+001 -5.8369499033E+001 -5.6794539487E+001 -1.0595447724E+002 -8.7055047050E+001 +1.2045408562E+002 -1.7754633678E+001 -1.6117169562E+002
2297500000.000 -1.5415150027E+001 -6.0428464565E+001 -5.6840318562E+001 -1.4454399825E+002 -7.8687015897E+001 +1.5714186806E+002 -1.7249630250E+001 -1.5717360684E+002
2430000000.000 -1.5252423513E+001 -6.2295205668E+001 -5.7122266622E+001 -1.7184666461E+002 -7.7906303224E+001 +1.4839535464E+002 -1.6912897302E+001 -1.5309651633E+002
2562500000.000 -1.4928373203E+001 -6.4331212701E+001 -5.6298278853E+001 +1.5439839902E+002 -9.6692842154E+001 +1.0546555472E+002 -1.6832168703E+001 -1.5081272334E+002
2695000000.000 -1.4822126437E+001 -6.6753026072E+001 -5.7013578193E+001 +1.2298285594E+002 -8.2032785381E+001 +1.4097286753E+002 -1.7400939628E+001 -1.4734052144E+002
2827500000.000 -1.4699895754E+001 -6.8670433150E+001 -5.5975294268E+001 +8.3964002216E+001 -1.0240446738E+002 +6.8194669771E+001 -1.7824163191E+001 -1.4033471424E+002
2960000000.000 -1.4400286052E+001 -7.0240927545E+001 -5.6280279841E+001 +4.6041798316E+001 -8.0204990192E+001 +6.6992810797E+001 -1.8111805312E+001 -1.3591901170E+002
3092500000.000 -1.4155900166E+001 -7.2182248689E+001 -5.5356524619E+001 +1.5146664590E+001 -8.4280356909E+001 +1.3013839235E+002 -1.9127204389E+001 -1.2969496992E+002
3225000000.000 -1.3982707510E+001 -7.4245319021E+001 -5.5641968766E+001 -1.9286338032E+001 -8.5076293815E+001 +1.7399069341E+002 -1.9580765995E+001 -1.1964387666E+002
3357500000.000 -1.3788452932E+001 -7.5359606413E+001 -5.6603770308E+001 -4.9260405639E+001 -8.0028149843E+001 -1.0372203106E+002 -1.9886000662E+001 -1.1466711533E+002
3490000000.000 -1.3492700558E+001 -7.6640912535E+001 -5.5587161356E+001 -8.4992344641E+001 -8.9848396435E+001 +9.6651130945E+001 -2.1135576708E+001 -1.0910372239E+002
3622500000.000 -1.3207565442E+001 -7.8044497550E+001 -5.4913488825E+001 -1.3186439563E+002 -7.9631534090E+001 -1.6243520982E+002 -2.1964578087E+001 -9.8260706478E+001
3755000000.000 -1.2856627901E+001 -7.9299526020E+001 -5.4963085546E+001 -1.6161282436E+002 -7.8069894928E+001 -9.7018171987E+001 -2.2619725635E+001 -9.4970764717E+001
3887500000.000 -1.2430977492E+001 -8.0331131027E+001 -5.5115373855E+001 +1.5405638017E+002 -8.0486013270E+001 +4.5351150927E+001 -2.5020104339E+001 -8.8870167478E+001
4020000000.000 -1.2117062251E+001 -8.1366753648E+001 -5.4718721565E+001 +1.1249400763E+002 -8.1186771931E+001 -1.2352108194E+002 -2.6729078462E+001 -7.3574460360E+001
4152500000.000 -1.1678326093E+001 -8.2739364715E+001 -5.4897472172E+001 +7.4045740353E+001 -8.3406332902E+001 +1.7608883229E+002 -2.8751609256E+001 -6.4953089610E+001
4285000000.000 -1.1273985769E+001 -8.4787311014E+001 -5.5705003221E+001 +2.5625157907E+001 -8.0730302716E+001 +1.1814882482E+001 -3.3393316691E+001 -3.9723171640E+001
4417500000.000 -1.1007459840E+001 -8.6694796383E+001 -5.5991667214E+001 -1.3344431505E+001 -8.1008946712E+001 +1.0221079146E+002 -3.1862619216E+001 +7.6625601784E+000
4550000000.000 -1.0786162791E+001 -8.8053540578E+001 -5.5441394149E+001 -5.6434342128E+001 -8.0166840142E+001 -1.4474434585E+002 -3.0327991947E+001 +1.7327798443E+001
4682500000.000 -1.0534252462E+001 -9.0023520434E+001 -5.6463275494E+001 -9.4623401738E+001 -9.3118286836E+001 +4.4018557250E+000 -2.9780681753E+001 +3.7812772633E+001
4815000000.000 -1.0352338316E+001 -9.1857357051E+001 -5.6598260372E+001 -1.3232695056E+002 -8.0915431430E+001 +4.3472049863E+001 -2.7706690735E+001 +4.0559267423E+001
4947500000.000 -1.0217828112E+001 -9.2963767226E+001 -5.6881099384E+001 -1.7185944240E+002 -9.0835986686E+001 -1.2680858697E+002 -2.9426494128E+001 +3.4788349256E+001
5080000000.000 -1.0072719131E+001 -9.4174404569E+001 -5.7499561907E+001 +1.5250611995E+002 -8.3546684399E+001 +1.3616498824E+001 -3.2358770181E+001 +5.6242025652E+001
5212500000.000 -9.9279775207E+000 -9.5547171973E+001 -5.8031257768E+001 +1.1533037750E+002 -8.9635625980E+001 +1.4312330635E+002 -3.1659104592E+001 +6.8595926650E+001
5345000000.000 -9.8322626473E+000 -9.6514182315E+001 -5.7249296000E+001 +7.7036154200E+001 -9.1559889583E+001 -1.7225229602E+002 -3.5525680554E+001 +6.8992722975E+001
5477500000.000 -9.7490218558E+000 -9.7320241412E+001 -5.7877179860E+001 +4.3827349100E+001 -8.6620769697E+001 -5.1344478026E+001 -3.7493392085E+001 +1.3242530814E+002
5610000000.000 -9.6345434999E+000 -9.8235067025E+001 -5.8184330770E+001 +3.2742027724E+000 -8.3519298139E+001 +7.8966262229E+001 -3.3736697608E+001 +1.3515310900E+002
5742500000.000 -9.5417328759E+000 -9.9184229307E+001 -5.8823643203E+001 -3.1463498138E+001 -9.0937696032E+001 -7.1435463284E+001 -3.8205657805E+001 +1.5202960183E+002
5875000000.000 -9.4843653886E+000 -9.9966023454E+001 -5.8525945607E+001 -6.3749438954E+001 -9.0012102495E+001 -1.0285175127E+002 -3.3903394556E+001 -1.6904061950E+002
6007500000.000 -9.4371002311E+000 -1.0073314710E+002 -5.9208413623E+001 -1.0190118216E+002 -8.6785943562E+001 -1.5137875017E+002 -3.2743113625E+001 +1.7970142674E+002
6140000000.000 -9.3326890143E+000 -1.0142240301E+002 -5.9270955796E+001 -1.3674774317E+002 -8.3754684001E+001 +1.6553463646E+002 -3.6402927639E+001 -1.7035006774E+002
6272500000.000 -9.2230875548E+000 -1.0240870244E+002 -5.8546188418E+001 -1.6777167763E+002 -9.4613950895E+001 -4.1858672454E+001 -3.4074620576E+001 -1.4328091817E+002
6405000000.000 -9.2058552479E+000 -1.0348915807E+002 -5.9388213063E+001 +1.5061832005E+002 -9.3142628530E+001 -1.1033399275E+002 -3.3893432787E+001 -1.6136744196E+002
6537500000.000 -9.1541710287E+000 -1.0397297895E+002 -5.9509596947E+001 +1.1918580158E+002 -9.1997873783E+001 -1.1940611260E+002 -4.0156895059E+001 -1.6238144582E+002
6670000000.000 -9.0176278226E+000 -1.0458597288E+002 -5.9395269738E+001 +8.6430024051E+001 -9.7092136250E+001 -1.7679507378E+002 -3.9867074833E+001 -1.3846566843E+002
6802500000.000 -8.9183316213E+000 -1.0575394463E+002 -5.9900180769E+001 +4.6943589195E+001 -9.5901593218E+001 +8.7199269074E+001 -3.9317167523E+001 +1.7871440160E+002
6935000000.000 -8.9369690002E+000 -1.0674680775E+002 -6.0532420559E+001 +1.3172741479E+001 -9.7679792614E+001 -7.3831548726E+001 -3.8555181689E+001 +1.2417193231E+002
7067500000.000 -8.8524190444E+000 -1.0693406264E+002 -6.0870624917E+001 -2.0467233806E+001 -8.5147056505E+001 -9.6000418233E+001 -3.8377225077E+001 +1.1509110616E+002
7200000000.000 -8.7054974896E+000 -1.0748133765E+002 -5.9808082770E+001 -5.6232571522E+001 -8.8745344852E+001 -1.3071028028E+002 -3.2797587149E+001 +1.2998753454E+002
7332500000.000 -8.6406598483E+000 -1.0863979468E+002 -6.0699623108E+001 -9.1506705442E+001 -8.8454530054E+001 +1.2907515562E+002 -2.9191937025E+001 +1.1909711609E+002
7465000000.000 -8.6048977881E+000 -1.0918993346E+002 -6.0248340864E+001 -1.3007013691E+002 -8.4286616757E+001 -3.2512756629E+001 -2.8541613585E+001 +1.2334851157E+002
7597500000.000 -8.4983666557E+000 -1.0945435481E+002 -6.1106839250E+001 -1.5954361412E+002 -8.5779724820E+001 +5.2410423110E+000 -2.6032037596E+001 +1.3688213721E+002
7730000000.000 -8.3884512387E+000 -1.1007787247E+002 -6.0822575330E+001 +1.6331172353E+002 -8.8231988454E+001 +7.7466414109E+001 -2.3777404681E+001 +1.3766896300E+002
7862500000.000 -8.3366665385E+000 -1.1073986988E+002 -6.1566050310E+001 +1.2947069561E+002 -9.5356975427E+001 -1.2204266777E+002 -2.3273289214E+001 +1.4209204342E+002
7995000000.000 -8.2817231202E+000 -1.1101324413E+002 -6.1277905698E+001 +9.9916648762E+001 -8.9964846075E+001 -1.2792672057E+002 -2.1764633117E+001 +1.5410085636E+002
8127500000.000 -8.1508210770E+000 -1.1117483839E+002 -6.2273317785E+001 +6.1880143828E+001 -8.6097015983E+001 +5.6272905041E+001 -2.0042331342E+001 +1.5634458954E+002
8260000000.000 -8.0978834560E+000 -1.1193750764E+002 -6.2617466889E+001 +2.8310760322E+001 -8.7897569088E+001 +7.5332759933E+001 -1.9858378733E+001 +1.6048720564E+002
8392500000.000 -8.0421975200E+000 -1.1210178155E+002 -6.2778547073E+001 -5.0381800765E+000 -9.4412985728E+001 +8.1269293033E+000 -1.9047256758E+001 +1.7036734393E+002
8525000000.000 -7.9732509986E+000 -1.1218722150E+002 -6.2828150936E+001 -4.5316030717E+001 -8.7112969887E+001 -3.5232947311E+001 -1.8230640902E+001 +1.7296144759E+002
8657500000.000 -7.8940187663E+000 -1.1253542442E+002 -6.4052165340E+001 -7.8334993619E+001 -8.4777380132E+001 +1.4133181399E+002 -1.8560471110E+001 +1.7811632725E+002
8790000000.000 -7.8277499929E+000 -1.1289130094E+002 -6.3984539315E+001 -1.0809665239E+002 -9.3587707273E+001 +6.8526321564E+001 -1.8347707711E+001 -1.7184076446E+002
8922500000.000 -7.8058319075E+000 -1.1320366618E+002 -6.4244590460E+001 -1.4368181460E+002 -1.0092254657E+002 -3.6888293154E+001 -1.8023112563E+001 -1.6592407013E+002
9055000000.000 -7.7468651455E+000 -1.1325796610E+002 -6.3782060847E+001 -1.7275451689E+002 -8.8942228750E+001 +1.3773917416E+002 -1.8424037450E+001 -1.5809771121E+002
9187500000.000 -7.6959471778E+000 -1.1363156329E+002 -6.5767840759E+001 +1.5289421473E+002 -8.6970128450E+001 -1.3963500988E+002 -1.8367114614E+001 -1.4664145506E+002
9320000000.000 -7.6441172525E+000 -1.1431712919E+002 -6.4665878318E+001 +1.1975901561E+002 -9.1222893824E+001 +3.8929810352E+001 -1.8257077490E+001 -1.3953293042E+002
9452500000.000 -7.6247392771E+000 -1.1460826926E+002 -6.5431772755E+001 +9.0022338779E+001 -8.8428751666E+001 +9.8713615267E+001 -1.8816958881E+001 -1.3016456404E+002
9585000000.000 -7.5743458329E+000 -1.1483385018E+002 -6.5452290201E+001 +4.7897590274E+001 -8.8775482115E+001 +1.0728768356E+001 -1.8764783406E+001 -1.1860803868E+002
9717500000.000 -7.4848241414E+000 -1.1535897318E+002 -6.5429208739E+001 +2.3506070834E+001 -1.0260823427E+002 +1.4640879709E+001 -1.8885926896E+001 -1.1107201890E+002
9850000000.000 -7.4634661858E+000 -1.1622066758E+002 -6.6847295326E+001 -1.5851236728E+001 -8.3671949533E+001 +5.1566323314E+001 -1.9619059768E+001 -1.0005487610E+002
9982500000.000 -7.4354463947E+000 -1.1630644564E+002 -6.5682479282E+001 -5.5817978895E+001 -8.2542466011E+001 +9.5997478054E+001 -1.9644027832E+001 -8.6857873883E+001
10115000000.000 -7.3554044480E+000 -1.1655866816E+002 -6.7787627926E+001 -9.1276703110E+001 -9.0343192509E+001 -3.7653895112E+001 -1.9988779588E+001 -7.9160971755E+001
10247500000.000 -7.2776560285E+000 -1.1728173073E+002 -6.5313749158E+001 -1.2011525819E+002 -8.5597140335E+001 +5.0388339690E+001 -2.1134938661E+001 -6.5301054515E+001
10380000000.000 -7.2624023665E+000 -1.1786696285E+002 -6.6832893590E+001 -1.5885385633E+002 -8.3770694190E+001 +1.4563554084E+002 -2.1004536200E+001 -5.0083217807E+001
10512500000.000 -7.2246726286E+000 -1.1809942475E+002 -6.6923972789E+001 +1.6086401879E+002 -9.1078638685E+001 -8.9700044843E+001 -2.1581049243E+001 -4.2025703835E+001
10645000000.000 -7.1516977044E+000 -1.1834500169E+002 -6.7225671287E+001 +1.3101578038E+002 -8.4030138497E+001 +1.1610355218E+000 -2.2820405808E+001 -2.3276817278E+001
10777500000.000 -7.0812730518E+000 -1.1891855362E+002 -6.8286805856E+001 +1.0143121574E+002 -8.4827459228E+001 +1.5099635502E+002 -2.2136759050E+001 -6.0602144903E+000
10910000000.000 -7.0314926566E+000 -1.1944592536E+002 -7.0185595539E+001 +6.3957958119E+001 -8.3949704653E+001 -1.0214831528E+002 -2.2820015710E+001 +4.2435432425E+000
11042500000.000 -6.9833946865E+000 -1.1975457335E+002 -6.8627514854E+001 +2.1923838923E+001 -9.4822739226E+001 -1.4160490071E+002 -2.3425940537E+001 +2.8164707438E+001
11175000000.000 -6.9048002370E+000 -1.1993913772E+002 -6.9408775652E+001 +1.8995733489E+000 -8.9894995391E+001 +7.6628508494E+001 -2.2231742050E+001 +4.2773363478E+001
11307500000.000 -6.8547161089E+000 -1.2024743155E+002 -6.9370012856E+001 -4.2344629899E+001 -8.4658462505E+001 -1.0013756595E+002 -2.2759050934E+001 +5.3389550448E+001
11440000000.000 -6.7995146293E+000 -1.2075219355E+002 -6.9601532975E+001 -8.1244426698E+001 -8.3701444680E+001 -1.6028006358E+001 -2.2548261278E+001 +7.5922527860E+001
11572500000.000 -6.7284297094E+000 -1.2071715528E+002 -6.9829022922E+001 -9.9749122941E+001 -8.9488186969E+001 +6.4954082086E+001 -2.1175785448E+001 +8.6945518166E+001
11705000000.000 -6.6859530149E+000 -1.2096861268E+002 -7.0464088505E+001 -1.3841553804E+002 -9.3702064075E+001 +1.2511650333E+002 -2.1770874561E+001 +9.7490333780E+001
11837500000.000 -6.6214279502E+000 -1.2120830256E+002 -7.1493992192E+001 -1.6857309902E+002 -9.2090775250E+001 -7.1920760790E+001 -2.1067050557E+001 +1.1915326029E+002
11970000000.000 -6.6085648260E+000 -1.2134078356E+002 -7.0588851183E+001 +1.6282143636E+002 -8.6344520006E+001 +8.3200077801E+001 -1.9865943795E+001 +1.2535328995E+002
12102500000.000 -6.5824084630E+000 -1.2140843165E+002 -7.0479418740E+001 +1.3856205109E+002 -8.0174004684E+001 +1.4175850346E+002 -2.0748960065E+001 +1.3607825461E+002
12235000000.000 -6.5184265462E+000 -1.2166621487E+002 -7.0921694986E+001 +1.0406464015E+002 -8.6403250677E+001 -8.2249702016E+001 -1.9690272854E+001 +1.5431123103E+002
12367500000.000 -6.5166873714E+000 -1.2189215408E+002 -7.1432295452E+001 +5.8666577270E+001 -8.5363300636E+001 +2.5535906947E+000 -1.8939908357E+001 +1.5756704189E+002
12500000000.000 -6.5041668126E+000 -1.2236457082E+002 -7.0576344776E+001 +3.7292856284E+001 -9.3215216299E+001 -4.5060469546E+001 -2.0075898900E+001 +1.6898972575E+002
12632500000.000 -6.4644794816E+000 -1.2239511919E+002 -7.1622336719E+001 -8.7753579399E+000 -8.5524966100E+001 -8.5677524247E+001 -1.9063527140E+001 -1.7322814450E+002
12765000000.000 -6.4255437978E+000 -1.2261029355E+002 -6.9239007530E+001 -3.6749690659E+001 -8.1147424114E+001 +1.6188979875E+001 -1.8584587302E+001 -1.7178060696E+002
12897500000.000 -6.4305443986E+000 -1.2304592198E+002 -7.1556538104E+001 -7.2308606385E+001 -8.4245871498E+001 +7.6278154930E+001 -2.0173449233E+001 -1.5867641348E+002
13030000000.000 -6.4162138829E+000 -1.2325762795E+002 -7.2018836960E+001 -1.0615828776E+002 -8.3782928824E+001 -1.1738620445E+002 -1.8738626908E+001 -1.4158786861E+002
13162500000.000 -6.3732001665E+000 -1.2349915974E+002 -7.0806697416E+001 -1.3271910251E+002 -8.6758825777E+001 -1.7555308239E+001 -1.8690259169E+001 -1.4208792210E+002
13295000000.000 -6.3374114276E+000 -1.2373281993E+002 -7.1821328282E+001 -1.7120497886E+002 -9.8620448738E+001 -1.6353338676E+002 -2.0087795916E+001 -1.2717281813E+002
13427500000.000 -6.3210755181E+000 -1.2419762080E+002 -7.3304439621E+001 +1.4519743184E+002 -9.7085854697E+001 +1.4778937894E+002 -1.8761822111E+001 -1.1413087135E+002
13560000000.000 -6.3311375687E+000 -1.2412884709E+002 -7.2874674193E+001 +1.0199223420E+002 -8.6852425652E+001 -1.7148189454E+002 -1.9055898097E+001 -1.1495944955E+002
13692500000.000 -6.2726006460E+000 -1.2437502800E+002 -7.7006830456E+001 +5.3887460401E+001 -8.9692022344E+001 +1.1717104794E+002 -2.0857203005E+001 -1.0089217836E+002
13825000000.000 -6.2302263383E+000 -1.2474284780E+002 -7.2010813873E+001 +2.6849655721E+001 -9.3627914845E+001 -8.5285298132E+001 -1.9700175113E+001 -8.7585839114E+001
13957500000.000 -6.2377306576E+000 -1.2519734632E+002 -7.4768131177E+001 +1.0304637412E+001 -8.8430672115E+001 +7.3443220537E+001 -2.0401894503E+001 -9.0160241884E+001
14090000000.000 -6.2242092816E+000 -1.2518705518E+002 -7.5219711550E+001 -2.8594740174E+001 -7.6107762345E+001 +5.9652675498E+001 -2.2618890779E+001 -7.2369585678E+001
14222500000.000 -6.1765860707E+000 -1.2522974129E+002 -7.1308569386E+001 -4.9921143240E+001 -7.7297874404E+001 +1.7623169454E+002 -2.1274608157E+001 -5.9643538189E+001
14355000000.000 -6.1126639625E+000 -1.2575687021E+002 -7.7092696041E+001 -8.7454720936E+001 -7.9317919084E+001 -7.9928122903E+001 -2.2566746683E+001 -6.3264191618E+001
14487500000.000 -6.0985288746E+000 -1.2597924988E+002 -7.7464551659E+001 -1.3049789899E+002 -8.8673065543E+001 -4.7805226993E+001 -2.5393817707E+001 -4.0012820213E+001
14620000000.000 -6.0845680488E+000 -1.2586898904E+002 -7.8442531838E+001 -1.4662116892E+002 -7.6536087038E+001 -1.7902873531E+002 -2.3295877389E+001 -2.8208808790E+001
14752500000.000 -6.0000812018E+000 -1.2590066125E+002 -7.1871660011E+001 -1.6347173381E+002 -7.6793329708E+001 -7.9893381546E+001 -2.5521967207E+001 -3.5982461947E+001
14885000000.000 -5.9560819590E+000 -1.2619300233E+002 -7.4078190405E+001 +1.5755234504E+002 -8.6742959795E+001 -1.4514995798E+001 -2.8606483128E+001 +2.7002687324E+000
15017500000.000 -5.9253182567E+000 -1.2604492034E+002 -8.8402826180E+001 +1.0077300161E+002 -7.8730674398E+001 +7.2805611530E+001 -2.5408980862E+001 +7.6576418321E+000
15150000000.000 -5.8737671511E+000 -1.2595557848E+002 -7.4449646013E+001 +8.9517814718E+001 -8.9458352487E+001 -1.2663303738E+002 -2.9420525724E+001 -1.9497554207E+000
15282500000.000 -5.8357898619E+000 -1.2593286149E+002 -7.3298080956E+001 +5.0109784778E+001 -7.9099796612E+001 -1.7240952412E+001 -3.0682292599E+001 +5.7733089037E+001
