!  2-Port S-parameters saved by WinCal
! VAR MeasName=S-Parameters (CALIBRATED_DATA) read from VNA (C)
! VAR MeasDate=9/29/2015 4:40:08 PM
! VAR NAME=M6082_19_17_2_2_20C_6.2mA_-17.5dBm
! VAR FILENAME=M6082_19_17_2_2_20C_6.2mA_-17.5dBm.S2P
! VAR DATE=9/29/2015 4:40:08 PM
! VAR PHYS_PORTS=2,1
! VAR ObjTypeName=DATASET
! VAR IndexType=Frequency
!
# Hz S DB R 50
45000000.000 -2.8322701312E+001 +1.7986609832E+002 -5.3683934903E+001 +1.0210167338E+002 -6.2836215285E+001 +1.7123188340E+002 -3.0517477337E+001 +5.2102028513E+000
177500000.000 -2.8067564563E+001 -1.7067730462E+002 -5.4236917835E+001 +7.1779753602E+001 -8.0134379446E+001 -8.6355786071E+001 -3.2799652597E+001 +4.5865215363E+001
310000000.000 -2.7827838088E+001 -1.6220929409E+002 -5.5419904105E+001 +3.5397563093E+001 -7.6768492790E+001 +1.7901710946E+002 -2.3331325092E+001 +6.4155026110E+001
442500000.000 -2.7351390702E+001 -1.5448430073E+002 -5.4369394333E+001 -1.8574047553E-001 -8.7179913734E+001 +1.0912531895E+002 -2.2409222996E+001 +1.6717201655E+001
575000000.000 -2.6678400856E+001 -1.4732285242E+002 -5.4712076719E+001 -3.3226834708E+001 -8.7216601385E+001 +1.1703829670E+002 -3.0635352217E+001 +2.2314407807E+001
707500000.000 -2.6005849433E+001 -1.4264133919E+002 -5.4810972594E+001 -7.0743208975E+001 -8.5991403753E+001 -1.1840622020E+002 -3.4683269877E+001 +8.3611059266E+001
840000000.000 -2.5274849654E+001 -1.3743176392E+002 -5.4984046332E+001 -1.0415433387E+002 -9.7635271541E+001 +6.1496094918E+001 -2.9625951118E+001 +1.2780704850E+002
972500000.000 -2.4628978700E+001 -1.3323270912E+002 -5.4808263107E+001 -1.3641745609E+002 -8.0786647374E+001 +1.1764567965E+002 -2.5912506408E+001 +1.3502289572E+002
1105000000.000 -2.3878489150E+001 -1.3023856479E+002 -5.5518711061E+001 -1.7559425864E+002 -9.2249378720E+001 -7.2219764425E+001 -2.4396310446E+001 +1.4071390953E+002
1237500000.000 -2.3238328021E+001 -1.2789363036E+002 -5.5100691223E+001 +1.5327768406E+002 -8.8051488986E+001 -3.0179375356E+001 -2.3397602234E+001 +1.5015289619E+002
1370000000.000 -2.2581901647E+001 -1.2570321968E+002 -5.4961738039E+001 +1.2023840772E+002 -9.1014754879E+001 +1.2916303943E+002 -2.2054346414E+001 +1.5986265673E+002
1502500000.000 -2.2027059260E+001 -1.2384776755E+002 -5.5475484703E+001 +8.7136581785E+001 -8.3887547338E+001 -1.1960778307E+002 -2.0855610386E+001 +1.6626560605E+002
1635000000.000 -2.1444443048E+001 -1.2179553455E+002 -5.5208048439E+001 +5.5056161628E+001 -8.4371093335E+001 -6.0843893474E+001 -2.0021453585E+001 +1.7322257737E+002
1767500000.000 -2.0853722227E+001 -1.2054110330E+002 -5.5388475996E+001 +2.0636668297E+001 -8.4747703599E+001 +6.6295254380E+001 -1.9013981819E+001 +1.7838036283E+002
1900000000.000 -2.0433071490E+001 -1.1956136856E+002 -5.5678101292E+001 -1.4071495277E+001 -8.7114166614E+001 +8.5851946996E+001 -1.8865226976E+001 -1.7837717200E+002
2032500000.000 -1.9994276347E+001 -1.1862266205E+002 -5.5437799895E+001 -5.4909364099E+001 -8.1156427815E+001 -6.1829546892E+001 -1.8668218793E+001 -1.6803148209E+002
2165000000.000 -1.9508633353E+001 -1.1719779625E+002 -5.5266012494E+001 -9.0403958849E+001 -7.6476899881E+001 +3.1989095630E+001 -1.7749025858E+001 -1.6114688017E+002
2297500000.000 -1.9094683568E+001 -1.1679139369E+002 -5.5752301951E+001 -1.2322017391E+002 -8.2910746267E+001 +2.3519507158E+001 -1.7244830351E+001 -1.5715584632E+002
2430000000.000 -1.8739507624E+001 -1.1613810956E+002 -5.6789168550E+001 -1.6067030882E+002 -8.9562200728E+001 -6.1387363467E+001 -1.6915095211E+001 -1.5301008658E+002
2562500000.000 -1.8305286002E+001 -1.1538842946E+002 -5.6454547736E+001 +1.6406739132E+002 -7.6846989111E+001 +3.9432414892E+001 -1.6822978481E+001 -1.5085350691E+002
2695000000.000 -1.7932542519E+001 -1.1572449806E+002 -5.5844288183E+001 +1.3128886150E+002 -8.0699640690E+001 +1.5400192842E+002 -1.7396357823E+001 -1.4737142635E+002
2827500000.000 -1.7666928710E+001 -1.1602854474E+002 -5.5750394773E+001 +9.8381787622E+001 -9.5571019237E+001 -1.1045402613E+002 -1.7840200847E+001 -1.4031555038E+002
2960000000.000 -1.7345023217E+001 -1.1539924679E+002 -5.6198802885E+001 +6.0900213173E+001 -7.6396378184E+001 -1.3841369919E+001 -1.8126625571E+001 -1.3595421851E+002
3092500000.000 -1.6943483123E+001 -1.1520505110E+002 -5.5403204582E+001 +3.8268972051E+001 -8.5307726126E+001 +1.0048546205E+002 -1.9116578387E+001 -1.2968044374E+002
3225000000.000 -1.6595424379E+001 -1.1584509369E+002 -5.5527318431E+001 +1.6899037257E+000 -8.3349897979E+001 +2.9484027431E+001 -1.9578661546E+001 -1.1969348732E+002
3357500000.000 -1.6384181392E+001 -1.1587657569E+002 -5.5551422619E+001 -3.2570225074E+001 -8.3890701965E+001 -1.1583001305E+002 -1.9891442564E+001 -1.1461473476E+002
3490000000.000 -1.6041232231E+001 -1.1564170536E+002 -5.5380413508E+001 -6.3644917852E+001 -8.6143896861E+001 -1.1465251194E+002 -2.1144781887E+001 -1.0922508745E+002
3622500000.000 -1.5685233505E+001 -1.1564666513E+002 -5.5998146621E+001 -9.7999095536E+001 -8.2656377686E+001 +1.7713846310E+002 -2.1953668410E+001 -9.8222610339E+001
3755000000.000 -1.5372029660E+001 -1.1587083427E+002 -5.5404138225E+001 -1.3309331211E+002 -9.0831610538E+001 +7.1901532070E+001 -2.2620242549E+001 -9.4896905142E+001
3887500000.000 -1.5105944631E+001 -1.1594519833E+002 -5.5013143357E+001 -1.6796770782E+002 -7.5966399422E+001 +1.7303638916E+002 -2.5019711510E+001 -8.8938403100E+001
4020000000.000 -1.4877823809E+001 -1.1593958571E+002 -5.5781357386E+001 +1.5876788116E+002 -8.0789553009E+001 -1.2470668501E+002 -2.6719683348E+001 -7.3691470822E+001
4152500000.000 -1.4581343512E+001 -1.1568189065E+002 -5.5648748112E+001 +1.2443391804E+002 -8.4681164923E+001 -1.7976217604E+002 -2.8787751754E+001 -6.5245851893E+001
4285000000.000 -1.4294760965E+001 -1.1579367978E+002 -5.5488244947E+001 +8.6145385323E+001 -8.4422291159E+001 +1.7493980872E+002 -3.3387358283E+001 -3.9574552833E+001
4417500000.000 -1.4076921723E+001 -1.1612220171E+002 -5.6041181918E+001 +5.2249770748E+001 -9.0020107980E+001 +1.1702569487E+002 -3.1860736592E+001 +7.6263310051E+000
4550000000.000 -1.3883014699E+001 -1.1587773201E+002 -5.5694524177E+001 +2.3492510504E+001 -9.4457018135E+001 -1.6152226387E+002 -3.0332959968E+001 +1.7349311931E+001
4682500000.000 -1.3633120498E+001 -1.1568023736E+002 -5.6023224614E+001 -6.9719978584E+000 -9.1393815400E+001 -1.3489073190E+002 -2.9766462772E+001 +3.7716686005E+001
4815000000.000 -1.3388130471E+001 -1.1607012672E+002 -5.6057879393E+001 -4.3205106825E+001 -8.3175633116E+001 +1.5525966931E+002 -2.7711877792E+001 +4.0515173758E+001
4947500000.000 -1.3222204917E+001 -1.1596571294E+002 -5.5941215981E+001 -7.7809425423E+001 -8.0060014580E+001 -7.1703699325E+001 -2.9422644462E+001 +3.4477963199E+001
5080000000.000 -1.3029994494E+001 -1.1569314999E+002 -5.5867864979E+001 -1.1183411908E+002 -8.4160863055E+001 -2.5405966526E+000 -3.2365576830E+001 +5.5870075658E+001
5212500000.000 -1.2802016935E+001 -1.1576695688E+002 -5.5437185491E+001 -1.4363096567E+002 -8.5413564669E+001 +1.1550664457E+002 -3.1658133804E+001 +6.8499568069E+001
5345000000.000 -1.2651352726E+001 -1.1602481005E+002 -5.5297098175E+001 -1.7870617498E+002 -9.2203663924E+001 +8.6160898796E+001 -3.5550293469E+001 +6.8665165635E+001
5477500000.000 -1.2522125633E+001 -1.1582367513E+002 -5.5595208096E+001 +1.4765452568E+002 -8.3870150490E+001 -1.0034061627E+002 -3.7567043155E+001 +1.3235660212E+002
5610000000.000 -1.2337969086E+001 -1.1563611244E+002 -5.5613589794E+001 +1.1526255399E+002 -8.3281986146E+001 +1.3531822709E+002 -3.3753961268E+001 +1.3489458703E+002
5742500000.000 -1.2176862056E+001 -1.1596456840E+002 -5.5236907616E+001 +7.8489964863E+001 -8.5586405851E+001 -1.5837881038E+002 -3.8243999464E+001 +1.5160098395E+002
5875000000.000 -1.2074625031E+001 -1.1625733728E+002 -5.5137107615E+001 +4.3376031007E+001 -9.7104825836E+001 +6.8251554259E-001 -3.3955923927E+001 -1.6927573399E+002
6007500000.000 -1.1970654397E+001 -1.1626720392E+002 -5.5203644723E+001 +9.3504916518E+000 -1.0349565381E+002 +1.0904186492E+002 -3.2753555365E+001 +1.7972479258E+002
6140000000.000 -1.1797411371E+001 -1.1625103610E+002 -5.5191335878E+001 -2.2684047237E+001 -9.2680285008E+001 -1.6449704107E+002 -3.6400085916E+001 -1.7081069224E+002
6272500000.000 -1.1631474790E+001 -1.1679256219E+002 -5.4759682194E+001 -5.8921552107E+001 -9.5531632326E+001 -7.5934355435E+001 -3.4184345053E+001 -1.4359893607E+002
6405000000.000 -1.1555099121E+001 -1.1743758336E+002 -5.5216926442E+001 -9.3670785913E+001 -8.0198143016E+001 +3.3327889327E+001 -3.3890881658E+001 -1.6164971583E+002
6537500000.000 -1.1447553996E+001 -1.1729610822E+002 -5.5235647694E+001 -1.2697448068E+002 -8.8393251991E+001 +1.2375774794E+002 -4.0190911145E+001 -1.6279891791E+002
6670000000.000 -1.1254919173E+001 -1.1736293723E+002 -5.5052001468E+001 -1.6149418143E+002 -9.3044747703E+001 -8.4796243948E+001 -3.9932233883E+001 -1.3852348435E+002
6802500000.000 -1.1071213807E+001 -1.1809888709E+002 -5.5195838793E+001 +1.6462876767E+002 -9.3953722030E+001 -1.2909677503E+001 -3.9273500873E+001 +1.7857506322E+002
6935000000.000 -1.1023552659E+001 -1.1868058728E+002 -5.5331603068E+001 +1.3135766277E+002 -9.1240262284E+001 +1.2966177495E+002 -3.8583885080E+001 +1.2389156079E+002
7067500000.000 -1.0904527183E+001 -1.1842044735E+002 -5.5143970463E+001 +9.4828501750E+001 -8.3521924278E+001 -7.5366599282E+001 -3.8375536121E+001 +1.1525865447E+002
7200000000.000 -1.0702367837E+001 -1.1853199299E+002 -5.5311234368E+001 +6.0781253869E+001 -8.1992485215E+001 +8.0892544271E+001 -3.2807721942E+001 +1.2953414069E+002
7332500000.000 -1.0558056164E+001 -1.1932033503E+002 -5.5085913375E+001 +2.7847157617E+001 -9.0677897838E+001 -1.1492651679E+002 -2.9165664249E+001 +1.1919486650E+002
7465000000.000 -1.0478282633E+001 -1.1954234034E+002 -5.5401513598E+001 -7.2033505685E+000 -9.4191059756E+001 +1.3839075335E+002 -2.8533898604E+001 +1.2330630942E+002
7597500000.000 -1.0342081638E+001 -1.1944704437E+002 -5.5106364709E+001 -4.2166976518E+001 -9.0720405864E+001 +4.1911854555E+001 -2.6029043576E+001 +1.3682267165E+002
7730000000.000 -1.0156384099E+001 -1.1962931438E+002 -5.5111859618E+001 -7.4437256136E+001 -8.1506773723E+001 +6.1577162168E+001 -2.3790040254E+001 +1.3757232622E+002
7862500000.000 -1.0045165660E+001 -1.1995377141E+002 -5.5550683712E+001 -1.0893835913E+002 -1.0129691354E+002 -1.4191323687E+002 -2.3253696964E+001 +1.4199105187E+002
7995000000.000 -9.9634441539E+000 -1.1997503570E+002 -5.5600329826E+001 -1.4231886048E+002 -8.3195129830E+001 +1.1322026825E+001 -2.1763667399E+001 +1.5402653190E+002
8127500000.000 -9.7868286644E+000 -1.1970573296E+002 -5.5575546894E+001 -1.7558791716E+002 -8.5092225590E+001 +8.8473036991E+001 -2.0046281437E+001 +1.5625637837E+002
8260000000.000 -9.6740417354E+000 -1.2022346901E+002 -5.5539285439E+001 +1.5029516547E+002 -1.0593863187E+002 -3.1816838126E+001 -1.9852661168E+001 +1.6036829217E+002
8392500000.000 -9.5929420229E+000 -1.2009958456E+002 -5.5288836996E+001 +1.1430478274E+002 -9.2816062337E+001 -1.6054381000E+001 -1.9040188937E+001 +1.7029187547E+002
8525000000.000 -9.4947687147E+000 -1.1990438543E+002 -5.5493317111E+001 +7.9687517585E+001 -9.3538562301E+001 +2.0399325404E+001 -1.8228002038E+001 +1.7285044509E+002
8657500000.000 -9.3667399648E+000 -1.1996485622E+002 -5.5309421613E+001 +4.4209123035E+001 -8.5217511379E+001 +4.5542145718E+001 -1.8554650157E+001 +1.7802130319E+002
8790000000.000 -9.2630512700E+000 -1.2010652704E+002 -5.5300896192E+001 +1.3018757643E+001 -8.6831490688E+001 -1.0564540557E+002 -1.8348635080E+001 -1.7192203628E+002
8922500000.000 -9.2191803900E+000 -1.2023133552E+002 -5.4939253298E+001 -2.0820767323E+001 -9.7129585973E+001 +3.0034525289E+001 -1.8026378090E+001 -1.6599585548E+002
9055000000.000 -9.1301397129E+000 -1.2002130317E+002 -5.5161827204E+001 -5.3664643440E+001 -8.4107136007E+001 +9.6559175678E+001 -1.8425279198E+001 -1.5814746653E+002
9187500000.000 -9.0468480731E+000 -1.2022915380E+002 -5.5054381530E+001 -9.0863864825E+001 -8.6775421298E+001 -8.6090214953E+001 -1.8368630370E+001 -1.4672591655E+002
9320000000.000 -8.9618156445E+000 -1.2076854168E+002 -5.5016801342E+001 -1.2380747456E+002 -1.0283262673E+002 -8.0260642533E+000 -1.8261108014E+001 -1.3959722576E+002
9452500000.000 -8.9145412184E+000 -1.2093279218E+002 -5.4787873501E+001 -1.5894997548E+002 -9.3145153629E+001 +9.8149297149E+001 -1.8813245894E+001 -1.3027621452E+002
9585000000.000 -8.8361126083E+000 -1.2095960977E+002 -5.4706232209E+001 +1.6691841019E+002 -8.9335648142E+001 -1.1175961022E+002 -1.8765402145E+001 -1.1858866925E+002
9717500000.000 -8.7100614250E+000 -1.2132382499E+002 -5.4766357631E+001 +1.2969283139E+002 -8.9611366133E+001 -4.1796565276E+000 -1.8884812075E+001 -1.1111245253E+002
9850000000.000 -8.6617422825E+000 -1.2210184742E+002 -5.5518390312E+001 +9.9039711580E+001 -8.0877953634E+001 +9.7719327107E+001 -1.9618809564E+001 -1.0011194849E+002
9982500000.000 -8.6081854597E+000 -1.2201162482E+002 -5.5130180426E+001 +6.2555248027E+001 -8.5325396243E+001 +1.1243693398E+002 -1.9644170479E+001 -8.6836811117E+001
10115000000.000 -8.4988821149E+000 -1.2207392204E+002 -5.5657856995E+001 +2.7742621114E+001 -8.5850770347E+001 -4.9751965105E+001 -1.9990293772E+001 -7.9143498536E+001
10247500000.000 -8.3865275858E+000 -1.2269025379E+002 -5.5415227285E+001 -6.0972617661E+000 -9.6550119553E+001 +9.4044088014E+001 -2.1131614121E+001 -6.5390581365E+001
10380000000.000 -8.3434197416E+000 -1.2319645651E+002 -5.5658214380E+001 -4.0696567691E+001 -8.4991068286E+001 +1.7688926223E+002 -2.1011508007E+001 -5.0172734775E+001
10512500000.000 -8.2851326092E+000 -1.2329291211E+002 -5.5130620707E+001 -7.2972664509E+001 -9.0562390943E+001 -1.2495612012E+001 -2.1573566797E+001 -4.2131211802E+001
10645000000.000 -8.1876633921E+000 -1.2336705166E+002 -5.5216816466E+001 -1.1203248973E+002 -8.5746150741E+001 +6.6622730740E+001 -2.2808817444E+001 -2.3385370897E+001
10777500000.000 -8.0858106555E+000 -1.2384200294E+002 -5.5306293723E+001 -1.4191808257E+002 -8.3294853564E+001 +6.2174562698E+001 -2.2146834504E+001 -6.1488943909E+000
10910000000.000 -8.0094222623E+000 -1.2428762005E+002 -5.5669212237E+001 -1.7390261659E+002 -8.8834050556E+001 -1.5809064048E+002 -2.2822760005E+001 +4.0780735796E+000
11042500000.000 -7.9386444058E+000 -1.2447752644E+002 -5.5685037338E+001 +1.5057421430E+002 -9.1732851061E+001 -5.7493259036E+001 -2.3443394535E+001 +2.7983329958E+001
11175000000.000 -7.8371063946E+000 -1.2451440605E+002 -5.5541302141E+001 +1.1587399211E+002 -9.1933265695E+001 +1.2724893229E+002 -2.2230608676E+001 +4.2685672538E+001
11307500000.000 -7.7618038787E+000 -1.2471650462E+002 -5.5354536096E+001 +8.3585139408E+001 -8.8215302303E+001 +1.4706449276E+002 -2.2765076046E+001 +5.3279448285E+001
11440000000.000 -7.6862118422E+000 -1.2512598104E+002 -5.5422007211E+001 +4.8012188094E+001 -8.3926989733E+001 -1.5944474339E+001 -2.2558319257E+001 +7.5718232144E+001
11572500000.000 -7.5933713628E+000 -1.2494618180E+002 -5.5348703586E+001 +1.2892875343E+001 -8.1917466520E+001 +1.2233605039E+002 -2.1183890788E+001 +8.6822254020E+001
11705000000.000 -7.5321260880E+000 -1.2510419157E+002 -5.5277674419E+001 -1.9317838216E+001 -1.0347538785E+002 +4.7489063854E+001 -2.1787146834E+001 +9.7309515295E+001
11837500000.000 -7.4454825318E+000 -1.2523590956E+002 -5.4770718067E+001 -5.4666273535E+001 -7.9201776701E+001 -5.8732048134E+001 -2.1068472743E+001 +1.1914151258E+002
11970000000.000 -7.4181769160E+000 -1.2533020726E+002 -5.4989737519E+001 -8.8605344606E+001 -8.2755189391E+001 +5.6975763800E+001 -1.9876587439E+001 +1.2525787559E+002
12102500000.000 -7.3752923055E+000 -1.2528300200E+002 -5.5222828271E+001 -1.2400538677E+002 -8.5888941499E+001 -1.7766998185E+002 -2.0762341379E+001 +1.3594997697E+002
12235000000.000 -7.2919634516E+000 -1.2545649869E+002 -5.5403774846E+001 -1.5771889840E+002 -8.7962821405E+001 -1.0331373145E+002 -1.9693089998E+001 +1.5426716483E+002
12367500000.000 -7.2771330604E+000 -1.2563516145E+002 -5.4974998389E+001 +1.6410800036E+002 -8.8053338037E+001 +3.5790398163E+001 -1.8948015974E+001 +1.5749884819E+002
12500000000.000 -7.2474777979E+000 -1.2604380778E+002 -5.5111687900E+001 +1.2849210754E+002 -8.0167334027E+001 +1.0849756563E+002 -2.0067692403E+001 +1.6891945851E+002
12632500000.000 -7.1914329506E+000 -1.2599589284E+002 -5.4774864468E+001 +9.6793797019E+001 -9.2322174156E+001 -5.8125014825E+001 -1.9056722378E+001 -1.7328283216E+002
12765000000.000 -7.1372128956E+000 -1.2615485112E+002 -5.5185508380E+001 +6.1714126461E+001 -8.8697619368E+001 +2.9919992525E+001 -1.8574286706E+001 -1.7180353363E+002
12897500000.000 -7.1289507470E+000 -1.2654410864E+002 -5.5230318844E+001 +2.6944283462E+001 -8.2454865982E+001 +7.5419151915E+001 -2.0165686806E+001 -1.5871073733E+002
13030000000.000 -7.0996518626E+000 -1.2670438462E+002 -5.5604362438E+001 -5.8365830102E+000 -8.5845771558E+001 +7.2931875964E+001 -1.8737437950E+001 -1.4167845110E+002
13162500000.000 -7.0380779439E+000 -1.2689820564E+002 -5.5043588492E+001 -4.1099134903E+001 -8.7084290053E+001 -3.7073030543E+001 -1.8684888582E+001 -1.4214643533E+002
13295000000.000 -6.9864473258E+000 -1.2706375290E+002 -5.5369546246E+001 -7.7498796437E+001 -8.2612626595E+001 +1.1975310723E+002 -2.0086534821E+001 -1.2735512171E+002
13427500000.000 -6.9553874594E+000 -1.2750353165E+002 -5.5287244905E+001 -1.1106601426E+002 -8.6208559999E+001 -1.3948647521E+002 -1.8768216896E+001 -1.1422670755E+002
13560000000.000 -6.9565034968E+000 -1.2739143383E+002 -5.5551957605E+001 -1.4535351167E+002 -8.8956871352E+001 -6.7755635140E+001 -1.9055196860E+001 -1.1508060964E+002
13692500000.000 -6.8818581604E+000 -1.2759048841E+002 -5.5247809179E+001 -1.7801369355E+002 -8.7194426266E+001 +5.7843626813E+001 -2.0838419051E+001 -1.0094925982E+002
13825000000.000 -6.8245712906E+000 -1.2790879758E+002 -5.5761666982E+001 +1.4846995951E+002 -8.7474227210E+001 -1.3295484624E+002 -1.9681391773E+001 -8.7652211165E+001
13957500000.000 -6.8145770076E+000 -1.2835909839E+002 -5.4882841946E+001 +1.0985570939E+002 -8.1256293978E+001 -5.5709403971E+000 -2.0393535855E+001 -9.0226410116E+001
14090000000.000 -6.7964123999E+000 -1.2831314623E+002 -5.5591853572E+001 +7.5193861850E+001 -8.7383265239E+001 -6.2207617200E+001 -2.2612163364E+001 -7.2464207064E+001
14222500000.000 -6.7352667251E+000 -1.2828592822E+002 -5.5036987749E+001 +4.3802533813E+001 -7.9933453198E+001 -1.6788956154E+002 -2.1277152951E+001 -5.9657177464E+001
14355000000.000 -6.6495451762E+000 -1.2881364491E+002 -5.6084468823E+001 +8.5809017039E+000 -7.9995212454E+001 -5.3783320095E+001 -2.2561792054E+001 -6.3323363645E+001
14487500000.000 -6.6268219773E+000 -1.2902319289E+002 -5.4927145240E+001 -2.4444742830E+001 -8.9493026384E+001 -2.7095387720E+001 -2.5393814939E+001 -4.0079213190E+001
14620000000.000 -6.6032263271E+000 -1.2886130223E+002 -5.5771144605E+001 -6.1944303036E+001 -8.6007579546E+001 -1.6727007824E+002 -2.3307947524E+001 -2.8344193410E+001
14752500000.000 -6.5056298282E+000 -1.2886309349E+002 -5.5655659575E+001 -9.5917080601E+001 -8.1721547489E+001 -1.2864964791E+002 -2.5544866487E+001 -3.6287209510E+001
14885000000.000 -6.4501444632E+000 -1.2913351549E+002 -5.5405457809E+001 -1.3049915079E+002 -8.8627135302E+001 +5.5265224597E+000 -2.8620864701E+001 +2.7519756778E+000
15017500000.000 -6.4090731237E+000 -1.2893509363E+002 -5.5704210504E+001 -1.7050138517E+002 -8.1841418615E+001 +1.3850033930E+002 -2.5405577548E+001 +7.6258611372E+000
15150000000.000 -6.3503301180E+000 -1.2882630509E+002 -5.5038578106E+001 +1.6128566891E+002 -9.0527974473E+001 -1.4546940465E+002 -2.9424821559E+001 -1.8762876128E+000
15282500000.000 -6.3052718175E+000 -1.2878255329E+002 -5.5887482105E+001 +1.2265113266E+002 -9.2556280793E+001 -1.5342380730E+002 -3.0705719100E+001 +5.8042692876E+001
