!  2-Port S-parameters saved by WinCal
! VAR MeasName=S-Parameters (CALIBRATED_DATA) read from VNA (C)
! VAR MeasDate=9/29/2015 4:46:15 PM
! VAR NAME=M6082_19_17_2_2_20C_15.0mA_-17.5dBm
! VAR FILENAME=M6082_19_17_2_2_20C_15.0mA_-17.5dBm.S2P
! VAR DATE=9/29/2015 4:46:15 PM
! VAR PHYS_PORTS=2,1
! VAR ObjTypeName=DATASET
! VAR IndexType=Frequency
!
# Hz S DB R 50
45000000.000 -1.7634681342E+001 -1.7917098713E+002 -5.2732198418E+001 +1.2267097065E+002 -5.7559979370E+001 +4.7199584734E+001 -3.0780926861E+001 +5.7357996747E+000
177500000.000 -1.7739740909E+001 -1.7804515645E+002 -5.6168608650E+001 +7.1319106309E+001 -7.3562221855E+001 +6.6416750751E+001 -3.2685778181E+001 +4.6461632705E+001
310000000.000 -1.7761306991E+001 -1.7649467922E+002 -5.6786542360E+001 +4.4464541014E+001 -7.7294150110E+001 -1.2409021844E+002 -2.3333914125E+001 +6.4364026916E+001
442500000.000 -1.7795610128E+001 -1.7482430132E+002 -5.5495491319E+001 +2.5618240276E-001 -8.6339717503E+001 +1.2049058114E+002 -2.2391297318E+001 +1.6820000245E+001
575000000.000 -1.7765921351E+001 -1.7263853740E+002 -5.6832338536E+001 -3.1703981405E+001 -8.9016501586E+001 +8.2383451151E+001 -3.0634836583E+001 +2.2116229674E+001
707500000.000 -1.7727244651E+001 -1.7107040714E+002 -5.6857576262E+001 -7.0011000711E+001 -9.1122061944E+001 -1.1377747397E+002 -3.4679394320E+001 +8.3569221341E+001
840000000.000 -1.7695100480E+001 -1.6893859489E+002 -5.7082159934E+001 -1.0179098802E+002 -9.2088143331E+001 +1.4552187130E+002 -2.9659048845E+001 +1.2773917739E+002
972500000.000 -1.7665277106E+001 -1.6703343009E+002 -5.7129988807E+001 -1.3805218936E+002 -9.0443645735E+001 -1.5723232995E+002 -2.5913654487E+001 +1.3508548868E+002
1105000000.000 -1.7570542416E+001 -1.6501791779E+002 -5.7136512898E+001 -1.7209114796E+002 -8.4038129706E+001 +3.1542393813E+001 -2.4388806240E+001 +1.4077074643E+002
1237500000.000 -1.7479563675E+001 -1.6338031883E+002 -5.7354752261E+001 +1.5518211597E+002 -8.6129587539E+001 +3.0173824209E+001 -2.3397392777E+001 +1.5007913969E+002
1370000000.000 -1.7359019077E+001 -1.6164562443E+002 -5.7607870752E+001 +1.2245229953E+002 -8.4163319069E+001 +8.7855428630E+001 -2.2062467161E+001 +1.5989613537E+002
1502500000.000 -1.7268220910E+001 -1.5999235170E+002 -5.7036147629E+001 +9.1058574225E+001 -8.7833825411E+001 -7.3353403190E+001 -2.0853029535E+001 +1.6627721260E+002
1635000000.000 -1.7160377141E+001 -1.5810785769E+002 -5.7205454476E+001 +5.9150873933E+001 -8.5067155146E+001 +9.6619790777E+000 -2.0018077452E+001 +1.7322081228E+002
1767500000.000 -1.7009958977E+001 -1.5649711065E+002 -5.7573099983E+001 +2.4579250925E+001 -8.3244943428E+001 +8.7664148596E+001 -1.9009421571E+001 +1.7835194999E+002
1900000000.000 -1.6938421659E+001 -1.5525469070E+002 -5.7540352226E+001 -1.8396708792E+001 -9.6263548521E+001 -6.0382107638E+001 -1.8868299949E+001 -1.7834780597E+002
2032500000.000 -1.6827640482E+001 -1.5386776605E+002 -5.7948093385E+001 -6.2828354276E+001 -7.8488079838E+001 -9.8955191392E+001 -1.8679381712E+001 -1.6803505360E+002
2165000000.000 -1.6699050603E+001 -1.5202176305E+002 -5.8714282654E+001 -9.7092503860E+001 -8.2964995097E+001 +6.9455552832E+001 -1.7744209847E+001 -1.6117909762E+002
2297500000.000 -1.6552612252E+001 -1.5092741005E+002 -5.8589935117E+001 -1.3395908242E+002 -9.1706739827E+001 +1.2886701376E+002 -1.7245134789E+001 -1.5716881638E+002
2430000000.000 -1.6439355713E+001 -1.4973980382E+002 -5.8499123212E+001 -1.6265540225E+002 -8.1037565499E+001 -8.4125703713E+001 -1.6911994515E+001 -1.5302393880E+002
2562500000.000 -1.6277484085E+001 -1.4818840519E+002 -5.9192028484E+001 +1.5655788775E+002 -8.0966464122E+001 +3.8071874151E+001 -1.6822669305E+001 -1.5086852997E+002
2695000000.000 -1.6078320010E+001 -1.4759369773E+002 -5.9140094257E+001 +1.3174695014E+002 -8.4718966219E+001 -1.4791028446E+002 -1.7403622886E+001 -1.4735612761E+002
2827500000.000 -1.5957496520E+001 -1.4721431119E+002 -5.8547853160E+001 +9.6416130865E+001 -7.9221422268E+001 -9.3503054636E+001 -1.7834052890E+001 -1.4038677787E+002
2960000000.000 -1.5826570347E+001 -1.4595000613E+002 -5.8772311455E+001 +6.7304414605E+001 -8.5848064043E+001 +1.6943613042E+002 -1.8122299403E+001 -1.3586907000E+002
3092500000.000 -1.5610736638E+001 -1.4489152820E+002 -5.9646513027E+001 +3.6404288489E+001 -8.2204126073E+001 +1.3086178721E+002 -1.9118719770E+001 -1.2966650639E+002
3225000000.000 -1.5381602317E+001 -1.4450442357E+002 -5.7848082752E+001 +3.4487974226E+000 -9.6222989189E+001 -7.2235785472E+001 -1.9579592585E+001 -1.1964905609E+002
3357500000.000 -1.5275301246E+001 -1.4398064820E+002 -5.7952178575E+001 -3.0970696596E+001 -7.7135733164E+001 +9.0991570526E+001 -1.9898160452E+001 -1.1466832186E+002
3490000000.000 -1.5081773581E+001 -1.4300255694E+002 -5.7917947372E+001 -6.4815896361E+001 -7.8302979137E+001 +1.3144852300E+002 -2.1148281395E+001 -1.0908261197E+002
3622500000.000 -1.4855723600E+001 -1.4204401529E+002 -5.8007874469E+001 -9.7635910720E+001 -7.8964547902E+001 -1.0806109845E+002 -2.1973611160E+001 -9.8308172720E+001
3755000000.000 -1.4648047671E+001 -1.4146000554E+002 -5.7723434370E+001 -1.3472129008E+002 -8.9987467546E+001 -9.6721649356E+001 -2.2654425299E+001 -9.4901372849E+001
3887500000.000 -1.4480622761E+001 -1.4087839857E+002 -5.7060226280E+001 -1.6700538321E+002 -8.6635511200E+001 +7.1619387425E+001 -2.5052925420E+001 -8.8861978345E+001
4020000000.000 -1.4348429787E+001 -1.4033078877E+002 -5.7572240667E+001 +1.6491587916E+002 -8.0229012609E+001 -1.7049372440E+002 -2.6740709962E+001 -7.3390823727E+001
4152500000.000 -1.4162872304E+001 -1.3931492868E+002 -5.8610721961E+001 +1.2814733731E+002 -7.7264832885E+001 -6.9130706792E+001 -2.8766668652E+001 -6.5138161302E+001
4285000000.000 -1.3955132087E+001 -1.3869986972E+002 -5.7608890445E+001 +9.2835598398E+001 -8.1909550408E+001 +6.0675998594E+001 -3.3386424033E+001 -3.9702000013E+001
4417500000.000 -1.3796910014E+001 -1.3845710581E+002 -5.7954564192E+001 +5.6178206226E+001 -8.4341219973E+001 +1.5706659097E+002 -3.1856566921E+001 +7.7975452775E+000
4550000000.000 -1.3688255925E+001 -1.3776000695E+002 -5.7515251284E+001 +2.4411045333E+001 -9.6687706476E+001 +3.4811547308E+001 -3.0351189869E+001 +1.7428405704E+001
4682500000.000 -1.3519638836E+001 -1.3692057946E+002 -5.7947570432E+001 -7.9093141361E+000 -8.9590450740E+001 +1.2216627405E+001 -2.9799635314E+001 +3.7841514764E+001
4815000000.000 -1.3319405901E+001 -1.3664606801E+002 -5.7211592535E+001 -3.8564632628E+001 -9.1824007488E+001 +1.1202832457E+002 -2.7728167036E+001 +4.0575611889E+001
4947500000.000 -1.3219081830E+001 -1.3615267135E+002 -5.7557556406E+001 -7.1815327816E+001 -9.2187883937E+001 +9.4378393371E+001 -2.9435839190E+001 +3.4827263250E+001
5080000000.000 -1.3100977340E+001 -1.3542883380E+002 -5.8088121445E+001 -1.0593146842E+002 -8.9691871420E+001 +3.5205226962E+001 -3.2381825680E+001 +5.6118278989E+001
5212500000.000 -1.2919931060E+001 -1.3487961365E+002 -5.7269868038E+001 -1.4049651057E+002 -8.2291985070E+001 +1.2845799767E+002 -3.1653147316E+001 +6.8382177955E+001
5345000000.000 -1.2805109509E+001 -1.3474483775E+002 -5.7387449765E+001 -1.7613430024E+002 -8.5783980845E+001 -9.4078661469E+001 -3.5517083635E+001 +6.9017980217E+001
5477500000.000 -1.2733782152E+001 -1.3418183144E+002 -5.6859137577E+001 +1.4994766995E+002 -9.2923914706E+001 +1.9980280430E+001 -3.7567165451E+001 +1.3257284832E+002
5610000000.000 -1.2598402061E+001 -1.3351937218E+002 -5.6584906461E+001 +1.1694953241E+002 -8.7137920702E+001 +1.0797743980E+002 -3.3767776754E+001 +1.3519513616E+002
5742500000.000 -1.2466363589E+001 -1.3344559812E+002 -5.6795840918E+001 +8.4716842593E+001 -8.3964340464E+001 -1.5916300742E+002 -3.8220168010E+001 +1.5195854441E+002
5875000000.000 -1.2388724593E+001 -1.3339635334E+002 -5.7152360088E+001 +4.7959018889E+001 -8.5777859615E+001 -3.1202965146E+001 -3.3899559361E+001 -1.6932663161E+002
6007500000.000 -1.2323545860E+001 -1.3313361161E+002 -5.7029131486E+001 +1.3985057118E+001 -9.5616818471E+001 -1.1995126636E+002 -3.2727306780E+001 +1.7968304685E+002
6140000000.000 -1.2184027513E+001 -1.3265523593E+002 -5.6946440384E+001 -2.0195785823E+001 -8.5830321631E+001 +1.4971274912E+002 -3.6376859981E+001 -1.7033908739E+002
6272500000.000 -1.2029727508E+001 -1.3276821649E+002 -5.6585187571E+001 -5.6825198294E+001 -1.0181678713E+002 +1.1952344833E+001 -3.4123571202E+001 -1.4366567037E+002
6405000000.000 -1.1958886504E+001 -1.3319566753E+002 -5.7081785495E+001 -9.1781906382E+001 -8.7005784634E+001 +1.1033218772E+002 -3.3889055388E+001 -1.6169073899E+002
6537500000.000 -1.1888494477E+001 -1.3276532549E+002 -5.6768006314E+001 -1.2429660160E+002 -1.0610649495E+002 +1.3537821277E+002 -4.0142191047E+001 -1.6219650262E+002
6670000000.000 -1.1725704947E+001 -1.3235694165E+002 -5.6404184862E+001 -1.6074979755E+002 -9.4475010608E+001 -1.6582262746E+002 -3.9845335739E+001 -1.3847600736E+002
6802500000.000 -1.1535071547E+001 -1.3264552174E+002 -5.6600212851E+001 +1.6644984336E+002 -9.0275497575E+001 +7.9743604568E+001 -3.9327935988E+001 +1.7897836938E+002
6935000000.000 -1.1493748285E+001 -1.3307955466E+002 -5.6945001892E+001 +1.3244418328E+002 -9.1943043891E+001 +1.4940433806E+002 -3.8607853978E+001 +1.2399798492E+002
7067500000.000 -1.1407216289E+001 -1.3246251879E+002 -5.6952151422E+001 +9.6353467934E+001 -9.5373019801E+001 +1.5612274698E+002 -3.8440418112E+001 +1.1499965304E+002
7200000000.000 -1.1223021569E+001 -1.3212039994E+002 -5.6657246787E+001 +6.1568907288E+001 -8.7616306911E+001 -2.7943940766E+001 -3.2819202243E+001 +1.2967120712E+002
7332500000.000 -1.1075893320E+001 -1.3255533209E+002 -5.7270934173E+001 +2.9840789259E+001 -9.1498148053E+001 +1.4413670073E+002 -2.9182312894E+001 +1.1914640778E+002
7465000000.000 -1.1007478292E+001 -1.3255145164E+002 -5.6845621635E+001 -5.4591347342E+000 -8.6914604043E+001 -1.0550245559E+002 -2.8506851782E+001 +1.2352380612E+002
7597500000.000 -1.0891529188E+001 -1.3211336329E+002 -5.7039785369E+001 -4.0128677028E+001 -9.0923840265E+001 -1.7848525718E+002 -2.6016584733E+001 +1.3692361385E+002
7730000000.000 -1.0717029558E+001 -1.3190720251E+002 -5.7522740718E+001 -7.3587275315E+001 -8.3803984507E+001 +1.1044920620E+002 -2.3777967409E+001 +1.3764045376E+002
7862500000.000 -1.0608469132E+001 -1.3194985338E+002 -5.8007913246E+001 -1.0916908461E+002 -9.1835652424E+001 -1.7052020048E+002 -2.3267759672E+001 +1.4206595417E+002
7995000000.000 -1.0548075700E+001 -1.3174578652E+002 -5.7146441557E+001 -1.4007826089E+002 -8.2689078676E+001 -3.2335628991E+000 -2.1762394903E+001 +1.5402764264E+002
8127500000.000 -1.0387783585E+001 -1.3110080408E+002 -5.7900288418E+001 -1.7076164329E+002 -1.1128963460E+002 +1.6166486816E+002 -2.0044959242E+001 +1.5631300584E+002
8260000000.000 -1.0274664120E+001 -1.3135960189E+002 -5.7938960670E+001 +1.5247719670E+002 -8.5366784311E+001 +1.3583713136E+002 -1.9855435415E+001 +1.6043250020E+002
8392500000.000 -1.0209086663E+001 -1.3100569548E+002 -5.7659266455E+001 +1.1694882929E+002 -8.7537918588E+001 -9.9169389588E+001 -1.9039980200E+001 +1.7035365245E+002
8525000000.000 -1.0128186049E+001 -1.3055838433E+002 -5.7719342186E+001 +8.2395116533E+001 -9.5036908015E+001 +3.0161645282E+001 -1.8228799673E+001 +1.7295037483E+002
8657500000.000 -1.0005746370E+001 -1.3035478753E+002 -5.7680498838E+001 +5.0791356921E+001 -8.4036930379E+001 +1.2603923755E+002 -1.8557273924E+001 +1.7809479454E+002
8790000000.000 -9.9113153473E+000 -1.3025757040E+002 -5.7795607821E+001 +1.4838910288E+001 -8.7841002842E+001 -1.2783066031E+002 -1.8346778692E+001 -1.7188727348E+002
8922500000.000 -9.8771554269E+000 -1.3022787476E+002 -5.8032152309E+001 -1.9672322519E+001 -8.9417139245E+001 +6.5614548657E+001 -1.8025418450E+001 -1.6594179652E+002
9055000000.000 -9.8003266939E+000 -1.2980591703E+002 -5.7523249461E+001 -5.1896424507E+001 -8.8832461201E+001 +1.5186989415E+002 -1.8428361601E+001 -1.5816878583E+002
9187500000.000 -9.7227442234E+000 -1.2980659967E+002 -5.7722939743E+001 -8.8368075563E+001 -9.4520785031E+001 -1.4138232197E+002 -1.8368496172E+001 -1.4662894799E+002
9320000000.000 -9.6342132946E+000 -1.3019993577E+002 -5.8134615396E+001 -1.2228165168E+002 -8.1772283570E+001 -2.8331780406E+001 -1.8260947986E+001 -1.3956287453E+002
9452500000.000 -9.5958335815E+000 -1.3017995081E+002 -5.7728838096E+001 -1.5538609572E+002 -9.3063702246E+001 +1.1171535642E+002 -1.8811635729E+001 -1.3022975415E+002
9585000000.000 -9.5271746185E+000 -1.3003218384E+002 -5.7844655249E+001 +1.6880137612E+002 -8.6251063626E+001 -1.3328870616E+002 -1.8764232885E+001 -1.1861469612E+002
9717500000.000 -9.3960404538E+000 -1.3015988018E+002 -5.7840512939E+001 +1.3503295729E+002 -9.9421393951E+001 -1.8293657356E+001 -1.8887190783E+001 -1.1114118782E+002
9850000000.000 -9.3409539808E+000 -1.3079947990E+002 -5.8508606137E+001 +1.0240432850E+002 -8.5926265490E+001 +1.3457599270E+002 -1.9619099660E+001 -1.0012503939E+002
9982500000.000 -9.2983382084E+000 -1.3055786864E+002 -5.8380178497E+001 +6.7265463856E+001 -9.5998294611E+001 +1.3134979885E+002 -1.9639830806E+001 -8.6850993133E+001
10115000000.000 -9.1930574427E+000 -1.3041492668E+002 -5.8195482405E+001 +3.6029209219E+001 -9.0020480978E+001 -8.5994882186E+001 -1.9991119773E+001 -7.9102432777E+001
10247500000.000 -9.0684930071E+000 -1.3082730117E+002 -5.8486882621E+001 +6.5385339531E+000 -8.5704966153E+001 -3.5056264261E+001 -2.1128752856E+001 -6.5421122332E+001
10380000000.000 -9.0269340983E+000 -1.3120289873E+002 -5.8356385938E+001 -3.4787568593E+001 -8.3500756807E+001 +1.7721702355E+002 -2.1004349516E+001 -5.0097042763E+001
10512500000.000 -8.9692820081E+000 -1.3115497433E+002 -5.8027455434E+001 -6.8495726862E+001 -1.0279876185E+002 -4.5278612983E+001 -2.1592160318E+001 -4.2060000597E+001
10645000000.000 -8.8728949107E+000 -1.3101848763E+002 -5.8597903784E+001 -1.0110647185E+002 -8.3320190144E+001 -4.1484672230E+000 -2.2819170205E+001 -2.3372094447E+001
10777500000.000 -8.7657048865E+000 -1.3131385509E+002 -5.8360890648E+001 -1.2862226998E+002 -9.0002455015E+001 +1.1326906935E+002 -2.2147587241E+001 -6.0762460691E+000
10910000000.000 -8.6859183253E+000 -1.3161025110E+002 -5.8241733456E+001 -1.6711116969E+002 -8.5767912411E+001 -7.5288938818E+001 -2.2820797152E+001 +4.1317276456E+000
11042500000.000 -8.6144080514E+000 -1.3165644089E+002 -5.8070449286E+001 +1.6217562492E+002 -8.1244871923E+001 -7.6451281978E+001 -2.3440536527E+001 +2.8094744957E+001
11175000000.000 -8.5147663401E+000 -1.3146518787E+002 -5.8544461846E+001 +1.2760900608E+002 -8.2302624172E+001 +9.7312411301E+001 -2.2233018857E+001 +4.2708032018E+001
11307500000.000 -8.4355532154E+000 -1.3149241087E+002 -5.8509187823E+001 +9.2414085197E+001 -8.8374829719E+001 +1.6711447394E+002 -2.2772447120E+001 +5.3306943403E+001
11440000000.000 -8.3542851298E+000 -1.3176005594E+002 -5.8139981083E+001 +6.3156319423E+001 -8.0249538370E+001 +1.0434635656E+000 -2.2542876215E+001 +7.5937471785E+001
11572500000.000 -8.2665621780E+000 -1.3141088067E+002 -5.7487978934E+001 +2.7318779130E+001 -8.2425984172E+001 +1.1691465762E+002 -2.1183506725E+001 +8.6960356952E+001
11705000000.000 -8.2035136002E+000 -1.3143209423E+002 -5.7842042032E+001 -7.3321814741E+000 -8.7052805740E+001 -1.5938824943E+002 -2.1768059544E+001 +9.7425748307E+001
11837500000.000 -8.1154645352E+000 -1.3139402132E+002 -5.7670554172E+001 -4.2390519511E+001 -9.1884968578E+001 -1.7584761870E+002 -2.1063241030E+001 +1.1909683249E+002
11970000000.000 -8.0916111171E+000 -1.3137090250E+002 -5.7805156306E+001 -7.7108966214E+001 -8.6855240394E+001 +1.9334069475E+001 -1.9865967993E+001 +1.2532701962E+002
12102500000.000 -8.0529080101E+000 -1.3118509377E+002 -5.7756373898E+001 -1.1331704018E+002 -8.7632472582E+001 +8.2018530624E+001 -2.0747995855E+001 +1.3605791756E+002
12235000000.000 -7.9660613539E+000 -1.3121535194E+002 -5.7578772565E+001 -1.4434636090E+002 -8.5302148995E+001 -5.0050267050E+001 -1.9680964232E+001 +1.5437813975E+002
12367500000.000 -7.9503334528E+000 -1.3131040331E+002 -5.8237100332E+001 -1.7800075950E+002 -8.3000269452E+001 +4.7041794057E+001 -1.8939159722E+001 +1.5757535852E+002
12500000000.000 -7.9192437702E+000 -1.3161492883E+002 -5.8195376499E+001 +1.4729261238E+002 -1.0006991698E+002 +2.9992750235E+001 -2.0064679376E+001 +1.6892110635E+002
12632500000.000 -7.8665830766E+000 -1.3141174222E+002 -5.7682174377E+001 +1.0865824245E+002 -8.4604829560E+001 -6.1998555796E+001 -1.9059986826E+001 -1.7326449494E+002
12765000000.000 -7.8088602766E+000 -1.3145228177E+002 -5.8177115061E+001 +7.7727345325E+001 -9.1562126796E+001 +9.9725985867E+001 -1.8585789349E+001 -1.7182261958E+002
12897500000.000 -7.7935555908E+000 -1.3177601048E+002 -5.8303678320E+001 +4.3513989279E+001 -8.5883943950E+001 +1.2464173326E+002 -2.0174969749E+001 -1.5866531536E+002
13030000000.000 -7.7718938298E+000 -1.3185222107E+002 -5.7898978336E+001 +5.7989050179E+000 -8.4171688724E+001 -1.4379949171E+002 -1.8740715866E+001 -1.4166617703E+002
13162500000.000 -7.7039177627E+000 -1.3193089185E+002 -5.7925264445E+001 -2.3465215276E+001 -8.4092750888E+001 -7.3378045032E+001 -1.8692659508E+001 -1.4215420522E+002
13295000000.000 -7.6519877762E+000 -1.3197011906E+002 -5.8128224870E+001 -5.8903098726E+001 -8.4426260066E+001 +1.3652894860E+002 -2.0091009825E+001 -1.2724714327E+002
13427500000.000 -7.6140634680E+000 -1.3233430777E+002 -5.7890492127E+001 -9.4510263937E+001 -8.5386896241E+001 -1.6546469125E+002 -1.8765580795E+001 -1.1419601640E+002
13560000000.000 -7.6179718856E+000 -1.3215904105E+002 -5.8124996574E+001 -1.2755516851E+002 -9.0781827710E+001 +1.2360045253E+002 -1.9063028946E+001 -1.1507663682E+002
13692500000.000 -7.5397503477E+000 -1.3220812280E+002 -5.8423421288E+001 -1.5988232633E+002 -7.6969682032E+001 +1.0456069203E+002 -2.0849370384E+001 -1.0094360523E+002
13825000000.000 -7.4739501107E+000 -1.3241064490E+002 -5.8622652592E+001 +1.6671442444E+002 -8.1091999505E+001 -1.2519863349E+002 -1.9693915231E+001 -8.7608697751E+001
13957500000.000 -7.4615014213E+000 -1.3282628972E+002 -5.7945661705E+001 +1.3427180804E+002 -8.0565088303E+001 -6.4218364105E+001 -2.0391132847E+001 -9.0182906895E+001
14090000000.000 -7.4421897126E+000 -1.3266643568E+002 -5.8591803042E+001 +1.0057523622E+002 -7.9435452427E+001 +3.8024443241E+001 -2.2625987157E+001 -7.2429164107E+001
14222500000.000 -7.3761530238E+000 -1.3249462739E+002 -5.7631453870E+001 +6.4301238716E+001 -8.4438201067E+001 +3.7972714429E+000 -2.1275122337E+001 -5.9609277665E+001
14355000000.000 -7.2793831001E+000 -1.3293434023E+002 -5.7649732167E+001 +2.8633749026E+001 -8.6128794165E+001 -9.7815293547E+001 -2.2570557639E+001 -6.3340334195E+001
14487500000.000 -7.2542953620E+000 -1.3306150700E+002 -5.8901286349E+001 -3.9181666099E+000 -8.2704425931E+001 -4.5630549587E+001 -2.5386513123E+001 -4.0022791672E+001
14620000000.000 -7.2305485886E+000 -1.3278664147E+002 -5.8744845043E+001 -3.3999109001E+001 -9.2335244905E+001 -1.2216570079E+002 -2.3303540657E+001 -2.8215981620E+001
14752500000.000 -7.1197159477E+000 -1.3266867416E+002 -5.8001156202E+001 -8.0702261426E+001 -8.8624219582E+001 -1.3406201094E+002 -2.5518377958E+001 -3.6085157810E+001
14885000000.000 -7.0591742602E+000 -1.3287034243E+002 -5.8704752637E+001 -1.1025406358E+002 -9.0976601962E+001 +6.5919219818E+001 -2.8577547091E+001 +2.6296052265E+000
15017500000.000 -7.0170191272E+000 -1.3252815583E+002 -5.8720792538E+001 -1.4613254166E+002 -7.9754759181E+001 +1.2903321371E+001 -2.5399360037E+001 +7.7168703786E+000
15150000000.000 -6.9555432411E+000 -1.3233747903E+002 -5.8625442959E+001 -1.7777219240E+002 -8.1197505953E+001 -1.5266468153E+002 -2.9404957542E+001 -1.8300269910E+000
15282500000.000 -6.9057222656E+000 -1.3219098881E+002 -5.8952997171E+001 +1.5100949564E+002 -7.9211154158E+001 +8.5355845199E+000 -3.0709087808E+001 +5.7616812080E+001
