!  2-Port S-parameters saved by WinCal
! VAR MeasName=S-Parameters (CALIBRATED_DATA) read from VNA (C)
! VAR MeasDate=9/29/2015 4:37:43 PM
! VAR NAME=M6082_19_17_2_2_20C_3.4mA_-17.5dBm
! VAR FILENAME=M6082_19_17_2_2_20C_3.4mA_-17.5dBm.S2P
! VAR DATE=9/29/2015 4:37:43 PM
! VAR PHYS_PORTS=2,1
! VAR ObjTypeName=DATASET
! VAR IndexType=Frequency
!
# Hz S DB R 50
45000000.000 -2.9748518910E+001 -2.8749790606E+000 -5.2035266583E+001 +1.0605827795E+002 -5.8568687797E+001 -6.4848205070E+001 -3.1565725841E+001 +5.6685903096E+000
177500000.000 -2.9190674916E+001 -1.5198511889E+001 -5.4397536113E+001 +6.7738764806E+001 -7.5762981481E+001 +7.6271426291E+001 -3.2679298512E+001 +4.5741856046E+001
310000000.000 -2.8547847502E+001 -2.6529747180E+001 -5.5853135564E+001 +3.4257118684E+001 -8.9291034797E+001 +9.6790151149E+001 -2.3321123313E+001 +6.4255194971E+001
442500000.000 -2.7800434955E+001 -3.6523825366E+001 -5.4299601652E+001 -3.9024621684E+000 -7.9443796585E+001 -7.6949256647E+000 -2.2403045372E+001 +1.6921758502E+001
575000000.000 -2.6843299705E+001 -4.5316022387E+001 -5.4908293475E+001 -3.5886264825E+001 -8.2226240324E+001 +3.7574309415E+001 -3.0598295938E+001 +2.2098407951E+001
707500000.000 -2.6056069708E+001 -5.2081900933E+001 -5.4941912925E+001 -7.1701386136E+001 -8.7928608526E+001 +1.7510454056E+002 -3.4643127419E+001 +8.3557549136E+001
840000000.000 -2.5106941608E+001 -5.7708071462E+001 -5.5110929638E+001 -1.0571454786E+002 -8.7572206388E+001 +5.4681845193E+001 -2.9670253804E+001 +1.2793130215E+002
972500000.000 -2.4234376734E+001 -6.1820121481E+001 -5.5690721460E+001 -1.4011482301E+002 -8.4476116328E+001 +3.1445150241E+001 -2.5927792118E+001 +1.3501987791E+002
1105000000.000 -2.3418790234E+001 -6.6120736643E+001 -5.5331079557E+001 -1.7496596591E+002 -9.3390994872E+001 -1.6005736652E+002 -2.4395632702E+001 +1.4083456561E+002
1237500000.000 -2.2723946179E+001 -6.9359944973E+001 -5.5383883345E+001 +1.5145970546E+002 -8.3552885206E+001 -1.1506542141E+002 -2.3394155321E+001 +1.5011006032E+002
1370000000.000 -2.2014493766E+001 -7.2326834791E+001 -5.5804724378E+001 +1.1667623363E+002 -8.3454737307E+001 +1.2249470607E+002 -2.2054395869E+001 +1.5981534352E+002
1502500000.000 -2.1388295499E+001 -7.4600258338E+001 -5.5496590773E+001 +8.3671260628E+001 -1.0574971195E+002 +8.3575559475E+001 -2.0859952535E+001 +1.6627102448E+002
1635000000.000 -2.0736541499E+001 -7.6554050902E+001 -5.5868579315E+001 +4.9625922203E+001 -8.5360481242E+001 -1.2756823018E+002 -2.0016624801E+001 +1.7323297745E+002
1767500000.000 -2.0124266807E+001 -7.8699198743E+001 -5.5840933809E+001 +1.4457011486E+001 -9.1322717729E+001 -1.1621617860E+002 -1.9014277489E+001 +1.7838030768E+002
1900000000.000 -1.9664916297E+001 -8.0213734070E+001 -5.5745381784E+001 -1.7154421203E+001 -9.0572235328E+001 -1.9556106266E+001 -1.8862394687E+001 -1.7839496427E+002
2032500000.000 -1.9180185057E+001 -8.1735736816E+001 -5.6233533625E+001 -5.4682840922E+001 -7.9371529766E+001 -6.9362621928E+001 -1.8669995910E+001 -1.6799640517E+002
2165000000.000 -1.8648348426E+001 -8.2848532272E+001 -5.6033329831E+001 -8.9746920771E+001 -7.5468958713E+001 +5.5325358122E+001 -1.7747309560E+001 -1.6120775711E+002
2297500000.000 -1.8252816136E+001 -8.4358769811E+001 -5.6117821466E+001 -1.2339444067E+002 -8.0198699704E+001 +1.5064652904E+002 -1.7238182139E+001 -1.5721571744E+002
2430000000.000 -1.7873805299E+001 -8.5292629257E+001 -5.6257069189E+001 -1.5965982703E+002 -8.3763781540E+001 -1.2586641701E+002 -1.6913693237E+001 -1.5305948678E+002
2562500000.000 -1.7442936180E+001 -8.6337128449E+001 -5.6967847625E+001 +1.6412375591E+002 -8.4749980429E+001 +5.9007149687E+001 -1.6820976971E+001 -1.5089210080E+002
2695000000.000 -1.7101788617E+001 -8.8039525410E+001 -5.6048845912E+001 +1.3646345923E+002 -7.7678349452E+001 -1.5630691375E+002 -1.7398814811E+001 -1.4739374703E+002
2827500000.000 -1.6870190961E+001 -8.9356699581E+001 -5.6627408785E+001 +1.0459407727E+002 -8.0365883191E+001 -1.6774695481E+002 -1.7823183775E+001 -1.4044164355E+002
2960000000.000 -1.6511719932E+001 -8.9926862716E+001 -5.5962522577E+001 +6.7962731325E+001 -7.9850851476E+001 +1.0265556455E+002 -1.8119366380E+001 -1.3591234345E+002
3092500000.000 -1.6123231573E+001 -9.1113485830E+001 -5.5801706745E+001 +3.3255463748E+001 -8.7416998322E+001 +9.2078511660E+001 -1.9114285013E+001 -1.2969867233E+002
3225000000.000 -1.5832573723E+001 -9.2774182076E+001 -5.6471811668E+001 +4.0621135137E+000 -8.3089789037E+001 -1.5818953958E+002 -1.9574337906E+001 -1.1961736367E+002
3357500000.000 -1.5617420500E+001 -9.3562669827E+001 -5.5886995968E+001 -3.5301305918E+001 -8.4008851192E+001 +1.6351702549E+001 -1.9893872558E+001 -1.1471949561E+002
3490000000.000 -1.5277110045E+001 -9.4361722760E+001 -5.6453238080E+001 -6.6711981784E+001 -7.7333175229E+001 +5.6712216881E+000 -2.1131661097E+001 -1.0915538963E+002
3622500000.000 -1.4933043989E+001 -9.5384133982E+001 -5.6127769813E+001 -1.0472731295E+002 -7.9540513829E+001 +1.6582431159E+002 -2.1955028218E+001 -9.8160297960E+001
3755000000.000 -1.4634249983E+001 -9.6488023284E+001 -5.6340440836E+001 -1.3444380931E+002 -8.0060259219E+001 -2.6529487025E+001 -2.2625677206E+001 -9.4894041653E+001
3887500000.000 -1.4374561830E+001 -9.7254391042E+001 -5.5841375487E+001 -1.7107126116E+002 -8.0780943904E+001 +9.7908833224E+001 -2.5026859506E+001 -8.8958975759E+001
4020000000.000 -1.4146766792E+001 -9.7917400726E+001 -5.5490310183E+001 +1.5404925978E+002 -7.9095260834E+001 -1.5423144880E+002 -2.6727546314E+001 -7.3767678155E+001
4152500000.000 -1.3851090734E+001 -9.8416396127E+001 -5.5751984427E+001 +1.2111100366E+002 -9.3345328378E+001 +1.5675549028E+002 -2.8756449855E+001 -6.5321077428E+001
4285000000.000 -1.3559844796E+001 -9.9105905861E+001 -5.5477684209E+001 +8.3819793081E+001 -7.6907640439E+001 +6.6739766948E+001 -3.3423315242E+001 -3.9528314445E+001
4417500000.000 -1.3365701526E+001 -1.0010684282E+002 -5.5580341762E+001 +5.4940867878E+001 -7.9773149126E+001 +1.3057716147E+002 -3.1906687492E+001 +7.4130370407E+000
4550000000.000 -1.3163955466E+001 -1.0037372225E+002 -5.6174584521E+001 +1.8031708883E+001 -8.5401902050E+001 -6.9212941549E+001 -3.0365542668E+001 +1.7469489878E+001
4682500000.000 -1.2907162982E+001 -1.0075185590E+002 -5.6059069340E+001 -1.6256212860E+001 -9.5934418384E+001 +1.0733857593E+002 -2.9772122738E+001 +3.7783899560E+001
4815000000.000 -1.2669130136E+001 -1.0159156165E+002 -5.5837942900E+001 -5.1271159128E+001 -9.7915556410E+001 -1.2770986659E+002 -2.7713361570E+001 +4.0691463353E+001
4947500000.000 -1.2507809768E+001 -1.0200468221E+002 -5.5669776272E+001 -8.2772322058E+001 -1.0253519980E+002 +1.5213838665E+002 -2.9418566629E+001 +3.4653759654E+001
5080000000.000 -1.2305461352E+001 -1.0215908949E+002 -5.5580175105E+001 -1.1682856895E+002 -8.2515990257E+001 +3.2463318927E+001 -3.2351976450E+001 +5.5996421622E+001
5212500000.000 -1.2080927847E+001 -1.0270351847E+002 -5.5104469915E+001 -1.5060180054E+002 -8.7650083461E+001 +8.9505616977E+001 -3.1628149743E+001 +6.8294958051E+001
5345000000.000 -1.1933429373E+001 -1.0328689740E+002 -5.5744528484E+001 +1.7293726870E+002 -8.7098791088E+001 +1.1201590698E+002 -3.5479790307E+001 +6.8931248603E+001
5477500000.000 -1.1795368000E+001 -1.0340714315E+002 -5.5037282879E+001 +1.4105976052E+002 -8.7372203089E+001 -2.4569439375E+001 -3.7581311496E+001 +1.3246496729E+002
5610000000.000 -1.1605279175E+001 -1.0363130454E+002 -5.5159828019E+001 +1.0637154678E+002 -8.7302154276E+001 +2.4199095513E+001 -3.3767322571E+001 +1.3523943015E+002
5742500000.000 -1.1454493332E+001 -1.0427090172E+002 -5.5229797507E+001 +6.9362021625E+001 -9.8217773350E+001 -8.6372832572E+001 -3.8220168010E+001 +1.5195854441E+002
5875000000.000 -1.1352412004E+001 -1.0477118635E+002 -5.5018469689E+001 +3.7598161982E+001 -9.2583652784E+001 +1.0350569284E+001 -3.3922357516E+001 -1.6937834395E+002
6007500000.000 -1.1243988769E+001 -1.0504917467E+002 -5.5140577171E+001 +2.2978648749E+000 -8.7480799752E+001 +1.0160409979E+002 -3.2770347318E+001 +1.7958401090E+002
6140000000.000 -1.1074243791E+001 -1.0535060975E+002 -5.5083442164E+001 -3.2617675244E+001 -8.4416962946E+001 -1.6150500508E+002 -3.6436048820E+001 -1.7075937913E+002
6272500000.000 -1.0922952930E+001 -1.0613586729E+002 -5.4921581696E+001 -6.6801409486E+001 -9.8747001722E+001 -8.7569537935E+001 -3.4156354735E+001 -1.4374856067E+002
6405000000.000 -1.0851026846E+001 -1.0696911409E+002 -5.4669431009E+001 -1.0235635742E+002 -8.3666300352E+001 +6.5673921302E+000 -3.3901655163E+001 -1.6161471424E+002
6537500000.000 -1.0733638140E+001 -1.0703637604E+002 -5.5058206948E+001 -1.3532263567E+002 -8.9267734690E+001 +1.6758827953E+002 -4.0187255269E+001 -1.6263681601E+002
6670000000.000 -1.0550757192E+001 -1.0742888245E+002 -5.4959094440E+001 -1.7125572694E+002 -8.6987375900E+001 -1.2368808248E+002 -3.9923948626E+001 -1.3871968193E+002
6802500000.000 -1.0380369049E+001 -1.0841120041E+002 -5.4696585826E+001 +1.5242638583E+002 -8.6242457889E+001 +6.5560394430E+001 -3.9238265823E+001 +1.7851073534E+002
6935000000.000 -1.0328287786E+001 -1.0910048372E+002 -5.4901248911E+001 +1.1805886069E+002 -8.7510380798E+001 +7.4631322363E+001 -3.8601424822E+001 +1.2370619374E+002
7067500000.000 -1.0206635215E+001 -1.0910018067E+002 -5.4935935035E+001 +8.2480815223E+001 -8.9031168844E+001 -1.1028046627E+002 -3.8314935045E+001 +1.1551636283E+002
7200000000.000 -1.0018371647E+001 -1.0951088169E+002 -5.4691619561E+001 +5.0206294483E+001 -8.3112440062E+001 +8.1110099336E+001 -3.2777242938E+001 +1.2982872016E+002
7332500000.000 -9.8871443593E+000 -1.1047459752E+002 -5.4635030396E+001 +1.4058127427E+001 -9.0908029156E+001 +5.6674160607E+001 -2.9170460518E+001 +1.1922514763E+002
7465000000.000 -9.8023843086E+000 -1.1084134985E+002 -5.4903659547E+001 -2.2008435901E+001 -8.5798263518E+001 -1.5295809777E+001 -2.8519106184E+001 +1.2354943492E+002
7597500000.000 -9.6695244488E+000 -1.1094884929E+002 -5.5072456476E+001 -5.4600094391E+001 -8.7043520482E+001 +9.5091983443E-001 -2.6009113949E+001 +1.3691887079E+002
7730000000.000 -9.4911862134E+000 -1.1141116083E+002 -5.4721432485E+001 -9.0442645076E+001 -8.0413674343E+001 +1.4365169131E+002 -2.3776654109E+001 +1.3762093601E+002
7862500000.000 -9.3745028836E+000 -1.1189695252E+002 -5.4854623302E+001 -1.2500176743E+002 -8.8523794397E+001 -1.7294349896E+002 -2.3254079483E+001 +1.4214425453E+002
7995000000.000 -9.2951862321E+000 -1.1207786009E+002 -5.4541068617E+001 -1.5894313291E+002 -8.5486295231E+001 -6.0144336213E+001 -2.1769648642E+001 +1.5403412986E+002
8127500000.000 -9.1176154317E+000 -1.1206577261E+002 -5.4695945441E+001 +1.6581218908E+002 -8.8972218838E+001 -1.0629600957E+001 -2.0051505747E+001 +1.5633486812E+002
8260000000.000 -8.9995461039E+000 -1.1271879936E+002 -5.4862631853E+001 +1.2936628213E+002 -8.5652411759E+001 +1.1610026113E+002 -1.9851731214E+001 +1.6043434235E+002
8392500000.000 -8.9144061792E+000 -1.1278371044E+002 -5.4094913870E+001 +9.7004823094E+001 -9.0501563472E+001 -1.6805020576E+002 -1.9042201117E+001 +1.7031144875E+002
8525000000.000 -8.8084582608E+000 -1.1275076124E+002 -5.4203895160E+001 +6.3199858385E+001 -8.9676407991E+001 +5.2078533886E+001 -1.8223309674E+001 +1.7291895245E+002
8657500000.000 -8.6726251066E+000 -1.1301631994E+002 -5.4346087470E+001 +2.6761006950E+001 -8.7609964842E+001 +7.8020524585E+001 -1.8558711221E+001 +1.7804631342E+002
8790000000.000 -8.5661411768E+000 -1.1328538358E+002 -5.3901217185E+001 -8.4991360053E+000 -8.6598413306E+001 -9.6938265988E+001 -1.8346507524E+001 -1.7188752845E+002
8922500000.000 -8.5180594635E+000 -1.1355303074E+002 -5.4065462211E+001 -4.1692257948E+001 -8.1261788573E+001 +9.5990641154E+000 -1.8023366921E+001 -1.6601695476E+002
9055000000.000 -8.4140270357E+000 -1.1352703522E+002 -5.4012415443E+001 -8.1664339217E+001 -9.0943495461E+001 +9.0378091353E+001 -1.8428156678E+001 -1.5817522149E+002
9187500000.000 -8.3248467400E+000 -1.1384698418E+002 -5.3813957838E+001 -1.1532872441E+002 -8.2700051925E+001 -1.1456520352E+002 -1.8372271242E+001 -1.4666678252E+002
9320000000.000 -8.2417025001E+000 -1.1453085173E+002 -5.3582259712E+001 -1.5238512647E+002 -9.0132228843E+001 -6.7432456701E+001 -1.8262034027E+001 -1.3956852332E+002
9452500000.000 -8.1848514028E+000 -1.1479206181E+002 -5.3708368666E+001 +1.7327817347E+002 -8.3232603064E+001 +1.5125731422E+002 -1.8812518218E+001 -1.3023467912E+002
9585000000.000 -8.0933611640E+000 -1.1501622297E+002 -5.3637820760E+001 +1.3585093957E+002 -8.6096665609E+001 +1.7626584713E+002 -1.8769417644E+001 -1.1863120041E+002
9717500000.000 -7.9749388631E+000 -1.1553969558E+002 -5.3468024341E+001 +1.0013406754E+002 -9.0730198929E+001 -1.7539182932E+002 -1.8883605494E+001 -1.1116501815E+002
9850000000.000 -7.9227237598E+000 -1.1643558811E+002 -5.3849979070E+001 +6.2900024189E+001 -9.2641477346E+001 -1.2675096522E+002 -1.9617415682E+001 -1.0010393549E+002
9982500000.000 -7.8554222293E+000 -1.1656311939E+002 -5.3708662125E+001 +2.7946403789E+001 -9.7989616834E+001 -1.1941563806E+002 -1.9647786960E+001 -8.6850206434E+001
10115000000.000 -7.7513956787E+000 -1.1684278078E+002 -5.3696770140E+001 -7.4956851392E+000 -8.2080485556E+001 -3.1070734825E+001 -1.9969080178E+001 -7.9154779328E+001
10247500000.000 -7.6466139008E+000 -1.1762027122E+002 -5.3806145683E+001 -4.3519185417E+001 -8.5003318766E+001 +4.1730660889E+001 -2.1124281355E+001 -6.5338838203E+001
10380000000.000 -7.5991007734E+000 -1.1831808300E+002 -5.3776531632E+001 -8.1521693974E+001 -9.5467800175E+001 +1.1579956670E+002 -2.1003264958E+001 -5.0157363987E+001
10512500000.000 -7.5392140650E+000 -1.1863871513E+002 -5.4042781028E+001 -1.1703351808E+002 -8.1434397288E+001 -1.0239281272E+002 -2.1579599040E+001 -4.2147777596E+001
10645000000.000 -7.4562317766E+000 -1.1881377603E+002 -5.3951583301E+001 -1.5042760235E+002 -9.1752857636E+001 +2.5835560969E+001 -2.2817463874E+001 -2.3413343983E+001
10777500000.000 -7.3602028141E+000 -1.1949866866E+002 -5.4086265355E+001 +1.7276177137E+002 -1.0499803985E+002 +5.6621072843E+001 -2.2142584057E+001 -6.1740082573E+000
10910000000.000 -7.2884188993E+000 -1.2012885515E+002 -5.4631675488E+001 +1.3970138155E+002 -8.8512337774E+001 +1.1938300243E+002 -2.2822818692E+001 +4.1569544036E+000
11042500000.000 -7.2294393204E+000 -1.2045505005E+002 -5.4608500413E+001 +1.0418851893E+002 -8.2446183712E+001 -6.7417996556E+001 -2.3433889170E+001 +2.8021704919E+001
11175000000.000 -7.1382940292E+000 -1.2074514301E+002 -5.4626839929E+001 +6.5642068681E+001 -8.9921977895E+001 +6.3011640276E+001 -2.2232666140E+001 +4.2675123345E+001
11307500000.000 -7.0702013979E+000 -1.2109031327E+002 -5.4790677417E+001 +3.2573135573E+001 -8.9722748130E+001 -8.7969641807E+001 -2.2772781884E+001 +5.3269655688E+001
11440000000.000 -7.0068452264E+000 -1.2161379011E+002 -5.5001387725E+001 -4.3469977006E+000 -8.8259372974E+001 -8.2694099976E+001 -2.2539839861E+001 +7.5833798925E+001
11572500000.000 -6.9241536224E+000 -1.2162593289E+002 -5.5055272368E+001 -3.7996352722E+001 -8.9973768513E+001 +4.8773718456E+001 -2.1177823437E+001 +8.6869598929E+001
11705000000.000 -6.8733270978E+000 -1.2195753893E+002 -5.5234590753E+001 -7.2881024358E+001 -8.5276467809E+001 -1.4126736997E+002 -2.1780822551E+001 +9.7339332075E+001
11837500000.000 -6.8012152146E+000 -1.2223512475E+002 -5.5401139130E+001 -1.0654185717E+002 -8.1485417256E+001 -1.0737215396E+002 -2.1064952923E+001 +1.1906636318E+002
11970000000.000 -6.7872433098E+000 -1.2246635843E+002 -5.5723370630E+001 -1.4540160860E+002 -9.1573915409E+001 +3.2121373353E+001 -1.9875345398E+001 +1.2527319368E+002
12102500000.000 -6.7497905151E+000 -1.2253492895E+002 -5.5436133183E+001 -1.7909731779E+002 -8.4840979058E+001 -1.2079470522E+002 -2.0757956272E+001 +1.3596467733E+002
12235000000.000 -6.6802680761E+000 -1.2283928036E+002 -5.5883108267E+001 +1.4712720035E+002 -8.8628859848E+001 -2.9312696494E+001 -1.9684276335E+001 +1.5424369685E+002
12367500000.000 -6.6761695936E+000 -1.2310275824E+002 -5.6041479056E+001 +1.1425706509E+002 -9.0196623416E+001 -2.0233537387E+000 -1.8940518500E+001 +1.5751094915E+002
12500000000.000 -6.6607779950E+000 -1.2362689978E+002 -5.6182351366E+001 +7.5462073691E+001 -8.3140370830E+001 +1.2917471370E+002 -2.0067153547E+001 +1.6881015531E+002
12632500000.000 -6.6180731304E+000 -1.2368747009E+002 -5.6400923934E+001 +4.2043569642E+001 -8.4533165944E+001 -3.5427706024E+001 -1.9059168464E+001 -1.7333622420E+002
12765000000.000 -6.5761144115E+000 -1.2394287331E+002 -5.6598778838E+001 +3.3261983093E+000 -9.8941949441E+001 -6.1355608062E+001 -1.8584199725E+001 -1.7186727157E+002
12897500000.000 -6.5783684338E+000 -1.2439233102E+002 -5.6256525284E+001 -2.9869032006E+001 -8.4620311459E+001 +1.2505259189E+002 -2.0164667311E+001 -1.5867510330E+002
13030000000.000 -6.5646263781E+000 -1.2465559471E+002 -5.7115414701E+001 -6.5305627311E+001 -8.9712961799E+001 -1.4587026669E+002 -1.8728259015E+001 -1.4169018297E+002
13162500000.000 -6.5188391184E+000 -1.2493407000E+002 -5.7098316263E+001 -1.0151613846E+002 -9.4847501206E+001 -2.9314066583E+001 -1.8675922859E+001 -1.4218048366E+002
13295000000.000 -6.4848100707E+000 -1.2516715570E+002 -5.7008183320E+001 -1.3578032437E+002 -8.5030542558E+001 +7.8165289540E+001 -2.0075689761E+001 -1.2724515556E+002
13427500000.000 -6.4655278249E+000 -1.2564186933E+002 -5.7693224769E+001 -1.7185767703E+002 -9.2744976565E+001 -5.4358334511E+000 -1.8751752402E+001 -1.1424638985E+002
13560000000.000 -6.4794217515E+000 -1.2563732178E+002 -5.7994708725E+001 +1.5697868723E+002 -7.7906385901E+001 -3.6386839198E+001 -1.9047589047E+001 -1.1507227091E+002
13692500000.000 -6.4175820201E+000 -1.2588002325E+002 -5.8485474647E+001 +1.2336624913E+002 -8.6864935611E+001 +9.8506688285E+001 -2.0846235100E+001 -1.0096169304E+002
13825000000.000 -6.3762326558E+000 -1.2624835365E+002 -5.8656638093E+001 +8.7081782992E+001 -7.7042568682E+001 -1.2998463440E+002 -1.9680081149E+001 -8.7698949458E+001
13957500000.000 -6.3802568683E+000 -1.2673941014E+002 -5.9561996643E+001 +4.9993410874E+001 -8.6621332647E+001 -8.0373353957E+001 -2.0391070775E+001 -9.0283504337E+001
14090000000.000 -6.3712029409E+000 -1.2674937708E+002 -5.9523204760E+001 +1.6760242296E+001 -8.2048074572E+001 -9.2419014924E+001 -2.2618644406E+001 -7.2639629887E+001
14222500000.000 -6.3228213266E+000 -1.2675801248E+002 -5.9947135485E+001 -1.1963655447E+001 -7.9730150840E+001 +1.0811563894E+002 -2.1275213562E+001 -5.9635331895E+001
14355000000.000 -6.2534152570E+000 -1.2731388058E+002 -6.0064740731E+001 -4.8096159124E+001 -7.8895523350E+001 -1.4955780311E+002 -2.2557616769E+001 -6.3333914369E+001
14487500000.000 -6.2436272743E+000 -1.2753118320E+002 -5.9580761423E+001 -8.0915378494E+001 -8.7822485653E+001 +1.7012012971E+002 -2.5376555278E+001 -4.0063079064E+001
14620000000.000 -6.2288047363E+000 -1.2742008528E+002 -5.9914290105E+001 -1.1661646871E+002 -8.0329845310E+001 +1.6615088100E+002 -2.3288921668E+001 -2.8287461154E+001
14752500000.000 -6.1456989845E+000 -1.2744713250E+002 -6.0465461656E+001 -1.5476282294E+002 -8.5800983283E+001 +4.4682134859E+001 -2.5515230018E+001 -3.6075130596E+001
14885000000.000 -6.0991823380E+000 -1.2775567146E+002 -6.1354160360E+001 +1.6931745564E+002 -8.8794987185E+001 -7.3816527098E+001 -2.8614240466E+001 +2.4814904661E+000
15017500000.000 -6.0695485899E+000 -1.2757363100E+002 -6.0466568654E+001 +1.3811403491E+002 -8.6611436957E+001 +1.1296309562E+002 -2.5415834484E+001 +7.5033043006E+000
15150000000.000 -6.0191186432E+000 -1.2746850258E+002 -6.0120815884E+001 +1.0108106298E+002 -8.3476417301E+001 -1.4062465351E+002 -2.9430542172E+001 -1.9099072045E+000
15282500000.000 -5.9833574478E+000 -1.2743505077E+002 -6.0927060064E+001 +7.0314098232E+001 -7.8170206995E+001 -2.1473599473E+001 -3.0658656304E+001 +5.7692503364E+001
