!  2-Port S-parameters saved by WinCal
! VAR MeasName=S-Parameters (CALIBRATED_DATA) read from VNA (C)
! VAR MeasDate=9/29/2015 4:42:35 PM
! VAR NAME=M6082_19_17_2_2_20C_10.0mA_-17.5dBm
! VAR FILENAME=M6082_19_17_2_2_20C_10.0mA_-17.5dBm.S2P
! VAR DATE=9/29/2015 4:42:35 PM
! VAR PHYS_PORTS=2,1
! VAR ObjTypeName=DATASET
! VAR IndexType=Frequency
!
# Hz S DB R 50
45000000.000 -2.0446486998E+001 -1.7912100287E+002 -5.4388120861E+001 +1.1459800638E+002 -6.6142778196E+001 +1.1372318210E+002 -3.0392925898E+001 +5.3155503802E+000
177500000.000 -2.0538557975E+001 -1.7697315674E+002 -5.6481513203E+001 +7.0389533892E+001 -7.7715687431E+001 +3.8191878353E+001 -3.2750762981E+001 +4.6288082481E+001
310000000.000 -2.0519890555E+001 -1.7404188550E+002 -5.5102372954E+001 +3.9083773078E+001 -7.9059787311E+001 +1.4156574685E+002 -2.3349302937E+001 +6.4201079771E+001
442500000.000 -2.0510035127E+001 -1.7110316731E+002 -5.5186865902E+001 +2.6224313866E+000 -8.3670760093E+001 -1.8930366212E+001 -2.2384915401E+001 +1.7017719201E+001
575000000.000 -2.0412921952E+001 -1.6781303366E+002 -5.5197461147E+001 -3.4665457138E+001 -8.5563365983E+001 +7.8638440418E+001 -3.0577300535E+001 +2.2227658985E+001
707500000.000 -2.0274988891E+001 -1.6537884128E+002 -5.5250118691E+001 -6.9847180488E+001 -8.5541627770E+001 -1.7709815461E+002 -3.4672294153E+001 +8.3523875462E+001
840000000.000 -2.0141790205E+001 -1.6219735171E+002 -5.4953323608E+001 -9.9762220098E+001 -8.5042658055E+001 -7.4308975559E+001 -2.9648249403E+001 +1.2772814001E+002
972500000.000 -2.0008687601E+001 -1.5947032981E+002 -5.5244723879E+001 -1.3545395399E+002 -9.1435639307E+001 +1.7190480697E+002 -2.5913201303E+001 +1.3499694699E+002
1105000000.000 -1.9789087701E+001 -1.5677395905E+002 -5.5393575215E+001 -1.7501424395E+002 -8.4272750912E+001 -1.3347191527E+002 -2.4383504221E+001 +1.4060513434E+002
1237500000.000 -1.9588255309E+001 -1.5455646059E+002 -5.5359411732E+001 +1.5298111086E+002 -7.9579134038E+001 -2.8981130793E+001 -2.3388814860E+001 +1.5005208149E+002
1370000000.000 -1.9334876242E+001 -1.5236017344E+002 -5.5516001435E+001 +1.2042235282E+002 -8.4157629194E+001 +9.6334105111E+001 -2.2054146848E+001 +1.5990736904E+002
1502500000.000 -1.9129805957E+001 -1.5025168515E+002 -5.5574649329E+001 +8.4991332737E+001 -8.4411561536E+001 -1.3719387447E+002 -2.0861839467E+001 +1.6624065022E+002
1635000000.000 -1.8908236560E+001 -1.4794333380E+002 -5.5950656040E+001 +5.6409171056E+001 -8.8950406164E+001 +1.1730068669E+002 -2.0024014219E+001 +1.7321615538E+002
1767500000.000 -1.8624796645E+001 -1.4611382645E+002 -5.5556719719E+001 +2.2129544741E+001 -8.7484992724E+001 +5.1950189393E+001 -1.9004213642E+001 +1.7837828435E+002
1900000000.000 -1.8442206365E+001 -1.4469294816E+002 -5.5707778292E+001 -1.3800763304E+001 -9.0393662924E+001 +1.3980739586E+002 -1.8858158408E+001 -1.7842450446E+002
2032500000.000 -1.8232637449E+001 -1.4310977319E+002 -5.5525983860E+001 -5.5188837407E+001 -1.0760706328E+002 -5.9645821866E+000 -1.8663712014E+001 -1.6803586672E+002
2165000000.000 -1.7996312505E+001 -1.4112635397E+002 -5.7130287605E+001 -9.2226556490E+001 -8.4368804391E+001 +1.7988528859E+002 -1.7739620247E+001 -1.6119475302E+002
2297500000.000 -1.7751013228E+001 -1.4001795065E+002 -5.5737516965E+001 -1.2906434835E+002 -8.6385160554E+001 +7.7034913930E+001 -1.7232733467E+001 -1.5722046636E+002
2430000000.000 -1.7545697779E+001 -1.3883127970E+002 -5.6213584096E+001 -1.6300313396E+002 -7.6401662606E+001 -4.3542703476E+001 -1.6917223963E+001 -1.5305796325E+002
2562500000.000 -1.7282149264E+001 -1.3735837097E+002 -5.6637612566E+001 +1.6874600487E+002 -8.4112582046E+001 -1.7733970601E+002 -1.6817398352E+001 -1.5084973967E+002
2695000000.000 -1.7005425265E+001 -1.3690641693E+002 -5.5969935952E+001 +1.3394010040E+002 -8.0697569202E+001 -1.2012557760E+002 -1.7405626089E+001 -1.4729565416E+002
2827500000.000 -1.6827633596E+001 -1.3657696321E+002 -5.6259462944E+001 +1.0121196725E+002 -7.8590071719E+001 +6.2437535521E+001 -1.7830086358E+001 -1.4030451026E+002
2960000000.000 -1.6630386435E+001 -1.3536909036E+002 -5.5871360498E+001 +6.6142923983E+001 -7.4098706025E+001 +8.2371180080E+001 -1.8119317787E+001 -1.3593225470E+002
3092500000.000 -1.6326250407E+001 -1.3447756056E+002 -5.7024410437E+001 +2.8784026419E+001 -8.5876095587E+001 +1.6750101996E+002 -1.9113505330E+001 -1.2965850366E+002
3225000000.000 -1.6045200752E+001 -1.3438244348E+002 -5.6007753512E+001 +6.6988751596E+000 -7.9822700023E+001 -6.7727133237E+001 -1.9557693260E+001 -1.1965058558E+002
3357500000.000 -1.5890066748E+001 -1.3401781682E+002 -5.5865214304E+001 -3.5943142473E+001 -9.0400093248E+001 -9.9589846066E+001 -1.9868394649E+001 -1.1462568490E+002
3490000000.000 -1.5636387281E+001 -1.3314057060E+002 -5.7130697648E+001 -6.5342967677E+001 -8.7920979093E+001 +1.2279412261E+002 -2.1133856422E+001 -1.0925008568E+002
3622500000.000 -1.5354753962E+001 -1.3243525787E+002 -5.6176832585E+001 -1.0246583695E+002 -8.2156674848E+001 +1.5470145471E+002 -2.1959990124E+001 -9.8278455402E+001
3755000000.000 -1.5092010672E+001 -1.3207381829E+002 -5.6084036707E+001 -1.3115092569E+002 -8.3203697445E+001 +2.2103461165E+001 -2.2626959831E+001 -9.4829465285E+001
3887500000.000 -1.4876738814E+001 -1.3165467203E+002 -5.6096696995E+001 -1.6782215203E+002 -8.3104512565E+001 +5.2362941150E+001 -2.5029160746E+001 -8.8835833853E+001
4020000000.000 -1.4701595265E+001 -1.3127731055E+002 -5.6143408089E+001 +1.6049677713E+002 -8.3844947450E+001 +1.2445908831E+001 -2.6738348246E+001 -7.3690037458E+001
4152500000.000 -1.4466296702E+001 -1.3046414148E+002 -5.5271438403E+001 +1.2710806398E+002 -8.9806351676E+001 -2.1769846463E+001 -2.8765056923E+001 -6.5179424653E+001
4285000000.000 -1.4217320223E+001 -1.3005867444E+002 -5.5461461815E+001 +8.9542291597E+001 -8.4047644428E+001 +1.6771875167E+002 -3.3387626637E+001 -3.9788252403E+001
4417500000.000 -1.4027217005E+001 -1.2998340985E+002 -5.6109571182E+001 +5.6211887611E+001 -9.1855442651E+001 -1.4351118830E+002 -3.1868220282E+001 +7.5313550433E+000
4550000000.000 -1.3880095492E+001 -1.2939887168E+002 -5.6731027748E+001 +2.4266648310E+001 -8.7559140741E+001 -1.0417900058E+002 -3.0352530487E+001 +1.7382149951E+001
4682500000.000 -1.3676376798E+001 -1.2876694125E+002 -5.5960145573E+001 -7.8037102582E+000 -8.9730764125E+001 -6.3595901876E+001 -2.9755796459E+001 +3.7766388955E+001
4815000000.000 -1.3448092129E+001 -1.2870989814E+002 -5.5810036385E+001 -3.9893565973E+001 -8.6013152355E+001 +6.8934010123E+001 -2.7692987067E+001 +4.0705334902E+001
4947500000.000 -1.3315421155E+001 -1.2835465275E+002 -5.6339659327E+001 -7.7528549540E+001 -8.6679421198E+001 -1.0988631689E+002 -2.9395107853E+001 +3.4644901331E+001
5080000000.000 -1.3165597492E+001 -1.2775436922E+002 -5.5915994721E+001 -1.0734231247E+002 -1.1210054669E+002 +2.7117687815E+001 -3.2346380225E+001 +5.5917510365E+001
5212500000.000 -1.2959918111E+001 -1.2740517499E+002 -5.5720808760E+001 -1.4287720330E+002 -8.6831379422E+001 -1.6602002078E+002 -3.1657795182E+001 +6.8385771310E+001
5345000000.000 -1.2822641291E+001 -1.2740213842E+002 -5.5742825311E+001 -1.7726692285E+002 -8.3401309688E+001 -7.3561457400E+001 -3.5531519503E+001 +6.8820363837E+001
5477500000.000 -1.2725400819E+001 -1.2698227259E+002 -5.5545207777E+001 +1.4932170650E+002 -8.0540921427E+001 +1.8214418521E+001 -3.7538083931E+001 +1.3232753463E+002
5610000000.000 -1.2564745751E+001 -1.2644683210E+002 -5.5319241718E+001 +1.1538171329E+002 -8.8120807566E+001 +6.7418190882E+001 -3.3736713716E+001 +1.3489385682E+002
5742500000.000 -1.2417474711E+001 -1.2651858464E+002 -5.5306645125E+001 +7.9539097659E+001 -9.0576503670E+001 +7.7114049351E+001 -3.8253152501E+001 +1.5177899463E+002
5875000000.000 -1.2324047137E+001 -1.2660869062E+002 -5.5563380941E+001 +4.8473839179E+001 -9.9391300193E+001 -9.2490741459E+001 -3.3937143242E+001 -1.6927980130E+002
6007500000.000 -1.2244921809E+001 -1.2641916501E+002 -5.4966150055E+001 +1.3046091601E+001 -8.5479059217E+001 +3.6964553595E+001 -3.2765078794E+001 +1.7973392980E+002
6140000000.000 -1.2086149588E+001 -1.2611059197E+002 -5.5196773040E+001 -2.0951053826E+001 -9.4217090803E+001 -1.8083764561E+001 -3.6416382900E+001 -1.7044134898E+002
6272500000.000 -1.1921332329E+001 -1.2639494727E+002 -5.5151280845E+001 -5.8377006941E+001 -8.4253365141E+001 -3.8326636924E+001 -3.4131783434E+001 -1.4349100449E+002
6405000000.000 -1.1846552775E+001 -1.2690546108E+002 -5.5210384060E+001 -9.0769328368E+001 -8.7046712007E+001 +9.3802889932E+001 -3.3900212997E+001 -1.6168062712E+002
6537500000.000 -1.1757114351E+001 -1.2657544220E+002 -5.5015866025E+001 -1.2487049744E+002 -9.5256921016E+001 +1.0264480177E+002 -4.0144057358E+001 -1.6256560715E+002
6670000000.000 -1.1576808763E+001 -1.2635043050E+002 -5.5055832861E+001 -1.5894875081E+002 -8.9892868916E+001 +1.7634069914E+002 -3.9907236849E+001 -1.3901711931E+002
6802500000.000 -1.1385700929E+001 -1.2682741622E+002 -5.5647040510E+001 +1.6518293220E+002 -8.5510635963E+001 +1.3721506941E+002 -3.9316245023E+001 +1.7878273626E+002
6935000000.000 -1.1337987964E+001 -1.2731109458E+002 -5.5726949516E+001 +1.3267386410E+002 -9.3050301784E+001 +1.6642892273E+002 -3.8623233179E+001 +1.2383039505E+002
7067500000.000 -1.1238201528E+001 -1.2684981165E+002 -5.5419578522E+001 +9.9212155720E+001 -8.7661930314E+001 +1.5438168112E+002 -3.8347868580E+001 +1.1548509888E+002
7200000000.000 -1.1042166500E+001 -1.2667663695E+002 -5.5416612496E+001 +6.1431508895E+001 -8.7026574232E+001 -7.2181192570E+001 -3.2777688311E+001 +1.2958686156E+002
7332500000.000 -1.0893038460E+001 -1.2725137361E+002 -5.5743489998E+001 +2.8077163339E+001 -9.1540820247E+001 +9.3671732357E+001 -2.9180479115E+001 +1.1927116049E+002
7465000000.000 -1.0816380015E+001 -1.2731878832E+002 -5.5422395732E+001 -3.9184141876E+000 -8.3768945645E+001 -1.6831085329E+002 -2.8510694007E+001 +1.2340099913E+002
7597500000.000 -1.0691362867E+001 -1.2702646928E+002 -5.5323810182E+001 -3.7982680386E+001 -8.4648250689E+001 +1.9296582876E+001 -2.6017830633E+001 +1.3695480766E+002
7730000000.000 -1.0510115925E+001 -1.2697134129E+002 -5.6097541812E+001 -7.4114169634E+001 -8.4244685559E+001 +6.2393873757E+001 -2.3782876363E+001 +1.3758574815E+002
7862500000.000 -1.0398356229E+001 -1.2712836961E+002 -5.5972907384E+001 -1.0725291974E+002 -9.0916570412E+001 -3.3051382156E+001 -2.3265943706E+001 +1.4210756664E+002
7995000000.000 -1.0327750572E+001 -1.2702033719E+002 -5.5975163316E+001 -1.3851027838E+002 -8.1389789762E+001 -9.9750573493E+001 -2.1766855464E+001 +1.5407586808E+002
8127500000.000 -1.0157651172E+001 -1.2653656380E+002 -5.5870108498E+001 -1.7487937164E+002 -8.8675529047E+001 +2.7220749699E+001 -2.0043135392E+001 +1.5625830635E+002
8260000000.000 -1.0042476953E+001 -1.2689101211E+002 -5.6283130455E+001 +1.5291126875E+002 -8.5634484481E+001 +1.5079805839E+002 -1.9857590530E+001 +1.6039549565E+002
8392500000.000 -9.9686717712E+000 -1.2662748222E+002 -5.5652582501E+001 +1.1698076744E+002 -8.2962021363E+001 -3.9137760119E+001 -1.9041765867E+001 +1.7031789590E+002
8525000000.000 -9.8779784566E+000 -1.2628432138E+002 -5.6063147565E+001 +8.5637418610E+001 -9.2116765986E+001 -8.9924642023E+001 -1.8229946267E+001 +1.7289554759E+002
8657500000.000 -9.7499703193E+000 -1.2618220939E+002 -5.5598351897E+001 +5.0715225416E+001 -8.4492771231E+001 -1.7546976224E+002 -1.8559190704E+001 +1.7808511086E+002
8790000000.000 -9.6541527255E+000 -1.2618656590E+002 -5.5851471274E+001 +1.3843586853E+001 -9.6601044541E+001 +1.0381528381E+002 -1.8342050485E+001 -1.7192455065E+002
8922500000.000 -9.6143657505E+000 -1.2623094758E+002 -5.6301223401E+001 -1.7095184375E+001 -8.6459335656E+001 +2.1392437805E+001 -1.8027339924E+001 -1.6596375653E+002
9055000000.000 -9.5314555907E+000 -1.2586868053E+002 -5.6043978365E+001 -5.1075696408E+001 -8.7225377773E+001 +1.3138429779E+002 -1.8424512668E+001 -1.5818877287E+002
9187500000.000 -9.4499433076E+000 -1.2596212343E+002 -5.5823674265E+001 -8.6272725395E+001 -8.6938474192E+001 -1.2216405926E+002 -1.8367137226E+001 -1.4669771525E+002
9320000000.000 -9.3619134352E+000 -1.2642342738E+002 -5.5988366024E+001 -1.2288611351E+002 -8.7753763891E+001 -7.9462782334E+001 -1.8264623670E+001 -1.3962448525E+002
9452500000.000 -9.3179929040E+000 -1.2647066422E+002 -5.5882009918E+001 -1.5242055794E+002 -8.5400466886E+001 -1.4932083692E+002 -1.8812076971E+001 -1.3023221651E+002
9585000000.000 -9.2443550426E+000 -1.2638735852E+002 -5.5868025466E+001 +1.7439246051E+002 -8.4899801666E+001 -1.0704659168E+002 -1.8770174890E+001 -1.1863392752E+002
9717500000.000 -9.1148434241E+000 -1.2661572192E+002 -5.6165867216E+001 +1.3582158340E+002 -8.0487110473E+001 -3.5855751131E+001 -1.8885262242E+001 -1.1115275858E+002
9850000000.000 -9.0613684015E+000 -1.2732848041E+002 -5.6234260378E+001 +1.0619078354E+002 -8.9668547795E+001 +7.8769702460E+001 -1.9611900045E+001 -1.0012930126E+002
9982500000.000 -9.0116604790E+000 -1.2713834320E+002 -5.6289827343E+001 +7.1086675683E+001 -8.3040242476E+001 -1.7453655047E+002 -1.9649075305E+001 -8.6851841022E+001
10115000000.000 -8.9064017401E+000 -1.2709269503E+002 -5.6539131011E+001 +3.5121623365E+001 -8.6054750219E+001 -4.2314049103E+001 -1.9991193186E+001 -7.9151253498E+001
10247500000.000 -8.7854524869E+000 -1.2756800576E+002 -5.6555993321E+001 +1.6519293268E+000 -8.4371798365E+001 -5.3440460873E+001 -2.1131971141E+001 -6.5353894753E+001
10380000000.000 -8.7436192968E+000 -1.2802164972E+002 -5.6505945205E+001 -3.3736944556E+001 -9.9303310605E+001 -1.7375035978E+002 -2.1004536200E+001 -5.0083217807E+001
10512500000.000 -8.6856616893E+000 -1.2803443056E+002 -5.6223623070E+001 -6.5768121398E+001 -8.4680796923E+001 -7.1872228539E+001 -2.1580236059E+001 -4.2102091147E+001
10645000000.000 -8.5892492908E+000 -1.2796938956E+002 -5.6132221990E+001 -9.9193282633E+001 -8.7466702551E+001 +4.8735573544E+001 -2.2814330580E+001 -2.3262874137E+001
10777500000.000 -8.4843402255E+000 -1.2835845852E+002 -5.6520912623E+001 -1.3136715177E+002 -9.0737105744E+001 -5.1032664930E+001 -2.2139215570E+001 -6.0928653735E+000
10910000000.000 -8.4029293730E+000 -1.2869896655E+002 -5.5982016090E+001 -1.6620835472E+002 -9.4127752915E+001 +8.1223918165E+001 -2.2825920988E+001 +4.1675442213E+000
11042500000.000 -8.3343341495E+000 -1.2880879384E+002 -5.6307064360E+001 +1.6063884280E+002 -8.6502444987E+001 -5.5469515303E+001 -2.3440884326E+001 +2.8090446917E+001
11175000000.000 -8.2297376636E+000 -1.2869713701E+002 -5.5654265391E+001 +1.2654728176E+002 -8.2218983292E+001 +5.9894514681E+001 -2.2229229437E+001 +4.2708032610E+001
11307500000.000 -8.1538030298E+000 -1.2881899479E+002 -5.6386564774E+001 +9.2573612336E+001 -9.0840797840E+001 -1.1382225087E+002 -2.2773048612E+001 +5.3287104717E+001
11440000000.000 -8.0745395488E+000 -1.2915724984E+002 -5.6250957417E+001 +5.9025592988E+001 -8.7273773716E+001 -1.8377249165E+001 -2.2548137787E+001 +7.5847180495E+001
11572500000.000 -7.9836307191E+000 -1.2884739996E+002 -5.6100354029E+001 +2.7465844790E+001 -8.6525650522E+001 +9.2050010793E+001 -2.1171314512E+001 +8.6909519518E+001
11705000000.000 -7.9201312781E+000 -1.2893880697E+002 -5.5948919870E+001 -6.4809452470E+000 -8.1607908655E+001 -1.7161998801E+002 -2.1777203184E+001 +9.7398454845E+001
11837500000.000 -7.8329132602E+000 -1.2897201808E+002 -5.6334057847E+001 -4.1979056774E+001 -8.5003277276E+001 -4.4359632850E+001 -2.1067421056E+001 +1.1912349833E+002
11970000000.000 -7.8072055784E+000 -1.2901738649E+002 -5.5672060240E+001 -7.5703073631E+001 -8.6937477254E+001 +1.3181300615E+001 -1.9865945541E+001 +1.2528999224E+002
12102500000.000 -7.7694071412E+000 -1.2887923399E+002 -5.5666159995E+001 -1.1460989872E+002 -8.9524518345E+001 +1.7102355301E+002 -2.0748886437E+001 +1.3601253283E+002
12235000000.000 -7.6797867658E+000 -1.2896788443E+002 -5.6240412095E+001 -1.4861947549E+002 -8.5683653212E+001 -4.9061308447E+001 -1.9682871801E+001 +1.5429728933E+002
12367500000.000 -7.6653602152E+000 -1.2907858665E+002 -5.6151358865E+001 +1.7807448482E+002 -8.4468927417E+001 -4.3697129483E+001 -1.8942825784E+001 +1.5755281396E+002
12500000000.000 -7.6368699758E+000 -1.2946174877E+002 -5.5741360832E+001 +1.4588993995E+002 -8.5605381430E+001 +1.6186361816E+002 -2.0074235124E+001 +1.6893346580E+002
12632500000.000 -7.5829366989E+000 -1.2930280842E+002 -5.6100845396E+001 +1.0958211767E+002 -1.0702032145E+002 +1.0761135505E+002 -1.9061446875E+001 -1.7327916066E+002
12765000000.000 -7.5253364664E+000 -1.2938786443E+002 -5.6560954422E+001 +7.5046669730E+001 -8.4974157234E+001 -2.4668359245E+001 -1.8576831960E+001 -1.7180298941E+002
12897500000.000 -7.5164873259E+000 -1.2975211487E+002 -5.6256782481E+001 +4.2467773083E+001 -1.0471622399E+002 +1.0761810091E+002 -2.0169853286E+001 -1.5864020681E+002
13030000000.000 -7.4895572133E+000 -1.2985515004E+002 -5.6368667066E+001 +7.2563574639E+000 -8.9208261301E+001 +2.1909944330E+000 -1.8734782725E+001 -1.4164411867E+002
13162500000.000 -7.4234566070E+000 -1.2997449311E+002 -5.6284011230E+001 -2.5576295249E+001 -9.4959031873E+001 -2.3569181794E+001 -1.8682516588E+001 -1.4213242859E+002
13295000000.000 -7.3704730422E+000 -1.3006892055E+002 -5.6048355144E+001 -6.1097978877E+001 -8.9701033384E+001 -1.6730037071E+002 -2.0066950400E+001 -1.2729543858E+002
13427500000.000 -7.3359973611E+000 -1.3046668898E+002 -5.6138269889E+001 -9.4343461022E+001 -8.1444278863E+001 -1.2619286001E+002 -1.8763680955E+001 -1.1420077731E+002
13560000000.000 -7.3392854307E+000 -1.3030615277E+002 -5.6568617985E+001 -1.2746437311E+002 -7.8632807567E+001 -4.8784740243E+001 -1.9042123298E+001 -1.1503380371E+002
13692500000.000 -7.2624168643E+000 -1.3039911988E+002 -5.6196010495E+001 -1.6258404964E+002 -9.2430450564E+001 -4.0686764053E+001 -2.0844430774E+001 -1.0094712043E+002
13825000000.000 -7.1995069176E+000 -1.3065255961E+002 -5.6707291535E+001 +1.6109860507E+002 -8.0919124508E+001 +1.1799767774E+002 -1.9674734392E+001 -8.7609761321E+001
13957500000.000 -7.1902201748E+000 -1.3108128714E+002 -5.6579024780E+001 +1.3065700673E+002 -7.5544488176E+001 -9.5090300316E+001 -2.0389054594E+001 -9.0180577340E+001
14090000000.000 -7.1662976693E+000 -1.3097046783E+002 -5.6126452160E+001 +9.1644382351E+001 -7.6029308886E+001 +6.7054784523E+001 -2.2604854072E+001 -7.2380415126E+001
14222500000.000 -7.1060147751E+000 -1.3084950353E+002 -5.6194972217E+001 +6.3199408390E+001 -8.0013367225E+001 +1.6653927191E+002 -2.1269850153E+001 -5.9615004090E+001
14355000000.000 -7.0104624701E+000 -1.3131164718E+002 -5.6026304879E+001 +2.5596502653E+001 -8.2351848531E+001 -7.1686277260E+001 -2.2560597283E+001 -6.3320753817E+001
14487500000.000 -6.9872094718E+000 -1.3147383569E+002 -5.5693716220E+001 -8.5266513959E+000 -8.3147444166E+001 +2.4563744859E+001 -2.5386735371E+001 -3.9973628518E+001
14620000000.000 -6.9645471376E+000 -1.3123305154E+002 -5.6102071198E+001 -4.2706925257E+001 -8.6157390781E+001 +1.1317979941E+002 -2.3290658679E+001 -2.8188539702E+001
14752500000.000 -6.8583713397E+000 -1.3116835427E+002 -5.6061028853E+001 -7.2954067114E+001 -9.0925860564E+001 +1.0893479157E+002 -2.5516492723E+001 -3.5968994971E+001
14885000000.000 -6.8000563854E+000 -1.3142307507E+002 -5.6248344953E+001 -1.1339627684E+002 -7.9414446808E+001 -9.4970926430E+000 -2.8558081195E+001 +2.6149236366E+000
15017500000.000 -6.7585728818E+000 -1.3112450283E+002 -5.6222953955E+001 -1.4788658375E+002 -8.7709810021E+001 +1.7714950607E+002 -2.5393092003E+001 +7.6886996509E+000
15150000000.000 -6.6963960856E+000 -1.3094856612E+002 -5.6038110953E+001 +1.7694262223E+002 -7.8710644965E+001 -1.4042836678E+002 -2.9409444399E+001 -1.7082245071E+000
15282500000.000 -6.6496067180E+000 -1.3085576054E+002 -5.6181633037E+001 +1.4585467602E+002 -8.2474162935E+001 -4.0245556534E+000 -3.0686487958E+001 +5.7903434579E+001
