!  2-Port S-parameters saved by WinCal
! VAR MeasName=S-Parameters (CALIBRATED_DATA) read from VNA (C)
! VAR MeasDate=9/29/2015 3:01:05 PM
! VAR NAME=M6082_18_15_2_2_20C_10.0mA_-16.5dBm
! VAR FILENAME=M6082_18_15_2_2_20C_10.0mA_-16.5dBm.S2P
! VAR DATE=9/29/2015 3:01:05 PM
! VAR PHYS_PORTS=2,1
! VAR ObjTypeName=DATASET
! VAR IndexType=Frequency
!
# Hz S DB R 50
45000000.000 -2.4842068830E+001 -1.7896943988E+002 -5.9117754059E+001 +1.4579394169E+002 -5.4203629760E+001 -7.3600670299E+001 -3.0974080641E+001 +4.1362973526E+000
177500000.000 -2.5001250634E+001 -1.7568298513E+002 -5.4413674275E+001 +7.2317219090E+001 -7.2607702152E+001 +9.7257040812E+001 -3.2750034533E+001 +4.5536618666E+001
310000000.000 -2.5198894887E+001 -1.7162300491E+002 -5.3945749636E+001 +4.1976086635E+001 -7.8961784048E+001 -1.7025215405E+002 -2.3362462159E+001 +6.4218077700E+001
442500000.000 -2.4925279673E+001 -1.6741393143E+002 -5.3148192850E+001 +2.3903367490E+000 -8.1419663635E+001 -8.1323204211E+001 -2.2392181555E+001 +1.6969181495E+001
575000000.000 -2.4727208238E+001 -1.6259777866E+002 -5.3549653636E+001 -3.2393665559E+001 -8.4260028534E+001 +1.0000757596E+002 -3.0597794557E+001 +2.2238978010E+001
707500000.000 -2.4485143439E+001 -1.5900772324E+002 -5.3459163189E+001 -6.9301272803E+001 -8.4260637874E+001 -1.3791847334E+002 -3.4640898544E+001 +8.3428644229E+001
840000000.000 -2.4227406022E+001 -1.5476452512E+002 -5.4015239736E+001 -1.0355842237E+002 -8.4150678992E+001 -1.1462897542E+002 -2.9630354800E+001 +1.2768298373E+002
972500000.000 -2.3993818826E+001 -1.5123538500E+002 -5.4100801077E+001 -1.3559262627E+002 -8.6754017714E+001 +1.2868592351E+002 -2.5913661381E+001 +1.3495420247E+002
1105000000.000 -2.3594573712E+001 -1.4783131051E+002 -5.4062452110E+001 -1.6946601913E+002 -7.8420573004E+001 -1.0490768852E+002 -2.4390491844E+001 +1.4069848366E+002
1237500000.000 -2.3253673636E+001 -1.4513285098E+002 -5.3856578853E+001 +1.5652264690E+002 -8.5733536676E+001 -3.7285801430E+001 -2.3394832829E+001 +1.5006276094E+002
1370000000.000 -2.2858598328E+001 -1.4254993483E+002 -5.4002197761E+001 +1.2146348976E+002 -8.1385736945E+001 +3.2383823424E+001 -2.2057279957E+001 +1.5977883390E+002
1502500000.000 -2.2535697808E+001 -1.4006533900E+002 -5.4275069322E+001 +8.6090853587E+001 -8.1705470318E+001 -1.4735747870E+002 -2.0859968189E+001 +1.6625112557E+002
1635000000.000 -2.2189250680E+001 -1.3746951373E+002 -5.4441712750E+001 +5.1831545947E+001 -8.7056524579E+001 +8.1987568902E+001 -2.0017826106E+001 +1.7322542049E+002
1767500000.000 -2.1768086098E+001 -1.3541487754E+002 -5.4390192432E+001 +1.6101302399E+001 -8.8922243468E+001 +1.1378300137E+002 -1.9011430567E+001 +1.7833790920E+002
1900000000.000 -2.1533756558E+001 -1.3393688616E+002 -5.4519905154E+001 -1.1618557623E+001 -8.8171479769E+001 -7.9432748003E+001 -1.8867810131E+001 -1.7836901188E+002
2032500000.000 -2.1229425159E+001 -1.3229621632E+002 -5.4136290432E+001 -4.0137935557E+001 -8.6223983596E+001 -3.2907077386E+001 -1.8669481739E+001 -1.6805271804E+002
2165000000.000 -2.0870026112E+001 -1.3016655914E+002 -5.4135373983E+001 -7.1521070545E+001 -1.0080661587E+002 -1.7356313908E+002 -1.7737120393E+001 -1.6119858818E+002
2297500000.000 -2.0555759813E+001 -1.2913579133E+002 -5.4081078222E+001 -1.0222410959E+002 -8.1965328518E+001 +1.0005588687E+002 -1.7241152333E+001 -1.5722129054E+002
2430000000.000 -2.0292183457E+001 -1.2784147886E+002 -5.4149990769E+001 -1.3607874064E+002 -7.8687542420E+001 +1.6285693016E+002 -1.6912393207E+001 -1.5300884860E+002
2562500000.000 -2.0024326387E+001 -1.2448278567E+002 -5.4802311746E+001 +1.7503790260E+002 -8.4257883945E+001 +1.7156951997E+002 -1.6821577569E+001 -1.5079963390E+002
2695000000.000 -1.9590554049E+001 -1.2630943509E+002 -5.3393103661E+001 +1.5018186947E+002 -7.7699071272E+001 -1.1362975283E+002 -1.7398325589E+001 -1.4734964794E+002
2827500000.000 -1.9384823741E+001 -1.2616046178E+002 -5.3547377732E+001 +1.1454036311E+002 -8.7779985777E+001 +1.6969632240E+002 -1.7832287392E+001 -1.4034334902E+002
2960000000.000 -1.9130327348E+001 -1.2496529076E+002 -5.3810216365E+001 +8.2401815469E+001 -7.5015043601E+001 +4.6952431804E+001 -1.8126340445E+001 -1.3591681368E+002
3092500000.000 -1.8756273223E+001 -1.2429840058E+002 -5.4079416203E+001 +4.8237215380E+001 -8.6123570576E+001 -1.7793686088E+002 -1.9108383588E+001 -1.2968687535E+002
3225000000.000 -1.8422960117E+001 -1.2451969437E+002 -5.2957778237E+001 +1.1056275979E+001 -9.0048962036E+001 +9.0597339722E+001 -1.9567161045E+001 -1.1971728392E+002
3357500000.000 -1.8255165072E+001 -1.2420032621E+002 -5.3914113584E+001 -2.0719689761E+001 -8.0722492822E+001 -1.2430434939E+001 -1.9885804952E+001 -1.1462854888E+002
3490000000.000 -1.7937874497E+001 -1.2353564601E+002 -5.3552961392E+001 -5.3543043618E+001 -8.9927991343E+001 -6.8568395964E+001 -2.1136317232E+001 -1.0927158863E+002
3622500000.000 -1.7595765307E+001 -1.2296752510E+002 -5.3704341608E+001 -8.9950370360E+001 -7.9380720330E+001 -1.1479415846E+002 -2.1939700746E+001 -9.8267288898E+001
3755000000.000 -1.7287385185E+001 -1.2280950966E+002 -5.3593104411E+001 -1.2468895571E+002 -8.0649874123E+001 -9.4695072482E+000 -2.2624111987E+001 -9.4979217413E+001
3887500000.000 -1.6868436658E+001 -1.2109548996E+002 -5.5507677351E+001 -1.6741819076E+002 -8.1184991529E+001 +1.0352180575E+002 -2.5023271332E+001 -8.8943814589E+001
4020000000.000 -1.6833711384E+001 -1.2216918613E+002 -5.3981372630E+001 +1.6331253428E+002 -7.9824580632E+001 -1.1746500394E+002 -2.6703837070E+001 -7.3579101718E+001
4152500000.000 -1.6546905068E+001 -1.2148011136E+002 -5.3779708017E+001 +1.2998696873E+002 -8.0821068720E+001 -1.0190905135E+001 -2.8734719225E+001 -6.5110520904E+001
4285000000.000 -1.6261573722E+001 -1.2119335765E+002 -5.4087140316E+001 +9.5207576891E+001 -8.7965610091E+001 +1.1684208828E+002 -3.3363619135E+001 -3.9583981809E+001
4417500000.000 -1.6050941036E+001 -1.2129633943E+002 -5.3944368340E+001 +6.0891545879E+001 -8.0282341701E+001 +1.4309702802E+002 -3.1839438927E+001 +7.5149126805E+000
4550000000.000 -1.5877352202E+001 -1.2064754860E+002 -5.4332252845E+001 +2.6878400502E+001 -9.5899392372E+001 +2.2184267661E+001 -3.0330409326E+001 +1.7391072755E+001
4682500000.000 -1.5626066478E+001 -1.2008338405E+002 -5.4435914996E+001 -5.7181143367E+000 -8.9153941596E+001 +3.1309249255E+001 -2.9758831204E+001 +3.7754264318E+001
4815000000.000 -1.5371786782E+001 -1.2022891962E+002 -5.5274265394E+001 -3.9107415170E+001 -8.6654879205E+001 +7.1293488584E+001 -2.7709714348E+001 +4.0697040685E+001
4947500000.000 -1.5224465514E+001 -1.1982591752E+002 -5.5009584428E+001 -7.0240775198E+001 -8.0302037642E+001 -1.4592991127E+002 -2.9418354773E+001 +3.4513433443E+001
5080000000.000 -1.5046905174E+001 -1.1920871756E+002 -5.4853231596E+001 -1.0390343118E+002 -8.2149735980E+001 +5.9268322808E+001 -3.2369179192E+001 +5.6051198594E+001
5212500000.000 -1.4807034662E+001 -1.1898922038E+002 -5.4772264861E+001 -1.3949691454E+002 -8.8777305576E+001 +1.0159165994E+002 -3.1661254853E+001 +6.8160517911E+001
5345000000.000 -1.4664213797E+001 -1.1905552292E+002 -5.5099914808E+001 -1.7289691085E+002 -8.9014726155E+001 -1.0603230607E+002 -3.5524744594E+001 +6.8548628873E+001
5477500000.000 -1.4555560210E+001 -1.1852490302E+002 -5.4737742107E+001 +1.5204819119E+002 -9.6119703180E+001 -1.0807980309E+002 -3.7613765116E+001 +1.3246428699E+002
5610000000.000 -1.4366600774E+001 -1.1803793861E+002 -5.4674136207E+001 +1.1915018441E+002 -8.6270624925E+001 +1.1096022885E+002 -3.3769089023E+001 +1.3486423273E+002
5742500000.000 -1.4212624055E+001 -1.1819887535E+002 -5.4624404229E+001 +8.5791864690E+001 -9.5097162294E+001 -1.5290162044E+002 -3.8305221575E+001 +1.5142003704E+002
5875000000.000 -1.4120892849E+001 -1.1828706365E+002 -5.4386740049E+001 +4.8867440243E+001 -8.6103290889E+001 -3.5875599359E+001 -3.3965763743E+001 -1.6951875503E+002
6007500000.000 -1.4035220365E+001 -1.1809202591E+002 -5.4881721087E+001 +1.7270845655E+001 -8.6268545613E+001 +4.6046764769E+001 -3.2758046095E+001 +1.7953475055E+002
6140000000.000 -1.3851350705E+001 -1.1779605530E+002 -5.4986565858E+001 -1.5056168233E+001 -8.6083985706E+001 +1.2363103170E+002 -3.6439165114E+001 -1.7076154535E+002
6272500000.000 -1.3679370748E+001 -1.1825270588E+002 -5.4822810631E+001 -5.2087223720E+001 -9.6966661654E+001 +1.1748398049E+002 -3.4168805749E+001 -1.4383713217E+002
6405000000.000 -1.3613266732E+001 -1.1885596086E+002 -5.5173252718E+001 -8.4930973310E+001 -8.5836621002E+001 +2.0493187939E+001 -3.3906532760E+001 -1.6135257902E+002
6537500000.000 -1.3520556624E+001 -1.1843639640E+002 -5.5153426217E+001 -1.1666383088E+002 -8.1857024863E+001 +1.1565835354E+002 -4.0192937217E+001 -1.6266313957E+002
6670000000.000 -1.3306625939E+001 -1.1829582382E+002 -5.5248616641E+001 -1.5103829814E+002 -8.6885123669E+001 -1.2318587402E+002 -3.9964757641E+001 -1.3812523930E+002
6802500000.000 -1.3101482904E+001 -1.1898034580E+002 -5.5179929506E+001 +1.7251652188E+002 -8.7533262837E+001 +9.4149691415E+001 -3.9386022408E+001 +1.7884420942E+002
6935000000.000 -1.3071218395E+001 -1.1951046414E+002 -5.5556558919E+001 +1.3868290350E+002 -8.7380521541E+001 +7.5399499075E+001 -3.8601476660E+001 +1.2387713300E+002
7067500000.000 -1.2949377548E+001 -1.1897315008E+002 -5.5181033525E+001 +1.0528951508E+002 -9.0486305522E+001 -1.6513226815E+002 -3.8324595568E+001 +1.1528241886E+002
7200000000.000 -1.2723291135E+001 -1.1892986734E+002 -5.5340608276E+001 +7.2967314198E+001 -9.4492445464E+001 +6.0484365194E+001 -3.2785404975E+001 +1.2969703397E+002
7332500000.000 -1.2570981573E+001 -1.1968171931E+002 -5.5387406980E+001 +3.8568549543E+001 -8.3991685575E+001 +1.4418122110E+002 -2.9186485871E+001 +1.1912933549E+002
7465000000.000 -1.2467735772E+001 -1.2066202024E+002 -5.6029613133E+001 +1.2005358965E+001 -9.1174849782E+001 +8.7377613271E+001 -2.8504521111E+001 +1.2351013376E+002
7597500000.000 -1.2341687347E+001 -1.1947075057E+002 -5.5550153807E+001 -2.6838639945E+001 -8.9112088521E+001 -8.2864023955E+001 -2.6004054612E+001 +1.3694707821E+002
7730000000.000 -1.2134772254E+001 -1.1950438824E+002 -5.5290276488E+001 -6.4365653595E+001 -8.0292539653E+001 +1.2910317499E+002 -2.3781002135E+001 +1.3759475349E+002
7862500000.000 -1.2016641029E+001 -1.1969968172E+002 -5.5205455143E+001 -9.4381512188E+001 -8.4440854628E+001 -1.2156192015E+002 -2.3268694011E+001 +1.4208940766E+002
7995000000.000 -1.1935728919E+001 -1.1954990370E+002 -5.5133355146E+001 -1.2961130992E+002 -8.4334021816E+001 -8.2203247351E+001 -2.1762235658E+001 +1.5401326321E+002
8127500000.000 -1.1734113684E+001 -1.1908312838E+002 -5.5076533590E+001 -1.6189712232E+002 -8.5220686658E+001 +4.0356156343E+001 -2.0045317226E+001 +1.5622556870E+002
8260000000.000 -1.1628104411E+001 -1.2023315405E+002 -5.5574975341E+001 +1.6821522259E+002 -8.9980997704E+001 +5.7095422305E+001 -1.9859457132E+001 +1.6036599486E+002
8392500000.000 -1.1526731617E+001 -1.1920442510E+002 -5.5057295510E+001 +1.2959939014E+002 -8.9708967554E+001 -6.1269204879E+001 -1.9036830405E+001 +1.7030161874E+002
8525000000.000 -1.1423258719E+001 -1.1882399236E+002 -5.5182289061E+001 +9.8162552606E+001 -8.5778364670E+001 -8.7890581191E+001 -1.8225221439E+001 +1.7286172381E+002
8657500000.000 -1.1280434289E+001 -1.1873766579E+002 -5.4988986020E+001 +6.4511504054E+001 -8.6091076352E+001 +1.3997264061E+002 -1.8557347245E+001 +1.7800031311E+002
8790000000.000 -1.1171468942E+001 -1.1871764720E+002 -5.4773322439E+001 +2.8525048388E+001 -9.0845376640E+001 -1.3659285662E+002 -1.8343447169E+001 -1.7189952740E+002
8922500000.000 -1.1130636988E+001 -1.1874277905E+002 -5.4675043417E+001 -4.8934576201E+000 -8.4445781013E+001 +6.3164218227E+001 -1.8023681547E+001 -1.6604693458E+002
9055000000.000 -1.1035210765E+001 -1.1836636055E+002 -5.4747961153E+001 -3.7519113820E+001 -9.0577249085E+001 +1.6715177076E+002 -1.8426668332E+001 -1.5818504557E+002
9187500000.000 -1.0950616673E+001 -1.1844688378E+002 -5.4622289483E+001 -7.3164264119E+001 -8.9512430560E+001 -1.7453577053E+002 -1.8373883616E+001 -1.4672918447E+002
9320000000.000 -1.0863492039E+001 -1.1895969354E+002 -5.4443457671E+001 -1.0640387310E+002 -8.9573927947E+001 -7.8794676950E+001 -1.8261915819E+001 -1.3962557933E+002
9452500000.000 -1.0883908079E+001 -1.1941135841E+002 -5.4545066487E+001 -1.3151458099E+002 -8.5414606129E+001 +2.5704174628E+001 -1.8813073687E+001 -1.3029524582E+002
9585000000.000 -1.0732660364E+001 -1.1886732833E+002 -5.4797157162E+001 -1.7891178502E+002 -8.4420197982E+001 -1.6130681210E+002 -1.8758280029E+001 -1.1871418175E+002
9717500000.000 -1.0594400882E+001 -1.1920067846E+002 -5.4766974107E+001 +1.5208115135E+002 -8.7368452247E+001 -7.1371924496E+001 -1.8887249635E+001 -1.1120938667E+002
9850000000.000 -1.0548379588E+001 -1.1994504552E+002 -5.4428244593E+001 +1.1500885504E+002 -9.1352120612E+001 +8.0762304958E+001 -1.9614582223E+001 -1.0017281973E+002
9982500000.000 -1.0556728887E+001 -1.1997339047E+002 -5.4372184664E+001 +8.5387541204E+001 -8.0354943456E+001 +1.7851011182E+002 -1.9636247142E+001 -8.6997127281E+001
10115000000.000 -1.0367541016E+001 -1.1971125408E+002 -5.4190067609E+001 +4.4915879821E+001 -8.3115770495E+001 -6.2240605568E+001 -1.9984583466E+001 -7.9283980009E+001
10247500000.000 -1.0244956837E+001 -1.2029266857E+002 -5.4373232955E+001 +1.3024749414E+001 -8.3368122221E+001 +6.0314031441E+001 -2.1129105616E+001 -6.5450162539E+001
10380000000.000 -1.0200621601E+001 -1.2069979857E+002 -5.4801046672E+001 -1.8818976568E+001 -8.6260876176E+001 +1.0921838576E+002 -2.0992014899E+001 -5.0321164984E+001
10512500000.000 -1.0129314476E+001 -1.2077414446E+002 -5.4368577906E+001 -5.6211369626E+001 -8.6894469373E+001 -1.0135668563E+002 -2.1576094862E+001 -4.2362267350E+001
10645000000.000 -1.0026321662E+001 -1.2075925870E+002 -5.4605881313E+001 -8.8445346872E+001 -9.6937512262E+001 -8.7775347426E+001 -2.2823267010E+001 -2.3469496160E+001
10777500000.000 -9.9132841393E+000 -1.2118250974E+002 -5.4621148485E+001 -1.2336576680E+002 -8.4288182279E+001 -7.1486536590E+001 -2.2131005744E+001 -6.2556683783E+000
10910000000.000 -9.8246954930E+000 -1.2153437203E+002 -5.4308814002E+001 -1.5783335002E+002 -8.7043194690E+001 -1.7461840098E+002 -2.2822058527E+001 +3.7927474648E+000
11042500000.000 -9.7392183375E+000 -1.2170962018E+002 -5.4626518390E+001 +1.6765276949E+002 -8.9286178568E+001 -3.5300802501E+001 -2.3449776774E+001 +2.7830925688E+001
11175000000.000 -9.6212773069E+000 -1.2164599523E+002 -5.4080923310E+001 +1.3210843463E+002 -8.6229975762E+001 +1.0382571125E+002 -2.2228185311E+001 +4.2565368632E+001
11307500000.000 -9.5370485552E+000 -1.2174865502E+002 -5.4237877172E+001 +9.8510237595E+001 -8.1672618599E+001 -1.0652549651E+002 -2.2773798914E+001 +5.3035351440E+001
11440000000.000 -9.4511908244E+000 -1.2213936217E+002 -5.4476367688E+001 +6.3821464674E+001 -8.4018077655E+001 -5.7804531680E+001 -2.2567440102E+001 +7.5645307441E+001
11572500000.000 -9.3853899934E+000 -1.2159855869E+002 -5.3549579716E+001 +3.2609168847E+001 -9.2204255199E+001 -1.3433562390E+002 -2.1178627309E+001 +8.6696308023E+001
11705000000.000 -9.2683449356E+000 -1.2192699368E+002 -5.4524226129E+001 -4.3639846163E+000 -8.6167385173E+001 +1.6188151579E+002 -2.1783403061E+001 +9.7076414914E+001
11837500000.000 -9.1701250512E+000 -1.2199632728E+002 -5.4547943887E+001 -3.8853413777E+001 -8.1899469417E+001 -5.5089145413E+001 -2.1076009323E+001 +1.1896545759E+002
11970000000.000 -9.1424683201E+000 -1.2197113319E+002 -5.4346375365E+001 -7.6595372663E+001 -8.6349883270E+001 +1.3574372857E+001 -1.9878982668E+001 +1.2513451949E+002
12102500000.000 -9.0908836871E+000 -1.2179476508E+002 -5.4570666542E+001 -1.1060011510E+002 -9.0000208603E+001 +7.0008819995E+001 -2.0752783652E+001 +1.3588487813E+002
12235000000.000 -8.9938145609E+000 -1.2194770247E+002 -5.4522258448E+001 -1.4418150319E+002 -8.4948280945E+001 -7.7597445626E+001 -1.9697252413E+001 +1.5419298258E+002
12367500000.000 -8.9856323685E+000 -1.2201555258E+002 -5.4516218769E+001 -1.7657220798E+002 -9.1302856967E+001 +2.0713912878E+001 -1.8946542842E+001 +1.5741483449E+002
12500000000.000 -8.9483655137E+000 -1.2238289761E+002 -5.5012551230E+001 +1.4957882278E+002 -8.5330374142E+001 +1.0245247154E+002 -2.0076270693E+001 +1.6877352535E+002
12632500000.000 -8.8808120494E+000 -1.2223389734E+002 -5.4953441837E+001 +1.1264778300E+002 -8.4010711605E+001 -6.5769783722E+001 -1.9058302434E+001 -1.7340599170E+002
12765000000.000 -8.8216406011E+000 -1.2234825923E+002 -5.5035329004E+001 +8.0558917236E+001 -8.5014400569E+001 +9.1579897266E+001 -1.8586455425E+001 -1.7197207868E+002
12897500000.000 -8.8145830455E+000 -1.2269059053E+002 -5.4941388652E+001 +4.6188404315E+001 -8.6282356506E+001 +1.7311808810E+002 -2.0169046400E+001 -1.5873080078E+002
13030000000.000 -8.7843599212E+000 -1.2279140482E+002 -5.4841956092E+001 +1.5030177565E+001 -8.2580764772E+001 -1.1187929828E+002 -1.8720346936E+001 -1.4177941975E+002
13162500000.000 -8.7119778890E+000 -1.2292184142E+002 -5.5319104204E+001 -2.3405781128E+001 -9.2241414584E+001 +8.3791265173E+001 -1.8671161914E+001 -1.4236370831E+002
13295000000.000 -8.6170185117E+000 -1.2284713942E+002 -5.4337625772E+001 -6.4503758122E+001 -8.1129413796E+001 +1.3967185798E+002 -2.0073487747E+001 -1.2735880201E+002
13427500000.000 -8.6132239455E+000 -1.2345018448E+002 -5.5119781286E+001 -8.6762170349E+001 -9.3545788139E+001 -5.6604887930E+001 -1.8742261777E+001 -1.1431155413E+002
13560000000.000 -8.5867564848E+000 -1.2312443337E+002 -5.5010658508E+001 -1.3329205208E+002 -8.9524780753E+001 -1.5417729162E+002 -1.9039396560E+001 -1.1518747981E+002
13692500000.000 -8.5299343583E+000 -1.2337154872E+002 -5.5501646478E+001 -1.5323385755E+002 -8.7237519869E+001 -1.6507459323E+002 -2.0846250651E+001 -1.0107462315E+002
13825000000.000 -8.4599819425E+000 -1.2370997572E+002 -5.5325619504E+001 +1.6927660516E+002 -8.3721590538E+001 +9.2926864648E+001 -1.9667503756E+001 -8.7679122687E+001
13957500000.000 -8.4570652799E+000 -1.2415743715E+002 -5.5609863137E+001 +1.3551860515E+002 -7.8386737920E+001 -1.0758455289E+002 -2.0379589444E+001 -9.0344779750E+001
14090000000.000 -8.4289525092E+000 -1.2399850546E+002 -5.5673125111E+001 +1.0134859551E+002 -7.8153628407E+001 +4.6982082957E+001 -2.2614547402E+001 -7.2731598938E+001
14222500000.000 -8.3461879718E+000 -1.2388846020E+002 -5.5022783462E+001 +7.1635682934E+001 -8.2307381510E+001 -5.0986286445E+001 -2.1275504423E+001 -5.9769072653E+001
14355000000.000 -8.2533903467E+000 -1.2447021075E+002 -5.5107465177E+001 +3.0630967105E+001 -9.4197616340E+001 +6.0818108178E+001 -2.2557225307E+001 -6.3361472550E+001
14487500000.000 -8.2276709041E+000 -1.2463298898E+002 -5.5688011858E+001 -2.3683764695E+000 -8.2557499326E+001 +5.8383675539E+001 -2.5336771628E+001 -4.0170281724E+001
14620000000.000 -8.1863896053E+000 -1.2434223805E+002 -5.6047843360E+001 -3.3540436012E+001 -8.4941176770E+001 -2.0588642035E+000 -2.3292842944E+001 -2.8397536711E+001
14752500000.000 -8.0650274631E+000 -1.2436448703E+002 -5.5851311576E+001 -7.1497397752E+001 -8.6296732693E+001 -1.7092847230E+001 -2.5513449988E+001 -3.5926421646E+001
14885000000.000 -8.0081015001E+000 -1.2465761809E+002 -5.5812340202E+001 -1.0580201627E+002 -8.6083014355E+001 -3.2442007788E+001 -2.8530657760E+001 +2.4723149336E+000
15017500000.000 -7.9559281181E+000 -1.2431485844E+002 -5.5704446976E+001 -1.3682054593E+002 -9.3328309309E+001 +1.3507001375E+002 -2.5404483100E+001 +7.4318468612E+000
15150000000.000 -7.8786475645E+000 -1.2411291136E+002 -5.5439403418E+001 -1.7017668007E+002 -8.6392199634E+001 +1.3109036243E+002 -2.9428776738E+001 -1.6602354920E+000
15282500000.000 -7.8241700352E+000 -1.2403923846E+002 -5.5962136257E+001 +1.5575650532E+002 -8.3122212493E+001 -1.7911017659E+002 -3.0646496761E+001 +5.7562500356E+001
