!  2-Port S-parameters saved by WinCal
! VAR MeasName=S-Parameters (CALIBRATED_DATA) read from VNA (C)
! VAR MeasDate=9/29/2015 2:55:37 PM
! VAR NAME=M6082_18_15_2_2_20C_3.4mA_-16.5dBm
! VAR FILENAME=M6082_18_15_2_2_20C_3.4mA_-16.5dBm.S2P
! VAR DATE=9/29/2015 2:55:38 PM
! VAR PHYS_PORTS=2,1
! VAR ObjTypeName=DATASET
! VAR IndexType=Frequency
!
# Hz S DB R 50
45000000.000 -2.0068777436E+001 -8.1735405610E-001 -4.9638798053E+001 +1.0463726125E+002 -6.3691750797E+001 -6.5148788360E+001 -3.1759299671E+001 +7.0914239500E+000
177500000.000 -2.0157602493E+001 -4.9248160275E+000 -5.4846100735E+001 +6.8838002330E+001 -7.0241673987E+001 +3.4226720940E+001 -3.2573666858E+001 +4.5667155256E+001
310000000.000 -2.0113355308E+001 -8.7116493738E+000 -5.4268521686E+001 +4.3657970696E+001 -8.0235249326E+001 +1.5242275774E+002 -2.3341934788E+001 +6.4285170343E+001
442500000.000 -2.0082398221E+001 -1.2298334411E+001 -5.3538593313E+001 +1.1621848394E+000 -7.9868829218E+001 -4.0484681491E+000 -2.2406295041E+001 +1.6871025282E+001
575000000.000 -1.9988092598E+001 -1.6239513031E+001 -5.4066856491E+001 -3.7371828745E+001 -8.5882864980E+001 -3.6905192006E+001 -3.0630293264E+001 +2.2106059452E+001
707500000.000 -1.9921321101E+001 -1.9704235461E+001 -5.4104806212E+001 -6.9894491453E+001 -8.5635756140E+001 -1.6453731670E+002 -3.4679083589E+001 +8.3524750219E+001
840000000.000 -1.9759838185E+001 -2.3205848798E+001 -5.4319066948E+001 -1.0530635531E+002 -8.2971140003E+001 -6.4011475453E+001 -2.9661096115E+001 +1.2778957465E+002
972500000.000 -1.9573801442E+001 -2.6444066198E+001 -5.4323827608E+001 -1.4126361244E+002 -9.1591387599E+001 +1.7799517227E+002 -2.5912269188E+001 +1.3492978836E+002
1105000000.000 -1.9415376204E+001 -3.0130383916E+001 -5.4729848565E+001 -1.7481197579E+002 -8.8385898117E+001 -4.8345979890E+001 -2.4396153726E+001 +1.4074987893E+002
1237500000.000 -1.9258258629E+001 -3.2956481176E+001 -5.4445797692E+001 +1.5014159150E+002 -8.6475970453E+001 -4.9885445008E+000 -2.3388017169E+001 +1.5009794963E+002
1370000000.000 -1.9058570476E+001 -3.6025787331E+001 -5.4666034011E+001 +1.1876561649E+002 -8.7721269534E+001 +1.4235748880E+002 -2.2048447720E+001 +1.5982091870E+002
1502500000.000 -1.8861884823E+001 -3.8628668270E+001 -5.4719036228E+001 +8.3096379862E+001 -8.8678109957E+001 -1.3426831647E+002 -2.0851935058E+001 +1.6619706425E+002
1635000000.000 -1.8600061819E+001 -4.1207450589E+001 -5.4991570362E+001 +4.9869432538E+001 -8.2164552880E+001 -2.0204437565E+001 -2.0010213571E+001 +1.7317408631E+002
1767500000.000 -1.8368337377E+001 -4.4140544513E+001 -5.4964032999E+001 +1.7460585652E+001 -8.4406010790E+001 +1.1116323258E+002 -1.9009631551E+001 +1.7833240064E+002
1900000000.000 -1.8188968862E+001 -4.6336303596E+001 -5.5012779405E+001 -1.8016508040E+001 -8.6892947415E+001 +7.7434332473E+001 -1.8865599488E+001 -1.7839629061E+002
2032500000.000 -1.7965063430E+001 -4.8589757913E+001 -5.4989817933E+001 -5.0902512308E+001 -8.3985774973E+001 -7.1407520888E+001 -1.8676774769E+001 -1.6804445261E+002
2165000000.000 -1.7661808181E+001 -5.0591459143E+001 -5.4944422354E+001 -8.4810235620E+001 -7.5660387542E+001 +9.8681369283E+000 -1.7737850736E+001 -1.6120228628E+002
2297500000.000 -1.7459948572E+001 -5.2578329341E+001 -5.5192679921E+001 -1.1816869977E+002 -8.3057454775E+001 +1.0999088539E+002 -1.7242794297E+001 -1.5716495651E+002
2430000000.000 -1.7277678145E+001 -5.4140473623E+001 -5.4481003218E+001 -1.5211448504E+002 -7.3111577222E+001 -1.0456326189E+002 -1.6909525825E+001 -1.5304597026E+002
2562500000.000 -1.7021180407E+001 -5.6070740773E+001 -5.5382137325E+001 +1.7524035810E+002 -7.7870338126E+001 -2.4430407588E+001 -1.6820430965E+001 -1.5084205109E+002
2695000000.000 -1.6878214799E+001 -5.8171391162E+001 -5.5343192102E+001 +1.3967412829E+002 -8.7613120465E+001 -1.4197727470E+002 -1.7400568231E+001 -1.4735171437E+002
2827500000.000 -1.6789778362E+001 -5.9626040891E+001 -5.5134033821E+001 +1.0717299004E+002 -8.2341087262E+001 -6.4936170457E+001 -1.7823465711E+001 -1.4034515820E+002
2960000000.000 -1.6556024566E+001 -6.1022508421E+001 -5.5172698098E+001 +7.7293767073E+001 -8.1560528485E+001 -6.6194950107E+001 -1.8130956102E+001 -1.3588240090E+002
3092500000.000 -1.6315586710E+001 -6.2956557066E+001 -5.4979639111E+001 +3.9704747580E+001 -8.2582990287E+001 -1.0393030550E+002 -1.9123407449E+001 -1.2969729509E+002
3225000000.000 -1.6177548844E+001 -6.5138546095E+001 -5.4811216926E+001 +2.2311258357E+000 -8.2759983178E+001 -1.3397756223E+002 -1.9574692880E+001 -1.1962587720E+002
3357500000.000 -1.6054946354E+001 -6.6233941011E+001 -5.4599230660E+001 -3.2419433075E+001 -7.9847917018E+001 -6.3072886113E+001 -1.9881928438E+001 -1.1476158728E+002
3490000000.000 -1.5815956381E+001 -6.7753816395E+001 -5.5547572939E+001 -6.2087416578E+001 -8.4336506045E+001 +4.4245317444E+001 -2.1136979918E+001 -1.0918340722E+002
3622500000.000 -1.5559231336E+001 -6.9516062344E+001 -5.4443477909E+001 -9.4972315430E+001 -8.1004869878E+001 -1.6127255820E+002 -2.1965485951E+001 -9.8333587271E+001
3755000000.000 -1.5368733247E+001 -7.1170876189E+001 -5.4969023017E+001 -1.2863261236E+002 -8.2353075306E+001 -8.1087024641E+001 -2.2631355538E+001 -9.4941799635E+001
3887500000.000 -1.5188207188E+001 -7.2433331283E+001 -5.4518202880E+001 -1.6793823497E+002 -8.4160989020E+001 +6.8051086236E+001 -2.5036561227E+001 -8.8938293368E+001
4020000000.000 -1.5018856169E+001 -7.3439737583E+001 -5.4712567084E+001 +1.5685361675E+002 -7.6756476875E+001 -1.6988886258E+002 -2.6746517172E+001 -7.3755953288E+001
4152500000.000 -1.4769519367E+001 -7.4657331887E+001 -5.4608866485E+001 +1.2633417787E+002 -9.9542217089E+001 +1.6683426320E+002 -2.8756810584E+001 -6.5069230698E+001
4285000000.000 -1.4555023524E+001 -7.5916177154E+001 -5.4575071530E+001 +9.3119574001E+001 -8.6385342474E+001 +7.6249892924E+001 -3.3400351611E+001 -3.9914871583E+001
4417500000.000 -1.4411056760E+001 -7.7110923007E+001 -5.4655991929E+001 +5.6948351905E+001 -8.5783099132E+001 +1.5652843036E+002 -3.1891216765E+001 +7.5297676608E+000
4550000000.000 -1.4223587319E+001 -7.7703804324E+001 -5.4985583604E+001 +2.3641673339E+001 -8.3802846210E+001 -6.1235277865E+001 -3.0343593614E+001 +1.7275204584E+001
4682500000.000 -1.3992950176E+001 -7.8553975333E+001 -5.4550905312E+001 -1.0486230274E+001 -8.7246884912E+001 -2.9715002272E+001 -2.9782045719E+001 +3.7798426949E+001
4815000000.000 -1.3825695109E+001 -7.9876460783E+001 -5.4723982108E+001 -4.2551131574E+001 -8.2565307146E+001 +1.3421925847E+002 -2.7719704943E+001 +4.0561078287E+001
4947500000.000 -1.3668949836E+001 -8.0427425729E+001 -5.4704495810E+001 -7.6610253841E+001 -8.3465333383E+001 -1.2671307929E+002 -2.9419198049E+001 +3.4468236691E+001
5080000000.000 -1.3473518688E+001 -8.0863788602E+001 -5.4717270121E+001 -1.1111652196E+002 -8.5826423566E+001 -8.3500994984E+001 -3.2354787826E+001 +5.5660700277E+001
5212500000.000 -1.3270921406E+001 -8.1835996002E+001 -5.4367582352E+001 -1.4575476682E+002 -8.9458539651E+001 -1.7245690289E+002 -3.1657826004E+001 +6.8306938160E+001
5345000000.000 -1.3156563655E+001 -8.2597563228E+001 -5.4557225681E+001 -1.7863841824E+002 -9.3167794002E+001 -3.2714785343E+001 -3.5527133876E+001 +6.8495067653E+001
5477500000.000 -1.3012627153E+001 -8.2820411639E+001 -5.4240311421E+001 +1.4337363417E+002 -8.2987515516E+001 +9.1035715855E+001 -3.7647837406E+001 +1.3252068830E+002
5610000000.000 -1.2821653316E+001 -8.3356880113E+001 -5.4218438121E+001 +1.1054680088E+002 -8.8339499390E+001 +1.2034512652E+002 -3.3785068413E+001 +1.3477330418E+002
5742500000.000 -1.2701631673E+001 -8.4230271913E+001 -5.4240842060E+001 +7.4992749067E+001 -9.2047234701E+001 -1.4760823478E+000 -3.8298036752E+001 +1.5147396431E+002
5875000000.000 -1.2619877775E+001 -8.4823338169E+001 -5.4030995457E+001 +4.1049381862E+001 -8.4239915487E+001 -4.3482602154E+001 -3.3973741950E+001 -1.6923677558E+002
6007500000.000 -1.2516380081E+001 -8.5140653778E+001 -5.4344796630E+001 +6.8424904964E+000 -9.7862433850E+001 +4.3119004912E+001 -3.2795365225E+001 +1.7970916098E+002
6140000000.000 -1.2342706095E+001 -8.5749162455E+001 -5.3955407487E+001 -2.7766074959E+001 -8.0231886946E+001 -1.3329152724E+002 -3.6445599394E+001 -1.7080795016E+002
6272500000.000 -1.2228852435E+001 -8.6810853622E+001 -5.4030936879E+001 -6.2589148843E+001 -8.6407976638E+001 -4.0347361707E+001 -3.4181363174E+001 -1.4360996091E+002
6405000000.000 -1.2194207323E+001 -8.7660952307E+001 -5.4048717202E+001 -9.7189490993E+001 -9.5774247153E+001 -6.9409399356E+001 -3.3926461683E+001 -1.6170330339E+002
6537500000.000 -1.2069627912E+001 -8.7806638613E+001 -5.3618369967E+001 -1.3130026201E+002 -1.0518146073E+002 +1.7304534177E+002 -4.0141992912E+001 -1.6313370850E+002
6670000000.000 -1.1883952776E+001 -8.8553999178E+001 -5.3989624792E+001 -1.6532065368E+002 -9.0971542532E+001 -9.4172338255E+001 -3.9900587134E+001 -1.3910881733E+002
6802500000.000 -1.1747204090E+001 -8.9861392354E+001 -5.3974352282E+001 +1.6090179404E+002 -8.5604785830E+001 +2.8565479398E+001 -3.9284727128E+001 +1.7872926187E+002
6935000000.000 -1.1725871409E+001 -9.0529470912E+001 -5.3731979950E+001 +1.2391883148E+002 -8.5063769480E+001 -1.4538622061E+002 -3.8540579235E+001 +1.2419033995E+002
7067500000.000 -1.1587642893E+001 -9.0693716051E+001 -5.3658812749E+001 +9.1066457265E+001 -8.0526626081E+001 -8.3935796385E+001 -3.8338481839E+001 +1.1502902545E+002
7200000000.000 -1.1395185828E+001 -9.1496760508E+001 -5.3692303828E+001 +5.5078221056E+001 -8.9135090881E+001 -4.9850020012E+001 -3.2759212026E+001 +1.2954781098E+002
7332500000.000 -1.1293655482E+001 -9.2680219442E+001 -5.3603871857E+001 +2.0265886279E+001 -8.2632540279E+001 +4.2085599145E+001 -2.9162529709E+001 +1.1917073600E+002
7465000000.000 -1.1217551055E+001 -9.3118608033E+001 -5.3465725159E+001 -1.2858056061E+001 -9.1199650173E+001 +1.6756764373E+002 -2.8510290007E+001 +1.2355280725E+002
7597500000.000 -1.1068422379E+001 -9.3522701631E+001 -5.3530584691E+001 -4.8130665256E+001 -8.1174667869E+001 -3.3397972863E+001 -2.6008759079E+001 +1.3703152683E+002
7730000000.000 -1.0888174696E+001 -9.4226780483E+001 -5.3631852697E+001 -8.0526889455E+001 -8.7964130916E+001 +1.3105620999E+002 -2.3778501445E+001 +1.3764181138E+002
7862500000.000 -1.0777294925E+001 -9.4864578535E+001 -5.3397887235E+001 -1.1645435208E+002 -8.2341683148E+001 +1.5175981858E+002 -2.3264244428E+001 +1.4219689511E+002
7995000000.000 -1.0696312269E+001 -9.5135037640E+001 -5.3416341834E+001 -1.5102373843E+002 -9.2223316920E+001 +3.9377742425E+001 -2.1757486272E+001 +1.5413860461E+002
8127500000.000 -1.0491274458E+001 -9.5423273896E+001 -5.3152962289E+001 +1.7574204332E+002 -8.7264560987E+001 +3.1724974292E+001 -2.0045323107E+001 +1.5632394850E+002
8260000000.000 -1.0390775164E+001 -9.6192010583E+001 -5.3440613852E+001 +1.3995730488E+002 -9.1389741281E+001 +1.3075486484E+002 -1.9864842587E+001 +1.6044012093E+002
8392500000.000 -1.0290443803E+001 -9.6344927065E+001 -5.3255398979E+001 +1.0555135714E+002 -9.1900368712E+001 -1.7562964310E+002 -1.9033404661E+001 +1.7036697240E+002
8525000000.000 -1.0173914981E+001 -9.6447341264E+001 -5.2913250474E+001 +7.2217468291E+001 -9.7656253602E+001 +5.4702916085E+001 -1.8222541861E+001 +1.7287829759E+002
8657500000.000 -1.0025798558E+001 -9.6834734249E+001 -5.2711085545E+001 +3.4608456767E+001 -8.8263383158E+001 -1.6145805625E+001 -1.8553363920E+001 +1.7804381344E+002
8790000000.000 -9.9179628810E+000 -9.7221828358E+001 -5.2661535256E+001 -8.1870695034E-001 -9.3791205363E+001 -1.4315986612E+002 -1.8346499146E+001 -1.7195140813E+002
8922500000.000 -9.8666732080E+000 -9.7475541953E+001 -5.2519640409E+001 -3.4672514051E+001 -8.1829096166E+001 -3.8971482058E+000 -1.8026187159E+001 -1.6597642689E+002
9055000000.000 -9.7497087190E+000 -9.7534824199E+001 -5.2635636143E+001 -7.1562275712E+001 -8.9307309320E+001 -1.4269664188E+002 -1.8423738726E+001 -1.5814172094E+002
9187500000.000 -9.6598307667E+000 -9.7928959822E+001 -5.2739890171E+001 -1.0693009939E+002 -8.6565320188E+001 +8.7458424543E+001 -1.8368061709E+001 -1.4668720675E+002
9320000000.000 -9.5926737297E+000 -9.8707252812E+001 -5.2299662567E+001 -1.4177756400E+002 -8.8414731897E+001 +9.7614339344E+001 -1.8271221062E+001 -1.3962038256E+002
9452500000.000 -9.5311124355E+000 -9.8958055887E+001 -5.2362345790E+001 -1.7730861419E+002 -8.5020854793E+001 +7.2921747440E+001 -1.8817555784E+001 -1.3029281197E+002
9585000000.000 -9.4274344253E+000 -9.9259777259E+001 -5.2317271426E+001 +1.4539314057E+002 -8.3629955909E+001 +1.5081141973E+002 -1.8768595429E+001 -1.1873201626E+002
9717500000.000 -9.3122909894E+000 -9.9986377402E+001 -5.1994424759E+001 +1.1132606238E+002 -7.9619630459E+001 +6.7290715319E+001 -1.8887220879E+001 -1.1122581437E+002
9850000000.000 -9.2763901339E+000 -1.0087841762E+002 -5.2224300031E+001 +7.6756923750E+001 -8.0190777118E+001 +9.4567048623E+001 -1.9615978349E+001 -1.0012136324E+002
9982500000.000 -9.1962905953E+000 -1.0103659616E+002 -5.2199758514E+001 +4.0488876154E+001 -8.6670170329E+001 -1.7475517501E+002 -1.9635945647E+001 -8.6959452061E+001
10115000000.000 -9.0812741494E+000 -1.0147528850E+002 -5.2487238912E+001 +5.3803436104E+000 -8.4790972980E+001 -2.1960009744E+001 -1.9981730877E+001 -7.9360783358E+001
10247500000.000 -8.9857563673E+000 -1.0242154535E+002 -5.2276643629E+001 -3.1953608314E+001 -1.0213734158E+002 +6.1217013245E+001 -2.1128311071E+001 -6.5408770449E+001
10380000000.000 -8.9366422995E+000 -1.0310773962E+002 -5.2297445897E+001 -6.8171941802E+001 -8.8556690699E+001 +1.5340938462E+002 -2.0984424574E+001 -5.0260875847E+001
10512500000.000 -8.8729492873E+000 -1.0348676079E+002 -5.2239068833E+001 -1.0512568458E+002 -9.0708004490E+001 +8.4740267152E+001 -2.1570423467E+001 -4.2335257001E+001
10645000000.000 -8.7772529750E+000 -1.0390460291E+002 -5.2097927734E+001 -1.3775840563E+002 -9.1774128330E+001 -4.2017393658E-001 -2.2818624300E+001 -2.3479276726E+001
10777500000.000 -8.6832033056E+000 -1.0472252222E+002 -5.2327290786E+001 -1.7319333501E+002 -8.6542839771E+001 +1.5979070086E+002 -2.2125007695E+001 -6.2064040134E+000
10910000000.000 -8.6069307571E+000 -1.0541746437E+002 -5.2456989607E+001 +1.4849801922E+002 -8.0217576645E+001 -1.0355744945E+002 -2.2819036673E+001 +3.8641566109E+000
11042500000.000 -8.5389600228E+000 -1.0592998975E+002 -5.2378003475E+001 +1.1420702577E+002 -8.4222366271E+001 -1.1402345128E+002 -2.3440139971E+001 +2.7909427889E+001
11175000000.000 -8.4296962698E+000 -1.0631622899E+002 -5.2495590624E+001 +7.9306600926E+001 -9.5125060577E+001 -1.6652415899E+002 -2.2214308532E+001 +4.2550294761E+001
11307500000.000 -8.3601678615E+000 -1.0678650541E+002 -5.2774432048E+001 +4.2604036219E+001 -8.2447377560E+001 -1.2234425670E+002 -2.2769634858E+001 +5.2986390430E+001
11440000000.000 -8.2932052696E+000 -1.0746879599E+002 -5.2926240232E+001 +6.2593467157E+000 -8.7287936585E+001 -5.5473542151E+001 -2.2555716936E+001 +7.5698384909E+001
11572500000.000 -8.1868804029E+000 -1.0759054653E+002 -5.3435799518E+001 -2.6812524367E+001 -8.0971799642E+001 +4.3467165052E+001 -2.1179889068E+001 +8.6798643689E+001
11705000000.000 -8.1293745406E+000 -1.0801836468E+002 -5.3251433605E+001 -6.3590847678E+001 -9.0138130368E+001 +1.5561606485E+002 -2.1778509191E+001 +9.7075111493E+001
11837500000.000 -8.0532156083E+000 -1.0843005778E+002 -5.3428339740E+001 -1.0087620565E+002 -8.2965053025E+001 -7.1503435765E+000 -2.1083992439E+001 +1.1887013420E+002
11970000000.000 -8.0285037137E+000 -1.0865929820E+002 -5.3254676643E+001 -1.3479117601E+002 -8.2707070958E+001 +4.0941184225E+001 -1.9878210560E+001 +1.2512303018E+002
12102500000.000 -7.9851111373E+000 -1.0877811625E+002 -5.3736984546E+001 -1.6953355909E+002 -8.4352784673E+001 -1.2867824036E+002 -2.0752928171E+001 +1.3582083892E+002
12235000000.000 -7.9137275875E+000 -1.0925320785E+002 -5.3841984433E+001 +1.5231942642E+002 -9.4561661670E+001 -9.7404224369E+001 -1.9684273303E+001 +1.5409852952E+002
12367500000.000 -7.9106254300E+000 -1.0949489331E+002 -5.4048337949E+001 +1.1734249556E+002 -9.2829193677E+001 +4.6799976219E+001 -1.8944241295E+001 +1.5735824893E+002
12500000000.000 -7.8934406977E+000 -1.1005408936E+002 -5.4066792850E+001 +8.1765009580E+001 -8.6764989989E+001 -1.6213643833E+002 -2.0076005171E+001 +1.6878735995E+002
12632500000.000 -7.8383206628E+000 -1.1020410067E+002 -5.4463305487E+001 +4.7855647716E+001 -8.4881805589E+001 -1.0015146107E+002 -1.9050377338E+001 -1.7343175493E+002
12765000000.000 -7.7971228184E+000 -1.1053445108E+002 -5.4538587844E+001 +1.3770351194E+001 -9.9433396516E+001 -1.8733732151E+001 -1.8581708478E+001 -1.7200273923E+002
12897500000.000 -7.8097246785E+000 -1.1101144260E+002 -5.4830440050E+001 -2.2558584513E+001 -8.2837660761E+001 +1.3912460105E+002 -2.0174204691E+001 -1.5880607081E+002
13030000000.000 -7.7926808912E+000 -1.1129014158E+002 -5.5188355135E+001 -5.8031854123E+001 -8.8456924631E+001 -1.0409997547E+002 -1.8728127737E+001 -1.4181106820E+002
13162500000.000 -7.7417138815E+000 -1.1164267389E+002 -5.5622557408E+001 -9.4069888498E+001 -8.4137765890E+001 -6.7624818977E+001 -1.8671494888E+001 -1.4238806481E+002
13295000000.000 -7.7037407427E+000 -1.1198231181E+002 -5.5792879008E+001 -1.3005152509E+002 -7.9808846829E+001 +1.5120173844E+002 -2.0089619280E+001 -1.2740122909E+002
13427500000.000 -7.6927702801E+000 -1.1255089207E+002 -5.6235729318E+001 -1.6183880968E+002 -8.4079665627E+001 -1.3954201255E+002 -1.8737837491E+001 -1.1427971133E+002
13560000000.000 -7.7061998652E+000 -1.1245900566E+002 -5.6640707240E+001 +1.6161053216E+002 -8.2900104323E+001 +9.4187791362E-001 -1.9038796821E+001 -1.1520508113E+002
13692500000.000 -7.6371879313E+000 -1.1281444691E+002 -5.7387724318E+001 +1.3262536772E+002 -8.0220907388E+001 +4.8795744140E+001 -2.0854256584E+001 -1.0118081891E+002
13825000000.000 -7.5912003223E+000 -1.1331770839E+002 -5.7383618822E+001 +9.0404303280E+001 -8.2783104625E+001 +1.4747873898E+002 -1.9668407952E+001 -8.7670458831E+001
13957500000.000 -7.6089000071E+000 -1.1382628082E+002 -5.7146221486E+001 +5.6661130514E+001 -9.1706198860E+001 -2.8319533286E+001 -2.0367532502E+001 -9.0285017246E+001
14090000000.000 -7.5908831145E+000 -1.1381507634E+002 -5.8456197227E+001 +2.6461486215E+001 -8.4440849973E+001 -2.1127319436E+000 -2.2617358197E+001 -7.2592751737E+001
14222500000.000 -7.5290547893E+000 -1.1392679489E+002 -5.8680689905E+001 -6.9437944736E+000 -9.4730904488E+001 +1.3825194560E+002 -2.1259057521E+001 -5.9738652393E+001
14355000000.000 -7.4660105303E+000 -1.1464186865E+002 -5.8841505275E+001 -4.3376761552E+001 -8.4661579876E+001 +8.4906210797E+001 -2.2541282674E+001 -6.3237188277E+001
14487500000.000 -7.4610936161E+000 -1.1490430080E+002 -5.8897997643E+001 -7.3968657602E+001 -9.2534565609E+001 +5.6732253978E+001 -2.5338820207E+001 -4.0160536226E+001
14620000000.000 -7.4276793032E+000 -1.1477729455E+002 -5.9238753131E+001 -1.1213662158E+002 -9.1357845200E+001 +1.1720563459E+002 -2.3300590380E+001 -2.8430633770E+001
14752500000.000 -7.3284299655E+000 -1.1496949370E+002 -5.7781905182E+001 -1.4510875602E+002 -9.0144078332E+001 -1.1775055006E+002 -2.5516700845E+001 -3.5977636820E+001
14885000000.000 -7.2926911999E+000 -1.1538989009E+002 -5.9586437650E+001 -1.7517497270E+002 -8.3773639121E+001 +6.1585736758E+000 -2.8491196964E+001 +2.5599588029E+000
15017500000.000 -7.2503739809E+000 -1.1518654178E+002 -5.9120339968E+001 +1.4794587393E+002 -8.6639682357E+001 +3.2381008194E+001 -2.5366212381E+001 +7.3724182904E+000
15150000000.000 -7.1830083620E+000 -1.1511313808E+002 -5.9473066153E+001 +1.0571714642E+002 -7.9792494116E+001 +1.6875750555E+002 -2.9390021091E+001 -1.5626054942E+000
15282500000.000 -7.1432358625E+000 -1.1514647657E+002 -5.9813834092E+001 +8.0208505864E+001 -8.8198214546E+001 -9.5466074410E+001 -3.0537170849E+001 +5.7723783109E+001
