!  2-Port S-parameters saved by WinCal
! VAR MeasName=S-Parameters (CALIBRATED_DATA) read from VNA (C)
! VAR MeasDate=9/29/2015 3:36:49 PM
! VAR NAME=M6082_18_15_2_2_20C_10.0mA_-17.5dBm 3
! VAR FILENAME=M6082_18_15_2_2_20C_10.0mA_-17.5dBm 3.S2P
! VAR DATE=9/29/2015 3:36:49 PM
! VAR PHYS_PORTS=2,1
! VAR ObjTypeName=DATASET
! VAR IndexType=Frequency
!
# Hz S DB R 50
45000000.000 -2.4912716187E+001 -1.7898796193E+002 -5.6916687660E+001 +1.5307405048E+002 -6.3636191437E+001 +4.4846766293E+001 -3.1410802841E+001 +8.0493259860E+000
177500000.000 -2.5587928795E+001 -1.7541198349E+002 -5.5039107618E+001 +7.2758985325E+001 -7.8885456624E+001 +1.7703802944E+002 -3.2753717214E+001 +4.5622409243E+001
310000000.000 -2.5543886521E+001 -1.7082440940E+002 -5.6336188895E+001 +4.0948460980E+001 -8.7869831157E+001 -1.7143554428E+002 -2.3329118001E+001 +6.4113970686E+001
442500000.000 -2.5448909222E+001 -1.6600693756E+002 -5.4460166581E+001 +1.3374227707E+000 -8.9859839049E+001 -4.9760521611E+001 -2.2401365392E+001 +1.6849122292E+001
575000000.000 -2.5239436770E+001 -1.6084929392E+002 -5.5078165955E+001 -3.8467634690E+001 -8.1163516862E+001 -1.3547282354E+002 -3.0627447045E+001 +2.2132517524E+001
707500000.000 -2.4940003134E+001 -1.5734702847E+002 -5.5415403607E+001 -6.9870253394E+001 -7.9883780788E+001 -1.0935872566E+002 -3.4638253377E+001 +8.3694634949E+001
840000000.000 -2.4651270409E+001 -1.5286220214E+002 -5.5365642738E+001 -1.0416498144E+002 -8.8427109209E+001 -5.2904834447E+001 -2.9634926064E+001 +1.2777123181E+002
972500000.000 -2.4085442834E+001 -1.5096935062E+002 -5.4858421469E+001 -1.3720763016E+002 -8.9770743719E+001 +7.5250247059E+001 -2.5932197965E+001 +1.3499388062E+002
1105000000.000 -2.3909101295E+001 -1.4566626153E+002 -5.5482784899E+001 -1.7158909734E+002 -8.5195836459E+001 -5.3973340172E+001 -2.4398531183E+001 +1.4076047933E+002
1237500000.000 -2.3348523855E+001 -1.4483105622E+002 -5.5274035210E+001 +1.5463874017E+002 -8.2349297140E+001 +4.6436199312E+001 -2.3384118419E+001 +1.5006620009E+002
1370000000.000 -2.2952128323E+001 -1.4224242612E+002 -5.5161350939E+001 +1.2486764345E+002 -9.2246196382E+001 +5.8882577569E+001 -2.2054001902E+001 +1.5981629887E+002
1502500000.000 -2.2620920417E+001 -1.3977874072E+002 -5.5237893703E+001 +8.8008060803E+001 -8.6335595009E+001 -1.5077836331E+002 -2.0868287379E+001 +1.6628245044E+002
1635000000.000 -2.2271626524E+001 -1.3716054959E+002 -5.5704947885E+001 +5.5896318456E+001 -1.1032378033E+002 -1.7572454657E+002 -2.0020855408E+001 +1.7324510909E+002
1767500000.000 -2.1929912622E+001 -1.3294890845E+002 -5.5943046956E+001 +1.9753759293E+001 -8.4457940343E+001 +1.1795501904E+002 -1.9012166101E+001 +1.7837094403E+002
1900000000.000 -2.1629870107E+001 -1.3139168202E+002 -5.6026116911E+001 -1.7357763619E+001 -8.2641157863E+001 -1.3013375088E+002 -1.8868632509E+001 -1.7835734032E+002
2032500000.000 -2.1290331846E+001 -1.2985069942E+002 -5.6440174292E+001 -4.8634524990E+001 -8.4993977443E+001 +7.3787586963E+001 -1.8675163743E+001 -1.6804862067E+002
2165000000.000 -2.0890873702E+001 -1.2771801978E+002 -5.6487929314E+001 -8.5054644822E+001 -8.9582385758E+001 +1.4665784306E+002 -1.7744956814E+001 -1.6119879054E+002
2297500000.000 -2.0621547398E+001 -1.2878887406E+002 -5.5614692652E+001 -1.1743529522E+002 -8.5706231621E+001 -1.6767103062E+002 -1.7237834038E+001 -1.5718563084E+002
2430000000.000 -2.0297210283E+001 -1.2548693379E+002 -5.6701208840E+001 -1.5762990260E+002 -7.6316775863E+001 -5.8904016040E+001 -1.6919077702E+001 -1.5304142874E+002
2562500000.000 -1.9911577926E+001 -1.2417791687E+002 -5.6021482320E+001 +1.7855689067E+002 -7.3305660207E+001 +1.5243512267E+001 -1.6828943935E+001 -1.5079332113E+002
2695000000.000 -1.9580120441E+001 -1.2417871165E+002 -5.5852108969E+001 +1.4532869481E+002 -8.2016973470E+001 +8.4041867617E+001 -1.7406222591E+001 -1.4735284262E+002
2827500000.000 -1.9355522344E+001 -1.2395854455E+002 -5.6232599175E+001 +1.0951075016E+002 -7.9546579071E+001 -1.1856680550E+002 -1.7833065044E+001 -1.4037890588E+002
2960000000.000 -1.9101481755E+001 -1.2280888215E+002 -5.6454583781E+001 +7.9196371537E+001 -8.2736515306E+001 -6.4960312395E+001 -1.8140941794E+001 -1.3589714252E+002
3092500000.000 -1.8808156938E+001 -1.2400027989E+002 -5.5757086276E+001 +4.1489285279E+001 -7.9260434591E+001 +1.4549440475E+002 -1.9122098204E+001 -1.2967985831E+002
3225000000.000 -1.8361584145E+001 -1.2252588554E+002 -5.5892083742E+001 +4.7256436316E+000 -8.1062275390E+001 -6.9895099996E+001 -1.9581988740E+001 -1.1968442502E+002
3357500000.000 -1.8168009441E+001 -1.2246168938E+002 -5.6314349814E+001 -3.1819002601E+001 -7.8804596378E+001 -3.9074912019E+001 -1.9899934275E+001 -1.1473077461E+002
3490000000.000 -1.7999606818E+001 -1.2323842096E+002 -5.5832656577E+001 -6.1760657853E+001 -9.1149064414E+001 -1.5742028657E+002 -2.1151229208E+001 -1.0917121995E+002
3622500000.000 -1.7473016999E+001 -1.2129889768E+002 -5.6741362615E+001 -9.4543416812E+001 -7.9339495176E+001 +1.6892477527E+002 -2.1964286300E+001 -9.8254889036E+001
3755000000.000 -1.7147264209E+001 -1.2133541450E+002 -5.5773882929E+001 -1.2656128315E+002 -7.5511496538E+001 -1.5369008905E+001 -2.2632949802E+001 -9.4957562329E+001
3887500000.000 -1.6889914514E+001 -1.2127399297E+002 -5.6595106665E+001 -1.6662642300E+002 -7.9405579106E+001 +1.4698716255E+002 -2.5017881082E+001 -8.9026271954E+001
4020000000.000 -1.6688227255E+001 -1.2091255480E+002 -5.7156267759E+001 +1.6049387758E+002 -1.0659163802E+002 +1.7659873695E+002 -2.6742493448E+001 -7.3800787237E+001
4152500000.000 -1.6393217142E+001 -1.2033371198E+002 -5.6791404218E+001 +1.2768659990E+002 -8.3510059415E+001 +1.6055192292E+001 -2.8764926715E+001 -6.5292068403E+001
4285000000.000 -1.6112430432E+001 -1.2016734090E+002 -5.6336080589E+001 +8.9301169055E+001 -9.2788995068E+001 +1.4985374721E+002 -3.3405888888E+001 -3.9639223481E+001
4417500000.000 -1.6090339813E+001 -1.2101155239E+002 -5.5547899133E+001 +6.1575806629E+001 -7.9866448370E+001 +1.6266979887E+002 -3.1857821393E+001 +7.5762593942E+000
4550000000.000 -1.5750904357E+001 -1.1976216770E+002 -5.7849737788E+001 +2.5008839984E+001 -8.2162906250E+001 +1.6772510599E+002 -3.0345711636E+001 +1.7477378659E+001
4682500000.000 -1.5663153580E+001 -1.1979654832E+002 -5.5921922777E+001 -5.7541535608E+000 -8.1565848106E+001 +1.1523663182E+002 -2.9781132977E+001 +3.7913257972E+001
4815000000.000 -1.5402866179E+001 -1.1996748542E+002 -5.5996962383E+001 -4.0693113977E+001 -9.0631591148E+001 +1.6454068013E+002 -2.7711203152E+001 +4.0677472583E+001
4947500000.000 -1.5095435451E+001 -1.1907222607E+002 -5.7574293201E+001 -7.4408693370E+001 -8.2834093621E+001 -1.4996968047E+002 -2.9404131768E+001 +3.4615462311E+001
5080000000.000 -1.4908986853E+001 -1.1846155508E+002 -5.7627469268E+001 -1.0858616370E+002 -8.9853687035E+001 +1.7386905912E+002 -3.2348761676E+001 +5.5835754872E+001
5212500000.000 -1.4658049113E+001 -1.1829227251E+002 -5.7849939342E+001 -1.4236166813E+002 -8.2374989087E+001 +7.5758254736E+001 -3.1622762986E+001 +6.8414413201E+001
5345000000.000 -1.4509872577E+001 -1.1843560836E+002 -5.7817952388E+001 -1.7359527015E+002 -8.4629731214E+001 -1.4002421603E+002 -3.5549682247E+001 +6.8636866154E+001
5477500000.000 -1.4386329197E+001 -1.1803206645E+002 -5.7772392410E+001 +1.5180859846E+002 -8.7439052613E+001 +6.3243888674E+001 -3.7596619420E+001 +1.3209238576E+002
5610000000.000 -1.4398079004E+001 -1.1778781020E+002 -5.5188012573E+001 +1.2078066699E+002 -9.6305500794E+001 +5.3585208689E+001 -3.3773575260E+001 +1.3470757125E+002
5742500000.000 -1.4025498078E+001 -1.1790355378E+002 -5.7633020132E+001 +8.6187481999E+001 -8.8663510915E+001 -1.0687190901E+002 -3.8250251639E+001 +1.5126582735E+002
5875000000.000 -1.4148315200E+001 -1.1804823473E+002 -5.5111152429E+001 +4.9698304948E+001 -8.6214694051E+001 -6.2802411310E+001 -3.3935432628E+001 -1.6933726319E+002
6007500000.000 -1.4064600615E+001 -1.1786812526E+002 -5.5347380857E+001 +1.7699820070E+001 -8.0163222911E+001 +9.2946143932E+001 -3.2781382078E+001 +1.7946923424E+002
6140000000.000 -1.3685365515E+001 -1.1819242573E+002 -5.7357237212E+001 -9.8098010441E+000 -8.2815733766E+001 +1.5077280668E+002 -3.6431590398E+001 -1.7073662998E+002
6272500000.000 -1.3518722697E+001 -1.1872724922E+002 -5.7657767376E+001 -4.2638929259E+001 -9.3084358106E+001 -1.0370467978E+002 -3.4153527980E+001 -1.4366194569E+002
6405000000.000 -1.3640642955E+001 -1.1862706816E+002 -5.5366462918E+001 -8.7164304226E+001 -8.5472369080E+001 +5.2807476340E+001 -3.3908150875E+001 -1.6158047538E+002
6537500000.000 -1.3547965446E+001 -1.1820595802E+002 -5.5052801960E+001 -1.2162914742E+002 -9.0076333834E+001 +1.5295075780E+002 -4.0181060884E+001 -1.6255311572E+002
6670000000.000 -1.3215300783E+001 -1.1905343762E+002 -5.7182555641E+001 -1.4516008909E+002 -8.4596610780E+001 -8.6336082869E+001 -3.9844200003E+001 -1.3859722570E+002
6802500000.000 -1.3026795804E+001 -1.1979103956E+002 -5.7090648436E+001 -1.7749505968E+002 -1.0971213500E+002 +9.8328063292E+001 -3.9273103192E+001 +1.7878876819E+002
6935000000.000 -1.3030648630E+001 -1.2031045850E+002 -5.6527010185E+001 +1.5075948393E+002 -8.7092315064E+001 +1.2409525483E+002 -3.8591901435E+001 +1.2401675045E+002
7067500000.000 -1.2914895494E+001 -1.1980339946E+002 -5.6537429583E+001 +1.1554189286E+002 -8.1695268582E+001 -1.5644608979E+002 -3.8385682589E+001 +1.1497700986E+002
7200000000.000 -1.2698950398E+001 -1.1979307284E+002 -5.6921397247E+001 +8.5404488587E+001 -8.0301456974E+001 +7.5685042519E+000 -3.2765286968E+001 +1.2974139036E+002
7332500000.000 -1.2563920929E+001 -1.2052872156E+002 -5.6783621139E+001 +4.7934435129E+001 -9.3675323472E+001 +1.7828653468E+002 -2.9174724936E+001 +1.1925529731E+002
7465000000.000 -1.2501409939E+001 -1.2055397494E+002 -5.6080456212E+001 +1.5077534534E+001 -8.5716784252E+001 -1.0700286893E+002 -2.8528540074E+001 +1.2353471805E+002
7597500000.000 -1.2355221135E+001 -1.2035809311E+002 -5.6147785112E+001 -1.8197910079E+001 -8.1392982159E+001 -5.1302624341E+001 -2.6019009111E+001 +1.3695352689E+002
7730000000.000 -1.2160141463E+001 -1.1929392626E+002 -5.5776224214E+001 -6.5041083415E+001 -8.4731979109E+001 +7.8653257575E+001 -2.3788938020E+001 +1.3762704101E+002
7862500000.000 -1.2059282492E+001 -1.2036906608E+002 -5.6255598571E+001 -8.5601805243E+001 -9.0089623475E+001 +1.1250458607E+002 -2.3259893995E+001 +1.4199946581E+002
7995000000.000 -1.1961418078E+001 -1.1930584589E+002 -5.5897072309E+001 -1.3404081788E+002 -8.9124265693E+001 -7.2326351169E+001 -2.1764228726E+001 +1.5401579124E+002
8127500000.000 -1.1754163489E+001 -1.1885118604E+002 -5.5693120272E+001 -1.6901925856E+002 -9.5086151026E+001 +4.2858678345E+001 -2.0049475582E+001 +1.5628792863E+002
8260000000.000 -1.1682084472E+001 -1.2007637742E+002 -5.5649176375E+001 +1.7205047465E+002 -8.1551245125E+001 +1.2628552750E+002 -1.9858295242E+001 +1.6035731355E+002
8392500000.000 -1.1605437616E+001 -1.1975271941E+002 -5.5639832219E+001 +1.3783992204E+002 -8.2147835106E+001 -1.0875215584E+002 -1.9046624676E+001 +1.7028460990E+002
8525000000.000 -1.1447903031E+001 -1.1861554270E+002 -5.5888086426E+001 +8.9317154627E+001 -8.6556967225E+001 +2.2742466286E+001 -1.8222876725E+001 +1.7286725083E+002
8657500000.000 -1.1363861451E+001 -1.1915608530E+002 -5.5566837971E+001 +6.8618089688E+001 -8.7225153661E+001 +1.6855686762E+002 -1.8558787482E+001 +1.7806111676E+002
8790000000.000 -1.1256210358E+001 -1.1908982465E+002 -5.5663509326E+001 +3.6083000338E+001 -8.7320064839E+001 -6.9353143648E+001 -1.8343902436E+001 -1.7195930249E+002
8922500000.000 -1.1226973355E+001 -1.1910841717E+002 -5.4812313649E+001 +1.1615466127E+000 -8.4102065529E+001 -5.0460008862E+001 -1.8022023798E+001 -1.6601019225E+002
9055000000.000 -1.1131611036E+001 -1.1864577390E+002 -5.4891508239E+001 -3.1619181848E+001 -8.8225890331E+001 +1.6073150800E+002 -1.8429748777E+001 -1.5821620518E+002
9187500000.000 -1.1042879494E+001 -1.1868111668E+002 -5.4810487717E+001 -6.9695984473E+001 -8.5440145386E+001 -1.4679610239E+002 -1.8367917339E+001 -1.4667916270E+002
9320000000.000 -1.0967465390E+001 -1.1920228646E+002 -5.4816167094E+001 -1.0295586125E+002 -9.5287574974E+001 -1.6228108853E+002 -1.8264098831E+001 -1.3955691624E+002
9452500000.000 -1.0926223984E+001 -1.1911405441E+002 -5.4994417830E+001 -1.3683238376E+002 -9.0992260790E+001 +8.4273972490E+001 -1.8812382253E+001 -1.3022393247E+002
9585000000.000 -1.0755995684E+001 -1.1864945456E+002 -5.5519813033E+001 +1.7851144425E+002 -8.5174493891E+001 -1.6799625851E+002 -1.8762117973E+001 -1.1867187331E+002
9717500000.000 -1.0611878343E+001 -1.1899352120E+002 -5.5706892105E+001 +1.4328259852E+002 -8.3837830532E+001 -6.7807688499E+001 -1.8888786444E+001 -1.1118856738E+002
9850000000.000 -1.0650455509E+001 -1.1998104377E+002 -5.4716851288E+001 +1.1984217871E+002 -8.8410648021E+001 +7.0001525920E+001 -1.9615518201E+001 -1.0017392766E+002
9982500000.000 -1.0590058214E+001 -1.1969092945E+002 -5.4533466976E+001 +8.5551042549E+001 -9.7662088055E+001 -8.5124292938E+001 -1.9653288258E+001 -8.6898687202E+001
10115000000.000 -1.0469095008E+001 -1.1962543986E+002 -5.4558096889E+001 +5.0254954982E+001 -8.8124156254E+001 -7.2091332672E+001 -1.9983412838E+001 -7.9243254507E+001
10247500000.000 -1.0348109026E+001 -1.2013608720E+002 -5.4480057760E+001 +1.6694046505E+001 -8.7680369452E+001 +6.3822992811E-001 -2.1129948887E+001 -6.5450358276E+001
10380000000.000 -1.0293042611E+001 -1.2059153610E+002 -5.4810322915E+001 -1.9223452120E+001 -8.3345668001E+001 +1.6874298243E+002 -2.0994461788E+001 -5.0202587481E+001
10512500000.000 -1.0229911971E+001 -1.2057378338E+002 -5.4586700107E+001 -5.1015309131E+001 -8.8597876528E+001 -1.3958294904E+002 -2.1576504806E+001 -4.2242486814E+001
10645000000.000 -1.0125836620E+001 -1.2042159903E+002 -5.4246198112E+001 -8.9704182506E+001 -9.0245335429E+001 +4.1327658003E+001 -2.2818711631E+001 -2.3439974891E+001
10777500000.000 -9.9288036640E+000 -1.2097551318E+002 -5.5613309207E+001 -1.2735999837E+002 -8.5414874721E+001 -1.5793354638E+002 -2.2135556659E+001 -6.1605623897E+000
10910000000.000 -9.8403539531E+000 -1.2136548749E+002 -5.5883568607E+001 -1.5900599258E+002 -9.4273512520E+001 -7.6032033496E+001 -2.2839392143E+001 +3.8975387187E+000
11042500000.000 -9.7613942344E+000 -1.2152838322E+002 -5.5854856933E+001 +1.6727444410E+002 -8.4244597376E+001 -3.9752111085E+001 -2.3437089303E+001 +2.7961240922E+001
11175000000.000 -9.6398466954E+000 -1.2144138467E+002 -5.5606355831E+001 +1.3051485316E+002 -8.7892603950E+001 +1.2522433693E+002 -2.2226983846E+001 +4.2638666486E+001
11307500000.000 -9.6050476381E+000 -1.2136018711E+002 -5.4227925075E+001 +1.0026539913E+002 -9.7301990674E+001 -7.8438083856E+001 -2.2769525409E+001 +5.3135514026E+001
11440000000.000 -9.5138247526E+000 -1.2168782322E+002 -5.3994461298E+001 +6.3450248096E+001 -8.7718909068E+001 -3.5093865458E+001 -2.2546366315E+001 +7.5741311867E+001
11572500000.000 -9.4013516820E+000 -1.2134258949E+002 -5.3674013142E+001 +2.9721366319E+001 -8.7362230661E+001 +1.4783830508E+002 -2.1187065109E+001 +8.6748310256E+001
11705000000.000 -9.3225891252E+000 -1.2141986762E+002 -5.4099668109E+001 -7.5253101868E+000 -8.8035277053E+001 -1.4270481968E+002 -2.1796583179E+001 +9.7182026393E+001
11837500000.000 -9.2166778909E+000 -1.2150489204E+002 -5.3524495030E+001 -3.8387760180E+001 -8.8548960085E+001 -1.3485625835E+001 -2.1082679678E+001 +1.1897284373E+002
11970000000.000 -9.1825490491E+000 -1.2143803493E+002 -5.3886194026E+001 -7.7511869953E+001 -8.8918845418E+001 +1.1131106546E+001 -1.9875741425E+001 +1.2519854083E+002
12102500000.000 -9.1095458729E+000 -1.2159540536E+002 -5.5569328848E+001 -1.0692845127E+002 -9.2280838305E+001 +1.3838577530E+002 -2.0759632178E+001 +1.3590750652E+002
12235000000.000 -9.0229519198E+000 -1.2138236851E+002 -5.4019046774E+001 -1.4736093430E+002 -8.6040833690E+001 +1.6220753947E+001 -1.9688186540E+001 +1.5421954093E+002
12367500000.000 -8.9992481897E+000 -1.2184816344E+002 -5.5847337338E+001 -1.7776574811E+002 -9.0834902297E+001 +1.3946539932E+002 -1.8942356988E+001 +1.5747450781E+002
12500000000.000 -8.9634843480E+000 -1.2183190361E+002 -5.3891974423E+001 +1.4031606800E+002 -8.5392750631E+001 -1.6256471825E+002 -2.0079080073E+001 +1.6881032031E+002
12632500000.000 -8.8921841989E+000 -1.2171878546E+002 -5.3973973088E+001 +1.0686710887E+002 -9.4545002487E+001 -1.1835456402E+002 -1.9060870159E+001 -1.7341588175E+002
12765000000.000 -8.8231466667E+000 -1.2181881685E+002 -5.4495400747E+001 +7.0222333165E+001 -9.1513584762E+001 +1.4966389646E+002 -1.8591046429E+001 -1.7192088375E+002
12897500000.000 -8.8056288787E+000 -1.2219029664E+002 -5.4287768022E+001 +3.5121599577E+001 -8.6893924557E+001 +1.0370136836E+002 -2.0184542177E+001 -1.5874128694E+002
13030000000.000 -8.7751818952E+000 -1.2229679972E+002 -5.4663040966E+001 -9.9947992632E-001 -8.1542082728E+001 -1.3263446643E+002 -1.8733568007E+001 -1.4174674931E+002
13162500000.000 -8.6968503516E+000 -1.2246443982E+002 -5.4777399702E+001 -3.3515110406E+001 -9.0061885476E+001 +1.4464508058E+001 -1.8678135000E+001 -1.4222379640E+002
13295000000.000 -8.6658961724E+000 -1.2287526610E+002 -5.6104498810E+001 -5.5149123688E+001 -8.3803670190E+001 +1.4425298364E+002 -2.0069369195E+001 -1.2739073800E+002
13427500000.000 -8.6325049702E+000 -1.2326556991E+002 -5.5614268327E+001 -8.8022934999E+001 -8.8856679948E+001 +1.7423877142E+002 -1.8757115509E+001 -1.1428310888E+002
13560000000.000 -8.6388500324E+000 -1.2310660759E+002 -5.5777142800E+001 -1.2319960527E+002 -7.9477144678E+001 -2.7293984082E+001 -1.9045994350E+001 -1.1514087837E+002
13692500000.000 -8.5057095075E+000 -1.2304962934E+002 -5.5802290051E+001 -1.7214424042E+002 -9.3470266543E+001 +5.0216657926E+001 -2.0846904735E+001 -1.0109019947E+002
13825000000.000 -8.4758254621E+000 -1.2351507001E+002 -5.5720154233E+001 +1.6808404756E+002 -9.3996859334E+001 +5.2185276089E+001 -1.9679864250E+001 -8.7715873009E+001
13957500000.000 -8.4688256057E+000 -1.2398899596E+002 -5.6619806968E+001 +1.3599004532E+002 -8.7868801603E+001 -4.8666772785E+001 -2.0387311795E+001 -9.0201109166E+001
14090000000.000 -8.4062124298E+000 -1.2372580877E+002 -5.5597945230E+001 +9.1269464894E+001 -8.0338620248E+001 +3.3802707738E+001 -2.2611083867E+001 -7.2608816175E+001
14222500000.000 -8.3654788184E+000 -1.2370658404E+002 -5.6138482280E+001 +6.9324029266E+001 -8.7119662323E+001 -1.2714828048E+001 -2.1267277455E+001 -5.9736281218E+001
14355000000.000 -8.2263513673E+000 -1.2424709054E+002 -5.6215919600E+001 +1.9364063652E+001 -8.4102982562E+001 -1.5509467675E+002 -2.2535540843E+001 -6.3266112809E+001
14487500000.000 -8.2068881247E+000 -1.2444296389E+002 -5.5853237846E+001 -1.9270448861E+001 -1.0440813661E+002 +6.1827577952E-001 -2.5367507720E+001 -4.0105641386E+001
14620000000.000 -8.1616907165E+000 -1.2416352943E+002 -5.5796557585E+001 -4.9641397498E+001 -9.1053286770E+001 -6.6288181927E+000 -2.3297326096E+001 -2.8366319472E+001
14752500000.000 -8.0397747649E+000 -1.2424014787E+002 -5.6268010061E+001 -8.1995924461E+001 -9.7331795035E+001 +1.0284914819E+002 -2.5513436464E+001 -3.5972198667E+001
14885000000.000 -8.0228503247E+000 -1.2448153369E+002 -5.5793496788E+001 -1.0545664394E+002 -8.3958221443E+001 -3.5440620123E+001 -2.8568141047E+001 +2.5739515755E+000
15017500000.000 -7.9312475505E+000 -1.2419343366E+002 -5.6442455349E+001 -1.5146536139E+002 -7.7682745751E+001 +1.3619871374E+002 -2.5395865920E+001 +7.6747511439E+000
15150000000.000 -7.8895331986E+000 -1.2396790535E+002 -5.6260829261E+001 -1.7721443796E+002 -8.6563170739E+001 +7.0199015915E+000 -2.9400526773E+001 -1.8355474276E+000
15282500000.000 -7.8380557208E+000 -1.2386463259E+002 -5.5481900031E+001 +1.4912223494E+002 -9.9480718301E+001 +5.4972797908E+000 -3.0600617982E+001 +5.7730041033E+001
