!  2-Port S-parameters saved by WinCal
! VAR MeasName=S-Parameters (CALIBRATED_DATA) read from VNA (C)
! VAR MeasDate=9/29/2015 3:20:33 PM
! VAR NAME=M6082_18_15_2_2_20C_10.0mA_-17.5dBm
! VAR FILENAME=M6082_18_15_2_2_20C_10.0mA_-17.5dBm.S2P
! VAR DATE=9/29/2015 3:20:33 PM
! VAR PHYS_PORTS=2,1
! VAR ObjTypeName=DATASET
! VAR IndexType=Frequency
!
# Hz S DB R 50
45000000.000 -2.5019072530E+001 -1.7978186497E+002 -5.3605744423E+001 +1.4888252304E+002 -5.5668092000E+001 -2.4497164708E+001 -3.0991668557E+001 +7.3376312683E+000
177500000.000 -2.5110655977E+001 -1.7600707774E+002 -5.5910100901E+001 +6.9559020927E+001 -8.3632760985E+001 -1.6499317444E+002 -3.2742567902E+001 +4.5743928658E+001
310000000.000 -2.5126122149E+001 -1.7135847622E+002 -5.5766891338E+001 +3.5417701105E+001 -8.0294526258E+001 +1.4543416192E+002 -2.3337135602E+001 +6.4289724910E+001
442500000.000 -2.5027335497E+001 -1.6721871882E+002 -5.4198235276E+001 +2.4785997714E+000 -7.6729918674E+001 -3.3564938497E+001 -2.2401890172E+001 +1.7015857858E+001
575000000.000 -2.4844970845E+001 -1.6235649075E+002 -5.5049452242E+001 -3.6876850736E+001 -8.4431597397E+001 +5.5643359901E+001 -3.0637034281E+001 +2.2174317963E+001
707500000.000 -2.4579015677E+001 -1.5888379808E+002 -5.4972298925E+001 -6.7778761482E+001 -9.6552658929E+001 -8.5888180494E+001 -3.4712435371E+001 +8.3463827809E+001
840000000.000 -2.4323639734E+001 -1.5458874994E+002 -5.5165978483E+001 -1.0014779585E+002 -9.3670049939E+001 -1.2166805611E+002 -2.9656463880E+001 +1.2792363790E+002
972500000.000 -2.4075170125E+001 -1.5099494562E+002 -5.4903026477E+001 -1.3715449643E+002 -8.3881712291E+001 -1.1367380416E+002 -2.5905088295E+001 +1.3511438095E+002
1105000000.000 -2.3898516882E+001 -1.4601793178E+002 -5.5285947248E+001 -1.7228390771E+002 -1.0147694351E+002 +1.2742493710E+002 -2.4398495791E+001 +1.4071148624E+002
1237500000.000 -2.3337204629E+001 -1.4490911587E+002 -5.5344375999E+001 +1.5661775298E+002 -8.3007841017E+001 -4.0124719131E+001 -2.3395437258E+001 +1.5005673593E+002
1370000000.000 -2.3124026571E+001 -1.4072172069E+002 -5.5617471379E+001 +1.1723822025E+002 -9.2175993525E+001 -7.4203192715E+001 -2.2061436466E+001 +1.5993403014E+002
1502500000.000 -2.2821144974E+001 -1.3844947012E+002 -5.5209208305E+001 +8.7646487725E+001 -8.8816108937E+001 -1.0454406257E+002 -2.0865094759E+001 +1.6627764832E+002
1635000000.000 -2.2251178656E+001 -1.3719855714E+002 -5.5493818462E+001 +5.4917219233E+001 -8.7020376614E+001 -1.5071334275E+001 -2.0018854440E+001 +1.7322682044E+002
1767500000.000 -2.1837046592E+001 -1.3516135310E+002 -5.5115773366E+001 +2.2293647167E+001 -8.6998976273E+001 +6.9704824269E+001 -1.9010054994E+001 +1.7836158492E+002
1900000000.000 -2.1591630232E+001 -1.3357792473E+002 -5.5878908811E+001 -1.7832182984E+001 -8.4778872324E+001 +1.7810514710E+002 -1.8865085588E+001 -1.7834457995E+002
2032500000.000 -2.1278158605E+001 -1.3210710474E+002 -5.5599556764E+001 -5.3527240278E+001 -8.1798736759E+001 -3.8303069968E+001 -1.8668159844E+001 -1.6802964789E+002
2165000000.000 -2.0925191581E+001 -1.2980432590E+002 -5.6019806508E+001 -9.0615525820E+001 -8.1540348843E+001 +2.4371608201E+001 -1.7738765112E+001 -1.6123048420E+002
2297500000.000 -2.0602079968E+001 -1.2886614417E+002 -5.5282528680E+001 -1.2203524546E+002 -7.8585989420E+001 -1.7404738667E+002 -1.7250777988E+001 -1.5716696386E+002
2430000000.000 -2.0326355430E+001 -1.2764649121E+002 -5.5605738324E+001 -1.5732406259E+002 -8.8366588843E+001 -9.9815379598E+001 -1.6916930142E+001 -1.5297983832E+002
2562500000.000 -1.9984889739E+001 -1.2608833059E+002 -5.6118512059E+001 +1.6957773190E+002 -7.6418349872E+001 +2.1555781172E+001 -1.6826955282E+001 -1.5086318832E+002
2695000000.000 -1.9634298416E+001 -1.2412074113E+002 -5.6213609601E+001 +1.4159196845E+002 -8.7482881946E+001 -1.0247209795E+002 -1.7392082155E+001 -1.4736641345E+002
2827500000.000 -1.9445154435E+001 -1.2590164858E+002 -5.5824768022E+001 +1.0618992587E+002 -8.1444153251E+001 -4.5011584806E+001 -1.7835088002E+001 -1.4036564418E+002
2960000000.000 -1.9177951759E+001 -1.2471527364E+002 -5.5795015447E+001 +7.1150435856E+001 -8.1048726465E+001 -2.2389959813E+001 -1.8124385132E+001 -1.3594400832E+002
3092500000.000 -1.8742213500E+001 -1.2214268916E+002 -5.6094373819E+001 +3.4476100329E+001 -8.3067283983E+001 -1.1692514086E+002 -1.9126051522E+001 -1.2968865813E+002
3225000000.000 -1.8475135468E+001 -1.2423681006E+002 -5.6067161126E+001 +4.0314671132E+000 -9.0978567814E+001 +7.3062510143E+001 -1.9581711306E+001 -1.1966660066E+002
3357500000.000 -1.8298447975E+001 -1.2404738595E+002 -5.5955621659E+001 -2.7292751000E+001 -7.6861473762E+001 -1.9344508404E+001 -1.9889799944E+001 -1.1469525436E+002
3490000000.000 -1.7979621769E+001 -1.2329710709E+002 -5.5296610975E+001 -6.0832870858E+001 -8.0207616311E+001 +1.3389778863E+002 -2.1150544107E+001 -1.0921456396E+002
3622500000.000 -1.7629123945E+001 -1.2274002405E+002 -5.6167140639E+001 -9.5319123534E+001 -9.7623610048E+001 +8.1040139472E+001 -2.1961103236E+001 -9.8285060136E+001
3755000000.000 -1.7322000178E+001 -1.2254853476E+002 -5.5592371658E+001 -1.3025809007E+002 -7.9102523243E+001 -8.0669467365E+000 -2.2635634333E+001 -9.4855100080E+001
3887500000.000 -1.6889508280E+001 -1.2107773117E+002 -5.6726710048E+001 -1.6613138061E+002 -8.1944358020E+001 +6.4092874439E+001 -2.5022296945E+001 -8.8912753983E+001
4020000000.000 -1.6682152050E+001 -1.2082253843E+002 -5.7331842724E+001 +1.5757354839E+002 -8.4319934457E+001 +1.4648174434E+002 -2.6739772026E+001 -7.3679867159E+001
4152500000.000 -1.6395523789E+001 -1.2023898338E+002 -5.6725237608E+001 +1.2451322798E+002 -7.8416717417E+001 -7.9552710887E+000 -2.8748629868E+001 -6.5173450042E+001
4285000000.000 -1.6108709612E+001 -1.2015953873E+002 -5.7063967368E+001 +9.0660054813E+001 -9.6107810156E+001 +1.0911517420E+002 -3.3415206558E+001 -3.9733453549E+001
4417500000.000 -1.5920657509E+001 -1.2031270148E+002 -5.6763108215E+001 +5.6884802502E+001 -8.3065489304E+001 +9.8918457649E+001 -3.1843035458E+001 +7.4490921375E+000
4550000000.000 -1.5901969250E+001 -1.2043664593E+002 -5.6196356367E+001 +2.7787385992E+001 -8.3242680977E+001 -1.3605127124E+002 -3.0332733313E+001 +1.7245420982E+001
4682500000.000 -1.5651622866E+001 -1.1985990981E+002 -5.5632308550E+001 -3.9792211972E+000 -9.5469706392E+001 -6.1411027404E+001 -2.9770857752E+001 +3.7690184908E+001
4815000000.000 -1.5394986763E+001 -1.2002663382E+002 -5.5415248620E+001 -4.0342587226E+001 -9.1913553587E+001 -1.9483902708E+001 -2.7685158309E+001 +4.0545875663E+001
4947500000.000 -1.5248970406E+001 -1.1964479020E+002 -5.6275812157E+001 -7.2070088428E+001 -8.5148754869E+001 +1.7204163185E+002 -2.9417912657E+001 +3.4529079273E+001
5080000000.000 -1.5071387549E+001 -1.1901536520E+002 -5.5833158627E+001 -1.0361585194E+002 -8.8013490635E+001 -1.9763812921E+001 -3.2330832220E+001 +5.5874965487E+001
5212500000.000 -1.4828995484E+001 -1.1879146985E+002 -5.5708600639E+001 -1.3692903216E+002 -9.1314504337E+001 +3.7084664036E+001 -3.1647248246E+001 +6.8244747043E+001
5345000000.000 -1.4689931451E+001 -1.1885163349E+002 -5.5139294905E+001 -1.7475486391E+002 -8.7665553797E+001 -1.5736942033E+002 -3.5520658686E+001 +6.8856848200E+001
5477500000.000 -1.4577595006E+001 -1.1833501029E+002 -5.5441064153E+001 +1.5309519736E+002 -9.1942842819E+001 -9.6189172087E+001 -3.7578363755E+001 +1.3223461201E+002
5610000000.000 -1.4387955762E+001 -1.1784069880E+002 -5.5079649011E+001 +1.2092386993E+002 -9.3596043841E+001 -1.9281010493E+001 -3.3764681312E+001 +1.3495759429E+002
5742500000.000 -1.4001218469E+001 -1.1791059884E+002 -5.7732526271E+001 +8.5125168982E+001 -8.2418854643E+001 +1.7292394991E+002 -3.8290059076E+001 +1.5167857586E+002
5875000000.000 -1.3908261574E+001 -1.1817169722E+002 -5.7936188205E+001 +5.5863304365E+001 -8.4572654004E+001 -8.2726746369E+000 -3.3933904048E+001 -1.6928384568E+002
6007500000.000 -1.3832867248E+001 -1.1830395798E+002 -5.7274537365E+001 +2.1947835474E+001 -9.4040737828E+001 +1.7257670101E+002 -3.2756654381E+001 +1.7957517267E+002
6140000000.000 -1.3869466368E+001 -1.1760555494E+002 -5.4637792764E+001 -1.6936017616E+001 -8.3070955019E+001 -1.5338601062E+002 -3.6421882837E+001 -1.7081673327E+002
6272500000.000 -1.3515822776E+001 -1.1892962343E+002 -5.8020451600E+001 -4.5617196920E+001 -9.6414179853E+001 +3.0545688591E-001 -3.4137121787E+001 -1.4354798332E+002
6405000000.000 -1.3634208502E+001 -1.1865656021E+002 -5.5241537743E+001 -8.7604109314E+001 -9.2331351337E+001 -6.5425086797E+001 -3.3884306690E+001 -1.6184619963E+002
6537500000.000 -1.3540886596E+001 -1.1824459904E+002 -5.5193900703E+001 -1.2039086835E+002 -8.6112639538E+001 +1.2057382421E+002 -4.0154313308E+001 -1.6301892879E+002
6670000000.000 -1.3326989640E+001 -1.1809669775E+002 -5.5096816043E+001 -1.5614300112E+002 -9.4905053272E+001 -1.1568895601E+002 -3.9904360727E+001 -1.3884724763E+002
6802500000.000 -1.3122131196E+001 -1.1878667553E+002 -5.5228902958E+001 +1.6922215849E+002 -8.9152141679E+001 +1.0022271185E+002 -3.9231623541E+001 +1.7866196597E+002
6935000000.000 -1.3093140989E+001 -1.1931818932E+002 -5.5278897219E+001 +1.3666332951E+002 -9.3796703263E+001 +1.3113431467E+002 -3.8593819199E+001 +1.2405613682E+002
7067500000.000 -1.2967144686E+001 -1.1878480107E+002 -5.5288352245E+001 +1.0165839765E+002 -9.0899416083E+001 -1.1765568562E+002 -3.8361232436E+001 +1.1525169637E+002
7200000000.000 -1.2745059902E+001 -1.1872788935E+002 -5.5118777124E+001 +6.7200721284E+001 -9.6595747493E+001 +1.9593548606E+001 -3.2760267655E+001 +1.2980344310E+002
7332500000.000 -1.2588907871E+001 -1.1947715783E+002 -5.5188518013E+001 +3.3876770764E+001 -9.0473825839E+001 +6.6174299780E+001 -2.9191635280E+001 +1.1932327764E+002
7465000000.000 -1.2513253807E+001 -1.1954199470E+002 -5.5444615449E+001 +2.1430911664E+000 -8.8977337750E+001 -8.0025734430E+001 -2.8531531035E+001 +1.2340435183E+002
7597500000.000 -1.2360475151E+001 -1.1927642903E+002 -5.5194521877E+001 -3.4652052432E+001 -9.9755558225E+001 +3.5450832262E+001 -2.6015531721E+001 +1.3690019876E+002
7730000000.000 -1.2152435556E+001 -1.1934463280E+002 -5.5285962507E+001 -7.1340988157E+001 -8.2853870627E+001 +5.9116576481E+001 -2.3780955525E+001 +1.3770472570E+002
7862500000.000 -1.2033839810E+001 -1.1952125194E+002 -5.5796704310E+001 -1.0210049065E+002 -8.7774336261E+001 -4.6291125639E+001 -2.3273099360E+001 +1.4214751010E+002
7995000000.000 -1.1984909870E+001 -1.2032646451E+002 -5.6373311804E+001 -1.1903647010E+002 -8.8198417660E+001 -6.6924214007E+001 -2.1763881365E+001 +1.5411517026E+002
8127500000.000 -1.1750720187E+001 -1.1888887928E+002 -5.5198828187E+001 -1.6812166419E+002 -8.5994185096E+001 +1.4564359526E+002 -2.0043170677E+001 +1.5635175615E+002
8260000000.000 -1.1669080080E+001 -1.2012741266E+002 -5.5777673851E+001 +1.7439369299E+002 -8.7216231527E+001 -1.7159035080E+002 -1.9860479201E+001 +1.6042980140E+002
8392500000.000 -1.1543641877E+001 -1.1903808528E+002 -5.5711066809E+001 +1.2260611171E+002 -8.2448021866E+001 -1.0757867641E+002 -1.9039936152E+001 +1.7036362677E+002
8525000000.000 -1.1496870585E+001 -1.1941080484E+002 -5.5628528755E+001 +1.0377285789E+002 -8.9330505695E+001 +7.6103949343E+001 -1.8230043443E+001 +1.7292960032E+002
8657500000.000 -1.1294281133E+001 -1.1855373385E+002 -5.5446664968E+001 +5.6428249453E+001 -8.5044760063E+001 +1.6511195957E+002 -1.8564110230E+001 +1.7811368396E+002
8790000000.000 -1.1185540598E+001 -1.1856088885E+002 -5.5522240100E+001 +2.2860364803E+001 -9.6948624968E+001 -1.1985271353E+002 -1.8341158489E+001 -1.7193450415E+002
8922500000.000 -1.1144231449E+001 -1.1856552901E+002 -5.5636728307E+001 -1.3769100668E+001 -8.6963682918E+001 -5.2655127738E+000 -1.8022346450E+001 -1.6597557697E+002
9055000000.000 -1.1051958598E+001 -1.1819391579E+002 -5.5516642412E+001 -4.8302142365E+001 -8.6608345630E+001 +1.2759755594E+002 -1.8422250657E+001 -1.5814173068E+002
9187500000.000 -1.0964619296E+001 -1.1825294434E+002 -5.5676601559E+001 -8.1704310157E+001 -8.7400672832E+001 -1.4083065233E+002 -1.8363794572E+001 -1.4669053631E+002
9320000000.000 -1.0877546712E+001 -1.1879792985E+002 -5.5366928821E+001 -1.1442422512E+002 -9.1744871409E+001 -3.4182677452E+001 -1.8262606730E+001 -1.3960055957E+002
9452500000.000 -1.0833839965E+001 -1.1880306082E+002 -5.5699129613E+001 -1.4926576947E+002 -8.2520165292E+001 +1.6557488495E+002 -1.8816639970E+001 -1.3018775056E+002
9585000000.000 -1.0747419450E+001 -1.1868380353E+002 -5.5337118690E+001 +1.7642603179E+002 -8.6561359412E+001 -8.9720599254E+001 -1.8764161906E+001 -1.1865115956E+002
9717500000.000 -1.0681832636E+001 -1.1937062259E+002 -5.5116459783E+001 +1.5430803772E+002 -8.8317256166E+001 -1.3208600054E+002 -1.8885928661E+001 -1.1116270572E+002
9850000000.000 -1.0564116507E+001 -1.1977013011E+002 -5.5438803507E+001 +1.0770034590E+002 -8.7333990494E+001 +1.4958128468E+002 -1.9624251534E+001 -1.0010134351E+002
9982500000.000 -1.0502370445E+001 -1.1953487450E+002 -5.5447123342E+001 +7.3177779950E+001 -8.5005407383E+001 -1.6715810934E+002 -1.9645661791E+001 -8.6901411708E+001
10115000000.000 -1.0455898300E+001 -1.1978391185E+002 -5.4953560601E+001 +5.3624470440E+001 -8.3356938117E+001 -3.3482702319E+001 -1.9989968732E+001 -7.9143909730E+001
10247500000.000 -1.0256358314E+001 -1.2011255083E+002 -5.5866845286E+001 +4.0330040069E+000 -9.0887547427E+001 +1.1659012591E+002 -2.1131042485E+001 -6.5370399920E+001
10380000000.000 -1.0215791864E+001 -1.2054184977E+002 -5.5816388409E+001 -2.6799980766E+001 -9.2379031717E+001 -1.6299744551E+002 -2.0998737208E+001 -5.0121593467E+001
10512500000.000 -1.0145094008E+001 -1.2058769781E+002 -5.6061566485E+001 -5.8894074304E+001 -1.0176777808E+002 +4.3045626331E+001 -2.1582202787E+001 -4.2138567062E+001
10645000000.000 -1.0038793812E+001 -1.2056607731E+002 -5.5798533017E+001 -9.5406198948E+001 -8.5760346692E+001 +7.8775835277E+000 -2.2819195605E+001 -2.3303010705E+001
10777500000.000 -9.9243809242E+000 -1.2101874963E+002 -5.6123307984E+001 -1.2652326140E+002 -8.3564437813E+001 +1.8810383271E+001 -2.2133001862E+001 -6.1081613372E+000
10910000000.000 -9.8367892364E+000 -1.2139882588E+002 -5.5785549377E+001 -1.5864206013E+002 -8.9245485723E+001 -7.9215557399E+001 -2.2817435739E+001 +4.1028478155E+000
11042500000.000 -9.7528825872E+000 -1.2156331646E+002 -5.5574287594E+001 +1.6476989398E+002 -9.1271306656E+001 +4.9078137607E+001 -2.3438449002E+001 +2.8120525971E+001
11175000000.000 -9.6336497521E+000 -1.2148786490E+002 -5.5815845915E+001 +1.3159394624E+002 -9.2070133146E+001 -1.2332893700E+002 -2.2229772183E+001 +4.2747877149E+001
11307500000.000 -9.5497613177E+000 -1.2158772569E+002 -5.5550615409E+001 +9.8080331281E+001 -8.5379622004E+001 -5.8694869278E+001 -2.2765911266E+001 +5.3234083503E+001
11440000000.000 -9.5106215848E+000 -1.2172699775E+002 -5.4195248236E+001 +6.3075617002E+001 -8.7005433933E+001 +1.1097541050E+001 -2.2554598058E+001 +7.5824330248E+001
11572500000.000 -9.3515040787E+000 -1.2167221662E+002 -5.5678570843E+001 +2.7683201853E+001 -7.8903383577E+001 +5.6395503013E+001 -2.1167191457E+001 +8.6915994886E+001
11705000000.000 -9.3201037011E+000 -1.2149076673E+002 -5.3969094047E+001 -4.1070031464E+000 -8.6357842872E+001 -1.2672921692E+002 -2.1777729529E+001 +9.7266400875E+001
11837500000.000 -9.2153582364E+000 -1.2155289545E+002 -5.4177914835E+001 -4.0423172643E+001 -9.6763867256E+001 -1.4221465378E+002 -2.1065714021E+001 +1.1910308458E+002
11970000000.000 -9.1786607861E+000 -1.2146068538E+002 -5.4099972628E+001 -7.7828574978E+001 -8.8934333906E+001 -6.4460291071E+001 -1.9869493838E+001 +1.2526436131E+002
12102500000.000 -9.1028073743E+000 -1.2162955378E+002 -5.5574470460E+001 -1.1051618195E+002 -7.6535136191E+001 +1.6826477989E+002 -2.0749415146E+001 +1.3600585437E+002
12235000000.000 -9.0061553580E+000 -1.2179811648E+002 -5.5320707820E+001 -1.4411971773E+002 -8.4402778336E+001 -1.4907847794E+002 -1.9688342321E+001 +1.5427991354E+002
12367500000.000 -8.9966505380E+000 -1.2188972293E+002 -5.5225916219E+001 -1.7442296962E+002 -8.6718401502E+001 -3.7177526141E+001 -1.8941664247E+001 +1.5757481945E+002
12500000000.000 -8.9619552870E+000 -1.2223656222E+002 -5.5525566285E+001 +1.4790529935E+002 -8.7962333816E+001 +1.2750089233E+002 -2.0061674130E+001 +1.6891152900E+002
12632500000.000 -8.8950233729E+000 -1.2208021687E+002 -5.5564860996E+001 +1.1430147636E+002 -8.7403373815E+001 -1.0232846699E+002 -1.9051965680E+001 -1.7328455345E+002
12765000000.000 -8.8327349860E+000 -1.2219164322E+002 -5.5472863794E+001 +8.0193956580E+001 -1.0279551297E+002 +9.6696288809E+001 -1.8574487035E+001 -1.7181271311E+002
12897500000.000 -8.8248518531E+000 -1.2255342488E+002 -5.5816857825E+001 +4.7876038794E+001 -9.3168206145E+001 -1.7397916446E+002 -2.0171137530E+001 -1.5866800718E+002
13030000000.000 -8.7964871981E+000 -1.2263124472E+002 -5.5775097551E+001 +1.0880848081E+001 -8.8850855357E+001 -4.5402052431E+000 -1.8722869649E+001 -1.4161482419E+002
13162500000.000 -8.6861493249E+000 -1.2249561706E+002 -5.5028152699E+001 -3.3667624160E+001 -8.4362140661E+001 -2.0866464239E+001 -1.8677717576E+001 -1.4219267741E+002
13295000000.000 -8.6630575324E+000 -1.2289985822E+002 -5.5448771527E+001 -5.3458926907E+001 -8.2207168541E+001 +6.3391873924E+001 -2.0073827334E+001 -1.2723581678E+002
13427500000.000 -8.5866137066E+000 -1.2309576943E+002 -5.5143459550E+001 -1.0088375724E+002 -8.3320079382E+001 +1.4274095826E+002 -1.8758342379E+001 -1.1414965524E+002
13560000000.000 -8.5960565633E+000 -1.2295681761E+002 -5.5253482707E+001 -1.3659832257E+002 -9.1867067452E+001 -1.2180047751E+002 -1.9050266266E+001 -1.1501133036E+002
13692500000.000 -8.4992268524E+000 -1.2309397706E+002 -5.5283478953E+001 -1.6778648000E+002 -8.4512121824E+001 +6.0838398177E+001 -2.0851245334E+001 -1.0095581865E+002
13825000000.000 -8.4291835267E+000 -1.2343089635E+002 -5.5074807573E+001 +1.5469722038E+002 -8.3614447277E+001 +1.3145563776E+002 -1.9680125710E+001 -8.7553455050E+001
13957500000.000 -8.4667662736E+000 -1.2400499287E+002 -5.5803081263E+001 +1.3563156267E+002 -8.6707589390E+001 -2.9909065272E+001 -2.0391850172E+001 -9.0123472237E+001
14090000000.000 -8.3993381371E+000 -1.2377297266E+002 -5.5516956476E+001 +8.5576751751E+001 -8.3856251667E+001 +1.5659562948E+002 -2.2625943484E+001 -7.2506786607E+001
14222500000.000 -8.3614333072E+000 -1.2373006967E+002 -5.5622388554E+001 +6.5306416538E+001 -8.7692255757E+001 +1.5429704001E+002 -2.1270692200E+001 -5.9579479662E+001
14355000000.000 -8.2606062042E+000 -1.2432461098E+002 -5.5570038960E+001 +3.1918650533E+001 -8.0327682813E+001 -3.2612970318E+001 -2.2564314582E+001 -6.3186763211E+001
14487500000.000 -8.2383461929E+000 -1.2448701692E+002 -5.5411189067E+001 -2.9269595183E+000 -7.9788846025E+001 +1.4839208833E+002 -2.5380590651E+001 -4.0037721781E+001
14620000000.000 -8.1989969446E+000 -1.2418426378E+002 -5.5363031908E+001 -3.6597568029E+001 -8.5907596726E+001 +6.3458504067E+001 -2.3303794253E+001 -2.8182414925E+001
14752500000.000 -8.0750139916E+000 -1.2423255400E+002 -5.5055526020E+001 -7.1606612368E+001 -9.0502230711E+001 -5.2545103334E+001 -2.5515088644E+001 -3.6097416164E+001
14885000000.000 -8.0169219069E+000 -1.2452676799E+002 -5.5385264010E+001 -1.0560621167E+002 -8.1093892821E+001 +7.0677735426E+001 -2.8553145509E+001 +2.6222229871E+000
15017500000.000 -7.9604639333E+000 -1.2416602579E+002 -5.5433135752E+001 -1.4091994763E+002 -9.5478681062E+001 -7.7090449441E+000 -2.5421484091E+001 +7.5946433686E+000
15150000000.000 -7.8533406782E+000 -1.2405478644E+002 -5.6079488552E+001 +1.6924448974E+002 -8.4338921431E+001 -1.1134156906E+002 -2.9424218743E+001 -1.7984971967E+000
15282500000.000 -7.8338708934E+000 -1.2389801075E+002 -5.5899297823E+001 +1.5369213513E+002 -8.8392405326E+001 +1.3179816240E+001 -3.0608628317E+001 +5.8016226646E+001
