!  2-Port S-parameters saved by WinCal
! VAR MeasName=S-Parameters (CALIBRATED_DATA) read from VNA (C)
! VAR MeasDate=9/29/2015 2:58:34 PM
! VAR NAME=M6082_18_15_2_2_20C_6.2mA_-16.5dBm
! VAR FILENAME=M6082_18_15_2_2_20C_6.2mA_-16.5dBm.S2P
! VAR DATE=9/29/2015 2:58:34 PM
! VAR PHYS_PORTS=2,1
! VAR ObjTypeName=DATASET
! VAR IndexType=Frequency
!
# Hz S DB R 50
45000000.000 -3.9944200624E+001 -8.7504963633E+000 -5.2571188112E+001 +8.7164568001E+001 -7.4613747990E+001 -2.0047843720E+001 -3.0982688690E+001 +8.7271854259E+000
177500000.000 -3.9205209124E+001 -3.1363971292E+001 -5.4958722288E+001 +7.0084661805E+001 -8.8212857108E+001 +1.1658962318E+002 -3.2647416700E+001 +4.5822006272E+001
310000000.000 -3.6714021965E+001 -4.9535929796E+001 -5.3409503744E+001 +3.8814147010E+001 -8.3041349978E+001 +3.6954719633E+001 -2.3326926608E+001 +6.4331018457E+001
442500000.000 -3.4596261452E+001 -6.0101225300E+001 -5.2318866840E+001 +3.3502275002E+000 -7.3784145222E+001 +1.7584224430E+001 -2.2383937029E+001 +1.6841384283E+001
575000000.000 -3.2576246852E+001 -6.6529147158E+001 -5.3589250843E+001 -3.5005528275E+001 -8.5007179953E+001 +3.0426927668E+001 -3.0594378987E+001 +2.1930256484E+001
707500000.000 -3.1085908099E+001 -7.3064261184E+001 -5.3275438334E+001 -6.8902119816E+001 -8.9524142543E+001 -1.5856746972E+001 -3.4625044507E+001 +8.3473264515E+001
840000000.000 -2.9571415264E+001 -7.6321177353E+001 -5.3405263900E+001 -1.0471232338E+002 -8.3244565296E+001 -1.0497116887E+002 -2.9625919250E+001 +1.2756637197E+002
972500000.000 -2.8430246306E+001 -7.7978977179E+001 -5.3460976446E+001 -1.3706266252E+002 -8.7937215690E+001 +1.2789832586E+002 -2.5911577351E+001 +1.3494352992E+002
1105000000.000 -2.7292074826E+001 -8.0637093203E+001 -5.3523244013E+001 -1.7071134281E+002 -9.3979793340E+001 +1.4817732190E+002 -2.4378440146E+001 +1.4066998718E+002
1237500000.000 -2.6427514497E+001 -8.2453943150E+001 -5.3652077688E+001 +1.5608626429E+002 -9.0262614616E+001 -1.7472621062E+002 -2.3388217526E+001 +1.5007111644E+002
1370000000.000 -2.5557050025E+001 -8.4202811630E+001 -5.3962987050E+001 +1.2267419414E+002 -8.5326207920E+001 +3.1329058769E+001 -2.2052159096E+001 +1.5979127229E+002
1502500000.000 -2.4812282881E+001 -8.5215194801E+001 -5.3635425987E+001 +8.6478949860E+001 -9.0402641339E+001 -1.7323605633E+002 -2.0857147758E+001 +1.6622587352E+002
1635000000.000 -2.4061093071E+001 -8.5841559646E+001 -5.3871332497E+001 +5.1376274363E+001 -9.1614484482E+001 -1.9050580350E+001 -2.0016429060E+001 +1.7322210474E+002
1767500000.000 -2.3344209845E+001 -8.7008146900E+001 -5.3566334558E+001 +1.7337123513E+001 -8.2483115622E+001 +7.0456436067E+001 -1.9002037067E+001 +1.7835335091E+002
1900000000.000 -2.2860475978E+001 -8.7647825879E+001 -5.3835721491E+001 -1.4019134900E+001 -8.9496926014E+001 -4.2685356947E+001 -1.8868215815E+001 -1.7839580735E+002
2032500000.000 -2.2428746165E+001 -8.6407256144E+001 -5.4390363866E+001 -5.0615742464E+001 -8.0909089595E+001 -1.2660778144E+002 -1.8666967298E+001 -1.6808305228E+002
2165000000.000 -2.1775660762E+001 -8.6597953661E+001 -5.4379947472E+001 -8.4074293819E+001 -8.4001544491E+001 +9.0906802906E+001 -1.7735890755E+001 -1.6117999968E+002
2297500000.000 -2.1304335136E+001 -8.9415835949E+001 -5.3497521441E+001 -1.1020475520E+002 -8.8607282935E+001 -5.2924836814E+001 -1.7237974828E+001 -1.5717143715E+002
2430000000.000 -2.0910709334E+001 -8.9917472775E+001 -5.3751429019E+001 -1.4613509183E+002 -8.9150452236E+001 -2.8914301773E+001 -1.6905134554E+001 -1.5301604943E+002
2562500000.000 -2.0394994785E+001 -8.8085132369E+001 -5.4562349516E+001 +1.7247317368E+002 -7.8058115650E+001 +1.3108092379E+001 -1.6823603857E+001 -1.5085467844E+002
2695000000.000 -2.0020173624E+001 -8.9369053324E+001 -5.4516604304E+001 +1.4162842001E+002 -7.5668475643E+001 +1.2106602109E+002 -1.7401951347E+001 -1.4736896334E+002
2827500000.000 -1.9818686801E+001 -9.2590898742E+001 -5.3642272195E+001 +1.1157691986E+002 -8.4380864160E+001 +1.7666155886E+002 -1.7836330517E+001 -1.4039424510E+002
2960000000.000 -1.9450557223E+001 -9.2709232975E+001 -5.3529652742E+001 +7.6659027079E+001 -8.2257380183E+001 +4.9647590053E+001 -1.8127573752E+001 -1.3587458168E+002
3092500000.000 -1.9001674794E+001 -9.3579494274E+001 -5.4672238114E+001 +4.4949000689E+001 -7.7738873511E+001 +1.4024940857E+002 -1.9113437703E+001 -1.2968377397E+002
3225000000.000 -1.8678083678E+001 -9.5136987675E+001 -5.3542020624E+001 +7.3167440426E+000 -7.8054775021E+001 -1.4007974138E+002 -1.9570525188E+001 -1.1975391197E+002
3357500000.000 -1.8474573644E+001 -9.5601486254E+001 -5.3555287558E+001 -2.8553744554E+001 -7.8307497770E+001 -4.4518074961E+001 -1.9880917537E+001 -1.1470391877E+002
3490000000.000 -1.8092749652E+001 -9.6026457241E+001 -5.3794016174E+001 -5.6645108265E+001 -8.2201331976E+001 +4.1858840565E+001 -2.1133924534E+001 -1.0915794024E+002
3622500000.000 -1.7695732151E+001 -9.6744505607E+001 -5.3306919149E+001 -9.2674895535E+001 -8.8413784814E+001 -1.4029774292E+002 -2.1963304266E+001 -9.8184738757E+001
3755000000.000 -1.7364040102E+001 -9.7612556696E+001 -5.3691902557E+001 -1.2824908176E+002 -8.1570678840E+001 -1.0285173942E+001 -2.2612528219E+001 -9.4937000213E+001
3887500000.000 -1.7091331221E+001 -9.8253497707E+001 -5.3739144414E+001 -1.6172157367E+002 -8.1536431795E+001 +5.9334025976E+000 -2.5015763091E+001 -8.8899940947E+001
4020000000.000 -1.6579241766E+001 -9.7962485971E+001 -5.5243575943E+001 +1.5604593360E+002 -8.5401912645E+001 +1.2980938855E+002 -2.6720599358E+001 -7.3669954321E+001
4152500000.000 -1.6269207274E+001 -9.8350984945E+001 -5.5629364137E+001 +1.2052678730E+002 -9.3426750098E+001 +3.0661915593E+001 -2.8710948364E+001 -6.5176585659E+001
4285000000.000 -1.5967205486E+001 -9.8988911210E+001 -5.5472786018E+001 +8.6623655601E+001 -8.5282936634E+001 +1.5106716894E+001 -3.3356529938E+001 -3.9624537232E+001
4417500000.000 -1.5980914130E+001 -1.0007764756E+002 -5.3921138631E+001 +5.8716850905E+001 -9.1589858206E+001 -1.6837214506E+002 -3.1873307183E+001 +7.5228179096E+000
4550000000.000 -1.5760968547E+001 -1.0005740861E+002 -5.3928717160E+001 +2.6647044313E+001 -9.0388121229E+001 -1.8993508757E+001 -3.0324552354E+001 +1.7328236840E+001
4682500000.000 -1.5473471672E+001 -1.0019850638E+002 -5.3840087202E+001 -7.5160252314E+000 -1.0485013653E+002 +5.2842837745E+001 -2.9756776397E+001 +3.7620633453E+001
4815000000.000 -1.5047331409E+001 -1.0058670826E+002 -5.5503392213E+001 -4.2862606240E+001 -9.3726858996E+001 +1.7108005289E+002 -2.7714791688E+001 +4.0592794920E+001
4947500000.000 -1.5046041906E+001 -1.0107826919E+002 -5.4272753853E+001 -7.7216401317E+001 -9.1801061391E+001 -7.1883485451E+001 -2.9428149741E+001 +3.4542185066E+001
5080000000.000 -1.4826491280E+001 -1.0095787822E+002 -5.4583661072E+001 -1.0802104865E+002 -8.6748331296E+001 -4.9369754745E+001 -3.2348728274E+001 +5.5887885630E+001
5212500000.000 -1.4571599523E+001 -1.0137142338E+002 -5.3807143313E+001 -1.4271025510E+002 -9.4066073403E+001 -1.4020443489E+002 -3.1653185230E+001 +6.8269619265E+001
5345000000.000 -1.4427335770E+001 -1.0177345197E+002 -5.4070055241E+001 -1.7655389972E+002 -7.9650429429E+001 -1.1982269733E+002 -3.5478993687E+001 +6.8612813242E+001
5477500000.000 -1.4278342663E+001 -1.0159120944E+002 -5.4211916923E+001 +1.4994947160E+002 -8.4919215408E+001 -2.8257967509E+001 -3.7600698861E+001 +1.3228177549E+002
5610000000.000 -1.4063970615E+001 -1.0159084493E+002 -5.3740566944E+001 +1.1726119081E+002 -1.0778618127E+002 +8.5906463358E+001 -3.3776929599E+001 +1.3480843284E+002
5742500000.000 -1.3908366769E+001 -1.0214623643E+002 -5.4161430278E+001 +8.1841538894E+001 -9.4896443186E+001 +2.4134998997E+001 -3.8292373136E+001 +1.5119500781E+002
5875000000.000 -1.3807272395E+001 -1.0249255074E+002 -5.4441665833E+001 +4.5317082734E+001 -8.1879563135E+001 -7.2214540348E+001 -3.3981142979E+001 -1.6933317500E+002
6007500000.000 -1.3705901512E+001 -1.0253615874E+002 -5.4237944603E+001 +1.6099559995E+001 -8.8572726179E+001 +3.3414486990E+001 -3.2780615801E+001 +1.7943834133E+002
6140000000.000 -1.3504320500E+001 -1.0269759422E+002 -5.3967024850E+001 -2.0892320503E+001 -8.5004142812E+001 -1.7780834787E+002 -3.6435115341E+001 -1.7103020001E+002
6272500000.000 -1.3345920242E+001 -1.0349660264E+002 -5.4135904306E+001 -5.5434707311E+001 -8.9598961172E+001 -7.6342525671E+000 -3.4170838745E+001 -1.4355351889E+002
6405000000.000 -1.3290977026E+001 -1.0426248910E+002 -5.4010038913E+001 -9.1110470122E+001 -9.0015510396E+001 +1.4611059828E+001 -3.3939866557E+001 -1.6173705840E+002
6537500000.000 -1.3101692352E+001 -1.0507318395E+002 -5.5032832204E+001 -1.1635383537E+002 -8.6958293675E+001 +1.5144286449E+002 -4.0153857962E+001 -1.6281037722E+002
6670000000.000 -1.2955136789E+001 -1.0438959673E+002 -5.4255137865E+001 -1.5800940440E+002 -8.8748422286E+001 -1.1632591724E+002 -3.9928744977E+001 -1.3937195917E+002
6802500000.000 -1.2724635463E+001 -1.0636114406E+002 -5.5311583979E+001 +1.7448351697E+002 -8.9067802842E+001 +6.6234190366E+001 -3.9310623672E+001 +1.7859672717E+002
6935000000.000 -1.2709294892E+001 -1.0680035007E+002 -5.4996764169E+001 +1.3919693556E+002 -9.0573806389E+001 +1.0410357360E+002 -3.8566911409E+001 +1.2390851478E+002
7067500000.000 -1.2571462153E+001 -1.0660382464E+002 -5.5358740264E+001 +1.0509257145E+002 -7.9215337197E+001 -1.2463065031E+002 -3.8381625286E+001 +1.1538047562E+002
7200000000.000 -1.2349146601E+001 -1.0702893956E+002 -5.5383153373E+001 +6.9757794282E+001 -8.7426476498E+001 +8.3685879250E+000 -3.2766963550E+001 +1.2964250211E+002
7332500000.000 -1.2222806748E+001 -1.0796179539E+002 -5.5256612298E+001 +3.7481516810E+001 -8.9784016012E+001 -1.0767707379E+002 -2.9193841792E+001 +1.1923937329E+002
7465000000.000 -1.2145629288E+001 -1.0816409115E+002 -5.4860355659E+001 +5.2895584912E+000 -8.1252190745E+001 -1.0658376917E+002 -2.8522518407E+001 +1.2350490922E+002
7597500000.000 -1.1997020727E+001 -1.0749858930E+002 -5.4316623601E+001 -3.3099252975E+001 -7.9899586718E+001 -7.4666419833E+001 -2.6005103333E+001 +1.3697046804E+002
7730000000.000 -1.1792757363E+001 -1.0854456660E+002 -5.4744911461E+001 -6.2486653519E+001 -8.3824694047E+001 +1.1246876547E+002 -2.3782284380E+001 +1.3761904970E+002
7862500000.000 -1.1675348373E+001 -1.0830082651E+002 -5.4684674251E+001 -9.9779575053E+001 -9.3022000666E+001 -6.7915042619E+001 -2.3260589677E+001 +1.4216324255E+002
7995000000.000 -1.1593189592E+001 -1.0895274044E+002 -5.5291760024E+001 -1.2874665569E+002 -8.6748809768E+001 -9.3988543782E+001 -2.1759266577E+001 +1.5415670388E+002
8127500000.000 -1.1371062136E+001 -1.0823838758E+002 -5.4276211567E+001 -1.7002497822E+002 -8.0993358567E+001 +8.3505740116E+001 -2.0046521666E+001 +1.5630368460E+002
8260000000.000 -1.1262742959E+001 -1.0887072281E+002 -5.4501064676E+001 +1.5748474527E+002 -8.9614410008E+001 -1.7476611381E+002 -1.9859270691E+001 +1.6043948204E+002
8392500000.000 -1.1161661755E+001 -1.0876774051E+002 -5.4577998890E+001 +1.2516466865E+002 -9.1367217410E+001 -6.0606419251E+001 -1.9040595927E+001 +1.7031921249E+002
8525000000.000 -1.1046185157E+001 -1.0860950125E+002 -5.3940081740E+001 +9.0720749142E+001 -9.3949127312E+001 +7.4038534913E+001 -1.8229037200E+001 +1.7293401589E+002
8657500000.000 -1.0900079722E+001 -1.0873750310E+002 -5.4124354763E+001 +5.6079265465E+001 -8.3544203750E+001 +9.7523159966E+001 -1.8563529082E+001 +1.7805449692E+002
8790000000.000 -1.0789761239E+001 -1.0890795046E+002 -5.3664856287E+001 +2.3080092131E+001 -8.2008042639E+001 -1.0548063204E+002 -1.8347941218E+001 -1.7187705336E+002
8922500000.000 -1.0739185591E+001 -1.0905180707E+002 -5.3628361569E+001 -1.2271601704E+001 -8.4328310004E+001 -2.0794738561E+001 -1.8024585831E+001 -1.6599162618E+002
9055000000.000 -1.0683242330E+001 -1.0920013347E+002 -5.3851611925E+001 -4.1317461434E+001 -9.6882249404E+001 +6.2424059597E+001 -1.8425795918E+001 -1.5819520462E+002
9187500000.000 -1.0595001663E+001 -1.0935906967E+002 -5.3895674037E+001 -7.5006379424E+001 -8.5594226376E+001 -6.2878740711E+001 -1.8366324102E+001 -1.4667306775E+002
9320000000.000 -1.0471570143E+001 -1.0972823973E+002 -5.3490857227E+001 -1.1319774272E+002 -8.9818960526E+001 +1.3640232941E+001 -1.8266567203E+001 -1.3962298234E+002
9452500000.000 -1.0418262692E+001 -1.0984604325E+002 -5.3306732198E+001 -1.4843484106E+002 -8.4931624200E+001 +1.5322274632E+002 -1.8813298881E+001 -1.3023154419E+002
9585000000.000 -1.0379436247E+001 -1.1007637743E+002 -5.3579650256E+001 -1.7845386897E+002 -9.0433586869E+001 +2.6252178037E-001 -1.8765264142E+001 -1.1863784857E+002
9717500000.000 -1.0251297160E+001 -1.1059168458E+002 -5.3523372033E+001 +1.4480888022E+002 -9.6153544503E+001 -1.9805389474E+001 -1.8892564627E+001 -1.1121474110E+002
9850000000.000 -1.0212917175E+001 -1.1135525034E+002 -5.3244164495E+001 +1.1203040958E+002 -8.1383019518E+001 +5.6734070519E+001 -1.9625689312E+001 -1.0008389583E+002
9982500000.000 -1.0092653815E+001 -1.1112839199E+002 -5.3269505495E+001 +7.1970098749E+001 -8.6694395991E+001 +1.7950868787E+002 -1.9643352589E+001 -8.6891732114E+001
10115000000.000 -9.9735551292E+000 -1.1131158704E+002 -5.3241266274E+001 +3.9326817068E+001 -8.1260875467E+001 -8.4884666271E+001 -1.9990222058E+001 -7.9245829262E+001
10247500000.000 -9.8604721569E+000 -1.1204643447E+002 -5.3554961058E+001 +4.0687018370E+000 -7.9210165381E+001 +7.1993382538E+001 -2.1126996898E+001 -6.5401790497E+001
10380000000.000 -9.8189234398E+000 -1.1251489226E+002 -5.3425795820E+001 -2.9484560636E+001 -9.7348791894E+001 +2.6022050765E+000 -2.0992795625E+001 -5.0227684406E+001
10512500000.000 -9.7447294348E+000 -1.1270825019E+002 -5.3396170920E+001 -6.4865331832E+001 -9.6105965020E+001 +1.3906415415E+002 -2.1581210146E+001 -4.2251200672E+001
10645000000.000 -9.7090698457E+000 -1.1287385764E+002 -5.3117680577E+001 -9.3369729478E+001 -8.7427195123E+001 +3.8249834574E+001 -2.2822047646E+001 -2.3396776302E+001
10777500000.000 -9.5909754732E+000 -1.1337278970E+002 -5.3095087402E+001 -1.2798008461E+002 -8.9948103806E+001 -1.2713894821E+002 -2.2125814799E+001 -6.1311672516E+000
10910000000.000 -9.4989342435E+000 -1.1383185659E+002 -5.2889950020E+001 -1.6123257686E+002 -9.5107216352E+001 -1.4379907870E+002 -2.2811526331E+001 +3.9244007194E+000
11042500000.000 -9.3673415015E+000 -1.1423313664E+002 -5.3205028570E+001 +1.5643429952E+002 -8.2882453432E+001 -6.4519135210E+001 -2.3442048826E+001 +2.7989649722E+001
11175000000.000 -9.2949182485E+000 -1.1417834781E+002 -5.2594940885E+001 +1.2890197179E+002 -9.0214599979E+001 -1.5906357160E+002 -2.2226225268E+001 +4.2662857026E+001
11307500000.000 -9.2043984029E+000 -1.1440407805E+002 -5.2929530320E+001 +9.1528453172E+001 -9.9022732441E+001 -1.7922751944E+002 -2.2765059746E+001 +5.3116279633E+001
11440000000.000 -9.1199596447E+000 -1.1487773914E+002 -5.2705434928E+001 +5.7714512854E+001 -8.2095529254E+001 -1.0383335120E+001 -2.2563163954E+001 +7.5701005557E+001
11572500000.000 -8.9681249631E+000 -1.1491796992E+002 -5.3601850016E+001 +1.9357326633E+001 -1.0796212796E+002 -1.2705372982E+002 -2.1169935793E+001 +8.6789790287E+001
11705000000.000 -8.8962635550E+000 -1.1514721457E+002 -5.3006917196E+001 -1.3306782440E+001 -8.6582216736E+001 -1.5023478393E+002 -2.1769974302E+001 +9.7243673324E+001
11837500000.000 -8.7994369363E+000 -1.1534926814E+002 -5.3026591095E+001 -5.1673554458E+001 -8.5912430277E+001 -4.3615103628E+001 -2.1066585847E+001 +1.1899603764E+002
11970000000.000 -8.7701223763E+000 -1.1540918121E+002 -5.3336511688E+001 -8.4670619920E+001 -8.0067403221E+001 +5.6642835606E+001 -1.9865732890E+001 +1.2520993952E+002
12102500000.000 -8.7145714440E+000 -1.1533336035E+002 -5.3168381660E+001 -1.1915551674E+002 -9.3091315373E+001 -5.1811927774E+001 -2.0748704898E+001 +1.3588109303E+002
12235000000.000 -8.6200331205E+000 -1.1561676619E+002 -5.3074901382E+001 -1.5493384039E+002 -7.8468822671E+001 -2.9787052972E+001 -1.9691799522E+001 +1.5420099800E+002
12367500000.000 -8.6073926227E+000 -1.1574665589E+002 -5.3277793343E+001 +1.7163200561E+002 -9.7291312557E+001 +1.4891766045E+002 -1.8950066268E+001 +1.5740516454E+002
12500000000.000 -8.5755814025E+000 -1.1619356464E+002 -5.3768310744E+001 +1.3455101411E+002 -8.0496634641E+001 +1.0827557393E+002 -2.0076326618E+001 +1.6880941734E+002
12632500000.000 -8.5037730856E+000 -1.1615603301E+002 -5.3182132383E+001 +1.0038175837E+002 -8.1358871981E+001 -8.8584683469E+001 -1.9059300120E+001 -1.7337758879E+002
12765000000.000 -8.4466924705E+000 -1.1635309446E+002 -5.3625645073E+001 +6.7397916239E+001 -8.4849758693E+001 +4.1931286352E+000 -1.8579619595E+001 -1.7191845449E+002
12897500000.000 -8.4402730306E+000 -1.1676858589E+002 -5.3426172469E+001 +3.1876311720E+001 -9.2075511204E+001 +1.2010928437E+002 -2.0160126110E+001 -1.5869635278E+002
13030000000.000 -8.3833304517E+000 -1.1667487796E+002 -5.2420643401E+001 -4.6858998395E+000 -7.8153270323E+001 -1.4553840258E+002 -1.8731274950E+001 -1.4171537612E+002
13162500000.000 -8.3395852137E+000 -1.1715228682E+002 -5.3907953957E+001 -3.6536264558E+001 -8.9319096325E+001 -3.6217099893E+001 -1.8676281284E+001 -1.4230920206E+002
13295000000.000 -8.2394116325E+000 -1.1722127370E+002 -5.2897661374E+001 -7.6189726615E+001 -7.9955119834E+001 +5.6203335250E+001 -2.0076920744E+001 -1.2734003074E+002
13427500000.000 -8.2025744321E+000 -1.1773728776E+002 -5.2587029207E+001 -1.1067385983E+002 -8.7283573262E+001 -1.3242628787E+002 -1.8743339710E+001 -1.1427741595E+002
13560000000.000 -8.2520554616E+000 -1.1770252529E+002 -5.3764701072E+001 -1.4050946155E+002 -8.2520166455E+001 -8.3423832601E+001 -1.9036791999E+001 -1.1520101953E+002
13692500000.000 -8.1600128237E+000 -1.1795669525E+002 -5.3870786990E+001 -1.7460251561E+002 -7.9667954782E+001 +8.0156369035E+001 -2.0843218653E+001 -1.0103880690E+002
13825000000.000 -8.0974335080E+000 -1.1838288144E+002 -5.4088255365E+001 +1.5166001299E+002 -8.8892584256E+001 -4.8718773863E+001 -1.9673565030E+001 -8.7626938180E+001
13957500000.000 -8.0933672916E+000 -1.1885387575E+002 -5.4672686712E+001 +1.1779833561E+002 -9.3406063560E+001 +1.4255064520E+002 -2.0362336832E+001 -9.0300798370E+001
14090000000.000 -8.0664308458E+000 -1.1878141806E+002 -5.4240810143E+001 +8.4541899793E+001 -8.2405674654E+001 +1.6167812719E+002 -2.2603024679E+001 -7.2606915224E+001
14222500000.000 -7.9435703305E+000 -1.1895436673E+002 -5.3648977595E+001 +3.8365605852E+001 -8.0783040641E+001 +8.8327332961E+001 -2.1263359046E+001 -5.9722091750E+001
14355000000.000 -7.8995227118E+000 -1.1946512528E+002 -5.3732915946E+001 +2.0055426543E+001 -8.1637660754E+001 -1.0992507580E+001 -2.2536716737E+001 -6.3235983218E+001
14487500000.000 -7.8482363407E+000 -1.1989263467E+002 -5.4125879671E+001 -3.3624564095E+001 -8.1094247485E+001 +9.2116436921E+001 -2.5347708557E+001 -4.0090972832E+001
14620000000.000 -7.8045503241E+000 -1.1972011298E+002 -5.4558287972E+001 -6.9473435278E+001 -8.6512703966E+001 -1.3368055469E+002 -2.3299789186E+001 -2.8349671933E+001
14752500000.000 -7.7245160568E+000 -1.1962349491E+002 -5.3821344325E+001 -8.9292390844E+001 -8.1568044074E+001 -1.4518308489E+002 -2.5523343319E+001 -3.5955898242E+001
14885000000.000 -7.6702612329E+000 -1.1998797859E+002 -5.4043289191E+001 -1.2202671651E+002 -8.1966486796E+001 +2.0693892677E+001 -2.8547620602E+001 +2.4537395720E+000
15017500000.000 -7.5933477112E+000 -1.2000377067E+002 -5.4515379211E+001 -1.6773970181E+002 -7.5956436762E+001 +1.2027109836E+002 -2.5386689641E+001 +7.5907496241E+000
15150000000.000 -7.5242964883E+000 -1.1987871596E+002 -5.4591883159E+001 +1.5873108914E+002 -8.2580643748E+001 -1.7223677479E+002 -2.9393108632E+001 -1.5244757861E+000
15282500000.000 -7.4896237361E+000 -1.1964753787E+002 -5.4391953767E+001 +1.3305988627E+002 -8.6757646901E+001 -7.3094231650E+001 -3.0602918088E+001 +5.7632789066E+001
