!  2-Port S-parameters saved by WinCal
! VAR MeasName=S-Parameters (CALIBRATED_DATA) read from VNA (C)
! VAR MeasDate=9/29/2015 2:53:14 PM
! VAR NAME=M6082_18_15_2_2_20C_1.8mA_-16.5dBm
! VAR FILENAME=M6082_18_15_2_2_20C_1.8mA_-16.5dBm.S2P
! VAR DATE=9/29/2015 2:53:14 PM
! VAR PHYS_PORTS=2,1
! VAR ObjTypeName=DATASET
! VAR IndexType=Frequency
!
# Hz S DB R 50
45000000.000 -1.4579412513E+001 -1.9840542396E+000 -5.0852340093E+001 +1.0147487718E+002 -6.1981853477E+001 +8.3919162659E+000 -3.0763188422E+001 +5.9516323824E+000
177500000.000 -1.4313389356E+001 -3.8027432869E+000 -5.6178312690E+001 +7.0344992322E+001 -8.0208867497E+001 +1.6278683844E+002 -3.2708396993E+001 +4.5715972210E+001
310000000.000 -1.4129551522E+001 -6.5879772387E+000 -5.8017379669E+001 +4.2913191619E+001 -7.1592164635E+001 -1.0714779268E+002 -2.3334959152E+001 +6.4130930947E+001
442500000.000 -1.4447266221E+001 -8.5757032881E+000 -5.4994109031E+001 -6.8774530847E+000 -8.1249215738E+001 +3.1735414370E+000 -2.2413422336E+001 +1.6855134938E+001
575000000.000 -1.4570512962E+001 -1.0673981220E+001 -5.6205147802E+001 -4.0701084626E+001 -8.4477113066E+001 +1.0279143495E+002 -3.0629020842E+001 +2.2126713026E+001
707500000.000 -1.4519753326E+001 -1.3133040760E+001 -5.6353246062E+001 -7.6432950801E+001 -8.3443180522E+001 -1.4688016539E+002 -3.4668222573E+001 +8.3497157213E+001
840000000.000 -1.4593272612E+001 -1.5075718944E+001 -5.6112784907E+001 -1.1144468866E+002 -9.1338300617E+001 +5.7846466803E+001 -2.9630751068E+001 +1.2781485395E+002
972500000.000 -1.4482048166E+001 -1.7270441727E+001 -5.6170870834E+001 -1.4661895111E+002 -8.7256364937E+001 +1.6120398080E+002 -2.5917364198E+001 +1.3494807400E+002
1105000000.000 -1.4413263291E+001 -1.9731255544E+001 -5.6280827313E+001 +1.7660622495E+002 -8.8153375182E+001 -1.1148474107E+002 -2.4379175461E+001 +1.4069875404E+002
1237500000.000 -1.4336156891E+001 -2.1862727720E+001 -5.5884058564E+001 +1.4335420521E+002 -9.4698790795E+001 +1.7286418518E+001 -2.3390029669E+001 +1.5005305441E+002
1370000000.000 -1.4267336148E+001 -2.4161608682E+001 -5.6479025057E+001 +1.0662880034E+002 -9.7478120990E+001 +1.3070173484E+002 -2.2053479086E+001 +1.5984706072E+002
1502500000.000 -1.4270181344E+001 -2.5780697283E+001 -5.6184846627E+001 +7.3536674882E+001 -8.5505783866E+001 +1.5329730751E+002 -2.0862637336E+001 +1.6624184657E+002
1635000000.000 -1.4050778639E+001 -2.8226875456E+001 -5.6182054009E+001 +3.7643588569E+001 -8.5196157792E+001 -1.0358097536E+002 -2.0013690341E+001 +1.7320000136E+002
1767500000.000 -1.4001848427E+001 -3.0295555303E+001 -5.6387486296E+001 +1.4331097545E+000 -8.3727981594E+001 +7.8814805083E+001 -1.9004078576E+001 +1.7834711465E+002
1900000000.000 -1.4067859378E+001 -3.1181494972E+001 -5.5906570612E+001 -3.5633827360E+001 -8.2344059278E+001 +7.3752767195E+001 -1.8865210488E+001 -1.7837333759E+002
2032500000.000 -1.4008495922E+001 -3.2930369514E+001 -5.5958938166E+001 -6.9014224411E+001 -7.7829508123E+001 -6.5340856500E+001 -1.8668075035E+001 -1.6804509896E+002
2165000000.000 -1.3941334919E+001 -3.4541697192E+001 -5.5320487684E+001 -1.0210950925E+002 -8.6285620373E+001 -1.1908324493E+002 -1.7743654388E+001 -1.6118925041E+002
2297500000.000 -1.4003708870E+001 -3.6384630423E+001 -5.5631694272E+001 -1.3105672287E+002 -9.1287527470E+001 +1.4333794019E+002 -1.7245484521E+001 -1.5719892761E+002
2430000000.000 -1.3929072274E+001 -3.7884322444E+001 -5.4904993389E+001 -1.6595500304E+002 -7.5859531726E+001 -1.0774770064E+002 -1.6914048709E+001 -1.5300328585E+002
2562500000.000 -1.3763574555E+001 -3.9619127275E+001 -5.4943302351E+001 +1.5983921503E+002 -7.9349818687E+001 +4.3921611974E+001 -1.6825590172E+001 -1.5078483627E+002
2695000000.000 -1.3764806887E+001 -4.1594935935E+001 -5.4345763862E+001 +1.2188719597E+002 -7.5813696811E+001 +1.7823866300E+002 -1.7405975008E+001 -1.4739239211E+002
2827500000.000 -1.3699619286E+001 -4.3042188235E+001 -5.5195362014E+001 +9.1899664394E+001 -9.1621385876E+001 -1.6732359462E+001 -1.7832718880E+001 -1.4033877738E+002
2960000000.000 -1.3516352710E+001 -4.4645404286E+001 -5.4961733478E+001 +5.7165860837E+001 -8.2621089357E+001 +2.1483043324E+001 -1.8125567045E+001 -1.3592420604E+002
3092500000.000 -1.3416016007E+001 -4.6683321676E+001 -5.4725953116E+001 +2.3916955414E+001 -8.6848340800E+001 +8.1350586683E+001 -1.9121856085E+001 -1.2964773885E+002
3225000000.000 -1.3375379317E+001 -4.8671569306E+001 -5.5446912512E+001 -9.8688381680E+000 -8.7111269683E+001 -1.1216676085E+002 -1.9578856374E+001 -1.1968702949E+002
3357500000.000 -1.3303496467E+001 -4.9923106590E+001 -5.4211410733E+001 -4.6154615414E+001 -7.7447555365E+001 +4.7411286761E-001 -1.9880031598E+001 -1.1473208063E+002
3490000000.000 -1.3161157462E+001 -5.1438669498E+001 -5.4929282002E+001 -8.2980124242E+001 -8.7836916252E+001 +3.6692577059E+001 -2.1143287270E+001 -1.0925333671E+002
3622500000.000 -1.3023999440E+001 -5.3143416754E+001 -5.4168606314E+001 -1.1594691857E+002 -8.1649643530E+001 +1.5681293154E+002 -2.1944574591E+001 -9.8236046569E+001
3755000000.000 -1.2851685706E+001 -5.4707779052E+001 -5.4267914813E+001 -1.5163791216E+002 -8.0098759866E+001 -1.4057145667E+002 -2.2612475847E+001 -9.5076274708E+001
3887500000.000 -1.2653269706E+001 -5.5981583055E+001 -5.3853397354E+001 +1.7115633771E+002 -7.8094030565E+001 +5.2205587123E+001 -2.5020480115E+001 -8.8897394999E+001
4020000000.000 -1.2482606168E+001 -5.7020709847E+001 -5.3507090065E+001 +1.3141731720E+002 -8.1489692682E+001 +1.5736434771E+002 -2.6721982257E+001 -7.3785763080E+001
4152500000.000 -1.2132014883E+001 -5.8467159016E+001 -5.3656430121E+001 +9.0546221644E+001 -8.9044070030E+001 +1.3015238939E+002 -2.8750813975E+001 -6.4948933769E+001
4285000000.000 -1.1782352622E+001 -6.0443104872E+001 -5.3538072991E+001 +4.3941850582E+001 -8.8963197012E+001 -3.2016812521E+001 -3.3362688769E+001 -3.9730955800E+001
4417500000.000 -1.1552227054E+001 -6.2322441582E+001 -5.3732654648E+001 +5.2587420033E+000 -9.1062079797E+001 +1.1043373966E+002 -3.1816202988E+001 +7.5999914588E+000
4550000000.000 -1.1298512993E+001 -6.4088953963E+001 -5.3423425403E+001 -3.6778922549E+001 -8.0331534567E+001 -5.4285487126E+001 -3.0343240443E+001 +1.7300836678E+001
4682500000.000 -1.1048194980E+001 -6.6705158205E+001 -5.4534421066E+001 -8.3231251728E+001 -8.4489798695E+001 -1.1803035542E+001 -2.9784399166E+001 +3.7637859055E+001
4815000000.000 -1.0924447484E+001 -6.8706822248E+001 -5.4966223338E+001 -1.1839274652E+002 -8.9448471940E+001 -1.0566957361E+002 -2.7696337430E+001 +4.0479963332E+001
4947500000.000 -1.0815367489E+001 -7.0013001754E+001 -5.5105675057E+001 -1.5492955447E+002 -8.5578117511E+001 -6.3442205931E+001 -2.9423267082E+001 +3.4594629520E+001
5080000000.000 -1.0698067980E+001 -7.1664531141E+001 -5.5469908268E+001 +1.6264017058E+002 -8.3413404616E+001 +7.0737111996E+001 -3.2342672667E+001 +5.5704284767E+001
5212500000.000 -1.0591668549E+001 -7.3217130974E+001 -5.5659783798E+001 +1.2712061170E+002 -9.4006160633E+001 +2.4267648363E+001 -3.1672104218E+001 +6.8402417242E+001
5345000000.000 -1.0527160421E+001 -7.4232152252E+001 -5.5155322516E+001 +8.8373138631E+001 -8.5692431763E+001 -1.6646573480E+002 -3.5548707046E+001 +6.8352667423E+001
5477500000.000 -1.0467549828E+001 -7.5295047174E+001 -5.5813638260E+001 +5.2646283015E+001 -8.7419575671E+001 -7.2603045420E+001 -3.7642151153E+001 +1.3218767431E+002
5610000000.000 -1.0381363985E+001 -7.6449997026E+001 -5.6363262022E+001 +1.4152313813E+001 -8.8137152563E+001 +1.0639430472E+002 -3.3779550299E+001 +1.3494996992E+002
5742500000.000 -1.0319974105E+001 -7.7509771530E+001 -5.6063709893E+001 -2.1530136893E+001 -9.4764615663E+001 -1.5190535181E+002 -3.8307634605E+001 +1.5122427382E+002
5875000000.000 -1.0293687342E+001 -7.8398989366E+001 -5.6203529547E+001 -5.5231882069E+001 -9.2868677220E+001 -1.3904244485E+002 -3.3980810248E+001 -1.6917505478E+002
6007500000.000 -1.0273945998E+001 -7.9181934357E+001 -5.6670305636E+001 -9.1655190661E+001 -8.3234267598E+001 +1.0214581125E+002 -3.2769314736E+001 +1.7936063369E+002
6140000000.000 -1.0172682970E+001 -8.0102784212E+001 -5.6986761192E+001 -1.3067041968E+002 -8.6362837314E+001 -1.4945813310E+002 -3.6454785414E+001 -1.7086437905E+002
6272500000.000 -1.0108912943E+001 -8.1234043068E+001 -5.6419047117E+001 -1.6492714478E+002 -8.7128088332E+001 -4.0224682902E+001 -3.4202836570E+001 -1.4373169462E+002
6405000000.000 -1.0139569599E+001 -8.2298605734E+001 -5.6507560212E+001 +1.6177743874E+002 -1.0571048098E+002 +1.3076548789E+002 -3.3924123007E+001 -1.6169124746E+002
6537500000.000 -1.0097213146E+001 -8.2821233654E+001 -5.7142186867E+001 +1.2510456645E+002 -8.4450759427E+001 -1.7933369646E+002 -4.0190145097E+001 -1.6335799589E+002
6670000000.000 -9.9719296432E+000 -8.3679284814E+001 -5.6516873830E+001 +9.1138949250E+001 -1.0476204149E+002 -1.4950730457E+002 -3.9982311849E+001 -1.3940195841E+002
6802500000.000 -9.9319418150E+000 -8.5100360933E+001 -5.7040655825E+001 +5.5921207005E+001 -8.4101271683E+001 -1.7993908558E+001 -3.9269462099E+001 +1.7861592487E+002
6935000000.000 -9.9897456556E+000 -8.5951173959E+001 -5.7962147774E+001 +1.7808879041E+001 -8.7476965020E+001 -1.6158181296E+002 -3.8530983257E+001 +1.2425057479E+002
7067500000.000 -9.8925029660E+000 -8.6272749546E+001 -5.7769559253E+001 -1.6656988664E+001 -8.7470969525E+001 -1.3498305624E+002 -3.8331653757E+001 +1.1533684590E+002
7200000000.000 -9.7622688667E+000 -8.7203955481E+001 -5.7686190066E+001 -4.9292566444E+001 -8.9386455674E+001 +1.7381816407E+002 -3.2764164826E+001 +1.2967965920E+002
7332500000.000 -9.7450428257E+000 -8.8466856595E+001 -5.8205005600E+001 -8.2913223780E+001 -9.1586154115E+001 +9.7411672487E+001 -2.9173988929E+001 +1.1909962263E+002
7465000000.000 -9.7192622341E+000 -8.9028297640E+001 -5.8147009658E+001 -1.1828655412E+002 -8.4812460857E+001 -1.2573911629E+002 -2.8521211271E+001 +1.2338043791E+002
7597500000.000 -9.6073385176E+000 -8.9545490851E+001 -5.7800821760E+001 -1.5021894609E+002 -9.1207681595E+001 -1.3020902960E+002 -2.6012856390E+001 +1.3691969805E+002
7730000000.000 -9.5244599823E+000 -9.0410931162E+001 -5.8067714780E+001 +1.7092646060E+002 -9.3345582975E+001 -1.5722902817E+002 -2.3785557375E+001 +1.3761764526E+002
7862500000.000 -9.4896594071E+000 -9.1152330932E+001 -5.9515449655E+001 +1.3686506129E+002 -8.6763979595E+001 +1.1364495487E+002 -2.3272993733E+001 +1.4210769218E+002
7995000000.000 -9.4285572312E+000 -9.1501579300E+001 -5.8594889078E+001 +1.0179021101E+002 -9.2504919019E+001 -1.3201198051E+002 -2.1753099039E+001 +1.5405451954E+002
8127500000.000 -9.2893784249E+000 -9.1956848832E+001 -5.9143595278E+001 +6.7619360001E+001 -9.1497237137E+001 +3.0736139743E+001 -2.0048781882E+001 +1.5626112800E+002
8260000000.000 -9.2632653649E+000 -9.2794929819E+001 -6.0138383815E+001 +3.0044005825E+001 -8.2501112392E+001 -1.7817212256E+002 -1.9864166581E+001 +1.6042115238E+002
8392500000.000 -9.1990489279E+000 -9.3052009764E+001 -5.9740656507E+001 +5.1708990075E-001 -9.4121579833E+001 +1.2164516913E+002 -1.9041416300E+001 +1.7030439008E+002
8525000000.000 -9.1253022709E+000 -9.3256511760E+001 -5.9652978206E+001 -3.2426772967E+001 -9.9770178516E+001 -1.2742284026E+002 -1.8224886645E+001 +1.7287277376E+002
8657500000.000 -9.0498773602E+000 -9.3727365019E+001 -6.1093926603E+001 -6.8578015307E+001 -8.6846800736E+001 -8.6643602086E+001 -1.8565716068E+001 +1.7798911417E+002
8790000000.000 -8.9890373473E+000 -9.4162587599E+001 -6.0970081143E+001 -9.9672628233E+001 -8.7636279939E+001 -1.3384651296E+002 -1.8346463270E+001 -1.7193684328E+002
8922500000.000 -8.9679490124E+000 -9.4502073869E+001 -6.1792035048E+001 -1.3431730361E+002 -8.7584596277E+001 +8.5628342773E+001 -1.8025545134E+001 -1.6600260943E+002
9055000000.000 -8.9076067733E+000 -9.4600458783E+001 -6.1098360159E+001 -1.7205706376E+002 -8.4506884408E+001 +2.9617666776E+001 -1.8427079247E+001 -1.5820163827E+002
9187500000.000 -8.8621043468E+000 -9.5007137520E+001 -6.2358711431E+001 +1.5517150312E+002 -8.4773904685E+001 -1.1116721165E+002 -1.8367855350E+001 -1.4673793609E+002
9320000000.000 -8.8341860779E+000 -9.5797188370E+001 -6.2017929794E+001 +1.2127149151E+002 -9.1559052912E+001 +5.8715926500E+001 -1.8266329505E+001 -1.3962666552E+002
9452500000.000 -8.8141423384E+000 -9.6065057353E+001 -6.1538466460E+001 +8.6875575081E+001 -8.1221388125E+001 +8.0719827539E+001 -1.8808487364E+001 -1.3032206940E+002
9585000000.000 -8.7607455165E+000 -9.6324309047E+001 -6.2872037214E+001 +5.3616856633E+001 -8.0113960505E+001 -9.6092771657E+001 -1.8756980650E+001 -1.1876133316E+002
9717500000.000 -8.6816270441E+000 -9.7046351851E+001 -6.4007575963E+001 +2.3840929653E+001 -9.1234489315E+001 -4.1533226838E+001 -1.8884279010E+001 -1.1124921165E+002
9850000000.000 -8.6900419860E+000 -9.7902125562E+001 -6.3511271064E+001 -1.5483303507E+001 -8.7453922216E+001 +1.5870439511E+002 -1.9612478131E+001 -1.0015546426E+002
9982500000.000 -8.6492552995E+000 -9.8010624065E+001 -6.2788353949E+001 -4.6684684318E+001 -8.2027830947E+001 -1.4747112388E+002 -1.9642926832E+001 -8.7036824564E+001
10115000000.000 -8.5681627628E+000 -9.8418894802E+001 -6.4470368590E+001 -8.5406941684E+001 -8.0242131871E+001 -4.4608908603E+001 -1.9977919190E+001 -7.9274545356E+001
10247500000.000 -8.5107435773E+000 -9.9301123451E+001 -6.3836484839E+001 -1.1818887398E+002 -9.1309987738E+001 -8.9581419105E+000 -2.1129799484E+001 -6.5478171989E+001
10380000000.000 -8.5020638525E+000 -9.9836804095E+001 -6.4048666376E+001 -1.5063453752E+002 -7.9399009959E+001 +1.3517745551E+002 -2.0990126965E+001 -5.0267819454E+001
10512500000.000 -8.4580923847E+000 -1.0019800441E+002 -6.4676826945E+001 +1.7268665103E+002 -8.4540366523E+001 -1.0909866033E+002 -2.1580459666E+001 -4.2383211020E+001
10645000000.000 -8.3864033332E+000 -1.0060343576E+002 -6.6468349203E+001 +1.4057195092E+002 -8.0582646141E+001 -3.0722231553E+001 -2.2818715779E+001 -2.3515805357E+001
10777500000.000 -8.3245494090E+000 -1.0125628308E+002 -6.5573649528E+001 +1.1215499713E+002 -8.2825311796E+001 +1.6299394793E+002 -2.2124745119E+001 -6.2736082047E+000
10910000000.000 -8.2758228070E+000 -1.0186343967E+002 -6.4801537376E+001 +7.2238933504E+001 -8.5404245751E+001 -1.2397460853E+002 -2.2813673552E+001 +3.8496531564E+000
11042500000.000 -8.2228933754E+000 -1.0235944735E+002 -6.5832977789E+001 +3.5091271617E+001 -8.9900001146E+001 -6.0436158860E+001 -2.3443364353E+001 +2.7931728253E+001
11175000000.000 -8.1367162604E+000 -1.0266503931E+002 -6.5647892924E+001 +9.8237642595E+000 -8.2813544969E+001 +1.4073737705E+002 -2.2219679874E+001 +4.2561761039E+001
11307500000.000 -8.0840656384E+000 -1.0300791294E+002 -6.6635425815E+001 -3.2648450091E+001 -9.7600345346E+001 -1.2937357001E+002 -2.2774249059E+001 +5.3014289654E+001
11440000000.000 -8.0326805402E+000 -1.0366146608E+002 -6.6568096697E+001 -6.1691730615E+001 -8.4233236385E+001 -7.7276519044E+001 -2.2564810581E+001 +7.5743687808E+001
11572500000.000 -7.9401335282E+000 -1.0375853705E+002 -6.7242422030E+001 -8.8627978946E+001 -8.5093294567E+001 +6.8937415817E+000 -2.1185762908E+001 +8.6686061201E+001
11705000000.000 -7.8970363500E+000 -1.0409150965E+002 -6.9307537928E+001 -1.2928432009E+002 -8.3796192640E+001 +1.7350618107E+002 -2.1772712139E+001 +9.7164913595E+001
11837500000.000 -7.8285344643E+000 -1.0445610385E+002 -6.8791702911E+001 -1.5817546961E+002 -8.6222871319E+001 +3.7998329260E+000 -2.1076693633E+001 +1.1893685412E+002
11970000000.000 -7.8090645420E+000 -1.0464274592E+002 -6.9753406710E+001 +1.6337365080E+002 -9.3140060746E+001 +8.6992559627E+001 -1.9875439313E+001 +1.2516023146E+002
12102500000.000 -7.7709460664E+000 -1.0467225492E+002 -6.8130433496E+001 +1.1474898790E+002 -8.1384880163E+001 +1.2347483009E+002 -2.0749962029E+001 +1.3588964591E+002
12235000000.000 -7.7061375433E+000 -1.0509442855E+002 -6.7270367309E+001 +1.0203540150E+002 -8.8733548587E+001 +1.0586606222E+002 -1.9675749467E+001 +1.5415155601E+002
12367500000.000 -7.7058886939E+000 -1.0527876533E+002 -6.8416175591E+001 +5.6785420741E+001 -8.4662336675E+001 +5.4393780273E+001 -1.8944329537E+001 +1.5742509883E+002
12500000000.000 -7.6962292962E+000 -1.0576975153E+002 -6.9501293885E+001 +3.5735930242E+001 -8.0179965098E+001 +1.6890887661E+002 -2.0075089412E+001 +1.6877956711E+002
12632500000.000 -7.6409353802E+000 -1.0588606165E+002 -6.9788113905E+001 +6.3815088521E+000 -8.1055289717E+001 -7.7051087586E+001 -1.9052302993E+001 -1.7347368949E+002
12765000000.000 -7.6009916898E+000 -1.0617127266E+002 -6.8531630206E+001 -2.5958364672E+001 -8.2564701463E+001 -2.9622526804E+001 -1.8582935745E+001 -1.7202035022E+002
12897500000.000 -7.6184842658E+000 -1.0661228062E+002 -6.7947126410E+001 -6.5354232024E+001 -8.6241956509E+001 +6.2450817628E+001 -2.0176064376E+001 -1.5873910070E+002
13030000000.000 -7.5996044621E+000 -1.0682257697E+002 -6.9011354166E+001 -1.2587042428E+002 -9.2135342794E+001 +1.7979501861E+002 -1.8721183680E+001 -1.4178947917E+002
13162500000.000 -7.5516626278E+000 -1.0716329612E+002 -6.9751315332E+001 -1.5031467161E+002 -8.6459350892E+001 -7.3083785981E+001 -1.8684918910E+001 -1.4235535421E+002
13295000000.000 -7.5141023815E+000 -1.0748929969E+002 -6.8028916249E+001 +1.7061090259E+002 -8.1796938909E+001 +1.0814939371E+002 -2.0082379549E+001 -1.2740917142E+002
13427500000.000 -7.5026945107E+000 -1.0799686409E+002 -7.2524668951E+001 +1.4891394975E+002 -8.2232862787E+001 +1.5711091749E+002 -1.8747824996E+001 -1.1427623371E+002
13560000000.000 -7.5107083244E+000 -1.0788749086E+002 -6.9684698968E+001 +1.1773998741E+002 -1.0342596056E+002 +4.6400483773E+000 -1.9031189333E+001 -1.1522900986E+002
13692500000.000 -7.4443423551E+000 -1.0824929434E+002 -6.9600008703E+001 +6.7491401177E+001 -8.7327382197E+001 +5.2079103664E+001 -2.0854665873E+001 -1.0112973238E+002
13825000000.000 -7.4041618422E+000 -1.0874359425E+002 -6.9744519264E+001 +4.0462814143E+001 -8.2077919089E+001 -1.4600312264E+002 -1.9671172268E+001 -8.7652867179E+001
13957500000.000 -7.4190265529E+000 -1.0921569872E+002 -6.9188626321E+001 +1.1399151873E+001 -8.1687300544E+001 -4.0368782834E+001 -2.0383081204E+001 -9.0310654613E+001
14090000000.000 -7.3981214015E+000 -1.0919373317E+002 -7.3082148059E+001 -2.0471558169E+001 -8.3416487955E+001 +1.3602890038E+002 -2.2608334775E+001 -7.2679425656E+001
14222500000.000 -7.3318450318E+000 -1.0933716492E+002 -7.2354760620E+001 -5.5745767459E+001 -8.0310660974E+001 +6.1224289969E+001 -2.1274593232E+001 -5.9763786354E+001
14355000000.000 -7.2746376100E+000 -1.1005455858E+002 -7.3733071760E+001 -7.5792164584E+001 -8.7033737748E+001 -5.0047022472E+001 -2.2548668355E+001 -6.3327464473E+001
14487500000.000 -7.2709898184E+000 -1.1031899905E+002 -7.3584469334E+001 -1.1276420310E+002 -7.9007676887E+001 -2.8602254062E+001 -2.5332229104E+001 -4.0121229320E+001
14620000000.000 -7.2341617534E+000 -1.1022068874E+002 -7.4587587764E+001 -1.4802955975E+002 -8.3882125995E+001 +1.4789149918E+002 -2.3305517275E+001 -2.8420961069E+001
14752500000.000 -7.1360244830E+000 -1.1043713924E+002 -7.3541556009E+001 -1.5803427497E+002 -8.4669156254E+001 -3.2404497309E+001 -2.5532232765E+001 -3.6064894477E+001
14885000000.000 -7.1033616513E+000 -1.1089033037E+002 -7.7811421293E+001 +1.2750830498E+002 -8.2272770333E+001 +3.4574500003E+001 -2.8526523983E+001 +2.3572888578E+000
15017500000.000 -7.0567904705E+000 -1.1071445358E+002 -7.1936320095E+001 +1.4484710458E+002 -9.1108343221E+001 +1.2380225671E+002 -2.5381186002E+001 +7.3995423578E+000
15150000000.000 -6.9863472101E+000 -1.1065645208E+002 -7.5614073318E+001 +7.7735554657E+001 -7.9719796822E+001 -1.3376359240E+002 -2.9476982596E+001 -1.7736491346E+000
15282500000.000 -6.9446753301E+000 -1.1072767278E+002 -7.1483843239E+001 +5.1496754285E+001 -8.1426296713E+001 -3.5413450215E+000 -3.0612545506E+001 +5.7886322180E+001
