!  2-Port S-parameters saved by WinCal
! VAR MeasName=S-Parameters (CALIBRATED_DATA) read from VNA (C)
! VAR MeasDate=9/29/2015 3:11:42 PM
! VAR NAME=M6082_18_15_2_2_20C_1.8mA_-17.5dBm
! VAR FILENAME=M6082_18_15_2_2_20C_1.8mA_-17.5dBm.S2P
! VAR DATE=9/29/2015 3:11:42 PM
! VAR PHYS_PORTS=2,1
! VAR ObjTypeName=DATASET
! VAR IndexType=Frequency
!
# Hz S DB R 50
45000000.000 -1.4086247384E+001 -1.1152777489E+000 -5.7809919581E+001 +1.3457211939E+002 -7.0611565444E+001 +3.0767520161E+001 -3.0832869573E+001 +5.1799656684E+000
177500000.000 -1.4346999271E+001 -3.7261044247E+000 -5.8327107314E+001 +6.3515570758E+001 -7.2943902189E+001 +1.3067013503E+002 -3.2786815613E+001 +4.5464795963E+001
310000000.000 -1.4158783753E+001 -6.4306214713E+000 -5.9122193477E+001 +3.7640393100E+001 -7.6987053445E+001 -1.2095055981E+002 -2.3349256176E+001 +6.4274387357E+001
442500000.000 -1.4476320842E+001 -8.3870323787E+000 -5.6431686521E+001 -2.5915594847E+000 -8.2941415077E+001 -6.8142424196E+001 -2.2418459777E+001 +1.6835036285E+001
575000000.000 -1.4598125725E+001 -1.0503015984E+001 -5.6694445071E+001 -3.7555214475E+001 -8.6367224699E+001 -1.5514883849E+002 -3.0632801724E+001 +2.1926341207E+001
707500000.000 -1.4533714316E+001 -1.2941707602E+001 -5.7121157154E+001 -7.6965139801E+001 -1.0292282029E+002 +1.5944308040E+002 -3.4717760368E+001 +8.3615463973E+001
840000000.000 -1.4613912094E+001 -1.4866592010E+001 -5.6787902941E+001 -1.1402764897E+002 -8.7739271737E+001 -8.8147441151E+001 -2.9666377621E+001 +1.2796409055E+002
972500000.000 -1.4497896505E+001 -1.7089253349E+001 -5.7113536498E+001 -1.4566519448E+002 -8.0028475327E+001 +1.3317201566E+002 -2.5924547631E+001 +1.3501681349E+002
1105000000.000 -1.4425912853E+001 -1.9531548506E+001 -5.7052089752E+001 +1.7819010914E+002 -8.4447528881E+001 -9.8652197328E+001 -2.4413427549E+001 +1.4080913097E+002
1237500000.000 -1.4344568057E+001 -2.1588068819E+001 -5.7703905170E+001 +1.4328793435E+002 -8.0125010886E+001 +1.5293101912E+001 -2.3407301807E+001 +1.5015719650E+002
1370000000.000 -1.4278591230E+001 -2.3917468246E+001 -5.7365199177E+001 +1.0907525439E+002 -9.5055176393E+001 +1.0440172094E+002 -2.2052848443E+001 +1.5988397004E+002
1502500000.000 -1.4279465192E+001 -2.5501572916E+001 -5.7023431607E+001 +7.1690008659E+001 -8.5982822074E+001 +1.2908530275E+002 -2.0865205393E+001 +1.6625012763E+002
1635000000.000 -1.4058320454E+001 -2.7951048551E+001 -5.7305075197E+001 +3.6164717443E+001 -8.5659479807E+001 +2.0876689649E+001 -2.0019965038E+001 +1.7327007010E+002
1767500000.000 -1.4005664350E+001 -3.0003476960E+001 -5.7409430863E+001 +2.3043861344E+000 -8.7909537905E+001 +6.8629162901E+001 -1.9008095530E+001 +1.7838731205E+002
1900000000.000 -1.4074926872E+001 -3.0928511122E+001 -5.6752638425E+001 -3.0832381396E+001 -9.0820836433E+001 +9.0778981698E+001 -1.8869028221E+001 -1.7831503362E+002
2032500000.000 -1.4019359239E+001 -3.2718075482E+001 -5.6545670359E+001 -6.4965086541E+001 -8.2363422803E+001 -7.5239323559E+001 -1.8675019252E+001 -1.6806224815E+002
2165000000.000 -1.3957875308E+001 -3.4429022610E+001 -5.6789115511E+001 -1.0185462930E+002 -8.0564490516E+001 +7.9446807434E+001 -1.7744055772E+001 -1.6118656763E+002
2297500000.000 -1.4017083209E+001 -3.6294316103E+001 -5.6762322706E+001 -1.3077939531E+002 -8.1428405453E+001 +6.3930029647E+001 -1.7236197359E+001 -1.5717637214E+002
2430000000.000 -1.3947196744E+001 -3.7787130191E+001 -5.6275399578E+001 -1.7199131348E+002 -7.9481450998E+001 -7.8380905034E+001 -1.6905359929E+001 -1.5303246669E+002
2562500000.000 -1.3785685548E+001 -3.9526423455E+001 -5.6119490253E+001 +1.5847688466E+002 -7.6856959242E+001 +2.2271624877E+000 -1.6827225229E+001 -1.5087261489E+002
2695000000.000 -1.3779396067E+001 -4.1486315857E+001 -5.6565715800E+001 +1.2699914606E+002 -8.0503154898E+001 -6.0209672366E+001 -1.7398343152E+001 -1.4746109472E+002
2827500000.000 -1.3710557995E+001 -4.2921273517E+001 -5.6357461008E+001 +9.6695014343E+001 -7.8491790843E+001 -7.2501266115E+001 -1.7828244348E+001 -1.4036986808E+002
2960000000.000 -1.3515286658E+001 -4.4490144608E+001 -5.5885790172E+001 +6.0872894476E+001 -7.9966624484E+001 -7.8268485217E+001 -1.8124361230E+001 -1.3587550373E+002
3092500000.000 -1.3416703667E+001 -4.6521154096E+001 -5.6105041165E+001 +1.9346759307E+001 -8.1406109998E+001 -1.6134523022E+002 -1.9122402014E+001 -1.2967125353E+002
3225000000.000 -1.3377364511E+001 -4.8461468623E+001 -5.6714275090E+001 -1.5201770693E+001 -8.0137861631E+001 -1.5287071837E+001 -1.9573490983E+001 -1.1966925578E+002
3357500000.000 -1.3297753636E+001 -4.9777880794E+001 -5.6636092712E+001 -4.7514049922E+001 -8.9240549633E+001 -9.4150389860E+001 -1.9892296285E+001 -1.1472659199E+002
3490000000.000 -1.3164512902E+001 -5.1303831039E+001 -5.5970383565E+001 -7.7695264828E+001 -8.9830450928E+001 +2.6333415299E+001 -2.1138422441E+001 -1.0917880338E+002
3622500000.000 -1.3024105214E+001 -5.3030243090E+001 -5.5374233339E+001 -1.1550782514E+002 -8.8564896608E+001 +3.8376317396E+001 -2.1964913819E+001 -9.8302568583E+001
3755000000.000 -1.2867161765E+001 -5.4642495615E+001 -5.5392900356E+001 -1.5509308329E+002 -8.4118550163E+001 -2.6385614247E+001 -2.2632341279E+001 -9.4900777346E+001
3887500000.000 -1.2679490152E+001 -5.5891859679E+001 -5.5274369402E+001 +1.7107631902E+002 -8.4118508359E+001 +1.0606692780E+002 -2.5010733872E+001 -8.9001774305E+001
4020000000.000 -1.2522503860E+001 -5.6904542199E+001 -5.4868313967E+001 +1.3312177191E+002 -9.9950841141E+001 +8.4491881395E+001 -2.6747482745E+001 -7.3726867458E+001
4152500000.000 -1.2213280609E+001 -5.8230554603E+001 -5.4319671934E+001 +9.3356345822E+001 -9.0606943700E+001 -1.7066554953E+000 -2.8759792196E+001 -6.5218581932E+001
4285000000.000 -1.1874831406E+001 -6.0035333230E+001 -5.4306324146E+001 +4.9874109463E+001 -9.1255530811E+001 +7.1296215201E+001 -3.3350353678E+001 -3.9848519736E+001
4417500000.000 -1.1621714692E+001 -6.1808926578E+001 -5.4420014266E+001 +7.4708291973E+000 -9.4875987086E+001 -1.4099854999E+002 -3.1858187246E+001 +7.7190940715E+000
4550000000.000 -1.1351145067E+001 -6.3492728488E+001 -5.5050174948E+001 -3.4811941922E+001 -8.0343200319E+001 -8.9367156301E+001 -3.0343274385E+001 +1.7312203298E+001
4682500000.000 -1.1073103865E+001 -6.6128986506E+001 -5.5693527067E+001 -7.8271929046E+001 -8.3970612676E+001 -2.1109890543E+000 -2.9806281539E+001 +3.7826372152E+001
4815000000.000 -1.0937522878E+001 -6.8163132732E+001 -5.5971191446E+001 -1.1770422661E+002 -8.2463063617E+001 +1.4952037234E+002 -2.7716254744E+001 +4.0583571895E+001
4947500000.000 -1.0820052609E+001 -6.9473826705E+001 -5.6236361669E+001 -1.5816569688E+002 -8.9802916371E+001 -1.5964976422E+002 -2.9408857903E+001 +3.4476265786E+001
5080000000.000 -1.0696029852E+001 -7.1191849586E+001 -5.6413883971E+001 +1.6451931789E+002 -9.0320745019E+001 +5.9256946840E+001 -3.2334446839E+001 +5.5801421956E+001
5212500000.000 -1.0583926760E+001 -7.2747049660E+001 -5.6648110409E+001 +1.2624859547E+002 -8.2920911041E+001 +1.3541935101E+002 -3.1655662924E+001 +6.8220332284E+001
5345000000.000 -1.0519092502E+001 -7.3780062496E+001 -5.6406322826E+001 +9.2733184649E+001 -8.9228697294E+001 -8.1666822636E+001 -3.5498995996E+001 +6.8781173822E+001
5477500000.000 -1.0456905345E+001 -7.4906404139E+001 -5.6683618575E+001 +5.3344109047E+001 -9.7943121049E+001 -1.0786760110E+001 -3.7616453015E+001 +1.3263838336E+002
5610000000.000 -1.0366906002E+001 -7.6084063923E+001 -5.6962525594E+001 +1.4459541757E+001 -8.4879024505E+001 +2.7308316939E+001 -3.3761450010E+001 +1.3473718149E+002
5742500000.000 -1.0301670325E+001 -7.7116946118E+001 -5.7322784672E+001 -2.3475354099E+001 -8.5629928283E+001 -1.7375783209E+002 -3.8290235819E+001 +1.5149681119E+002
5875000000.000 -1.0275297111E+001 -7.8027420478E+001 -5.7121167643E+001 -5.6951157112E+001 -8.4927459213E+001 -3.6491607584E+001 -3.3952579440E+001 -1.6946835121E+002
6007500000.000 -1.0254822553E+001 -7.8860919195E+001 -5.7613400240E+001 -9.5248457137E+001 -8.6911482539E+001 +1.0050586627E+001 -3.2771461182E+001 +1.7961486405E+002
6140000000.000 -1.0153565287E+001 -7.9778966331E+001 -5.7440894035E+001 -1.2846595363E+002 -1.1430536175E+002 +4.2713793591E+001 -3.6464424501E+001 -1.7145044128E+002
6272500000.000 -1.0089427618E+001 -8.0920204223E+001 -5.7541057919E+001 -1.5929427915E+002 -8.8058825170E+001 +1.7276652040E+002 -3.4161014501E+001 -1.4374331263E+002
6405000000.000 -1.0121133518E+001 -8.2012231848E+001 -5.7551059266E+001 +1.5904053799E+002 -8.7614076508E+001 -2.6761147089E+001 -3.3893991271E+001 -1.6166001222E+002
6537500000.000 -1.0075742028E+001 -8.2529755427E+001 -5.8214437439E+001 +1.2446126579E+002 -8.2934100675E+001 +1.5536759493E+002 -4.0146236658E+001 -1.6307294921E+002
6670000000.000 -9.9527583343E+000 -8.3394416956E+001 -5.7964881454E+001 +9.0507937582E+001 -9.7104896623E+001 -5.5886803504E+001 -3.9898640117E+001 -1.3878155896E+002
6802500000.000 -9.9138521528E+000 -8.4838532599E+001 -5.8061814760E+001 +5.6053056816E+001 -9.6437479934E+001 -1.2904551064E+002 -3.9274381501E+001 +1.7850704269E+002
6935000000.000 -9.9706194579E+000 -8.5700405740E+001 -5.8583187915E+001 +1.7707425384E+001 -8.6934673663E+001 +1.3829497661E+002 -3.8617065564E+001 +1.2356793356E+002
7067500000.000 -9.8714719912E+000 -8.6038789287E+001 -5.8443031833E+001 -1.2607763717E+001 -8.8391912524E+001 -1.7279602173E+002 -3.8378093965E+001 +1.1538197111E+002
7200000000.000 -9.7428472770E+000 -8.6960268366E+001 -5.8320474532E+001 -5.0662568668E+001 -9.4673574087E+001 -1.5641282026E+002 -3.2755312979E+001 +1.2966824208E+002
7332500000.000 -9.7281995261E+000 -8.8241976545E+001 -5.8698062756E+001 -8.2787473062E+001 -8.5625620051E+001 +8.5557495324E+001 -2.9182801280E+001 +1.1913740009E+002
7465000000.000 -9.6995802746E+000 -8.8808791286E+001 -5.9391313322E+001 -1.2114995842E+002 -8.2745247309E+001 -1.4331338451E+002 -2.8515209526E+001 +1.2338226755E+002
7597500000.000 -9.5873969961E+000 -8.9322427459E+001 -5.8946241785E+001 -1.5219975747E+002 -8.4371469189E+001 +1.3411551887E+001 -2.6023888255E+001 +1.3682158980E+002
7730000000.000 -9.5111449186E+000 -9.0209069605E+001 -5.9336740983E+001 +1.7170344208E+002 -8.5771612339E+001 +2.6162480929E+001 -2.3786051171E+001 +1.3759865558E+002
7862500000.000 -9.4752080151E+000 -9.0952586003E+001 -5.9897286108E+001 +1.3528995472E+002 -8.7576662032E+001 -7.2652677070E+001 -2.3252093048E+001 +1.4210411006E+002
7995000000.000 -9.4119961283E+000 -9.1315220082E+001 -5.9377717005E+001 +1.0139534521E+002 -8.9958943032E+001 -1.0050981350E+001 -2.1758362506E+001 +1.5405250141E+002
8127500000.000 -9.2764444119E+000 -9.1760513492E+001 -6.0129368899E+001 +6.8518502732E+001 -8.7925560436E+001 -5.5953884081E+001 -2.0045524377E+001 +1.5627777576E+002
8260000000.000 -9.2502986203E+000 -9.2615574836E+001 -6.1528268111E+001 +3.1222149018E+001 -8.6608382037E+001 -1.7263249566E+002 -1.9859516550E+001 +1.6041836362E+002
8392500000.000 -9.1847170429E+000 -9.2880630513E+001 -6.1702836283E+001 -3.6149501086E+000 -8.5492646513E+001 -1.6028699755E+002 -1.9043498414E+001 +1.7028019500E+002
8525000000.000 -9.1136739658E+000 -9.3059630038E+001 -6.1164419393E+001 -3.5297537635E+001 -9.6567198168E+001 +1.7258276995E+002 -1.8225020169E+001 +1.7289420998E+002
8657500000.000 -9.0393915077E+000 -9.3566607210E+001 -6.2113613137E+001 -6.4590216207E+001 -8.6640900865E+001 -9.9283683329E+001 -1.8558537517E+001 +1.7801300688E+002
8790000000.000 -8.9762591009E+000 -9.3996328821E+001 -6.2093852158E+001 -9.9181170347E+001 -1.0330848234E+002 +6.0852092118E+001 -1.8344568885E+001 -1.7191307071E+002
8922500000.000 -8.9591414629E+000 -9.4330239064E+001 -6.2793505065E+001 -1.3529978333E+002 -8.9584063819E+001 +1.3732888687E+002 -1.8027396812E+001 -1.6603725486E+002
9055000000.000 -8.8965251394E+000 -9.4443150211E+001 -6.3326143493E+001 -1.7207885030E+002 -8.6363783919E+001 +8.8207800665E+001 -1.8426155049E+001 -1.5818640079E+002
9187500000.000 -8.8539900483E+000 -9.4866260888E+001 -6.2537960938E+001 +1.5874262627E+002 -8.7591360509E+001 -1.4041349898E+002 -1.8369031706E+001 -1.4670684352E+002
9320000000.000 -8.8254790976E+000 -9.5643308781E+001 -6.3222514209E+001 +1.1872243747E+002 -8.2372052084E+001 -8.2915364775E+000 -1.8268076215E+001 -1.3960981476E+002
9452500000.000 -8.8070553363E+000 -9.5909860733E+001 -6.2929870062E+001 +8.4913878108E+001 -9.0411043013E+001 +1.6552307467E+002 -1.8807308988E+001 -1.3026052421E+002
9585000000.000 -8.7530755286E+000 -9.6147651400E+001 -6.2805082596E+001 +5.3703687235E+001 -8.9071295468E+001 +1.5416597525E+002 -1.8760353415E+001 -1.1866550899E+002
9717500000.000 -8.6725132269E+000 -9.6912226464E+001 -6.3663781115E+001 +1.8283460162E+001 -8.7017742799E+001 -2.8992982506E+001 -1.8887138485E+001 -1.1117404335E+002
9850000000.000 -8.6807049841E+000 -9.7756929471E+001 -6.4305132090E+001 -1.1739818669E+001 -8.2284233096E+001 +1.0127290563E+002 -1.9621304269E+001 -1.0017440188E+002
9982500000.000 -8.6426851373E+000 -9.7858886900E+001 -6.4675156083E+001 -4.9613176461E+001 -1.0273860790E+002 -1.2977185861E+002 -1.9640718210E+001 -8.6919977672E+001
10115000000.000 -8.5597014523E+000 -9.8282804174E+001 -6.4083713437E+001 -8.1705277263E+001 -8.3322949581E+001 +1.7693768018E+001 -1.9986259338E+001 -7.9248571661E+001
10247500000.000 -8.5019579501E+000 -9.9164347672E+001 -6.4090456209E+001 -1.1934836883E+002 -8.2326564275E+001 +4.2622022694E+001 -2.1131419377E+001 -6.5459612745E+001
10380000000.000 -8.4974715872E+000 -9.9711206664E+001 -6.4913336425E+001 -1.5443932732E+002 -8.3175366510E+001 -1.0309008123E+002 -2.0991655701E+001 -5.0195683667E+001
10512500000.000 -8.4566738633E+000 -1.0005289705E+002 -6.4482753670E+001 +1.7421966140E+002 -8.2385130493E+001 -1.3471895073E+002 -2.1575633730E+001 -4.2219575372E+001
10645000000.000 -8.3781563429E+000 -1.0044394599E+002 -6.5215911057E+001 +1.3702219310E+002 -7.6889921921E+001 +1.2042652967E+001 -2.2808203344E+001 -2.3409942861E+001
10777500000.000 -8.3207079106E+000 -1.0111419843E+002 -6.6166838403E+001 +9.9868856735E+001 -8.7245414490E+001 +1.3730325137E+002 -2.2132958775E+001 -6.2149208733E+000
10910000000.000 -8.2748951148E+000 -1.0174868758E+002 -6.6985485372E+001 +6.1170396609E+001 -8.6050487602E+001 -8.0823943040E+001 -2.2822655899E+001 +3.9142801706E+000
11042500000.000 -8.2222770807E+000 -1.0220868193E+002 -6.7322673241E+001 +3.3619644479E+001 -9.1101949722E+001 -7.9718869935E+000 -2.3446426242E+001 +2.7907493564E+001
11175000000.000 -8.1340633843E+000 -1.0252856581E+002 -6.7955542369E+001 +1.6111057525E+000 -9.3145585383E+001 +8.3616981503E+001 -2.2224337986E+001 +4.2603416826E+001
11307500000.000 -8.0812524556E+000 -1.0288080528E+002 -6.7478948928E+001 -4.4648671791E+001 -8.1133215229E+001 -1.3518055875E+002 -2.2774266612E+001 +5.3142134859E+001
11440000000.000 -8.0327796264E+000 -1.0353688824E+002 -6.7525954620E+001 -5.6679962689E+001 -8.5225552638E+001 +3.8698743997E+001 -2.2553444164E+001 +7.5687073996E+001
11572500000.000 -7.9401854874E+000 -1.0363740011E+002 -6.8862822599E+001 -1.0508124323E+002 -8.1803913567E+001 +8.8118752745E+000 -2.1186291241E+001 +8.6791261820E+001
11705000000.000 -7.8955187413E+000 -1.0397046189E+002 -6.8939004119E+001 -1.2472991121E+002 -8.0537559541E+001 -1.7485676051E+002 -2.1777480394E+001 +9.7258080306E+001
11837500000.000 -7.8269023197E+000 -1.0434220233E+002 -6.9354509485E+001 -1.4941194529E+002 -9.0559150116E+001 -1.6021846240E+002 -2.1069741696E+001 +1.1894823369E+002
11970000000.000 -7.8087978560E+000 -1.0449579199E+002 -6.8090101174E+001 +1.6583604504E+002 -9.5998463380E+001 +6.9168161158E+001 -1.9864745127E+001 +1.2520797554E+002
12102500000.000 -7.7694830651E+000 -1.0454817906E+002 -6.7093439690E+001 +1.2642823034E+002 -8.1478665818E+001 +1.5747960544E+002 -2.0750943608E+001 +1.3590659912E+002
12235000000.000 -7.7060266457E+000 -1.0495794718E+002 -6.8765093048E+001 +1.0758245990E+002 -9.5095129153E+001 +1.7087233744E+002 -1.9681666222E+001 +1.5426135903E+002
12367500000.000 -7.7054560021E+000 -1.0516798426E+002 -6.7177943299E+001 +8.1201923681E+001 -8.4443381163E+001 +2.5532526840E+001 -1.8947715416E+001 +1.5742839315E+002
12500000000.000 -7.6949747223E+000 -1.0566609404E+002 -6.9772770720E+001 +2.4732155240E+001 -8.9383400616E+001 +1.0685912809E+002 -2.0073655802E+001 +1.6873200001E+002
12632500000.000 -7.6402261963E+000 -1.0574020257E+002 -6.8911844857E+001 +7.1458904721E-002 -8.6881660345E+001 -1.5973277186E+002 -1.9051987993E+001 -1.7338713197E+002
12765000000.000 -7.6024850231E+000 -1.0605403112E+002 -7.0322937838E+001 -3.5742244211E+001 -7.7929637805E+001 +4.8037413375E+001 -1.8581365810E+001 -1.7194681667E+002
12897500000.000 -7.6180471182E+000 -1.0650398824E+002 -6.8377016973E+001 -5.9717284216E+001 -8.5011066417E+001 +1.2305445768E+002 -2.0167455106E+001 -1.5874684093E+002
13030000000.000 -7.6008731669E+000 -1.0670024872E+002 -6.8686781633E+001 -1.0011177834E+002 -8.3369910524E+001 -1.4229319890E+002 -1.8723233403E+001 -1.4175481183E+002
13162500000.000 -7.5536144565E+000 -1.0703632018E+002 -7.0912385554E+001 -1.3871886172E+002 -9.2227943381E+001 +7.1687116843E+001 -1.8669350286E+001 -1.4223784073E+002
13295000000.000 -7.5149714920E+000 -1.0736703314E+002 -6.9360017900E+001 -1.7378278416E+002 -8.2350085695E+001 +9.1723587178E+001 -2.0074767208E+001 -1.2735137827E+002
13427500000.000 -7.5057054369E+000 -1.0786812408E+002 -7.0774859065E+001 +1.2188867542E+002 -8.7216308621E+001 -1.0803526054E+002 -1.8745471827E+001 -1.1426923393E+002
13560000000.000 -7.5092728238E+000 -1.0774056013E+002 -6.9721665062E+001 +1.3253004287E+002 -8.8519594774E+001 +4.1498231051E+001 -1.9042333969E+001 -1.1519226778E+002
13692500000.000 -7.4443530158E+000 -1.0811705477E+002 -7.4310717211E+001 +9.8925708322E+001 -7.5277039856E+001 +4.8786330616E+001 -2.0837680870E+001 -1.0111261878E+002
13825000000.000 -7.4030730484E+000 -1.0859832829E+002 -7.1969737920E+001 +1.8184310842E+001 -9.7000720502E+001 -1.1001812750E+002 -1.9683630413E+001 -8.7704336038E+001
13957500000.000 -7.4190221158E+000 -1.0905915173E+002 -7.1524177809E+001 +2.0778998059E+001 -8.5464080521E+001 -3.9602817174E+001 -2.0376193182E+001 -9.0264759715E+001
14090000000.000 -7.3984821021E+000 -1.0904925299E+002 -7.0355573554E+001 -1.0536547107E+001 -8.3869145433E+001 +1.5266670919E+002 -2.2607317789E+001 -7.2588764451E+001
14222500000.000 -7.3329032263E+000 -1.0916297329E+002 -7.3223112538E+001 -3.3275501367E+001 -8.3501484800E+001 +3.3805234767E+001 -2.1264709139E+001 -5.9702251865E+001
14355000000.000 -7.2728351679E+000 -1.0992771679E+002 -7.9987942502E+001 -5.7591092280E+001 -8.9685220934E+001 +1.0865520528E+002 -2.2551847174E+001 -6.3323491331E+001
14487500000.000 -7.2707131772E+000 -1.1019564119E+002 -7.2876604133E+001 -1.2904324828E+002 -8.2366038308E+001 +1.5648184146E+001 -2.5347041929E+001 -4.0089915058E+001
14620000000.000 -7.2347747523E+000 -1.1006368038E+002 -6.9830176398E+001 -1.3998052584E+002 -7.8498343968E+001 +9.9089496797E+001 -2.3300873721E+001 -2.8417108587E+001
14752500000.000 -7.1365754872E+000 -1.1033031853E+002 -7.5141473553E+001 +1.7730038236E+002 -8.4646316891E+001 -1.6269619314E+002 -2.5522176369E+001 -3.6047250208E+001
14885000000.000 -7.1037082687E+000 -1.1074498573E+002 -7.1364992642E+001 +1.6621278709E+002 -8.2655210273E+001 +1.1264460627E+002 -2.8547525441E+001 +2.4683445402E+000
15017500000.000 -7.0536771712E+000 -1.1058462684E+002 -7.3673785593E+001 +1.3500582837E+002 -8.7463504767E+001 +9.2631971881E+001 -2.5402185125E+001 +7.5160913747E+000
15150000000.000 -6.9855977672E+000 -1.1055856089E+002 -7.0692882008E+001 +1.1179435068E+002 -8.8146537493E+001 +1.5648208462E+002 -2.9422861525E+001 -1.8758641113E+000
15282500000.000 -6.9432648487E+000 -1.1057038310E+002 -7.0591778717E+001 +5.6119951921E+001 -8.8931178835E+001 +1.9176679731E+001 -3.0593798622E+001 +5.7762804581E+001
