!  2-Port S-parameters saved by WinCal
! VAR MeasName=S-Parameters (CALIBRATED_DATA) read from VNA (C)
! VAR MeasDate=9/29/2015 3:13:44 PM
! VAR NAME=M6082_18_15_2_2_20C_3.4mA_-17.5dBm
! VAR FILENAME=M6082_18_15_2_2_20C_3.4mA_-17.5dBm.S2P
! VAR DATE=9/29/2015 3:13:44 PM
! VAR PHYS_PORTS=2,1
! VAR ObjTypeName=DATASET
! VAR IndexType=Frequency
!
# Hz S DB R 50
45000000.000 -1.9999186074E+001 -6.8187828477E-001 -5.6542466549E+001 +8.2813533463E+001 -5.8027450525E+001 +5.6518998912E+001 -3.0668862187E+001 +7.5803377685E+000
177500000.000 -2.0021521720E+001 -4.7689185170E+000 -5.4606885016E+001 +7.1174421337E+001 -6.7711833568E+001 +1.0350590055E+002 -3.2611660623E+001 +4.6637425476E+001
310000000.000 -2.0009362233E+001 -8.4036416564E+000 -5.4727719724E+001 +3.2671037241E+001 -7.2704026569E+001 -5.4322209864E+001 -2.3381644824E+001 +6.4239287748E+001
442500000.000 -1.9946557874E+001 -1.1997961713E+001 -5.4679916292E+001 +9.7920892893E-001 -8.3581027849E+001 -6.3264838061E+001 -2.2416450262E+001 +1.6918507673E+001
575000000.000 -1.9860522770E+001 -1.5951600164E+001 -5.4961428910E+001 -3.6366286255E+001 -8.1300605871E+001 +9.1728270376E+001 -3.0641431511E+001 +2.2117850653E+001
707500000.000 -1.9794679339E+001 -1.9402973638E+001 -5.5516963357E+001 -7.0669746560E+001 -8.2336478272E+001 -1.2259844558E+002 -3.4672937637E+001 +8.3353608856E+001
840000000.000 -1.9652995589E+001 -2.2935522289E+001 -5.5218140315E+001 -1.0613204319E+002 -8.3688078996E+001 +4.6628272857E+001 -2.9631438156E+001 +1.2786031317E+002
972500000.000 -1.9482674555E+001 -2.6057606487E+001 -5.5831794656E+001 -1.3983425814E+002 -8.3392497719E+001 +1.7324354082E+002 -2.5918293717E+001 +1.3501221919E+002
1105000000.000 -1.9314273378E+001 -2.9590561750E+001 -5.5688199278E+001 -1.7445550630E+002 -8.4434935589E+001 -3.2163909421E+001 -2.4384310265E+001 +1.4069441620E+002
1237500000.000 -1.9166726945E+001 -3.2459617632E+001 -5.6025544674E+001 +1.5264337270E+002 -9.6134276860E+001 -3.8573299540E+001 -2.3390891279E+001 +1.5007586657E+002
1370000000.000 -1.8974001990E+001 -3.5534742777E+001 -5.5916749799E+001 +1.2012554865E+002 -9.1198550875E+001 +2.3014438860E+001 -2.2054175113E+001 +1.5988371318E+002
1502500000.000 -1.8784703674E+001 -3.8173983265E+001 -5.6008033172E+001 +8.4517749223E+001 -9.1566120374E+001 -1.5126454868E+002 -2.0866975740E+001 +1.6625721501E+002
1635000000.000 -1.8532275691E+001 -4.0716215597E+001 -5.5950650671E+001 +4.9776349118E+001 -8.2528030059E+001 -1.2571676335E+002 -2.0019110714E+001 +1.7325970659E+002
1767500000.000 -1.8296439510E+001 -4.3579713464E+001 -5.6264819098E+001 +1.6951814701E+001 -8.7328659137E+001 +2.6353100372E+001 -1.9016085096E+001 +1.7838777992E+002
1900000000.000 -1.8118367227E+001 -4.5668298071E+001 -5.6187019408E+001 -1.6375748823E+001 -8.0877044288E+001 -1.5024428243E+002 -1.8867859626E+001 -1.7838051859E+002
2032500000.000 -1.7924619563E+001 -4.7835603355E+001 -5.6334983846E+001 -5.0834444026E+001 -9.4728721890E+001 +1.7626292465E+002 -1.8672415643E+001 -1.6800835310E+002
2165000000.000 -1.7621272433E+001 -4.9923314584E+001 -5.6293967618E+001 -8.6915867382E+001 -8.4212202862E+001 +7.4406490214E+001 -1.7743715070E+001 -1.6116952447E+002
2297500000.000 -1.7432974515E+001 -5.1999345075E+001 -5.6631056198E+001 -1.2304931831E+002 -9.4414834172E+001 +6.5718789841E+001 -1.7244993981E+001 -1.5718302181E+002
2430000000.000 -1.7244372370E+001 -5.3663256025E+001 -5.5776859940E+001 -1.5320202516E+002 -7.5986031610E+001 -9.6787130803E+001 -1.6916156629E+001 -1.5303059537E+002
2562500000.000 -1.6994885782E+001 -5.5452530801E+001 -5.6248142294E+001 +1.7073378435E+002 -7.9615220830E+001 +1.1653928079E+001 -1.6829543382E+001 -1.5085019531E+002
2695000000.000 -1.6839226883E+001 -5.7709147378E+001 -5.6229167946E+001 +1.3910378451E+002 -8.4767972804E+001 +1.2708571942E+002 -1.7387766606E+001 -1.4735197519E+002
2827500000.000 -1.6753540391E+001 -5.9159797272E+001 -5.6597281590E+001 +1.0700345462E+002 -8.0374180315E+001 -1.0755688353E+002 -1.7835243498E+001 -1.4030283074E+002
2960000000.000 -1.6523342960E+001 -6.0487298925E+001 -5.6392264962E+001 +7.1396811428E+001 -7.8649937728E+001 +1.2195062746E+001 -1.8124232136E+001 -1.3584933613E+002
3092500000.000 -1.6289743517E+001 -6.2421026521E+001 -5.6240709184E+001 +3.7789298558E+001 -7.8705503743E+001 +1.1958293904E+002 -1.9129258404E+001 -1.2964456645E+002
3225000000.000 -1.6150982504E+001 -6.4475480324E+001 -5.5670066475E+001 +3.6015676792E+000 -8.0280702837E+001 -1.6540286891E+002 -1.9574198348E+001 -1.1968628612E+002
3357500000.000 -1.6038494372E+001 -6.5650736774E+001 -5.6494006559E+001 -3.4471989359E+001 -8.1330297779E+001 +6.0851886372E+001 -1.9880573010E+001 -1.1469338179E+002
3490000000.000 -1.5785325695E+001 -6.7099257374E+001 -5.6395091388E+001 -6.4220588432E+001 -7.9262567347E+001 -1.6124821539E+002 -2.1136310968E+001 -1.0921880230E+002
3622500000.000 -1.5543583635E+001 -6.8919275529E+001 -5.6559910136E+001 -9.6497294034E+001 -7.6674670538E+001 -1.3249927064E+002 -2.1962627366E+001 -9.8292061671E+001
3755000000.000 -1.5344436490E+001 -7.0575854695E+001 -5.5898010025E+001 -1.3367170136E+002 -8.9422995923E+001 -1.3319544252E+002 -2.2633007892E+001 -9.4987303379E+001
3887500000.000 -1.5170923599E+001 -7.1858385247E+001 -5.6470565285E+001 -1.6353497763E+002 -8.2906703912E+001 -1.5905714310E+002 -2.5033914603E+001 -8.8843001877E+001
4020000000.000 -1.4990899096E+001 -7.2881383571E+001 -5.6237056667E+001 +1.5529507519E+002 -8.1357333131E+001 +1.4909401898E+002 -2.6706164428E+001 -7.3631281583E+001
4152500000.000 -1.4743566158E+001 -7.4107057436E+001 -5.6148628510E+001 +1.2147538959E+002 -8.2567241411E+001 +4.6088047049E+000 -2.8734880102E+001 -6.5119908084E+001
4285000000.000 -1.4529167358E+001 -7.5418211881E+001 -5.5815766429E+001 +8.7965960797E+001 -8.1106548496E+001 +1.3385989333E+002 -3.3400102993E+001 -3.9916831883E+001
4417500000.000 -1.4379859454E+001 -7.6662105688E+001 -5.5512910750E+001 +5.6070356248E+001 -8.0989808499E+001 +1.5138591309E+002 -3.1885178177E+001 +7.4703727862E+000
4550000000.000 -1.4197531246E+001 -7.7240735604E+001 -5.5915679352E+001 +2.0507091984E+001 -9.7813783169E+001 +1.7776120726E+002 -3.0334300302E+001 +1.7429225324E+001
4682500000.000 -1.3967421271E+001 -7.8095491853E+001 -5.6770533199E+001 -9.5021940036E+000 -8.4717361428E+001 +1.8038754120E+001 -2.9774890976E+001 +3.7757585022E+001
4815000000.000 -1.3796452568E+001 -7.9417023652E+001 -5.5755187249E+001 -4.4933340859E+001 -8.5192530148E+001 +1.2367015578E+002 -2.7713259898E+001 +4.0463594448E+001
4947500000.000 -1.3640227101E+001 -7.9985810277E+001 -5.6106792527E+001 -7.7934952746E+001 -8.7074450717E+001 -7.6535947165E+001 -2.9424443042E+001 +3.4586229242E+001
5080000000.000 -1.3448146569E+001 -8.0455205294E+001 -5.5879291275E+001 -1.1061946813E+002 -9.7061498842E+001 +5.7809512648E+001 -3.2336292270E+001 +5.5831417819E+001
5212500000.000 -1.3250115706E+001 -8.1414878798E+001 -5.5763680743E+001 -1.4530431598E+002 -8.4250845654E+001 +1.0253919371E+002 -3.1656899117E+001 +6.8178787155E+001
5345000000.000 -1.3134340634E+001 -8.2204468147E+001 -5.5392486677E+001 -1.7910787114E+002 -8.7584477265E+001 +1.7575397745E+002 -3.5512793868E+001 +6.8962488975E+001
5477500000.000 -1.2991017828E+001 -8.2448924127E+001 -5.4965361232E+001 +1.4763634289E+002 -8.6690500752E+001 -1.1338870647E+001 -3.7619526168E+001 +1.3233027748E+002
5610000000.000 -1.2799747230E+001 -8.2970125074E+001 -5.5241005284E+001 +1.1049711585E+002 -9.4618541851E+001 +1.9756400699E+001 -3.3758257305E+001 +1.3501129983E+002
5742500000.000 -1.2681569469E+001 -8.3851877149E+001 -5.4954447497E+001 +7.8670210495E+001 -1.1579497783E+002 +3.1682092760E+001 -3.8278794727E+001 +1.5155050321E+002
5875000000.000 -1.2598967161E+001 -8.4433188205E+001 -5.4966325976E+001 +4.2978635060E+001 -9.6125704487E+001 +2.7142511484E+001 -3.3944071839E+001 -1.6918528165E+002
6007500000.000 -1.2498650219E+001 -8.4780541339E+001 -5.4998008877E+001 +7.5017688212E+000 -8.9847138250E+001 +1.3428952560E+002 -3.2758637185E+001 +1.7979584785E+002
6140000000.000 -1.2329774108E+001 -8.5374762345E+001 -5.4714343432E+001 -2.7063696372E+001 -8.2245752575E+001 -1.7122252409E+002 -3.6429512614E+001 -1.7086730079E+002
6272500000.000 -1.2212555695E+001 -8.6472056474E+001 -5.4614964760E+001 -5.9639619871E+001 -8.3474242820E+001 -7.5642489589E+001 -3.4168574701E+001 -1.4353330394E+002
6405000000.000 -1.2177289553E+001 -8.7308157812E+001 -5.4588344522E+001 -9.8487294614E+001 -8.6235667252E+001 -1.3114987967E+001 -3.3914598238E+001 -1.6176056989E+002
6537500000.000 -1.2057271804E+001 -8.7448584361E+001 -5.4884100286E+001 -1.3044200023E+002 -8.5765025134E+001 +1.3683806577E+002 -4.0177740491E+001 -1.6303873421E+002
6670000000.000 -1.1873122976E+001 -8.8212660665E+001 -5.4508255336E+001 -1.6370437148E+002 -8.8249740716E+001 +1.7521321757E+002 -3.9916606083E+001 -1.3845196612E+002
6802500000.000 -1.1737687760E+001 -8.9506956423E+001 -5.4704138534E+001 +1.5733273220E+002 -8.6212594460E+001 -4.6574485795E+000 -3.9275261170E+001 +1.7853706188E+002
6935000000.000 -1.1716500505E+001 -9.0158331067E+001 -5.4641634340E+001 +1.2376468933E+002 -9.3444489919E+001 +1.0242486324E+002 -3.8591895208E+001 +1.2412049140E+002
7067500000.000 -1.1576071333E+001 -9.0324843866E+001 -5.4795563262E+001 +8.9844310427E+001 -8.9403223098E+001 -1.3259823936E+001 -3.8377465795E+001 +1.1542767955E+002
7200000000.000 -1.1387577730E+001 -9.1138563580E+001 -5.4518056660E+001 +5.3662067136E+001 -8.6895298711E+001 +1.0043670093E+001 -3.2781489448E+001 +1.2947797169E+002
7332500000.000 -1.1286354330E+001 -9.2312136995E+001 -5.4317236023E+001 +2.1102514106E+001 -8.0574835054E+001 +1.3892798962E+002 -2.9180517123E+001 +1.1908041376E+002
7465000000.000 -1.1212686559E+001 -9.2750806190E+001 -5.4531600104E+001 -1.2143940282E+001 -1.0004264688E+002 -2.1453885970E+001 -2.8535066213E+001 +1.2337427550E+002
7597500000.000 -1.1067102891E+001 -9.3133878367E+001 -5.4546209234E+001 -4.8381294561E+001 -8.2653352332E+001 -5.3345350890E+001 -2.6022874773E+001 +1.3688479227E+002
7730000000.000 -1.0881076125E+001 -9.3892029335E+001 -5.4632391510E+001 -8.4091396379E+001 -7.9710900191E+001 +8.1061397449E+001 -2.3790532026E+001 +1.3755332416E+002
7862500000.000 -1.0771098789E+001 -9.4512482481E+001 -5.4739853391E+001 -1.1693429831E+002 -8.9899340329E+001 +1.4852362515E+002 -2.3276953980E+001 +1.4208937378E+002
7995000000.000 -1.0691631312E+001 -9.4762647201E+001 -5.4475801476E+001 -1.5059172274E+002 -9.7263051689E+001 -9.6181736557E+001 -2.1763096215E+001 +1.5404325803E+002
8127500000.000 -1.0483178419E+001 -9.5077731664E+001 -5.4319047878E+001 +1.7381765827E+002 -8.5391176683E+001 +1.7586912177E+002 -2.0049733637E+001 +1.5625356383E+002
8260000000.000 -1.0382899096E+001 -9.5858077106E+001 -5.4196554515E+001 +1.3931970765E+002 -8.2706277991E+001 +1.7400808114E+002 -1.9864849185E+001 +1.6040813045E+002
8392500000.000 -1.0282158666E+001 -9.5999887234E+001 -5.4118937778E+001 +1.0566009205E+002 -8.8098079895E+001 -1.2603753917E+002 -1.9038442029E+001 +1.7030575662E+002
8525000000.000 -1.0161859809E+001 -9.6086997061E+001 -5.3874289852E+001 +6.7308242524E+001 -7.9022190416E+001 -5.8058586054E+000 -1.8231487927E+001 +1.7284756020E+002
8657500000.000 -1.0014112319E+001 -9.6516028605E+001 -5.3841450958E+001 +3.3680745000E+001 -9.1496703223E+001 +1.1960936293E+002 -1.8558247281E+001 +1.7801122080E+002
8790000000.000 -9.9088528789E+000 -9.6905466061E+001 -5.3699330440E+001 -6.6134679123E-003 -7.9952342574E+001 -1.2856665147E+002 -1.8347194929E+001 -1.7195805869E+002
8922500000.000 -9.8578285815E+000 -9.7160775183E+001 -5.3483348209E+001 -3.7576950232E+001 -8.6028838259E+001 +6.4432492933E+001 -1.8023749401E+001 -1.6602709055E+002
9055000000.000 -9.7385145656E+000 -9.7205873450E+001 -5.3449652166E+001 -7.4868028750E+001 -9.2256518530E+001 -1.1249986110E+002 -1.8424768862E+001 -1.5817827754E+002
9187500000.000 -9.6492250413E+000 -9.7616400814E+001 -5.3659863289E+001 -1.0666298568E+002 -8.3627498490E+001 -5.7835906458E+001 -1.8366729352E+001 -1.4672331404E+002
9320000000.000 -9.5808138488E+000 -9.8394249648E+001 -5.3457461611E+001 -1.4247307463E+002 -8.5739105344E+001 -2.2694673238E+000 -1.8263993186E+001 -1.3964446351E+002
9452500000.000 -9.5194577404E+000 -9.8668002142E+001 -5.3284504094E+001 -1.7903213014E+002 -8.9521623974E+001 +7.4084876379E+001 -1.8814281175E+001 -1.3027700306E+002
9585000000.000 -9.4185110849E+000 -9.8956899348E+001 -5.2937670152E+001 +1.4446091370E+002 -8.5287297733E+001 -6.9932761474E+001 -1.8757686364E+001 -1.1870555694E+002
9717500000.000 -9.2992818716E+000 -9.9704667768E+001 -5.3313355747E+001 +1.0819089160E+002 -9.1533979322E+001 -6.0699387028E+001 -1.8885485172E+001 -1.1122343032E+002
9850000000.000 -9.2651392737E+000 -1.0062886250E+002 -5.3229187196E+001 +7.3156136437E+001 -9.3474924064E+001 +6.0589860192E+001 -1.9620894516E+001 -1.0014203227E+002
9982500000.000 -9.1869242639E+000 -1.0075791762E+002 -5.3202365756E+001 +3.4952110126E+001 -8.9325353779E+001 +4.1310035595E+001 -1.9650289473E+001 -8.6882938757E+001
10115000000.000 -9.0733168634E+000 -1.0121880199E+002 -5.2676761169E+001 -1.9933708362E+000 -8.3838975888E+001 -2.2292261898E+001 -1.9983305359E+001 -7.9227845436E+001
10247500000.000 -8.9750095467E+000 -1.0216957452E+002 -5.3049407362E+001 -3.5871717028E+001 -8.9856610158E+001 -1.0944705879E+001 -2.1137777209E+001 -6.5407578838E+001
10380000000.000 -8.9294657900E+000 -1.0285594048E+002 -5.3163038952E+001 -7.2796933466E+001 -8.3513320599E+001 +1.7485306225E+002 -2.0994557015E+001 -5.0195684087E+001
10512500000.000 -8.8668135579E+000 -1.0324760596E+002 -5.3475912203E+001 -1.0654922330E+002 -8.3470132031E+001 +8.0110198994E+001 -2.1574595200E+001 -4.2289462917E+001
10645000000.000 -8.7681596349E+000 -1.0364522356E+002 -5.3388700380E+001 -1.4117326680E+002 -8.2994968234E+001 +8.1142041236E+001 -2.2809520020E+001 -2.3420286385E+001
10777500000.000 -8.6749216757E+000 -1.0448008000E+002 -5.3774249726E+001 -1.7660259342E+002 -8.5496379328E+001 +1.7965236740E+002 -2.2125153515E+001 -6.2233567437E+000
10910000000.000 -8.6017021232E+000 -1.0519566914E+002 -5.3610630310E+001 +1.4812402995E+002 -1.0166646505E+002 -1.0594317593E+002 -2.2815559755E+001 +3.9777306617E+000
11042500000.000 -8.5358065815E+000 -1.0568615236E+002 -5.3453829257E+001 +1.1117760274E+002 -8.7732330488E+001 +1.5618293482E+002 -2.3444197770E+001 +2.7914416832E+001
11175000000.000 -8.4260658941E+000 -1.0605944999E+002 -5.3650046243E+001 +7.5479690686E+001 -8.4727621161E+001 +1.1101585510E+002 -2.2228596245E+001 +4.2535262727E+001
11307500000.000 -8.3544049987E+000 -1.0656252340E+002 -5.4036531090E+001 +4.1229582164E+001 -9.3274073552E+001 -8.6191652338E+001 -2.2780194619E+001 +5.3086454742E+001
11440000000.000 -8.2902118822E+000 -1.0725798587E+002 -5.3978381440E+001 +5.8767432291E+000 -8.0842697161E+001 -1.8452798438E+001 -2.2558436556E+001 +7.5733174076E+001
11572500000.000 -8.1838698290E+000 -1.0737730728E+002 -5.4121850037E+001 -3.0661010295E+001 -9.6201679919E+001 +4.1504906212E+001 -2.1179761595E+001 +8.6783645329E+001
11705000000.000 -8.1285303834E+000 -1.0779638191E+002 -5.4462686644E+001 -6.5948979386E+001 -8.5779911799E+001 +8.3084338576E+001 -2.1772963187E+001 +9.7173226917E+001
11837500000.000 -8.0498768266E+000 -1.0822960351E+002 -5.4214646680E+001 -1.0129788998E+002 -8.0302673024E+001 -6.1991736646E+001 -2.1077987072E+001 +1.1904907624E+002
11970000000.000 -8.0289925504E+000 -1.0844888432E+002 -5.4370481334E+001 -1.3462993122E+002 -8.3831951514E+001 +1.0261734091E+002 -1.9871504735E+001 +1.2521573008E+002
12102500000.000 -7.9836676480E+000 -1.0856664709E+002 -5.4862618578E+001 -1.7165122069E+002 -9.5376198590E+001 +1.5336558181E+002 -2.0751494508E+001 +1.3588980290E+002
12235000000.000 -7.9092519314E+000 -1.0902666872E+002 -5.4686703006E+001 +1.5544014519E+002 -9.1338627808E+001 -7.9866123181E+001 -1.9685864181E+001 +1.5423630207E+002
12367500000.000 -7.9061413736E+000 -1.0929096894E+002 -5.4788297641E+001 +1.1814855772E+002 -8.2400551428E+001 +1.0543750148E+002 -1.8944647921E+001 +1.5739487537E+002
12500000000.000 -7.8921613760E+000 -1.0985487437E+002 -5.5460379821E+001 +8.0434144150E+001 -9.2926651473E+001 -8.6923610448E+001 -2.0072240869E+001 +1.6886641487E+002
12632500000.000 -7.8368497607E+000 -1.0997334762E+002 -5.5179276510E+001 +4.6411377742E+001 -8.2881741452E+001 -8.0589018082E+001 -1.9054134678E+001 -1.7340719579E+002
12765000000.000 -7.7935115377E+000 -1.1032187067E+002 -5.5527856896E+001 +1.2565552369E+001 -9.5727566096E+001 +4.3421672589E+001 -1.8582446653E+001 -1.7190455489E+002
12897500000.000 -7.8066688812E+000 -1.1081747169E+002 -5.5737813859E+001 -2.0177982691E+001 -8.7131774632E+001 +1.6622791523E+002 -2.0166107621E+001 -1.5872400120E+002
13030000000.000 -7.7897996644E+000 -1.1107813999E+002 -5.6124519353E+001 -5.9956607036E+001 -9.2980201266E+001 +1.6134395500E+002 -1.8737011239E+001 -1.4174809114E+002
13162500000.000 -7.7408618456E+000 -1.1144794889E+002 -5.6064901265E+001 -9.3314702972E+001 -8.6134682254E+001 -4.2700955371E+001 -1.8677119303E+001 -1.4227646149E+002
13295000000.000 -7.7003193291E+000 -1.1179943965E+002 -5.6293880380E+001 -1.2671877590E+002 -9.0095965728E+001 +1.1869284061E+002 -2.0079109987E+001 -1.2735382481E+002
13427500000.000 -7.6916887406E+000 -1.1234612629E+002 -5.7077523277E+001 -1.6169233207E+002 -8.6557892651E+001 -1.0558172302E+002 -1.8744035502E+001 -1.1424421728E+002
13560000000.000 -7.7032798774E+000 -1.1224911294E+002 -5.6807270065E+001 +1.6427222678E+002 -8.6249954247E+001 +4.3830912130E-002 -1.9042665643E+001 -1.1521060499E+002
13692500000.000 -7.6347820068E+000 -1.1260690723E+002 -5.7357140299E+001 +1.3346252639E+002 -8.2913880120E+001 +1.1952770469E+001 -2.0855216237E+001 -1.0108620512E+002
13825000000.000 -7.5903324456E+000 -1.1310781694E+002 -5.7438291384E+001 +9.6923160425E+001 -7.4719115452E+001 -1.5049006612E+002 -1.9667159277E+001 -8.7675004339E+001
13957500000.000 -7.6064904447E+000 -1.1360149693E+002 -5.7210369998E+001 +6.0907383489E+001 -8.5724995429E+001 -1.0187121521E+001 -2.0382740505E+001 -9.0303789956E+001
14090000000.000 -7.5913283548E+000 -1.1361042306E+002 -5.8568813730E+001 +2.7211401809E+001 -8.1694832582E+001 +7.1624940213E+001 -2.2606308101E+001 -7.2646503403E+001
14222500000.000 -7.5259172633E+000 -1.1369033966E+002 -5.8174989996E+001 -8.7697315916E+000 -8.6091655154E+001 +8.8906734654E+001 -2.1268818311E+001 -5.9683478815E+001
14355000000.000 -7.4625393163E+000 -1.1443848785E+002 -5.8126158914E+001 -4.0574724664E+001 -8.5900239711E+001 +3.4519147773E+001 -2.2544301633E+001 -6.3341929895E+001
14487500000.000 -7.4601242180E+000 -1.1469673065E+002 -5.8698724432E+001 -8.0176632595E+001 -8.1611265833E+001 +1.2076766111E+002 -2.5358325252E+001 -4.0171187873E+001
14620000000.000 -7.4273728714E+000 -1.1455012917E+002 -5.9419781444E+001 -1.0967552692E+002 -8.4905461008E+001 +1.7372490340E+002 -2.3294740670E+001 -2.8293617291E+001
14752500000.000 -7.3278557975E+000 -1.1477954125E+002 -5.9492202492E+001 -1.5015663297E+002 -8.1632872391E+001 -1.2802860944E+002 -2.5503427380E+001 -3.6021014404E+001
14885000000.000 -7.2926225575E+000 -1.1516804674E+002 -5.8751129605E+001 +1.7794097349E+002 -8.5322777210E+001 +6.0332808179E+001 -2.8557012609E+001 +2.5765133521E+000
15017500000.000 -7.2456338474E+000 -1.1498733681E+002 -5.9202361457E+001 +1.4027360910E+002 -8.3786186489E+001 +1.1403202733E+002 -2.5401701138E+001 +7.4622959377E+000
15150000000.000 -7.1822986348E+000 -1.1493888981E+002 -5.8979395699E+001 +1.0932415187E+002 -8.4680105143E+001 +1.6384354681E+002 -2.9427236191E+001 -1.7829378970E+000
15282500000.000 -7.1441806897E+000 -1.1494512216E+002 -6.0130087507E+001 +7.7058519407E+001 -8.7623572672E+001 +2.3982297818E+001 -3.0596009338E+001 +5.7963426077E+001
