!  2-Port S-parameters saved by WinCal
! VAR MeasName=S-Parameters (CALIBRATED_DATA) read from VNA (C)
! VAR MeasDate=9/29/2015 3:35:27 PM
! VAR NAME=M6082_18_15_2_2_20C_10.0mA_-17.5dBm 2
! VAR FILENAME=M6082_18_15_2_2_20C_10.0mA_-17.5dBm 2.S2P
! VAR DATE=9/29/2015 3:35:27 PM
! VAR PHYS_PORTS=2,1
! VAR ObjTypeName=DATASET
! VAR IndexType=Frequency
!
# Hz S DB R 50
45000000.000 -2.4890474970E+001 -1.7999616199E+002 -5.6371222896E+001 +1.0791722140E+002 -7.0309023943E+001 -5.0956466725E+000 -3.1003108767E+001 +2.0174428522E+000
177500000.000 -2.5579046900E+001 -1.7543543836E+002 -5.5296268256E+001 +6.6377676634E+001 -9.1865901178E+001 +1.3354735050E+002 -3.2718204767E+001 +4.6447044950E+001
310000000.000 -2.5552001315E+001 -1.7071505195E+002 -5.5300762740E+001 +3.9188271343E+001 -7.8862819181E+001 -5.7227646049E+001 -2.3350181206E+001 +6.4250036779E+001
442500000.000 -2.5431080678E+001 -1.6607619332E+002 -5.4244771856E+001 +3.7525930452E+000 -8.2924972477E+001 +7.8821962305E+001 -2.2397609276E+001 +1.6980110411E+001
575000000.000 -2.5192459470E+001 -1.6103223451E+002 -5.5024672973E+001 -3.4678831613E+001 -9.4442438028E+001 +1.4401152367E+002 -3.0609400536E+001 +2.2026163803E+001
707500000.000 -2.4906840559E+001 -1.5761913291E+002 -5.5216125138E+001 -7.0826004693E+001 -8.1066417959E+001 -2.2555635160E+001 -3.4673258911E+001 +8.3633337655E+001
840000000.000 -2.4632644393E+001 -1.5316752103E+002 -5.5531028683E+001 -1.0325092377E+002 -8.6358756262E+001 -4.1231226514E+001 -2.9657277801E+001 +1.2780578324E+002
972500000.000 -2.4096783229E+001 -1.5094182352E+002 -5.5426908777E+001 -1.3705584492E+002 -8.1701003280E+001 +1.4572092312E+002 -2.5924547483E+001 +1.3498012952E+002
1105000000.000 -2.3690922343E+001 -1.4751765466E+002 -5.4961627394E+001 -1.7237932906E+002 -8.7070833605E+001 +1.7890153585E+002 -2.4399481376E+001 +1.4073662356E+002
1237500000.000 -2.3351283941E+001 -1.4489881602E+002 -5.5415643656E+001 +1.5507219487E+002 -9.2952102058E+001 +2.7060119510E+001 -2.3388685422E+001 +1.5003766782E+002
1370000000.000 -2.3102036059E+001 -1.4008263924E+002 -5.5572552528E+001 +1.2064713852E+002 -8.7184068550E+001 +6.4806929407E+001 -2.2056615072E+001 +1.5980701023E+002
1502500000.000 -2.2771498977E+001 -1.3759401714E+002 -5.5655842194E+001 +8.6263211662E+001 -8.8599332358E+001 +1.1192034883E+002 -2.0859653618E+001 +1.6619200438E+002
1635000000.000 -2.2399865437E+001 -1.3499592534E+002 -5.5643559093E+001 +5.1808855124E+001 -8.9925710278E+001 -7.9436870704E+001 -2.0020042851E+001 +1.7327442133E+002
1767500000.000 -2.1954556350E+001 -1.3306315289E+002 -5.5930560279E+001 +1.7865768359E+001 -8.0405111683E+001 +7.1031112261E+001 -1.9012241356E+001 +1.7838849341E+002
1900000000.000 -2.1612070589E+001 -1.3354293201E+002 -5.5122719107E+001 -1.2887750676E+001 -8.6197712210E+001 -7.1996977849E+001 -1.8870343772E+001 -1.7834933695E+002
2032500000.000 -2.1273959999E+001 -1.2979034061E+002 -5.6501897809E+001 -5.5070072804E+001 -8.5658083946E+001 -1.0863877150E+001 -1.8679103293E+001 -1.6803544280E+002
2165000000.000 -2.0940147695E+001 -1.2969331034E+002 -5.5923377389E+001 -8.6081926275E+001 -8.1682244367E+001 +8.9852337469E+001 -1.7746665867E+001 -1.6121098304E+002
2297500000.000 -2.0610949553E+001 -1.2874477058E+002 -5.5474813848E+001 -1.1955895880E+002 -7.9206816118E+001 -1.7295134157E+002 -1.7248365699E+001 -1.5717020750E+002
2430000000.000 -2.0343181251E+001 -1.2756568074E+002 -5.6082676260E+001 -1.5341257298E+002 -8.0074435793E+001 -8.8109494847E+001 -1.6919709770E+001 -1.5304962773E+002
2562500000.000 -1.9928022378E+001 -1.2413375059E+002 -5.6088693855E+001 +1.7490588832E+002 -7.8996556852E+001 +8.1385833110E+001 -1.6822615023E+001 -1.5083053944E+002
2695000000.000 -1.9566139927E+001 -1.2408854115E+002 -5.5260535091E+001 +1.4694551988E+002 -7.7775371703E+001 -1.1602493132E+002 -1.7392479152E+001 -1.4737050332E+002
2827500000.000 -1.9354774560E+001 -1.2403843940E+002 -5.6388760107E+001 +1.0707091952E+002 -7.8987308723E+001 -5.4732382290E+001 -1.7828289730E+001 -1.4034088317E+002
2960000000.000 -1.9088857678E+001 -1.2290514573E+002 -5.6036074314E+001 +7.1320093643E+001 -8.0467663309E+001 +9.7507946625E+000 -1.8126160684E+001 -1.3591305745E+002
3092500000.000 -1.8696379561E+001 -1.2222650895E+002 -5.6742909205E+001 +4.1497482607E+001 -9.4925200133E+001 +1.6514983598E+002 -1.9120985064E+001 -1.2967633366E+002
3225000000.000 -1.8360135049E+001 -1.2250047744E+002 -5.5900979909E+001 +2.4186698261E+000 -8.5736461449E+001 -1.3385035248E+002 -1.9577424640E+001 -1.1960259951E+002
3357500000.000 -1.8308009861E+001 -1.2400537248E+002 -5.6559958288E+001 -2.8739405263E+001 -8.0712656076E+001 -4.6235394198E+001 -1.9888008403E+001 -1.1465895268E+002
3490000000.000 -1.7992375607E+001 -1.2323206129E+002 -5.6285759402E+001 -6.1962880663E+001 -8.1842298269E+001 -1.4220069508E+002 -2.1145462418E+001 -1.0924250021E+002
3622500000.000 -1.7473174234E+001 -1.2131291509E+002 -5.5866316877E+001 -9.5570188978E+001 -7.9126434905E+001 -1.1196521265E+002 -2.1961402196E+001 -9.8271506168E+001
3755000000.000 -1.7154932108E+001 -1.2132196530E+002 -5.6526649657E+001 -1.2725590544E+002 -8.8104644701E+001 +4.0209591581E+001 -2.2636518409E+001 -9.4891253935E+001
3887500000.000 -1.6892313318E+001 -1.2119780812E+002 -5.6558155461E+001 -1.5969729340E+002 -8.5457641754E+001 +1.2210525917E+002 -2.5008745470E+001 -8.8922231801E+001
4020000000.000 -1.6679928873E+001 -1.2094585304E+002 -5.6654502808E+001 +1.6164146314E+002 -8.3482410577E+001 -8.9126685518E+001 -2.6737923084E+001 -7.3537449949E+001
4152500000.000 -1.6398661033E+001 -1.2035807986E+002 -5.6328098556E+001 +1.2726911189E+002 -8.8955477034E+001 -1.2669214595E+002 -2.8781287501E+001 -6.5053688125E+001
4285000000.000 -1.6109023432E+001 -1.2020597580E+002 -5.7083027015E+001 +9.2644458443E+001 -8.3013595134E+001 +2.5244197129E+001 -3.3427324266E+001 -3.9673280352E+001
4417500000.000 -1.6082084399E+001 -1.2100482192E+002 -5.5725384727E+001 +5.6791111208E+001 -8.0252320677E+001 +1.4268931005E+002 -3.1855677012E+001 +7.7773069960E+000
4550000000.000 -1.5750047910E+001 -1.1975585043E+002 -5.7210490428E+001 +2.5203496726E+001 -7.8468947318E+001 -9.8343443044E+001 -3.0341846251E+001 +1.7354453503E+001
4682500000.000 -1.5657069848E+001 -1.1979190812E+002 -5.6019294430E+001 -4.4531981345E+000 -9.0869700665E+001 +1.4182664102E+002 -2.9753548912E+001 +3.7725170501E+001
4815000000.000 -1.5244629762E+001 -1.1938736554E+002 -5.7435279029E+001 -4.1773708086E+001 -9.7981591059E+001 -5.6645437596E+001 -2.7718155728E+001 +4.0599565218E+001
4947500000.000 -1.5095398557E+001 -1.1907777810E+002 -5.7688313317E+001 -7.5306789150E+001 -9.0641368036E+001 +1.6615196656E+001 -2.9420598529E+001 +3.4804643007E+001
5080000000.000 -1.4905229617E+001 -1.1848684667E+002 -5.7889775937E+001 -1.0648219928E+002 -9.0837579763E+001 -3.0363979483E+001 -3.2352577611E+001 +5.5925398598E+001
5212500000.000 -1.4655549600E+001 -1.1827803357E+002 -5.7588412374E+001 -1.4310009129E+002 -8.4237625789E+001 +1.4053874876E+002 -3.1622091991E+001 +6.8346715246E+001
5345000000.000 -1.4511440505E+001 -1.1837252221E+002 -5.7905424825E+001 -1.7371107234E+002 -8.3654907839E+001 -1.2872073634E+002 -3.5505378430E+001 +6.8673947816E+001
5477500000.000 -1.4385077334E+001 -1.1799394776E+002 -5.8443044339E+001 +1.5381411498E+002 -9.0646963345E+001 +1.4902907280E+002 -3.7506028897E+001 +1.3188450196E+002
5610000000.000 -1.4191718128E+001 -1.1762084423E+002 -5.7869524881E+001 +1.2040051016E+002 -8.1499853489E+001 +1.0786779360E+002 -3.3746943797E+001 +1.3481849736E+002
5742500000.000 -1.4025583955E+001 -1.1792125993E+002 -5.8175464321E+001 +8.9474060665E+001 -8.9911847118E+001 +1.4302486839E+002 -3.8178645121E+001 +1.5156121058E+002
5875000000.000 -1.3930398909E+001 -1.1819330055E+002 -5.7987220999E+001 +5.2529839475E+001 -8.7017979110E+001 -5.0998815630E+001 -3.3946069881E+001 -1.6962577643E+002
6007500000.000 -1.3842123703E+001 -1.1819030719E+002 -5.8224257733E+001 +2.3477477262E+001 -8.7597793470E+001 -6.7842608509E+001 -3.2754737096E+001 +1.7948035154E+002
6140000000.000 -1.3880107791E+001 -1.1756913708E+002 -5.5329144659E+001 -1.6938630403E+001 -9.5622102742E+001 +3.6329308395E+001 -3.6440634390E+001 -1.7085549910E+002
6272500000.000 -1.3706790282E+001 -1.1800408384E+002 -5.5166912646E+001 -5.0626569269E+001 -8.9502139770E+001 +5.0270322988E+001 -3.4165220604E+001 -1.4397529434E+002
6405000000.000 -1.3641380696E+001 -1.1862253960E+002 -5.5182232434E+001 -8.6575727183E+001 -8.9636982509E+001 +6.5460415282E+001 -3.3906321816E+001 -1.6165586352E+002
6537500000.000 -1.3407970646E+001 -1.1917983145E+002 -5.6956516642E+001 -1.0811392054E+002 -9.5973975560E+001 -1.0701610403E+002 -4.0142174885E+001 -1.6257241711E+002
6670000000.000 -1.3214562953E+001 -1.1908279156E+002 -5.7082013672E+001 -1.4274301418E+002 -8.3266285536E+001 -1.5852880526E+002 -3.9872477681E+001 -1.3870339740E+002
6802500000.000 -1.3028964857E+001 -1.1981729498E+002 -5.6666670750E+001 -1.7489783475E+002 -9.0552273590E+001 +2.8275789013E+001 -3.9231076477E+001 +1.7842191345E+002
6935000000.000 -1.3027067477E+001 -1.2036246149E+002 -5.6371449761E+001 +1.5055024379E+002 -8.6331647575E+001 +7.3824568925E+001 -3.8606354630E+001 +1.2412895374E+002
7067500000.000 -1.2917181780E+001 -1.1982764394E+002 -5.6663076923E+001 +1.1540735047E+002 -9.0524030322E+001 -8.0952270161E+001 -3.8406291714E+001 +1.1544017341E+002
7200000000.000 -1.2699189850E+001 -1.1983962945E+002 -5.7104777220E+001 +8.4070021947E+001 -8.6723936296E+001 +6.6504786572E+000 -3.2761780720E+001 +1.2972834204E+002
7332500000.000 -1.2593930855E+001 -1.1944880500E+002 -5.5440395095E+001 +3.3699593288E+001 -8.9779364267E+001 -3.1860124747E+001 -2.9178349242E+001 +1.1916422969E+002
7465000000.000 -1.2519626822E+001 -1.1951274235E+002 -5.5466010018E+001 +6.9706358176E-001 -9.7319056301E+001 -1.3286987788E+002 -2.8526579236E+001 +1.2353839330E+002
7597500000.000 -1.2364401749E+001 -1.1922646818E+002 -5.5759406660E+001 -3.2975629551E+001 -8.4987853835E+001 -6.6680221174E+001 -2.6012246956E+001 +1.3699217408E+002
7730000000.000 -1.2169063287E+001 -1.2032924233E+002 -5.6425813111E+001 -5.2310399112E+001 -8.8157351927E+001 +1.5483287400E+002 -2.3777605843E+001 +1.3764034377E+002
7862500000.000 -1.2063503153E+001 -1.2038741775E+002 -5.6041077717E+001 -8.5335783852E+001 -8.2719824287E+001 +1.6462121545E+002 -2.3269265315E+001 +1.4208647265E+002
7995000000.000 -1.1988272383E+001 -1.2026094066E+002 -5.5915451937E+001 -1.1924860292E+002 -9.0021288509E+001 +1.5115126268E+002 -2.1764633117E+001 +1.5410085636E+002
8127500000.000 -1.1795621378E+001 -1.1973961049E+002 -5.5812104976E+001 -1.5303698928E+002 -1.0184290147E+002 -4.5527153882E+001 -2.0057136179E+001 +1.5632098752E+002
8260000000.000 -1.1680474310E+001 -1.2007798044E+002 -5.5647464595E+001 +1.7293067389E+002 -8.3507788017E+001 +1.5679049680E+002 -1.9860656661E+001 +1.6042025398E+002
8392500000.000 -1.1604967950E+001 -1.1976818811E+002 -5.5574936263E+001 +1.4062397172E+002 -8.2526630921E+001 -8.4687702110E+001 -1.9042678403E+001 +1.7038835220E+002
8525000000.000 -1.1505924506E+001 -1.1937844095E+002 -5.5526532185E+001 +1.0140797375E+002 -8.7666735403E+001 +9.5335035778E+001 -1.8226320119E+001 +1.7294880613E+002
8657500000.000 -1.1359381684E+001 -1.1916922188E+002 -5.5415771714E+001 +6.9551476200E+001 -8.7491427910E+001 -1.7868012419E+002 -1.8564007990E+001 +1.7809331634E+002
8790000000.000 -1.1251927454E+001 -1.1911430996E+002 -5.5281771569E+001 +3.5327131688E+001 -8.5324561026E+001 -6.4854450065E+001 -1.8351464599E+001 -1.7182259965E+002
8922500000.000 -1.1151272381E+001 -1.1854949588E+002 -5.5368476424E+001 -9.2692925091E+000 -8.1013192966E+001 -3.6951447176E+001 -1.8019594992E+001 -1.6597472918E+002
9055000000.000 -1.1056532031E+001 -1.1816404271E+002 -5.5346320005E+001 -4.5213393747E+001 -9.7973289387E+001 +6.6083418689E+001 -1.8430926194E+001 -1.5814235144E+002
9187500000.000 -1.1043407514E+001 -1.1868124538E+002 -5.5057943764E+001 -6.9169028384E+001 -9.2596981397E+001 -1.6001203331E+002 -1.8369256946E+001 -1.4662998081E+002
9320000000.000 -1.0966761776E+001 -1.1919792241E+002 -5.5119413142E+001 -1.0295667335E+002 -9.0408005718E+001 -5.2184580187E+001 -1.8264213810E+001 -1.3956332452E+002
9452500000.000 -1.0927626593E+001 -1.1912272903E+002 -5.4688722677E+001 -1.3809872532E+002 -8.6379250689E+001 +3.5345550500E+001 -1.8819919201E+001 -1.3020353009E+002
9585000000.000 -1.0832124283E+001 -1.1898101806E+002 -5.5317323603E+001 -1.7031106977E+002 -8.6056897657E+001 -1.5020965790E+002 -1.8771437069E+001 -1.1863847375E+002
9717500000.000 -1.0695215880E+001 -1.1926231043E+002 -5.4768440799E+001 +1.5473209426E+002 -9.0368633754E+001 +1.2039177399E+001 -1.8878580457E+001 -1.1110688219E+002
9850000000.000 -1.0651508582E+001 -1.1999881457E+002 -5.4346058199E+001 +1.1955112787E+002 -8.2044829043E+001 +2.2746396402E+001 -1.9615820867E+001 -1.0009144107E+002
9982500000.000 -1.0507972893E+001 -1.1950528983E+002 -5.5354988094E+001 +7.5551326429E+001 -9.2892564784E+001 +1.0760036114E+002 -1.9644947088E+001 -8.6815514573E+001
10115000000.000 -1.0385373246E+001 -1.1949251651E+002 -5.5887845607E+001 +4.1556520379E+001 -8.9462603491E+001 -6.7749107870E+001 -1.9982872667E+001 -7.9108458575E+001
10247500000.000 -1.0261631470E+001 -1.2008662195E+002 -5.5513834066E+001 +7.2339382702E+000 -8.9122282832E+001 -5.4504166198E+001 -2.1132342430E+001 -6.5347291698E+001
10380000000.000 -1.0292584794E+001 -1.2057978635E+002 -5.4810961252E+001 -1.8490211741E+001 -8.6327997854E+001 -1.5085196529E+002 -2.1001870156E+001 -5.0085136295E+001
10512500000.000 -1.0227537295E+001 -1.2056123493E+002 -5.4526946682E+001 -5.4311583690E+001 -8.6823600775E+001 -9.2648805759E+001 -2.1582954026E+001 -4.2035264123E+001
10645000000.000 -1.0124457368E+001 -1.2042601412E+002 -5.4214738102E+001 -8.6511764250E+001 -8.1270079694E+001 +6.2983062136E+001 -2.2810417002E+001 -2.3284660050E+001
10777500000.000 -1.0000526251E+001 -1.2089310592E+002 -5.4354815133E+001 -1.2271979982E+002 -8.7957372750E+001 -1.5354351088E+002 -2.2134731759E+001 -6.1065720496E+000
10910000000.000 -9.9064676206E+000 -1.2126723853E+002 -5.4207799501E+001 -1.5588407949E+002 -1.0307138389E+002 -5.6035923183E+001 -2.2815541845E+001 +4.1080122427E+000
11042500000.000 -9.8290074203E+000 -1.2135798946E+002 -5.4115494116E+001 +1.6851182031E+002 -1.0009615778E+002 +3.1766033791E+001 -2.3445475931E+001 +2.8099249988E+001
11175000000.000 -9.6376357691E+000 -1.2144490134E+002 -5.5801848732E+001 +1.3185899711E+002 -7.8459722618E+001 +1.0843551411E+002 -2.2216792514E+001 +4.2755234544E+001
11307500000.000 -9.5513754001E+000 -1.2156037369E+002 -5.5640944397E+001 +9.6647511284E+001 -8.8621644038E+001 +1.5352251957E+002 -2.2764629252E+001 +5.3255402211E+001
11440000000.000 -9.4663643777E+000 -1.2195991060E+002 -5.5504044100E+001 +6.3464984256E+001 -8.2853154002E+001 -4.5170837697E+001 -2.2543939115E+001 +7.5857183649E+001
11572500000.000 -9.4006106141E+000 -1.2134565489E+002 -5.3858073686E+001 +2.8102202144E+001 -8.2894735963E+001 +1.9661437955E+001 -2.1161719420E+001 +8.6942959330E+001
11705000000.000 -9.3209531363E+000 -1.2145223042E+002 -5.3759934867E+001 -6.7855105816E+000 -1.0783729190E+002 +1.2345747430E+002 -2.1771806387E+001 +9.7401941910E+001
11837500000.000 -9.2168780179E+000 -1.2150273812E+002 -5.3877649197E+001 -3.9434986438E+001 -8.6802677221E+001 -1.2827462989E+002 -2.1056253085E+001 +1.1913899298E+002
11970000000.000 -9.1804515301E+000 -1.2144137210E+002 -5.3722288090E+001 -7.8883183293E+001 -8.4273515021E+001 +9.0198991366E+001 -1.9868068967E+001 +1.2523662828E+002
12102500000.000 -9.1276791584E+000 -1.2127037289E+002 -5.4200898267E+001 -1.1139253726E+002 -9.7602933185E+001 -1.6599862022E+002 -2.0750533514E+001 +1.3596890887E+002
12235000000.000 -9.0230602497E+000 -1.2140016953E+002 -5.4097545890E+001 -1.4773205823E+002 -8.5205780199E+001 -8.7805468079E+001 -1.9684523345E+001 +1.5426163093E+002
12367500000.000 -9.0010363914E+000 -1.2146753188E+002 -5.4238634757E+001 +1.7606492078E+002 -9.4780603094E+001 -1.2579107087E+002 -1.8946303631E+001 +1.5748676220E+002
12500000000.000 -8.9568493628E+000 -1.2180474744E+002 -5.4227687414E+001 +1.4037642893E+002 -8.3143834094E+001 +1.2416191396E+002 -2.0075901158E+001 +1.6888637996E+002
12632500000.000 -8.8981966351E+000 -1.2205597891E+002 -5.6183034461E+001 +1.1420336226E+002 -9.2958683749E+001 +1.6251705470E+002 -1.9058075405E+001 -1.7332522014E+002
12765000000.000 -8.8344565059E+000 -1.2216451710E+002 -5.5553787255E+001 +8.1169646582E+001 -9.3966605353E+001 -4.3307146786E+001 -1.8589296620E+001 -1.7185308088E+002
12897500000.000 -8.8290410205E+000 -1.2252807873E+002 -5.5679398381E+001 +4.6924024415E+001 -8.2468671473E+001 +1.4677008858E+002 -2.0161015952E+001 -1.5868689382E+002
13030000000.000 -8.7745485581E+000 -1.2231688366E+002 -5.4356066962E+001 +1.3125682242E+000 -9.8446508936E+001 -1.2822251354E+002 -1.8722747835E+001 -1.4165636862E+002
13162500000.000 -8.6977910777E+000 -1.2247685038E+002 -5.5078089874E+001 -3.2783894292E+001 -8.6254486753E+001 -3.2724291360E+001 -1.8681342792E+001 -1.4214082699E+002
13295000000.000 -8.6319596065E+000 -1.2263277008E+002 -5.5062134060E+001 -6.7917711732E+001 -8.5099635238E+001 +1.5273438050E+002 -2.0077517249E+001 -1.2728757641E+002
13427500000.000 -8.5935933263E+000 -1.2307246497E+002 -5.4917858846E+001 -1.0464160265E+002 -8.5371198930E+001 -1.6853274837E+002 -1.8751150925E+001 -1.1423214719E+002
13560000000.000 -8.5973630777E+000 -1.2291755765E+002 -5.5328322213E+001 -1.3962649758E+002 -8.8842281596E+001 +2.8221735985E+001 -1.9049489073E+001 -1.1508246145E+002
13692500000.000 -8.5038315504E+000 -1.2303879445E+002 -5.5783322881E+001 -1.7226966717E+002 -8.0979597323E+001 +7.5256193944E+001 -2.0848895656E+001 -1.0097245752E+002
13825000000.000 -8.4343978534E+000 -1.2339552320E+002 -5.6014792787E+001 +1.5261442510E+002 -8.1838227671E+001 -1.1286819745E+002 -1.9673910287E+001 -8.7631057658E+001
13957500000.000 -8.4247576130E+000 -1.2389090255E+002 -5.5459324677E+001 +1.2408316363E+002 -8.4483268834E+001 -9.0844389075E-001 -2.0381419217E+001 -9.0210107944E+001
14090000000.000 -8.4046627300E+000 -1.2374111734E+002 -5.5586603285E+001 +8.7986051270E+001 -9.5655098442E+001 -1.6715672288E+002 -2.2603538941E+001 -7.2519286235E+001
14222500000.000 -8.3660570038E+000 -1.2369260870E+002 -5.5969807419E+001 +6.5001397501E+001 -7.9839712816E+001 +9.1588522022E+001 -2.1260602323E+001 -5.9600952606E+001
14355000000.000 -8.2618834354E+000 -1.2430022182E+002 -5.5679422395E+001 +3.1864499990E+001 -7.8531045389E+001 -3.4508894287E+001 -2.2549049419E+001 -6.3280269339E+001
14487500000.000 -8.2421870954E+000 -1.2446607332E+002 -5.5768694399E+001 -6.3995041589E-001 -8.9332127504E+001 +3.4531699654E+001 -2.5372135666E+001 -4.0075674167E+001
14620000000.000 -8.2025317839E+000 -1.2415391511E+002 -5.5627010679E+001 -3.5547036201E+001 -9.2099100991E+001 +4.0883531841E+001 -2.3296007336E+001 -2.8203831382E+001
14752500000.000 -8.0413454613E+000 -1.2424453143E+002 -5.6514758101E+001 -8.5807686989E+001 -7.6754170162E+001 -3.9989318683E+001 -2.5529220743E+001 -3.5902396969E+001
14885000000.000 -7.9854878909E+000 -1.2454138086E+002 -5.5992894052E+001 -1.1849980143E+002 -8.5532463097E+001 +2.7196732082E+001 -2.8584065192E+001 +2.5228386892E+000
15017500000.000 -7.9310723463E+000 -1.2418738066E+002 -5.6666376518E+001 -1.5730120963E+002 -8.3298057483E+001 +1.0838956057E+002 -2.5416147074E+001 +7.5344220958E+000
15150000000.000 -7.8566181731E+000 -1.2404593736E+002 -5.6753094838E+001 +1.7121917713E+002 -8.7090043996E+001 +5.4503855930E+001 -2.9467770383E+001 -1.8433135410E+000
15282500000.000 -7.8034499803E+000 -1.2395742445E+002 -5.6636073135E+001 +1.4138400443E+002 -7.8910327035E+001 -1.3012546603E+002 -3.0662804835E+001 +5.7672985873E+001
