!  2-Port S-parameters saved by WinCal
! VAR MeasName=S-Parameters (CALIBRATED_DATA) read from VNA (C)
! VAR MeasDate=9/29/2015 3:07:02 PM
! VAR NAME=M6082_18_15_2_2_20C_15.0mA_-16.5dBm
! VAR FILENAME=M6082_18_15_2_2_20C_15.0mA_-16.5dBm.S2P
! VAR DATE=9/29/2015 3:07:02 PM
! VAR PHYS_PORTS=2,1
! VAR ObjTypeName=DATASET
! VAR IndexType=Frequency
!
# Hz S DB R 50
45000000.000 -2.0267372133E+001 -1.7849641841E+002 -5.1626502521E+001 +1.2390390258E+002 -5.6556052119E+001 -3.7594924224E+001 -3.0912320730E+001 +5.6634221388E+000
177500000.000 -2.0233314647E+001 -1.7827095981E+002 -5.6757114380E+001 +6.3521164743E+001 -8.3294173040E+001 -8.4051068917E+001 -3.2665899609E+001 +4.6239011617E+001
310000000.000 -2.0277142080E+001 -1.7622209968E+002 -5.6451527593E+001 +5.0292655960E+001 -8.4765721769E+001 -4.2914776492E+001 -2.3348157635E+001 +6.4174388967E+001
442500000.000 -2.0317269395E+001 -1.7429594846E+002 -5.5449189699E+001 -1.5149372467E+000 -8.3630240399E+001 -1.0671445943E+002 -2.2406614626E+001 +1.7022382475E+001
575000000.000 -2.0304601618E+001 -1.7184364690E+002 -5.6580853453E+001 -2.9339682095E+001 -8.4354518119E+001 +1.1557613621E+002 -3.0611247282E+001 +2.2139130129E+001
707500000.000 -2.0235202751E+001 -1.6968852524E+002 -5.6344083463E+001 -7.0410116544E+001 -9.2810702525E+001 -8.7704542946E+001 -3.4670303837E+001 +8.3409239027E+001
840000000.000 -2.0220780344E+001 -1.6744128222E+002 -5.6707426371E+001 -9.8564170517E+001 -8.1809225304E+001 -9.5465503896E+001 -2.9661436641E+001 +1.2785443222E+002
972500000.000 -2.0188255901E+001 -1.6516253360E+002 -5.6185089717E+001 -1.3140997590E+002 -8.1845789454E+001 +3.8952107986E+001 -2.5913889884E+001 +1.3493435513E+002
1105000000.000 -2.0052328115E+001 -1.6263246450E+002 -5.6585437779E+001 -1.6876962862E+002 -8.4093390840E+001 +1.0561590424E+002 -2.4387101441E+001 +1.4062547762E+002
1237500000.000 -1.9941806211E+001 -1.6065739234E+002 -5.6464736292E+001 +1.5134128210E+002 -8.5057817652E+001 +3.5250737121E+001 -2.3383906453E+001 +1.5006700519E+002
1370000000.000 -1.9781349204E+001 -1.5860426591E+002 -5.6737242981E+001 +1.2045567376E+002 -8.8268068473E+001 +1.3569892086E+002 -2.2055778336E+001 +1.5985624312E+002
1502500000.000 -1.9663996110E+001 -1.5672051177E+002 -5.6859737124E+001 +7.9422578950E+001 -9.7100360811E+001 -1.0268196804E+002 -2.0860591935E+001 +1.6624763429E+002
1635000000.000 -1.9533310704E+001 -1.5450584252E+002 -5.6909646455E+001 +4.9766451754E+001 -8.4223920770E+001 -1.2521089382E+001 -2.0015267138E+001 +1.7323183518E+002
1767500000.000 -1.9355748893E+001 -1.5262899077E+002 -5.6853440420E+001 +1.6618410990E+001 -9.0495035676E+001 +3.7980740107E+001 -1.9002542206E+001 +1.7833376155E+002
1900000000.000 -1.9290670402E+001 -1.5132748862E+002 -5.6218882968E+001 -5.6373729984E+000 -8.7883723965E+001 -1.4364008068E+002 -1.8866688550E+001 -1.7837881791E+002
2032500000.000 -1.9149543237E+001 -1.4978807061E+002 -5.6644620739E+001 -3.6658706285E+001 -8.5186923022E+001 +3.4424733343E+001 -1.8671008951E+001 -1.6810042653E+002
2165000000.000 -1.8989556669E+001 -1.4762132608E+002 -5.6110700711E+001 -7.0799662144E+001 -8.3739529546E+001 +5.4857503992E+001 -1.7744776092E+001 -1.6117960558E+002
2297500000.000 -1.8814935423E+001 -1.4633690540E+002 -5.6024163757E+001 -1.0502258548E+002 -9.8142190408E+001 +2.5899310482E+001 -1.7245555294E+001 -1.5719182468E+002
2430000000.000 -1.8684007203E+001 -1.4500844145E+002 -5.5738093979E+001 -1.3594030566E+002 -7.9544914695E+001 -1.0415168769E+002 -1.6912400868E+001 -1.5301569884E+002
2562500000.000 -1.8475297220E+001 -1.4342240838E+002 -5.5496967359E+001 -1.6814967397E+002 -7.4733218621E+001 +3.4180127323E+001 -1.6834082869E+001 -1.5079175666E+002
2695000000.000 -1.8229513883E+001 -1.4273649710E+002 -5.5785114515E+001 +1.5187607283E+002 -7.9140568689E+001 +1.1943073787E+002 -1.7397588851E+001 -1.4734506648E+002
2827500000.000 -1.8088688211E+001 -1.4244744900E+002 -5.5864870030E+001 +1.2159429866E+002 -8.2891182553E+001 -1.0066410052E+002 -1.7834812320E+001 -1.4030740549E+002
2960000000.000 -1.7950420357E+001 -1.4106816939E+002 -5.5998274363E+001 +8.3763774223E+001 -7.7836096143E+001 +2.7401393920E+001 -1.8122084752E+001 -1.3588025489E+002
3092500000.000 -1.7683697096E+001 -1.3992564592E+002 -5.6133431592E+001 +5.2135763434E+001 -8.8896278332E+001 -1.5749764828E+002 -1.9121631672E+001 -1.2966190702E+002
3225000000.000 -1.7416756002E+001 -1.3966564423E+002 -5.6180749561E+001 +1.5270555548E+001 -8.3334980565E+001 -1.4050235560E+002 -1.9580448961E+001 -1.1963070629E+002
3357500000.000 -1.7302184727E+001 -1.3925099808E+002 -5.5981581705E+001 -1.5703204325E+001 -9.2789788129E+001 -7.8575542736E+001 -1.9890289334E+001 -1.1464686316E+002
3490000000.000 -1.7075963289E+001 -1.3821466678E+002 -5.6267337267E+001 -4.9099834345E+001 -7.5498415513E+001 +1.2823933202E+002 -2.1156184858E+001 -1.0914558219E+002
3622500000.000 -1.6814578002E+001 -1.3711895583E+002 -5.5932475764E+001 -8.9371388144E+001 -7.7667010857E+001 -6.8053153147E+001 -2.1960369927E+001 -9.8165352233E+001
3755000000.000 -1.6562907813E+001 -1.3655563482E+002 -5.6382760793E+001 -1.2602091655E+002 -7.6662552567E+001 +1.4538794799E+002 -2.2634368387E+001 -9.4952431755E+001
3887500000.000 -1.6379062799E+001 -1.3598507370E+002 -5.6112040204E+001 -1.6031974692E+002 -8.0392618845E+001 +3.8368944447E+001 -2.5021536700E+001 -8.9070676389E+001
4020000000.000 -1.6228120340E+001 -1.3538842644E+002 -5.7000358240E+001 +1.6453982346E+002 -8.7919710560E+001 +1.4658028740E+002 -2.6715113146E+001 -7.3613933563E+001
4152500000.000 -1.6010417128E+001 -1.3433609307E+002 -5.6450901464E+001 +1.3030539479E+002 -7.9382126516E+001 +6.0609435660E+001 -2.8773711818E+001 -6.5110006463E+001
4285000000.000 -1.5776159802E+001 -1.3371219067E+002 -5.6785524014E+001 +9.5973695889E+001 -8.3572618143E+001 +1.0274502772E+002 -3.3379303529E+001 -3.9742565315E+001
4417500000.000 -1.5598392765E+001 -1.3354456426E+002 -5.6874443891E+001 +6.2661218265E+001 -9.0867723563E+001 -1.7044203266E+002 -3.1862602015E+001 +7.7273639592E+000
4550000000.000 -1.5485507956E+001 -1.3270909609E+002 -5.7604389905E+001 +2.8671689657E+001 -7.7909047762E+001 -8.3989237662E+001 -3.0320110313E+001 +1.7198948987E+001
4682500000.000 -1.5282289989E+001 -1.3183092696E+002 -5.7615551857E+001 -4.1222278512E+000 -8.6847469036E+001 +7.8870546379E+001 -2.9768452862E+001 +3.7782167293E+001
4815000000.000 -1.5057524000E+001 -1.3161052370E+002 -5.7461012803E+001 -4.1977168883E+001 -8.6568669661E+001 +9.3539746312E+001 -2.7687773647E+001 +4.0574582123E+001
4947500000.000 -1.4950038866E+001 -1.3106866624E+002 -5.7606244348E+001 -7.2475082190E+001 -8.2482772856E+001 +1.7635579940E+002 -2.9424447996E+001 +3.4460633263E+001
5080000000.000 -1.4818388776E+001 -1.3025558356E+002 -5.7573476068E+001 -1.0583932163E+002 -8.9781973724E+001 -2.6846913465E+001 -3.2353833177E+001 +5.6059196306E+001
5212500000.000 -1.4608908705E+001 -1.2969003312E+002 -5.7826868876E+001 -1.3930150523E+002 -9.3357421357E+001 +8.9977646973E+001 -3.1642900676E+001 +6.8184246507E+001
5345000000.000 -1.4494040967E+001 -1.2958376599E+002 -5.7488631764E+001 -1.7037916097E+002 -8.5824051839E+001 +1.1773162000E+002 -3.5510090856E+001 +6.8889028088E+001
5477500000.000 -1.4413159779E+001 -1.2891241959E+002 -5.7671462302E+001 +1.4995997096E+002 -8.2175498693E+001 +1.7288596490E+001 -3.7613062543E+001 +1.3259523709E+002
5610000000.000 -1.4262980062E+001 -1.2819286665E+002 -5.7630308548E+001 +1.2072969006E+002 -8.6701556685E+001 +2.5190802628E+001 -3.3743679772E+001 +1.3485146825E+002
5742500000.000 -1.4123496705E+001 -1.2815622809E+002 -5.7213709079E+001 +8.7206271422E+001 -8.6846377728E+001 -1.1593413757E+002 -3.8237137082E+001 +1.5165332497E+002
5875000000.000 -1.4046656122E+001 -1.2812110234E+002 -5.7643224819E+001 +5.1538615078E+001 -8.5130819006E+001 -4.3779270112E+001 -3.3932521616E+001 -1.6942658343E+002
6007500000.000 -1.3987623315E+001 -1.2779228477E+002 -5.7700429611E+001 +1.6584025275E+001 -9.0888451267E+001 +8.2600020179E+001 -3.2756834364E+001 +1.7943750358E+002
6140000000.000 -1.3827765840E+001 -1.2727197573E+002 -5.7973395444E+001 -1.6993768876E+001 -9.1966246095E+001 -1.6971351265E+002 -3.6427607577E+001 -1.7075559141E+002
6272500000.000 -1.3661874635E+001 -1.2749869973E+002 -5.7122476248E+001 -5.1201949034E+001 -8.4517538266E+001 -9.5879047128E+001 -3.4135455959E+001 -1.4352843145E+002
6405000000.000 -1.3600426484E+001 -1.2799481649E+002 -5.7610471097E+001 -8.5307870567E+001 -8.9894806651E+001 -2.4579993956E+001 -3.3900483881E+001 -1.6163439887E+002
6537500000.000 -1.3531086041E+001 -1.2743823680E+002 -5.7683411260E+001 -1.2254742346E+002 -8.8976146255E+001 +7.2779285624E+001 -4.0118755503E+001 -1.6284127240E+002
6670000000.000 -1.3335209235E+001 -1.2702859894E+002 -5.7541357528E+001 -1.5080568512E+002 -8.5480240927E+001 -8.5003501378E+001 -3.9900913609E+001 -1.3882944769E+002
6802500000.000 -1.3131408094E+001 -1.2746778908E+002 -5.7835262708E+001 +1.7301694761E+002 -1.0228882826E+002 -6.1644916952E+001 -3.9292857887E+001 +1.7888676920E+002
6935000000.000 -1.3102598448E+001 -1.2793372863E+002 -5.7818607800E+001 +1.3807192879E+002 -8.8932633021E+001 +1.3099009020E+002 -3.8539493266E+001 +1.2403207811E+002
7067500000.000 -1.3004369216E+001 -1.2723912679E+002 -5.8330928934E+001 +1.0805086174E+002 -8.4577686566E+001 -1.1011701137E+002 -3.8345597793E+001 +1.1534295352E+002
7200000000.000 -1.2789665475E+001 -1.2691144587E+002 -5.8318275541E+001 +7.4460073133E+001 -9.0541220263E+001 +5.9496393634E+001 -3.2775442317E+001 +1.2982810630E+002
7332500000.000 -1.2635933066E+001 -1.2746047765E+002 -5.8352520881E+001 +4.1686091773E+001 -9.8620834904E+001 -6.8587903136E+001 -2.9175177124E+001 +1.1931101671E+002
7465000000.000 -1.2564841823E+001 -1.2743486200E+002 -5.8367342741E+001 +4.0926735312E+000 -8.5323681714E+001 -5.3969295583E+001 -2.8513246240E+001 +1.2361818332E+002
7597500000.000 -1.2430365010E+001 -1.2697888534E+002 -5.7884828486E+001 -2.9772772470E+001 -8.5489794611E+001 -3.1654199671E+001 -2.6012000018E+001 +1.3703846507E+002
7730000000.000 -1.2232927081E+001 -1.2680161308E+002 -5.8684907198E+001 -6.2371606637E+001 -8.5006337203E+001 +1.4877795512E+002 -2.3778733554E+001 +1.3760841721E+002
7862500000.000 -1.2119803392E+001 -1.2685295918E+002 -5.8077625643E+001 -9.3376747101E+001 -8.1076868355E+001 +1.5767453648E+002 -2.3270812876E+001 +1.4212292121E+002
7995000000.000 -1.2055672386E+001 -1.2657039931E+002 -5.8244263980E+001 -1.2663887878E+002 -8.4847230959E+001 +1.8647261999E-001 -2.1767565245E+001 +1.5418375316E+002
8127500000.000 -1.1863807699E+001 -1.2590910106E+002 -5.7690037178E+001 -1.6075961387E+002 -8.4817809007E+001 -3.8401787578E+001 -2.0047645132E+001 +1.5629323130E+002
8260000000.000 -1.1744570267E+001 -1.2622031577E+002 -5.7375146228E+001 +1.6654786229E+002 -9.2003461917E+001 +1.2061240961E+002 -1.9857543835E+001 +1.6041386364E+002
8392500000.000 -1.1672755326E+001 -1.2580731033E+002 -5.7699542138E+001 +1.3242166964E+002 -8.4375366304E+001 +9.5494269169E+000 -1.9046676474E+001 +1.7037991220E+002
8525000000.000 -1.1580202598E+001 -1.2529114263E+002 -5.7672615695E+001 +9.8458170344E+001 -8.2363466995E+001 +5.7970856537E+001 -1.8227561158E+001 +1.7294240602E+002
8657500000.000 -1.1446061049E+001 -1.2505007156E+002 -5.7016952717E+001 +6.3477199144E+001 -8.0631640887E+001 +1.5856943180E+002 -1.8563895205E+001 +1.7807109766E+002
8790000000.000 -1.1341829836E+001 -1.2491166485E+002 -5.7392115621E+001 +2.9870999636E+001 -8.5812018907E+001 +5.7002259006E+000 -1.8342594215E+001 -1.7191127307E+002
8922500000.000 -1.1306251158E+001 -1.2487948237E+002 -5.7347962294E+001 -3.6362993603E+000 -8.9778487461E+001 +3.3496173147E+001 -1.8024778508E+001 -1.6594644318E+002
9055000000.000 -1.1225450671E+001 -1.2437923844E+002 -5.6789892118E+001 -3.9258356742E+001 -8.3431757257E+001 +1.1643893350E+002 -1.8424819184E+001 -1.5816439682E+002
9187500000.000 -1.1142567717E+001 -1.2435082716E+002 -5.7401622842E+001 -7.4371115636E+001 -9.9141232757E+001 +1.1497382087E+002 -1.8370224123E+001 -1.4665614606E+002
9320000000.000 -1.1054901283E+001 -1.2480008875E+002 -5.6949913842E+001 -1.0970297999E+002 -8.5552129254E+001 -3.2919924903E+001 -1.8258699945E+001 -1.3958960457E+002
9452500000.000 -1.1013292317E+001 -1.2471765147E+002 -5.7029074158E+001 -1.4104393162E+002 -9.4134885892E+001 +1.4587748408E+000 -1.8809667602E+001 -1.3023624640E+002
9585000000.000 -1.0937335197E+001 -1.2453144257E+002 -5.7115414574E+001 -1.7790474744E+002 -1.0424528142E+002 -2.9748118362E+001 -1.8769073807E+001 -1.1859971124E+002
9717500000.000 -1.0797375805E+001 -1.2471259499E+002 -5.7307497431E+001 +1.4897094818E+002 -8.3013232142E+001 -2.2456343676E+001 -1.8890435826E+001 -1.1113915501E+002
9850000000.000 -1.0745273540E+001 -1.2541266367E+002 -5.7438247955E+001 +1.1512181409E+002 -8.4008657686E+001 +1.2626002725E+002 -1.9613677737E+001 -1.0006344544E+002
9982500000.000 -1.0693905370E+001 -1.2509591612E+002 -5.6917301206E+001 +8.0484921800E+001 -8.3281307478E+001 -1.7120837806E+002 -1.9638738615E+001 -8.6834591022E+001
10115000000.000 -1.0578707068E+001 -1.2498269956E+002 -5.7194077262E+001 +4.7330996179E+001 -8.9489813832E+001 -1.2976767787E+002 -1.9990222897E+001 -7.9199157742E+001
10247500000.000 -1.0450408775E+001 -1.2545170102E+002 -5.6977220403E+001 +1.2975277635E+001 -9.0451473566E+001 +1.3939446395E+002 -2.1130154616E+001 -6.5411417484E+001
10380000000.000 -1.0404008875E+001 -1.2580399874E+002 -5.7604236215E+001 -2.3806431739E+001 -8.9564502332E+001 +1.4934974113E+002 -2.0996648675E+001 -5.0158647691E+001
10512500000.000 -1.0337343828E+001 -1.2577506612E+002 -5.7155868047E+001 -5.6152230550E+001 -8.6375209538E+001 -1.4008674841E+000 -2.1585628604E+001 -4.2144866652E+001
10645000000.000 -1.0236260674E+001 -1.2564765036E+002 -5.6991266142E+001 -9.0954076524E+001 -8.1971070041E+001 +1.0462019796E+002 -2.2812678843E+001 -2.3356888760E+001
10777500000.000 -1.0121573395E+001 -1.2598223150E+002 -5.7011648487E+001 -1.2801023865E+002 -8.7047361800E+001 +4.3075058820E+001 -2.2125979876E+001 -6.0947834873E+000
10910000000.000 -1.0031134094E+001 -1.2626502497E+002 -5.6848383452E+001 -1.5962553745E+002 -7.9510196163E+001 -1.3567047924E+002 -2.2822982097E+001 +4.0144933400E+000
11042500000.000 -9.9467812782E+000 -1.2634616372E+002 -5.7066108617E+001 +1.6831071309E+002 -8.4224130781E+001 +1.9269241117E+001 -2.3445990818E+001 +2.7996112108E+001
11175000000.000 -9.8336702937E+000 -1.2616795545E+002 -5.7662576568E+001 +1.3095960441E+002 -8.6519502328E+001 +6.9434958865E+001 -2.2229628740E+001 +4.2698929919E+001
11307500000.000 -9.7505394319E+000 -1.2618162701E+002 -5.7382442059E+001 +9.8196203907E+001 -8.5721330874E+001 -1.5456750812E+002 -2.2771574718E+001 +5.3168594440E+001
11440000000.000 -9.6626271783E+000 -1.2647843958E+002 -5.7180780689E+001 +6.3757309390E+001 -8.8198178682E+001 -2.5512632858E+001 -2.2546468502E+001 +7.5732070176E+001
11572500000.000 -9.5510117737E+000 -1.2606597784E+002 -5.6766701170E+001 +2.8787593023E+001 -8.2184179698E+001 +8.4383628434E+001 -2.1171611235E+001 +8.6899394076E+001
11705000000.000 -9.4831225180E+000 -1.2609881017E+002 -5.7516053771E+001 -6.3605917852E+000 -8.2714287345E+001 +1.7247186841E+002 -2.1767549418E+001 +9.7263244741E+001
11837500000.000 -9.3867438913E+000 -1.2610010536E+002 -5.6994035018E+001 -4.2393791799E+001 -8.7276546968E+001 -6.4444291558E+001 -2.1069719341E+001 +1.1908101653E+002
11970000000.000 -9.3597447561E+000 -1.2602133120E+002 -5.6488354407E+001 -7.5098535946E+001 -8.4930835178E+001 +7.7348868141E+001 -1.9867076400E+001 +1.2527945068E+002
12102500000.000 -9.3151134346E+000 -1.2576400596E+002 -5.7174696194E+001 -1.1072898846E+002 -8.5414634546E+001 -1.4171822437E+002 -2.0748550248E+001 +1.3594510004E+002
12235000000.000 -9.2155772014E+000 -1.2584481997E+002 -5.7714204069E+001 -1.4462068932E+002 -1.0387067276E+002 +1.5250427823E+002 -1.9688702585E+001 +1.5424599539E+002
12367500000.000 -9.2069748983E+000 -1.2586299682E+002 -5.7586352255E+001 -1.7934300270E+002 -8.8563681196E+001 -2.4269481652E+001 -1.8939264390E+001 +1.5748087262E+002
12500000000.000 -9.1718299023E+000 -1.2619884686E+002 -5.7785404232E+001 +1.4337040584E+002 -8.7229117632E+001 -1.6063181091E+002 -2.0070590640E+001 +1.6889101355E+002
12632500000.000 -9.1079823982E+000 -1.2598170083E+002 -5.7873382357E+001 +1.0937256002E+002 -8.5689584740E+001 -6.9091415693E+001 -1.9053788033E+001 -1.7330287365E+002
12765000000.000 -9.0453132207E+000 -1.2603465760E+002 -5.7538551394E+001 +7.6842847622E+001 -8.0399554821E+001 +7.9958618228E+001 -1.8577552381E+001 -1.7183604715E+002
12897500000.000 -9.0393503254E+000 -1.2635257391E+002 -5.8099743402E+001 +4.2038713069E+001 -7.9806185824E+001 +1.4153350233E+002 -2.0164529258E+001 -1.5868502316E+002
13030000000.000 -9.0106373644E+000 -1.2639720918E+002 -5.8234844005E+001 +8.9239429343E+000 -9.3133535751E+001 -7.6372933857E+001 -1.8727111092E+001 -1.4167451136E+002
13162500000.000 -8.9345337238E+000 -1.2646931990E+002 -5.8623144372E+001 -2.5343680650E+001 -8.2430977245E+001 -1.4945786961E+001 -1.8683174584E+001 -1.4223604369E+002
13295000000.000 -8.8737909510E+000 -1.2653962427E+002 -5.8381329213E+001 -5.9622981986E+001 -8.8842672147E+001 +4.7166474682E+001 -2.0085925641E+001 -1.2736038561E+002
13427500000.000 -8.8378563905E+000 -1.2689795156E+002 -5.8391357600E+001 -8.9057832167E+001 -8.8359161744E+001 -1.6242297021E+002 -1.8759843440E+001 -1.1422472140E+002
13560000000.000 -8.8462533653E+000 -1.2669463288E+002 -5.8611738093E+001 -1.2432661177E+002 -8.2971249548E+001 -6.6915047598E+001 -1.9049397389E+001 -1.1509299413E+002
13692500000.000 -8.7523891194E+000 -1.2673148033E+002 -5.8833254147E+001 -1.5882014696E+002 -8.6927560835E+001 -1.7063973213E+002 -2.0857509953E+001 -1.0108425353E+002
13825000000.000 -8.6791542171E+000 -1.2698625579E+002 -5.9612037130E+001 +1.6598039064E+002 -7.8577368707E+001 -1.2648938099E+002 -1.9691824418E+001 -8.7632497855E+001
13957500000.000 -8.6716345203E+000 -1.2742841640E+002 -5.8079965082E+001 +1.3352951212E+002 -8.0254452846E+001 -1.1715579959E+002 -2.0390082593E+001 -9.0203459400E+001
14090000000.000 -8.6493987740E+000 -1.2721825351E+002 -5.9007977456E+001 +9.9793380617E+001 -7.9803837282E+001 +1.3283925437E+002 -2.2616224862E+001 -7.2539365738E+001
14222500000.000 -8.5697391271E+000 -1.2704201568E+002 -5.9113008466E+001 +6.3178451668E+001 -8.2833844156E+001 -1.0189292346E+002 -2.1280432288E+001 -5.9623963210E+001
14355000000.000 -8.4655691356E+000 -1.2758215380E+002 -5.8458956352E+001 +3.5829409541E+001 -9.3232416779E+001 +1.2683611274E+002 -2.2554627773E+001 -6.3314273840E+001
14487500000.000 -8.4393728763E+000 -1.2770013949E+002 -5.8675668577E+001 -8.2768952034E+000 -8.5140594915E+001 +5.1117586135E+001 -2.5355517241E+001 -3.9973025582E+001
14620000000.000 -8.4035589216E+000 -1.2735300660E+002 -5.8694989014E+001 -3.4673872744E+001 -8.2562337356E+001 +1.2838289159E+002 -2.3308434655E+001 -2.8378644604E+001
14752500000.000 -8.2775599825E+000 -1.2732790948E+002 -5.8319355368E+001 -7.2133744978E+001 -8.4628673196E+001 -1.2510687468E+002 -2.5523323255E+001 -3.5973653344E+001
14885000000.000 -8.2164469213E+000 -1.2755706100E+002 -5.8754066839E+001 -1.0597628333E+002 -8.6739150678E+001 -7.1586313382E+001 -2.8595247581E+001 +2.5172629465E+000
15017500000.000 -8.1676053005E+000 -1.2716139581E+002 -5.8628460195E+001 -1.3840654178E+002 -8.1369521523E+001 +1.0397745310E+002 -2.5417266823E+001 +7.4469675626E+000
15150000000.000 -8.0899987679E+000 -1.2692581457E+002 -5.8670042299E+001 -1.7474455381E+002 -8.5146478295E+001 -1.2785737856E+002 -2.9443560092E+001 -1.9581781811E+000
15282500000.000 -8.0368098868E+000 -1.2680373627E+002 -5.8797928367E+001 +1.5135987431E+002 -7.7977946731E+001 -3.0870947381E+001 -3.0614795667E+001 +5.7979872335E+001
