!  2-Port S-parameters saved by WinCal
! VAR MeasName=S-Parameters (CALIBRATED_DATA) read from VNA (C)
! VAR MeasDate=9/29/2015 3:44:09 PM
! VAR NAME=M6082_18_15_2_2_20C_10.0mA_-17.5dBm 4
! VAR FILENAME=M6082_18_15_2_2_20C_10.0mA_-17.5dBm 4.S2P
! VAR DATE=9/29/2015 3:44:09 PM
! VAR PHYS_PORTS=2,1
! VAR ObjTypeName=DATASET
! VAR IndexType=Frequency
!
# Hz S DB R 50
45000000.000 -2.5527114183E+001 -1.7917399351E+002 -6.2665974210E+001 +1.5845374053E+002 -6.9379684377E+001 +2.3976271692E+001 -3.0331917982E+001 +5.5324972919E+000
177500000.000 -2.5575115597E+001 -1.7532085131E+002 -5.7474613353E+001 +7.4402899221E+001 -7.2353029054E+001 +1.2112524330E+002 -3.2719976503E+001 +4.6308597440E+001
310000000.000 -2.5151565902E+001 -1.7142493807E+002 -5.5985439048E+001 +3.4200190479E+001 -7.9190051296E+001 +7.4850272015E+001 -2.3353298899E+001 +6.4363226485E+001
442500000.000 -2.5072461841E+001 -1.6722335523E+002 -5.4383924666E+001 -3.3453614183E-001 -8.1929050949E+001 -3.7846594221E-001 -2.2399754753E+001 +1.6963345617E+001
575000000.000 -2.5254696728E+001 -1.6071892575E+002 -5.5264644011E+001 -3.5584859427E+001 -1.0578809480E+002 +6.0755162522E+001 -3.0637682051E+001 +2.2252387619E+001
707500000.000 -2.4969572711E+001 -1.5713731927E+002 -5.5334167376E+001 -6.6283314134E+001 -1.0006693836E+002 -1.6289153843E+002 -3.4628374283E+001 +8.3775873720E+001
840000000.000 -2.4673363141E+001 -1.5250079304E+002 -5.4989528707E+001 -1.0254878060E+002 -9.2744530654E+001 +5.3356456931E+001 -2.9640088645E+001 +1.2779763242E+002
972500000.000 -2.4373694278E+001 -1.4883778081E+002 -5.5248749529E+001 -1.3808138652E+002 -8.3130979189E+001 +8.7755876601E+001 -2.5916891288E+001 +1.3510079209E+002
1105000000.000 -2.3931864506E+001 -1.4526082840E+002 -5.5577071802E+001 -1.7204201580E+002 -9.4043411518E+001 -7.9321565956E+001 -2.4392404191E+001 +1.4073966227E+002
1237500000.000 -2.3562814342E+001 -1.4270023149E+002 -5.5901863725E+001 +1.5479093844E+002 -9.3507359632E+001 +1.4121432021E+001 -2.3394223293E+001 +1.5013029542E+002
1370000000.000 -2.2974154372E+001 -1.4217644603E+002 -5.5445272173E+001 +1.2134475899E+002 -8.2591150186E+001 +5.9776689799E+001 -2.2055922905E+001 +1.5985884308E+002
1502500000.000 -2.2797768129E+001 -1.3762750025E+002 -5.5779222832E+001 +8.5704248001E+001 -8.5877527956E+001 +1.5854870429E+002 -2.0866395684E+001 +1.6631283815E+002
1635000000.000 -2.2282492828E+001 -1.3709788584E+002 -5.5250794797E+001 +5.7761827646E+001 -9.1267069373E+001 -6.8559337891E+001 -2.0020003950E+001 +1.7327224570E+002
1767500000.000 -2.1941046126E+001 -1.3284378477E+002 -5.5488021820E+001 +1.7365294888E+001 -8.7352800441E+001 -1.3837658589E+002 -1.9013506549E+001 +1.7840777626E+002
1900000000.000 -2.1629000339E+001 -1.3124445881E+002 -5.6404183669E+001 -1.8130129957E+001 -8.7452763724E+001 -1.2861145740E+002 -1.8862419729E+001 -1.7833357910E+002
2032500000.000 -2.1277964302E+001 -1.2966746081E+002 -5.6344721543E+001 -4.8904555766E+001 -9.5302698434E+001 -1.0213685712E+002 -1.8669752428E+001 -1.6801591814E+002
2165000000.000 -2.0879986090E+001 -1.2754956830E+002 -5.5845592514E+001 -8.4128274163E+001 -8.9598376142E+001 +3.5459013953E+001 -1.7746683107E+001 -1.6114859268E+002
2297500000.000 -2.0558376418E+001 -1.2662749566E+002 -5.6489155694E+001 -1.1871052269E+002 -7.9776231527E+001 +1.1069968852E+002 -1.7239495245E+001 -1.5717066649E+002
2430000000.000 -2.0305242584E+001 -1.2539688410E+002 -5.6231142636E+001 -1.4900588286E+002 -7.8082754292E+001 -2.1020429195E+001 -1.6902362192E+001 -1.5295323003E+002
2562500000.000 -1.9937384422E+001 -1.2397654404E+002 -5.6060603168E+001 -1.7976782371E+002 -7.6383218640E+001 +1.0168699281E+002 -1.6831515280E+001 -1.5074905507E+002
2695000000.000 -1.9592505134E+001 -1.2397985250E+002 -5.6179556709E+001 +1.4803192510E+002 -7.6466237666E+001 +1.5223378221E+002 -1.7403273155E+001 -1.4733450372E+002
2827500000.000 -1.9471588612E+001 -1.2573372514E+002 -5.6091558024E+001 +1.0695975839E+002 -7.9986375872E+001 -1.7673340258E+002 -1.7832947866E+001 -1.4041270206E+002
2960000000.000 -1.9209224023E+001 -1.2460605331E+002 -5.5222394935E+001 +7.5593892585E+001 -8.1415720050E+001 +1.3262385567E+001 -1.8127438944E+001 -1.3585089570E+002
3092500000.000 -1.8708597424E+001 -1.2217270874E+002 -5.6323213303E+001 +4.1528231012E+001 -8.6467438136E+001 +1.5633845496E+002 -1.9128503034E+001 -1.2959167608E+002
3225000000.000 -1.8489741144E+001 -1.2409813716E+002 -5.5742713364E+001 +8.1777322167E+000 -7.7223724241E+001 -7.4147887707E+001 -1.9581246567E+001 -1.1956662776E+002
3357500000.000 -1.8310468722E+001 -1.2395555721E+002 -5.5476601695E+001 -2.9435113468E+001 -7.6877350140E+001 -1.4498774086E+001 -1.9900380535E+001 -1.1467267102E+002
3490000000.000 -1.7836518898E+001 -1.2178396914E+002 -5.6326490904E+001 -6.6572265193E+001 -8.1215595541E+001 +7.9567353527E+001 -2.1162627428E+001 -1.0927412689E+002
3622500000.000 -1.7475281497E+001 -1.2133093871E+002 -5.5867648205E+001 -9.9977983559E+001 -8.3493455484E+001 -8.4614884416E+001 -2.1961122594E+001 -9.8226951112E+001
3755000000.000 -1.7146218571E+001 -1.2131647850E+002 -5.6131263678E+001 -1.3489481348E+002 -8.5495698165E+001 -3.2173000189E+001 -2.2620965063E+001 -9.4840955603E+001
3887500000.000 -1.6903139304E+001 -1.2123930068E+002 -5.6138094285E+001 -1.6710810723E+002 -8.2906016307E+001 +9.0420539294E+001 -2.5032351663E+001 -8.8815895847E+001
4020000000.000 -1.6700270224E+001 -1.2096016744E+002 -5.6553788590E+001 +1.5679236259E+002 -7.8537254631E+001 -1.6074485224E+002 -2.6727132567E+001 -7.3598016598E+001
4152500000.000 -1.6402199582E+001 -1.2031819621E+002 -5.6938231439E+001 +1.2664952481E+002 -1.0332329211E+002 +2.1391369673E+001 -2.8754282125E+001 -6.5090187788E+001
4285000000.000 -1.6120481392E+001 -1.2015940731E+002 -5.6211243507E+001 +9.0234030244E+001 -7.9847249493E+001 -2.5846589385E+000 -3.3402572880E+001 -3.9392476449E+001
4417500000.000 -1.5923188200E+001 -1.2033830003E+002 -5.7227427832E+001 +5.9156697523E+001 -8.7917438458E+001 -1.4876164115E+002 -3.1847032311E+001 +7.7997237598E+000
4550000000.000 -1.5923990768E+001 -1.2035090305E+002 -5.5882573649E+001 +2.6156243957E+001 -8.7500616433E+001 +1.6368087476E+002 -3.0367024379E+001 +1.7474455866E+001
4682500000.000 -1.5505283724E+001 -1.1918644861E+002 -5.7169355415E+001 -9.8104714721E+000 -8.6752921213E+001 -4.6374519600E+001 -2.9751658284E+001 +3.7872774501E+001
4815000000.000 -1.5248801655E+001 -1.1942610057E+002 -5.7368464604E+001 -4.1335657846E+001 -8.5213685234E+001 +1.6264643950E+002 -2.7701857164E+001 +4.0708462032E+001
4947500000.000 -1.5098070126E+001 -1.1908189022E+002 -5.7611691819E+001 -7.5320738904E+001 -8.9013973679E+001 -1.4073041239E+002 -2.9416475633E+001 +3.4886132965E+001
5080000000.000 -1.4911090563E+001 -1.1850229813E+002 -5.7348567555E+001 -1.1182804782E+002 -8.4025250510E+001 -9.7707628840E+000 -3.2328687692E+001 +5.6015432543E+001
5212500000.000 -1.4665256546E+001 -1.1825878483E+002 -5.7581208684E+001 -1.4346460527E+002 -8.0887789355E+001 +1.3299188237E+002 -3.1606478240E+001 +6.8499327667E+001
5345000000.000 -1.4519701794E+001 -1.1835967285E+002 -5.7533803375E+001 -1.7374015579E+002 -8.6008938034E+001 +1.4073863879E+002 -3.5499096851E+001 +6.9063428363E+001
5477500000.000 -1.4592822663E+001 -1.1823736900E+002 -5.5851050690E+001 +1.5428467428E+002 -9.0116437783E+001 -6.5001496846E+001 -3.7515888271E+001 +1.3233871874E+002
5610000000.000 -1.4193897098E+001 -1.1754495304E+002 -5.7870690229E+001 +1.1896219079E+002 -8.6016967241E+001 +6.9535848894E+001 -3.3695955942E+001 +1.3499065078E+002
5742500000.000 -1.4246447124E+001 -1.1789973170E+002 -5.5508852283E+001 +8.4663245440E+001 -9.4010478864E+001 +1.5374150053E+002 -3.8190983557E+001 +1.5172133094E+002
5875000000.000 -1.3941327483E+001 -1.1815543482E+002 -5.7645659858E+001 +5.1735118422E+001 -8.7225819494E+001 -2.1897032897E+001 -3.3880170968E+001 -1.6942215749E+002
6007500000.000 -1.4069133387E+001 -1.1781151014E+002 -5.5425869897E+001 +1.7622342459E+001 -8.7109078518E+001 +2.3449560142E+001 -3.2725195608E+001 +1.7941590031E+002
6140000000.000 -1.3886536319E+001 -1.1752055317E+002 -5.5029833362E+001 -1.8087595130E+001 -9.6827136348E+001 -5.0453552114E+001 -3.6363078397E+001 -1.7097205525E+002
6272500000.000 -1.3537116401E+001 -1.1863516012E+002 -5.7449010876E+001 -4.3701892372E+001 -8.4209884606E+001 -7.7542048675E+001 -3.4096989607E+001 -1.4367068046E+002
6405000000.000 -1.3488539059E+001 -1.1940489888E+002 -5.7353573234E+001 -7.6164690669E+001 -9.0825259256E+001 +4.4061798382E+001 -3.3897357136E+001 -1.6168401247E+002
6537500000.000 -1.3416604990E+001 -1.1913658022E+002 -5.6950900952E+001 -1.0901729876E+002 -8.7449665641E+001 +1.6471751689E+002 -4.0107423320E+001 -1.6238030803E+002
6670000000.000 -1.3220105939E+001 -1.1906646984E+002 -5.7386279588E+001 -1.4199865326E+002 -7.9017856020E+001 -1.2876847002E+002 -3.9807801309E+001 -1.3844490983E+002
6802500000.000 -1.3134799770E+001 -1.1868785448E+002 -5.5379243606E+001 +1.7039981700E+002 -9.3150798470E+001 -7.2212364240E+001 -3.9254389411E+001 +1.7889168925E+002
6935000000.000 -1.3104974772E+001 -1.1921930516E+002 -5.5858884019E+001 +1.3617238161E+002 -8.7809157219E+001 +1.6961329175E+002 -3.8614825496E+001 +1.2416685375E+002
7067500000.000 -1.2981734905E+001 -1.1868214836E+002 -5.5557144250E+001 +1.0049349045E+002 -8.2334698355E+001 +1.7504804090E+002 -3.8422914094E+001 +1.1523520034E+002
7200000000.000 -1.2701185760E+001 -1.1978629925E+002 -5.6610585922E+001 +8.2306672568E+001 -9.0339408745E+001 +1.3055806935E+000 -3.2799940722E+001 +1.2974571464E+002
7332500000.000 -1.2566267277E+001 -1.2047317337E+002 -5.6457176156E+001 +5.0131615773E+001 -8.5494269945E+001 +6.0795344464E+001 -2.9190663636E+001 +1.1907983234E+002
7465000000.000 -1.2523233039E+001 -1.1945189290E+002 -5.5675740265E+001 +2.4148939038E+000 -8.9582032791E+001 +1.5176404994E+002 -2.8527485552E+001 +1.2327504040E+002
7597500000.000 -1.2356718421E+001 -1.2026935843E+002 -5.6663594053E+001 -1.5719203042E+001 -8.1026997189E+001 -8.9452260482E+001 -2.6026035058E+001 +1.3699998249E+002
7730000000.000 -1.2166921131E+001 -1.2026550364E+002 -5.6198661004E+001 -4.8869034300E+001 -9.1507213440E+001 +1.6051643218E+002 -2.3788192109E+001 +1.3770698174E+002
7862500000.000 -1.2063006084E+001 -1.2030627756E+002 -5.5923884829E+001 -8.6227271383E+001 -9.4445385600E+001 +1.4314896345E+002 -2.3274514210E+001 +1.4206353272E+002
7995000000.000 -1.1991077367E+001 -1.2021539202E+002 -5.6139917417E+001 -1.1898462930E+002 -8.6490073663E+001 -1.0032943096E+002 -2.1766145240E+001 +1.5406623223E+002
8127500000.000 -1.1805406867E+001 -1.1972947319E+002 -5.5825100246E+001 -1.5301467083E+002 -8.7543974170E+001 +1.7506674634E+001 -2.0054768013E+001 +1.5631823032E+002
8260000000.000 -1.1644883946E+001 -1.1924882634E+002 -5.5971832533E+001 +1.6000203005E+002 -8.6881368111E+001 +1.5557398977E+002 -1.9858230746E+001 +1.6047158172E+002
8392500000.000 -1.1555058209E+001 -1.1893625077E+002 -5.5717096550E+001 +1.2690577216E+002 -9.5625761465E+001 +3.6915690660E+001 -1.9036494853E+001 +1.7041708033E+002
8525000000.000 -1.1446934395E+001 -1.1858973886E+002 -5.5424338444E+001 +9.2454952703E+001 -8.6184088917E+001 -1.5972582863E+001 -1.8231412526E+001 +1.7295902256E+002
8657500000.000 -1.1365919053E+001 -1.1911179898E+002 -5.5496826217E+001 +7.0049207925E+001 -8.5018600972E+001 +9.3673141341E+001 -1.8564260613E+001 +1.7808769979E+002
8790000000.000 -1.1261223488E+001 -1.1905336213E+002 -5.5429523271E+001 +3.5825021009E+001 -8.5672438872E+001 -1.7365075035E+002 -1.8344028750E+001 -1.7188803431E+002
8922500000.000 -1.1231572891E+001 -1.1906698147E+002 -5.5195394050E+001 +1.6383159988E+000 -9.6338588363E+001 -1.4773229779E+001 -1.8021898387E+001 -1.6594940388E+002
9055000000.000 -1.1132203276E+001 -1.1861561263E+002 -5.5249176480E+001 -3.2568505621E+001 -8.4891021388E+001 +9.9133877288E+001 -1.8429641287E+001 -1.5813592370E+002
9187500000.000 -1.1048696110E+001 -1.1862390345E+002 -5.4772322656E+001 -6.9179673593E+001 -9.2214375342E+001 -1.9126968033E+001 -1.8370205107E+001 -1.4658680163E+002
9320000000.000 -1.0884754103E+001 -1.1873676494E+002 -5.5446021324E+001 -1.1331485959E+002 -8.7958529208E+001 +3.9209814842E+001 -1.8265883034E+001 -1.3950452448E+002
9452500000.000 -1.0928220690E+001 -1.1908089972E+002 -5.4709547472E+001 -1.3542814094E+002 -9.6107456366E+001 +1.5365751775E+002 -1.8814514440E+001 -1.3016592790E+002
9585000000.000 -1.0758369562E+001 -1.1862707314E+002 -5.5523641394E+001 -1.7984701580E+002 -8.3779262256E+001 -8.7245139004E+001 -1.8769299725E+001 -1.1855732168E+002
9717500000.000 -1.0700317200E+001 -1.1920217953E+002 -5.4759499753E+001 +1.5668220288E+002 -8.9240771018E+001 +8.3010974713E+000 -1.8888804059E+001 -1.1113499359E+002
9850000000.000 -1.0569943222E+001 -1.1972071405E+002 -5.5464353688E+001 +1.0903524829E+002 -9.7346165003E+001 -1.2157324876E+002 -1.9621928747E+001 -1.0001998049E+002
9982500000.000 -1.0596443259E+001 -1.1962294118E+002 -5.4588348245E+001 +8.4432470601E+001 -8.3033075187E+001 -1.7956418398E+002 -1.9648168959E+001 -8.6744958749E+001
10115000000.000 -1.0474673087E+001 -1.1957248526E+002 -5.4936649211E+001 +5.0116072332E+001 -8.6896371767E+001 -9.3162805672E+001 -1.9985674304E+001 -7.9031563206E+001
10247500000.000 -1.0348728597E+001 -1.2011184114E+002 -5.4271339144E+001 +1.4611884586E+001 -8.4097042303E+001 +1.0221935551E+002 -2.1137182384E+001 -6.5291503848E+001
10380000000.000 -1.0296926083E+001 -1.2053690896E+002 -5.4525076369E+001 -2.0026136991E+001 -9.3067633221E+001 -6.8207065891E+001 -2.1012599382E+001 -4.9993811170E+001
10512500000.000 -1.0233260952E+001 -1.2053077220E+002 -5.4727084465E+001 -5.3374272245E+001 -8.7441831544E+001 -7.2770296808E+001 -2.1590170326E+001 -4.2003990890E+001
10645000000.000 -1.0126610003E+001 -1.2040182481E+002 -5.4359235328E+001 -8.8151584532E+001 -9.4002023540E+001 -7.3670994251E+001 -2.2817521088E+001 -2.3252179877E+001
10777500000.000 -9.9315131166E+000 -1.2095105539E+002 -5.6052695633E+001 -1.2674112479E+002 -9.1926747006E+001 +1.5535521131E+002 -2.2143126718E+001 -5.9549779384E+000
10910000000.000 -9.8442076561E+000 -1.2132375112E+002 -5.6156297920E+001 -1.5904723107E+002 -9.2641016852E+001 -6.2765002822E+001 -2.2820772674E+001 +4.2985023256E+000
11042500000.000 -9.8278630705E+000 -1.2130262133E+002 -5.3780853162E+001 +1.6965305766E+002 -8.1067935285E+001 +5.6139895959E+001 -2.3440994971E+001 +2.8195820170E+001
11175000000.000 -9.6432591861E+000 -1.2141472309E+002 -5.5506647241E+001 +1.3119396867E+002 -8.6579917411E+001 +1.4924198441E+002 -2.2234145262E+001 +4.2874760731E+001
11307500000.000 -9.6071606331E+000 -1.2130680837E+002 -5.4294096034E+001 +9.9539457421E+001 -8.6865340085E+001 -1.6321378086E+002 -2.2760508539E+001 +5.3498317456E+001
11440000000.000 -9.5174638341E+000 -1.2166883904E+002 -5.4094650432E+001 +6.4626745843E+001 -8.3622629430E+001 +4.1726474157E+001 -2.2528334736E+001 +7.6072974972E+001
11572500000.000 -9.4045924354E+000 -1.2132236515E+002 -5.3783254027E+001 +2.7643933178E+001 -8.1040208007E+001 -4.2938918434E+000 -2.1165123516E+001 +8.7036869036E+001
11705000000.000 -9.3262646878E+000 -1.2140470397E+002 -5.3976593130E+001 -6.8167407252E+000 -8.9410116174E+001 -7.9654822471E+001 -2.1771330333E+001 +9.7488025934E+001
11837500000.000 -9.1875207992E+000 -1.2178333455E+002 -5.5235574172E+001 -3.7204167579E+001 -8.6806527244E+001 -2.4110765963E+001 -2.1065581545E+001 +1.1919596347E+002
11970000000.000 -9.1827835311E+000 -1.2140654276E+002 -5.3597207918E+001 -7.7006118068E+001 -8.9746361734E+001 -1.0876766837E+002 -1.9859096586E+001 +1.2538718397E+002
12102500000.000 -9.1101137324E+000 -1.2156548732E+002 -5.5232427481E+001 -1.0851728642E+002 -9.1388571308E+001 +1.5213789537E+001 -2.0746358565E+001 +1.3609477639E+002
12235000000.000 -9.0252606989E+000 -1.2138587033E+002 -5.3847088782E+001 -1.4729741145E+002 -9.2564813849E+001 -1.0867152915E+002 -1.9680202692E+001 +1.5439690212E+002
12367500000.000 -9.0011307188E+000 -1.2180946881E+002 -5.5846486996E+001 -1.7575570758E+002 -8.6214074703E+001 +6.9746145986E+001 -1.8937742090E+001 +1.5764406071E+002
12500000000.000 -8.9633087444E+000 -1.2179653553E+002 -5.4100090893E+001 +1.4089320709E+002 -8.7047687844E+001 +1.7475554632E+002 -2.0060281416E+001 +1.6902544478E+002
12632500000.000 -8.9029363464E+000 -1.2201519793E+002 -5.5760288743E+001 +1.1655286477E+002 -8.8796826679E+001 -1.0819243534E+002 -1.9061558381E+001 -1.7320202719E+002
12765000000.000 -8.8244100488E+000 -1.2178705076E+002 -5.4378937794E+001 +7.2084088093E+001 -8.5101539787E+001 -3.4478262180E+001 -1.8573950835E+001 -1.7173638776E+002
12897500000.000 -8.8100586084E+000 -1.2215742679E+002 -5.4567855223E+001 +3.6989033753E+001 -9.3282755580E+001 +2.1423025564E-001 -2.0151594445E+001 -1.5860128124E+002
13030000000.000 -8.7817935308E+000 -1.2228173914E+002 -5.5362620719E+001 +2.2812466665E+000 -1.0317746367E+002 +1.0347508688E+002 -1.8735174399E+001 -1.4159868849E+002
13162500000.000 -8.6994234410E+000 -1.2245549272E+002 -5.4971381794E+001 -2.9590796295E+001 -8.8211462245E+001 +8.5435497614E+001 -1.8683926914E+001 -1.4202518195E+002
13295000000.000 -8.6377990333E+000 -1.2259010064E+002 -5.5213375968E+001 -6.6518934849E+001 -9.6104597967E+001 -9.9171571340E+001 -2.0076253539E+001 -1.2721475124E+002
13427500000.000 -8.5953748420E+000 -1.2301558557E+002 -5.4951439925E+001 -1.0110581251E+002 -8.3211724217E+001 +1.1740371549E+002 -1.8769953725E+001 -1.1415491368E+002
13560000000.000 -8.6407218047E+000 -1.2303566179E+002 -5.6479839422E+001 -1.2080129552E+002 -7.7741533837E+001 -5.5506564217E+001 -1.9066012969E+001 -1.1496021267E+002
13692500000.000 -8.5092459971E+000 -1.2300092632E+002 -5.5890760902E+001 -1.7223943399E+002 -8.1739374450E+001 +5.3283954660E+001 -2.0853197980E+001 -1.0090182890E+002
13825000000.000 -8.4778572736E+000 -1.2348220923E+002 -5.5390353750E+001 +1.7166252129E+002 -8.9654435969E+001 -2.5226930104E+001 -1.9694860696E+001 -8.7606325239E+001
13957500000.000 -8.4309930263E+000 -1.2382960074E+002 -5.5976095482E+001 +1.2274181100E+002 -7.9746663048E+001 +4.1153552028E+001 -2.0399138623E+001 -9.0102979882E+001
14090000000.000 -8.4485928353E+000 -1.2375997559E+002 -5.5981427957E+001 +9.7679753914E+001 -8.2083202340E+001 +2.6153748727E+001 -2.2631450906E+001 -7.2396017545E+001
14222500000.000 -8.3649954947E+000 -1.2364941376E+002 -5.5323505175E+001 +6.5893408172E+001 -7.8139024763E+001 +9.4563342631E+001 -2.1278079515E+001 -5.9612512753E+001
14355000000.000 -8.2276299586E+000 -1.2421465818E+002 -5.5324356829E+001 +2.2349665325E+001 -8.3586368686E+001 +1.6619375515E+002 -2.2583496628E+001 -6.3280970734E+001
14487500000.000 -8.2042693676E+000 -1.2442839362E+002 -5.5467359356E+001 -1.2458246440E+001 -8.3427667598E+001 +1.3825125959E+002 -2.5378149325E+001 -4.0034797689E+001
14620000000.000 -8.1657982534E+000 -1.2411160349E+002 -5.6161510319E+001 -4.8732710252E+001 -8.5303300580E+001 +1.1513407522E+002 -2.3328251025E+001 -2.8250810434E+001
14752500000.000 -8.0443106862E+000 -1.2418043807E+002 -5.6349037892E+001 -8.4495867192E+001 -8.6653590953E+001 -1.2109447330E+002 -2.5524704200E+001 -3.6220432359E+001
14885000000.000 -7.9854533248E+000 -1.2447205202E+002 -5.6520926550E+001 -1.1771112092E+002 -8.6419431077E+001 +1.0640246997E+001 -2.8599375157E+001 +2.7569485750E+000
15017500000.000 -7.9285259194E+000 -1.2417334044E+002 -5.5731791910E+001 -1.5398808974E+002 -8.6783350865E+001 +1.1832032680E+002 -2.5409775558E+001 +7.6645134448E+000
15150000000.000 -7.8930167488E+000 -1.2394154526E+002 -5.5617077646E+001 -1.7591614603E+002 -8.6829250687E+001 -1.1940229104E+002 -2.9432633894E+001 -1.8844546762E+000
15282500000.000 -7.8423291571E+000 -1.2383421432E+002 -5.6261387803E+001 +1.5139273036E+002 -8.2506567801E+001 +3.0473777030E+001 -3.0659827486E+001 +5.7628039155E+001
