!  2-Port S-parameters saved by WinCal
! VAR MeasName=S-Parameters (CALIBRATED_DATA) read from VNA (C)
! VAR MeasDate=9/29/2015 3:17:41 PM
! VAR NAME=M6082_18_15_2_2_20C_6.2mA_-17.5dBm
! VAR FILENAME=M6082_18_15_2_2_20C_6.2mA_-17.5dBm.S2P
! VAR DATE=9/29/2015 3:17:41 PM
! VAR PHYS_PORTS=2,1
! VAR ObjTypeName=DATASET
! VAR IndexType=Frequency
!
# Hz S DB R 50
45000000.000 -3.8949775553E+001 -1.8159984817E+000 -5.4493872936E+001 +1.2539425173E+002 -6.6489586826E+001 -8.2828039147E+001 -3.0694866904E+001 +4.1309599536E+000
177500000.000 -3.7007877743E+001 -2.4724977552E+001 -5.4615429755E+001 +6.5694262423E+001 -7.4104884471E+001 -9.8320894644E+001 -3.2608832282E+001 +4.5301927336E+001
310000000.000 -3.5872360279E+001 -4.3718270493E+001 -5.4263373408E+001 +3.6346600228E+001 -8.2670403767E+001 +5.9348869604E+001 -2.3354940111E+001 +6.4315213391E+001
442500000.000 -3.4046889483E+001 -5.4225466263E+001 -5.4185500172E+001 +8.5157459338E-001 -8.2853034634E+001 +1.2673353585E+002 -2.2404419287E+001 +1.6852212276E+001
575000000.000 -3.2190077537E+001 -6.3091894194E+001 -5.4587966375E+001 -3.4844230340E+001 -9.2986062537E+001 -1.6618308050E+002 -3.0626016963E+001 +2.2012455412E+001
707500000.000 -3.0858789662E+001 -6.8755420457E+001 -5.4840070258E+001 -6.9309566156E+001 -8.0875373519E+001 -1.0411812070E+002 -3.4685604064E+001 +8.3642136089E+001
840000000.000 -2.9403547053E+001 -7.2563980499E+001 -5.4945788350E+001 -1.0034871674E+002 -7.9035818431E+001 -4.5230970207E+001 -2.9651568117E+001 +1.2799742434E+002
972500000.000 -2.8276540706E+001 -7.4811740386E+001 -5.4543510026E+001 -1.3897931539E+002 -8.3617806582E+001 +5.2835837174E+001 -2.5911117728E+001 +1.3497100339E+002
1105000000.000 -2.7192889192E+001 -7.7877638584E+001 -5.4804385654E+001 -1.7213411518E+002 -8.2389527978E+001 -1.6010741261E+002 -2.4399496295E+001 +1.4077401052E+002
1237500000.000 -2.6356682946E+001 -7.9917662267E+001 -5.5483250270E+001 +1.5252873873E+002 -1.0871109117E+002 +3.2362549581E+001 -2.3387110296E+001 +1.5010697481E+002
1370000000.000 -2.5498660333E+001 -8.0035538357E+001 -5.5469369834E+001 +1.2044437283E+002 -8.5445641790E+001 +9.1022887517E+001 -2.2056001558E+001 +1.5987635042E+002
1502500000.000 -2.4817274383E+001 -8.1221864569E+001 -5.5209912733E+001 +8.3396481130E+001 -8.5705305298E+001 -1.3614407483E+002 -2.0861026626E+001 +1.6625935548E+002
1635000000.000 -2.4055851919E+001 -8.1845738232E+001 -5.5198698826E+001 +5.1340191746E+001 -8.5636256863E+001 +7.8063681982E+000 -2.0020676297E+001 +1.7321656779E+002
1767500000.000 -2.3351601752E+001 -8.3152119443E+001 -5.5340930494E+001 +1.7786902752E+001 -8.4519791940E+001 -1.6493497982E+002 -1.9015367669E+001 +1.7835862999E+002
1900000000.000 -2.2829939521E+001 -8.5821417244E+001 -5.5110580757E+001 -1.4965621889E+001 -9.0240320062E+001 -3.2804836458E+000 -1.8866929706E+001 -1.7836725811E+002
2032500000.000 -2.2303387224E+001 -8.4635309484E+001 -5.4934073361E+001 -5.3380160852E+001 -9.6840134175E+001 +9.8526364329E+001 -1.8672070211E+001 -1.6803376527E+002
2165000000.000 -2.1714817131E+001 -8.6931093005E+001 -5.5392132752E+001 -8.8165345164E+001 -8.0763905746E+001 +3.3554321831E+001 -1.7749751822E+001 -1.6114524491E+002
2297500000.000 -2.1278994858E+001 -8.7907771940E+001 -5.5180785986E+001 -1.1948731871E+002 -8.9332550663E+001 -1.2634422863E+002 -1.7237621858E+001 -1.5720692050E+002
2430000000.000 -2.0850541353E+001 -8.6205487262E+001 -5.6282025797E+001 -1.5454096137E+002 -7.7914818486E+001 -1.0089440460E+002 -1.6910143052E+001 -1.5304046357E+002
2562500000.000 -2.0392532571E+001 -8.8845137912E+001 -5.5505605102E+001 +1.7029907643E+002 -9.1011683715E+001 +4.8627344370E+001 -1.6828646976E+001 -1.5083959562E+002
2695000000.000 -2.0038476078E+001 -9.0366628270E+001 -5.6258502448E+001 +1.3615536740E+002 -7.7397541814E+001 -1.2713786065E+002 -1.7394496961E+001 -1.4737928399E+002
2827500000.000 -1.9789883420E+001 -9.1333509482E+001 -5.5006171662E+001 +1.0506313508E+002 -7.9032302207E+001 -1.0211356064E+002 -1.7829921510E+001 -1.4030320030E+002
2960000000.000 -1.9424506349E+001 -9.1538431113E+001 -5.5790772431E+001 +7.1721369454E+001 -8.8177913689E+001 -1.0925092000E+002 -1.8119454666E+001 -1.3587500927E+002
3092500000.000 -1.8782274394E+001 -9.0374253392E+001 -5.5850120345E+001 +3.4868483512E+001 -7.8549784474E+001 +1.0370593381E+002 -1.9129883739E+001 -1.2967366949E+002
3225000000.000 -1.8675831892E+001 -9.3949640689E+001 -5.5507442113E+001 +8.2827064616E+000 -8.8567305752E+001 -1.3668176936E+002 -1.9584173265E+001 -1.1964228648E+002
3357500000.000 -1.8467615031E+001 -9.4543019833E+001 -5.5712408862E+001 -3.1255840459E+001 -9.0610848523E+001 +4.0480336043E+001 -1.9907929118E+001 -1.1465747755E+002
3490000000.000 -1.8089087506E+001 -9.4998307512E+001 -5.5296905390E+001 -6.5973952651E+001 -8.2223676798E+001 +1.3575745227E+002 -2.1147081030E+001 -1.0921188671E+002
3622500000.000 -1.7693806378E+001 -9.5751618033E+001 -5.5307588524E+001 -9.7047277846E+001 -8.0781699654E+001 -1.3521303132E+002 -2.1962296219E+001 -9.8230838676E+001
3755000000.000 -1.7361403006E+001 -9.6716056415E+001 -5.5146335526E+001 -1.2828524166E+002 -8.0586118193E+001 -5.1075940841E+001 -2.2628170489E+001 -9.4978581226E+001
3887500000.000 -1.7086309314E+001 -9.7343279760E+001 -5.5016458996E+001 -1.6920364144E+002 -7.8444613382E+001 +1.5066304880E+002 -2.5033287215E+001 -8.8831378129E+001
4020000000.000 -1.6848531908E+001 -9.7705174475E+001 -5.5160340487E+001 +1.5805655467E+002 -8.3560499986E+001 +1.2878888539E+002 -2.6749414004E+001 -7.3728100607E+001
4152500000.000 -1.6505791580E+001 -9.7971752886E+001 -5.5226124566E+001 +1.2286727807E+002 -8.5012869877E+001 -5.6225063176E+001 -2.8771929200E+001 -6.5098924252E+001
4285000000.000 -1.6198078608E+001 -9.8559089379E+001 -5.5057789483E+001 +9.1024687012E+001 -8.6228305424E+001 +1.0233721864E+002 -3.3343247054E+001 -3.9888797332E+001
4417500000.000 -1.5980417931E+001 -9.9295382472E+001 -5.5523048904E+001 +5.5707454580E+001 -8.0896409747E+001 -1.2522544005E+002 -3.1864416584E+001 +7.7506014694E+000
4550000000.000 -1.5760857497E+001 -9.9278816832E+001 -5.5467845862E+001 +2.3870298221E+001 -8.6937935292E+001 -1.3416127413E+002 -3.0334076295E+001 +1.7409941647E+001
4682500000.000 -1.5473670700E+001 -9.9445251349E+001 -5.5548549747E+001 -6.4203875770E+000 -8.1051697198E+001 +3.2319491859E+001 -2.9764980026E+001 +3.7622015655E+001
4815000000.000 -1.5222282036E+001 -1.0028905692E+002 -5.5556579107E+001 -4.1230034245E+001 -8.9323230767E+001 +9.7643123576E+001 -2.7709311608E+001 +4.0612524482E+001
4947500000.000 -1.4864182950E+001 -1.0002648474E+002 -5.7071031257E+001 -7.9555837665E+001 -8.6595213602E+001 -1.4252943066E+002 -2.9435661373E+001 +3.4590082405E+001
5080000000.000 -1.4640342563E+001 -9.9857421815E+001 -5.6908377989E+001 -1.1382403321E+002 -8.1821018823E+001 -3.9484658985E-001 -3.2386773227E+001 +5.5788886868E+001
5212500000.000 -1.4374150057E+001 -1.0035128635E+002 -5.6766085628E+001 -1.4538953984E+002 -9.6714991373E+001 +1.5682277033E+002 -3.1653237479E+001 +6.8298730037E+001
5345000000.000 -1.4423401980E+001 -1.0112497123E+002 -5.5347461879E+001 -1.7544185906E+002 -9.8843428421E+001 -3.3483441922E+001 -3.5515024461E+001 +6.8403836924E+001
5477500000.000 -1.4276413990E+001 -1.0097282931E+002 -5.4970435111E+001 +1.5018579995E+002 -9.7334396979E+001 -7.3182304358E+001 -3.7573962266E+001 +1.3239544746E+002
5610000000.000 -1.4062673723E+001 -1.0096804012E+002 -5.5191682032E+001 +1.1727801759E+002 -8.1929035236E+001 +8.4948178646E+001 -3.3766369917E+001 +1.3485390734E+002
5742500000.000 -1.3908329192E+001 -1.0152378357E+002 -5.4988593760E+001 +8.1999277355E+001 -8.8079508424E+001 -5.6253657172E+001 -3.8259878866E+001 +1.5193777271E+002
5875000000.000 -1.3805797426E+001 -1.0189858862E+002 -5.5028185538E+001 +4.8371100749E+001 -9.0272667065E+001 -4.3230433322E+001 -3.3982745457E+001 -1.6943407104E+002
6007500000.000 -1.3529455293E+001 -1.0278182123E+002 -5.6817212184E+001 +1.9143913189E+001 -8.6578507095E+001 +9.9641179171E+001 -3.2757717505E+001 +1.7956087863E+002
6140000000.000 -1.3373063134E+001 -1.0310186579E+002 -5.6673776761E+001 -1.3693994363E+001 -1.0171168470E+002 +1.3902284068E+002 -3.6461456537E+001 -1.7094382903E+002
6272500000.000 -1.3225360602E+001 -1.0395459168E+002 -5.6815920396E+001 -4.9809232116E+001 -8.2823575489E+001 -8.3293097304E+001 -3.4134124286E+001 -1.4365241499E+002
6405000000.000 -1.3194847111E+001 -1.0478066116E+002 -5.6376052292E+001 -8.4959988112E+001 -8.8409924619E+001 +3.5862080670E+001 -3.3946181359E+001 -1.6126984338E+002
6537500000.000 -1.3170230768E+001 -1.0352431247E+002 -5.4338409314E+001 -1.2269053120E+002 -8.4779796550E+001 +1.1691259497E+002 -4.0197884809E+001 -1.6271150329E+002
6670000000.000 -1.2952676310E+001 -1.0383277050E+002 -5.4409192089E+001 -1.5680847705E+002 -8.8413997899E+001 -1.1371212735E+002 -3.9938440582E+001 -1.3865189694E+002
6802500000.000 -1.2771632563E+001 -1.0489380537E+002 -5.4682828826E+001 +1.6841735877E+002 -8.7830155345E+001 -2.8128465955E-001 -3.9308685773E+001 +1.7849103766E+002
6935000000.000 -1.2743035260E+001 -1.0551548577E+002 -5.4776350084E+001 +1.3404840073E+002 -8.4300119113E+001 +6.9860573221E+001 -3.8652457386E+001 +1.2391197458E+002
7067500000.000 -1.2599512638E+001 -1.0529943730E+002 -5.5018413350E+001 +1.0056184442E+002 -8.7684900109E+001 -8.1423854388E+001 -3.8408144243E+001 +1.1524967004E+002
7200000000.000 -1.2375559640E+001 -1.0570153138E+002 -5.4864119113E+001 +6.4129982997E+001 -8.6311430290E+001 +1.6078890711E+002 -3.2779911322E+001 +1.2926931483E+002
7332500000.000 -1.2237013183E+001 -1.0760527258E+002 -5.6265803450E+001 +4.2392800976E+001 -8.6413990098E+001 -4.8721633564E+001 -2.9182252084E+001 +1.1901122298E+002
7465000000.000 -1.2158727728E+001 -1.0698206585E+002 -5.5019826638E+001 -2.1293604028E+000 -8.2104815262E+001 -1.3018844614E+002 -2.8512231991E+001 +1.2333795469E+002
7597500000.000 -1.1996175142E+001 -1.0703597053E+002 -5.4636182249E+001 -3.7217238764E+001 -8.7191528251E+001 -2.1485733455E+001 -2.6027834278E+001 +1.3683015566E+002
7730000000.000 -1.1810760254E+001 -1.0827395008E+002 -5.6056999735E+001 -5.9172758269E+001 -8.4980978170E+001 +8.6253568006E+001 -2.3780376805E+001 +1.3758022222E+002
7862500000.000 -1.1695715432E+001 -1.0853484677E+002 -5.6506151424E+001 -9.4369099843E+001 -9.3031008977E+001 +1.5065032531E+002 -2.3266100452E+001 +1.4202603975E+002
7995000000.000 -1.1616518450E+001 -1.0865557332E+002 -5.5894681561E+001 -1.2781598361E+002 -8.3469577986E+001 -8.0582149085E+001 -2.1764901897E+001 +1.5404937328E+002
8127500000.000 -1.1403279963E+001 -1.0855517330E+002 -5.6185044611E+001 -1.6094274942E+002 -8.1900278207E+001 +7.4152393939E+001 -2.0039464447E+001 +1.5629053830E+002
8260000000.000 -1.1294956943E+001 -1.0901137834E+002 -5.5776873588E+001 +1.6274394697E+002 -9.2185502078E+001 +1.0337671421E+002 -1.9860049622E+001 +1.6035774982E+002
8392500000.000 -1.1197622752E+001 -1.0892567362E+002 -5.5789106101E+001 +1.3305151057E+002 -8.4790446886E+001 +1.3429657272E+001 -1.9044618484E+001 +1.7027694282E+002
8525000000.000 -1.1044031154E+001 -1.0815790258E+002 -5.4732303783E+001 +8.5705554368E+001 -8.9784107652E+001 +9.1944275460E+000 -1.8225255000E+001 +1.7286349174E+002
8657500000.000 -1.0897827982E+001 -1.0830891770E+002 -5.4830513255E+001 +5.2045234519E+001 -8.7776058375E+001 +1.2072450279E+002 -1.8563878478E+001 +1.7801363790E+002
8790000000.000 -1.0787583091E+001 -1.0850674201E+002 -5.5042532401E+001 +1.8594842471E+001 -8.5058330022E+001 -2.4200129622E+001 -1.8341692125E+001 -1.7197230400E+002
8922500000.000 -1.0742086252E+001 -1.0864158563E+002 -5.4731225169E+001 -1.6914502104E+001 -8.0069660346E+001 -1.9575378374E+001 -1.8023683058E+001 -1.6603975678E+002
9055000000.000 -1.0633687826E+001 -1.0843965098E+002 -5.4546019319E+001 -5.0441798321E+001 -8.2148756140E+001 +7.0936611380E+001 -1.8424307457E+001 -1.5820502261E+002
9187500000.000 -1.0546657075E+001 -1.0867143758E+002 -5.4747048578E+001 -8.3877541262E+001 -8.4277969945E+001 -7.1549587624E+001 -1.8362195661E+001 -1.4676024884E+002
9320000000.000 -1.0537728268E+001 -1.0969161314E+002 -5.4978723483E+001 -1.0886023377E+002 -8.4062232971E+001 -4.7840448373E+001 -1.8260613980E+001 -1.3963757626E+002
9452500000.000 -1.0488962266E+001 -1.0976321207E+002 -5.4825283900E+001 -1.4502093229E+002 -8.8901782627E+001 +4.9862575110E+001 -1.8812670021E+001 -1.3026300199E+002
9585000000.000 -1.0392606377E+001 -1.0971744861E+002 -5.4693759189E+001 -1.7931217962E+002 -8.3945149963E+001 -1.6626460247E+002 -1.8766830569E+001 -1.1872563497E+002
9717500000.000 -1.0263244093E+001 -1.1024118510E+002 -5.4403501885E+001 +1.4801438267E+002 -8.1779576939E+001 -8.1708363752E+001 -1.8887144174E+001 -1.1121117925E+002
9850000000.000 -1.0228668567E+001 -1.1102446869E+002 -5.4601690570E+001 +1.1003153329E+002 -8.6478740550E+001 +7.7002853496E+001 -1.9615965796E+001 -1.0015746167E+002
9982500000.000 -1.0156361216E+001 -1.1086310103E+002 -5.4273361105E+001 +7.7106795311E+001 -8.9157570564E+001 +7.6439935111E+001 -1.9647273674E+001 -8.6865105637E+001
10115000000.000 -9.9712971276E+000 -1.1092177652E+002 -5.4641404603E+001 +3.4948994817E+001 -8.8834257839E+001 -1.0799482359E+001 -1.9981401965E+001 -7.9243554196E+001
10247500000.000 -9.8573142084E+000 -1.1167464912E+002 -5.5140401557E+001 -2.1078880876E-001 -9.1753780696E+001 -2.5565796770E+001 -2.1127232899E+001 -6.5453068710E+001
10380000000.000 -9.8173524355E+000 -1.1217693118E+002 -5.4908540693E+001 -3.4912934039E+001 -8.2163650164E+001 +1.4918181886E+002 -2.1000933793E+001 -5.0192544757E+001
10512500000.000 -9.7472393035E+000 -1.1234595583E+002 -5.4805460713E+001 -6.9628141837E+001 -7.8528498820E+001 -1.6405064415E+002 -2.1571456566E+001 -4.2263558591E+001
10645000000.000 -9.6384684004E+000 -1.1251745864E+002 -5.4433652408E+001 -1.0220446120E+002 -8.3281730512E+001 -7.8642426922E+001 -2.2820416020E+001 -2.3497601029E+001
10777500000.000 -9.5972732724E+000 -1.1301456093E+002 -5.4061334259E+001 -1.2978460449E+002 -8.8266473649E+001 +1.0709216094E+002 -2.2129177609E+001 -6.2374896916E+000
10910000000.000 -9.4498989064E+000 -1.1358465233E+002 -5.4661642564E+001 -1.6890560172E+002 -8.9811332989E+001 -1.5222754009E+002 -2.2814278906E+001 +3.8802109113E+000
11042500000.000 -9.4320207959E+000 -1.1373110050E+002 -5.3490494903E+001 +1.6241237887E+002 -8.8555048260E+001 -1.2914082071E+001 -2.3444375917E+001 +2.7863569970E+001
11175000000.000 -9.3041327597E+000 -1.1380340281E+002 -5.3761636380E+001 +1.2849908391E+002 -8.4663372290E+001 +1.4826380442E+002 -2.2226322855E+001 +4.2605866945E+001
11307500000.000 -9.2076047527E+000 -1.1401245465E+002 -5.3617131313E+001 +9.1592140759E+001 -8.7555888952E+001 -1.5261704658E+002 -2.2773306026E+001 +5.3081075315E+001
11440000000.000 -9.1265389861E+000 -1.1449609752E+002 -5.3585738655E+001 +5.6737646838E+001 -8.6899980922E+001 -2.0551345853E+001 -2.2565151914E+001 +7.5621887581E+001
11572500000.000 -9.0099284289E+000 -1.1431615286E+002 -5.3297034164E+001 +2.3150503425E+001 -8.1450334272E+001 +1.3869092667E+002 -2.1187257755E+001 +8.6682980187E+001
11705000000.000 -8.8957503373E+000 -1.1479112441E+002 -5.4337302999E+001 -1.4516146276E+001 -8.4777027986E+001 +1.4328325871E+002 -2.1780630900E+001 +9.7136330878E+001
11837500000.000 -8.7987886955E+000 -1.1499609446E+002 -5.4470471117E+001 -4.8953625097E+001 -9.1677169737E+001 -2.7736805301E+001 -2.1076330667E+001 +1.1894118437E+002
11970000000.000 -8.7688045915E+000 -1.1507878563E+002 -5.4193359112E+001 -8.3873371764E+001 -9.1864533110E+001 +1.5682749858E+002 -1.9872144858E+001 +1.2516863682E+002
12102500000.000 -8.7133278195E+000 -1.1499759431E+002 -5.4248687789E+001 -1.1874273453E+002 -9.3317815498E+001 -1.0281708761E+002 -2.0759112731E+001 +1.3591082596E+002
12235000000.000 -8.6198349357E+000 -1.1527920325E+002 -5.4177712902E+001 -1.5146496892E+002 -8.6197166869E+001 -2.4039234814E+001 -1.9696815558E+001 +1.5419672049E+002
12367500000.000 -8.6057625363E+000 -1.1542558427E+002 -5.4225320022E+001 +1.7454459609E+002 -8.1469350418E+001 +5.8101529276E+001 -1.8953771233E+001 +1.5740338664E+002
12500000000.000 -8.5733663287E+000 -1.1586526937E+002 -5.4209578756E+001 +1.3777337170E+002 -9.0226890506E+001 +1.1160134981E+002 -2.0070774224E+001 +1.6871556439E+002
12632500000.000 -8.5034399728E+000 -1.1583133062E+002 -5.4353632983E+001 +1.0146621333E+002 -9.8583424245E+001 +2.4345662581E+001 -1.9065075292E+001 -1.7341663057E+002
12765000000.000 -8.4271331031E+000 -1.1570156328E+002 -5.3329621352E+001 +6.2441447204E+001 -8.0028227880E+001 -3.5756737255E+001 -1.8581765316E+001 -1.7193894417E+002
12897500000.000 -8.4376402482E+000 -1.1642664836E+002 -5.4185447428E+001 +3.3741957956E+001 -8.9337330405E+001 +1.4591792944E+002 -2.0166450024E+001 -1.5882828459E+002
13030000000.000 -8.3778129257E+000 -1.1630553146E+002 -5.3230982058E+001 -8.7313932834E+000 -8.1114782252E+001 +1.6894325851E+002 -1.8730941499E+001 -1.4181328544E+002
13162500000.000 -8.2994153223E+000 -1.1659656421E+002 -5.3092188712E+001 -4.3917389424E+001 -8.6463321468E+001 -7.4218119008E+001 -1.8673446836E+001 -1.4228808017E+002
13295000000.000 -8.2358879393E+000 -1.1685972181E+002 -5.3427178294E+001 -7.9050200141E+001 -9.5641711496E+001 +1.3297893052E+002 -2.0075505018E+001 -1.2739948444E+002
13427500000.000 -8.1981477345E+000 -1.1739501722E+002 -5.3308094915E+001 -1.1328492553E+002 -8.7284356821E+001 +6.2610200964E+001 -1.8750263362E+001 -1.1431879449E+002
13560000000.000 -8.1944987996E+000 -1.1731933557E+002 -5.3660978183E+001 -1.5320895002E+002 -8.7883884224E+001 +1.6994406997E+001 -1.9041147146E+001 -1.1515830878E+002
13692500000.000 -8.1603689678E+000 -1.1766456450E+002 -5.4819438845E+001 -1.7390366634E+002 -8.0437753030E+001 +9.4158706048E+001 -2.0840133641E+001 -1.0102993176E+002
13825000000.000 -8.0304549318E+000 -1.1816284137E+002 -5.4591344221E+001 +1.3822373922E+002 -8.3860453646E+001 +1.7831531568E+002 -1.9669988454E+001 -8.7667928752E+001
13957500000.000 -8.0328744848E+000 -1.1867520143E+002 -5.4826348755E+001 +1.0109654823E+002 -8.1662987379E+001 -1.5116055565E+002 -2.0365085914E+001 -9.0319129747E+001
14090000000.000 -8.0114332296E+000 -1.1866310815E+002 -5.4979587052E+001 +6.9698023964E+001 -8.6690873105E+001 -2.4127767279E+001 -2.2613728101E+001 -7.2674513854E+001
14222500000.000 -7.9858355580E+000 -1.1849112425E+002 -5.4620051901E+001 +4.9989896979E+001 -9.4154953922E+001 -2.0819566729E+001 -2.1271997869E+001 -5.9744473534E+001
14355000000.000 -7.8987639583E+000 -1.1918594996E+002 -5.4660861044E+001 +1.4091340284E+001 -8.9545206805E+001 +1.4144172713E+002 -2.2552459901E+001 -6.3442816961E+001
14487500000.000 -7.8812800557E+000 -1.1944448552E+002 -5.4507784053E+001 -1.8416585895E+001 -8.1290141379E+001 -1.5673626663E+001 -2.5351222951E+001 -4.0160784362E+001
14620000000.000 -7.8358223449E+000 -1.1922393259E+002 -5.5014826891E+001 -5.5082681317E+001 -9.1565382895E+001 +9.7987220407E+001 -2.3291951958E+001 -2.8263777359E+001
14752500000.000 -7.7203060268E+000 -1.1936586205E+002 -5.4598587601E+001 -8.8125607747E+001 -8.3082993564E+001 -1.5192375293E+002 -2.5513919871E+001 -3.6076487679E+001
14885000000.000 -7.6668019122E+000 -1.1974330848E+002 -5.4351730976E+001 -1.2640149484E+002 -9.3042294170E+001 +1.6950320213E+002 -2.8522847536E+001 +2.6451887476E+000
15017500000.000 -7.6137489813E+000 -1.1949345993E+002 -5.5001395090E+001 -1.6440761931E+002 -8.6898471726E+001 +5.1978588206E+001 -2.5391716447E+001 +7.4639257844E+000
15150000000.000 -7.5168089471E+000 -1.1966372221E+002 -5.5938821505E+001 +1.5302635635E+002 -8.6571064523E+001 -1.6158518675E+002 -2.9403497529E+001 -1.6134480824E+000
15282500000.000 -7.4703340793E+000 -1.1965364810E+002 -5.5591040703E+001 +1.1579371296E+002 -7.8436173403E+001 -9.3257062765E+001 -3.0621293599E+001 +5.7957432953E+001
