!  2-Port S-parameters saved by WinCal
! VAR MeasName=S-Parameters (CALIBRATED_DATA) read from VNA (C)
! VAR MeasDate=10/16/2015 2:33:06 PM
! VAR NAME=M6082_10_13_2_2_20C_3.5mA_-17.5dBm
! VAR FILENAME=M6082_10_13_2_2_20C_3.5mA_-17.5dBm.S2P
! VAR DATE=10/16/2015 2:33:06 PM
! VAR PHYS_PORTS=2,1
! VAR ObjTypeName=DATASET
! VAR IndexType=Frequency
!
# Hz S DB R 50
45000000.000 -3.9375853693E+001 -1.0591852863E+001 -4.1404877525E+001 +1.1114058369E+002 -6.0099601498E+001 +4.1448502038E+001 -3.0887797330E+001 +4.4715118155E+000
177500000.000 -3.6982193740E+001 -3.7635437918E+001 -4.2821853097E+001 +6.8429224298E+001 -7.5696371063E+001 -1.6101068340E+002 -3.2755190722E+001 +4.6971927142E+001
310000000.000 -3.3896083060E+001 -5.4913099140E+001 -4.2939861044E+001 +3.9132062388E+001 -7.8355610304E+001 -1.7644570132E+002 -2.3343059663E+001 +6.4763662336E+001
442500000.000 -3.1319938315E+001 -6.4521693715E+001 -4.1960827633E+001 -7.8412110679E-001 -8.3720690438E+001 +2.7704149680E+001 -2.2398461128E+001 +1.7265177523E+001
575000000.000 -2.9114629944E+001 -7.1257129051E+001 -4.2423352346E+001 -3.6133177620E+001 -9.3009767969E+001 +9.0136014881E+001 -3.0654966215E+001 +2.2440132733E+001
707500000.000 -2.7506160718E+001 -7.5659958151E+001 -4.2634524202E+001 -7.0169581966E+001 -9.4010770734E+001 -9.4779874742E+001 -3.4560338709E+001 +8.3745291059E+001
840000000.000 -2.5986771651E+001 -7.8561547299E+001 -4.2712602907E+001 -1.0481501529E+002 -8.7047906594E+001 -2.0866752239E+001 -2.9685938560E+001 +1.2745153533E+002
972500000.000 -2.4708970572E+001 -8.0575988669E+001 -4.2753317782E+001 -1.3877049492E+002 -7.9874288389E+001 +1.0453679321E+002 -2.5961749094E+001 +1.3537455715E+002
1105000000.000 -2.3586250600E+001 -8.3086785669E+001 -4.2851035253E+001 -1.7323941200E+002 -8.8279492496E+001 +1.1402123627E+002 -2.4369279503E+001 +1.4083609741E+002
1237500000.000 -2.2648961397E+001 -8.4824898934E+001 -4.2845095822E+001 +1.5265929689E+002 -8.4524766353E+001 -1.8101989533E+001 -2.3413432019E+001 +1.4999387463E+002
1370000000.000 -2.1784628494E+001 -8.6379295210E+001 -4.2961503259E+001 +1.1808243118E+002 -8.3053039209E+001 +8.8036983444E+001 -2.2082681547E+001 +1.6005130664E+002
1502500000.000 -2.1001652689E+001 -8.7740368807E+001 -4.2999887498E+001 +8.4579516887E+001 -8.1111564872E+001 -1.5179223704E+002 -2.0867162290E+001 +1.6642592262E+002
1635000000.000 -2.0249760018E+001 -8.8447709739E+001 -4.2956201634E+001 +5.0539309047E+001 -8.0929722502E+001 -3.2395944354E+001 -2.0035675361E+001 +1.7330644627E+002
1767500000.000 -1.9553203074E+001 -8.9819381248E+001 -4.3015364910E+001 +1.6011775274E+001 -8.2661659156E+001 +1.1088865330E+002 -1.9025513274E+001 +1.7852088312E+002
1900000000.000 -1.8999551573E+001 -9.0755796036E+001 -4.3078639906E+001 -1.8617207061E+001 -9.3204014104E+001 +8.4425136596E+001 -1.8873711313E+001 -1.7825650322E+002
2032500000.000 -1.8461173666E+001 -9.1741360835E+001 -4.3074598961E+001 -5.2885655961E+001 -8.0655335295E+001 -8.0260689489E+001 -1.8695517062E+001 -1.6785860813E+002
2165000000.000 -1.7877297879E+001 -9.2236150553E+001 -4.3049397769E+001 -8.6533942563E+001 -8.4891094021E+001 +1.2465746019E+002 -1.7744489985E+001 -1.6096103974E+002
2297500000.000 -1.7414318798E+001 -9.3169567415E+001 -4.3209353555E+001 -1.2110376085E+002 -8.3458761266E+001 +1.5908161064E+002 -1.7243232786E+001 -1.5709811160E+002
2430000000.000 -1.6992099894E+001 -9.3960715183E+001 -4.3150027920E+001 -1.5537650958E+002 -9.1625921929E+001 -1.5244028612E+002 -1.6942753393E+001 -1.5284098923E+002
2562500000.000 -1.6538218736E+001 -9.4653249561E+001 -4.3226669057E+001 +1.7089454667E+002 -8.0380537681E+001 +5.6038411047E+001 -1.6836589624E+001 -1.5043743757E+002
2695000000.000 -1.6169302163E+001 -9.5916559300E+001 -4.3269987624E+001 +1.3686666965E+002 -7.7735322448E+001 -1.6497133425E+002 -1.7370207399E+001 -1.4714204562E+002
2827500000.000 -1.5868655556E+001 -9.6906323513E+001 -4.3289683768E+001 +1.0252447991E+002 -7.9898766093E+001 -5.4905489481E+001 -1.7853914892E+001 -1.4029366499E+002
2960000000.000 -1.5528678041E+001 -9.7363829740E+001 -4.3327179032E+001 +6.8902933563E+001 -7.9113978805E+001 -4.7177088698E+001 -1.8157665640E+001 -1.3543129477E+002
3092500000.000 -1.5119547967E+001 -9.8262978445E+001 -4.3506192731E+001 +3.4862158433E+001 -8.9047704020E+001 +1.6041921184E+002 -1.9077717336E+001 -1.2924487726E+002
3225000000.000 -1.4793658865E+001 -9.9503758809E+001 -4.3502187855E+001 -2.7191013263E-001 -7.8086561294E+001 -1.3142562945E+002 -1.9593468618E+001 -1.1966520111E+002
3357500000.000 -1.4552531534E+001 -1.0035245877E+002 -4.3359577128E+001 -3.4160288891E+001 -8.5994441431E+001 -1.1484796785E+002 -1.9969212796E+001 -1.1434085371E+002
3490000000.000 -1.4193726220E+001 -1.0081741312E+002 -4.3338346853E+001 -6.7747431433E+001 -9.0905119157E+001 -1.7608103450E+002 -2.1134587068E+001 -1.0858301995E+002
3622500000.000 -1.3851069713E+001 -1.0155912379E+002 -4.3472328441E+001 -1.0149253611E+002 -7.5869882291E+001 +1.6443256845E+002 -2.1944760661E+001 -9.8189262229E+001
3755000000.000 -1.3541252639E+001 -1.0252046768E+002 -4.3303662242E+001 -1.3511868899E+002 -8.3383665959E+001 +9.1551216757E+000 -2.2726521449E+001 -9.4648116145E+001
3887500000.000 -1.3279870923E+001 -1.0313140392E+002 -4.3314484193E+001 -1.6881915869E+002 -7.6995055424E+001 +4.5002135751E+001 -2.5031415099E+001 -8.7760371633E+001
4020000000.000 -1.3032531603E+001 -1.0366641747E+002 -4.3187182397E+001 +1.5620466745E+002 -8.3421749955E+001 -8.2327344620E+001 -2.6681273902E+001 -7.3285846815E+001
4152500000.000 -1.2746973651E+001 -1.0408086132E+002 -4.3461356543E+001 +1.2223272397E+002 -8.3104462553E+001 -6.4846138297E+001 -2.8898304066E+001 -6.4870005108E+001
4285000000.000 -1.2496853091E+001 -1.0471870819E+002 -4.3434434096E+001 +8.7749766269E+001 -8.8785918552E+001 +3.4229291637E+001 -3.3400572664E+001 -3.7244601723E+001
4417500000.000 -1.2254308183E+001 -1.0547279305E+002 -4.3328518692E+001 +5.3857558732E+001 -9.2008442517E+001 +1.1916014313E+002 -3.1773879710E+001 +8.2347085409E+000
4550000000.000 -1.2053232423E+001 -1.0584053270E+002 -4.3448019454E+001 +1.9494468699E+001 -9.5353247292E+001 -3.5494315636E+000 -3.0329957054E+001 +1.8410543248E+001
4682500000.000 -1.1805515487E+001 -1.0619036604E+002 -4.3522689592E+001 -1.3628684680E+001 -9.4082167042E+001 -1.0903343900E+002 -2.9660046208E+001 +3.9120940208E+001
4815000000.000 -1.1576189945E+001 -1.0676909348E+002 -4.3452798778E+001 -4.7716328722E+001 -8.4785387744E+001 +3.6481081068E+001 -2.7644822029E+001 +4.1408032905E+001
4947500000.000 -1.1397010765E+001 -1.0718007758E+002 -4.3375295908E+001 -8.0503230108E+001 -8.3351996730E+001 -8.2322258456E+000 -2.9388596212E+001 +3.5847517293E+001
5080000000.000 -1.1201292741E+001 -1.0736368346E+002 -4.3361633585E+001 -1.1541525884E+002 -8.5173907246E+001 +1.6820159960E+001 -3.2267871470E+001 +5.7298068296E+001
5212500000.000 -1.0993267536E+001 -1.0773900352E+002 -4.3144590786E+001 -1.4916410408E+002 -9.3291883645E+001 +8.8621932070E+001 -3.1573397026E+001 +6.9869854056E+001
5345000000.000 -1.0829318804E+001 -1.0831375527E+002 -4.3097517358E+001 +1.7630936781E+002 -9.0196546560E+001 -1.7646974720E+002 -3.5343066921E+001 +7.1710610164E+001
5477500000.000 -1.0697362488E+001 -1.0841600181E+002 -4.2942205799E+001 +1.4209996751E+002 -8.8379977738E+001 -4.4981186904E+001 -3.7215558227E+001 +1.3229729639E+002
5610000000.000 -1.0515397758E+001 -1.0863904562E+002 -4.2863286939E+001 +1.0708694851E+002 -8.3914821543E+001 +7.2623893641E+001 -3.3685986227E+001 +1.3600207194E+002
5742500000.000 -1.0362035627E+001 -1.0919605234E+002 -4.2909662769E+001 +7.3040476837E+001 -8.9520658216E+001 +1.3896864738E+002 -3.7719356292E+001 +1.5293315843E+002
5875000000.000 -1.0268103713E+001 -1.0976142470E+002 -4.2795851499E+001 +3.7794976440E+001 -9.6592876355E+001 -3.7852220760E+001 -3.3744757089E+001 -1.7033570048E+002
6007500000.000 -1.0148238168E+001 -1.0999944469E+002 -4.2769529285E+001 +3.5292150856E+000 -8.4488670325E+001 +3.1600820605E+001 -3.2694063435E+001 +1.7973609632E+002
6140000000.000 -9.9824566093E+000 -1.1031901627E+002 -4.2652315566E+001 -3.1149749137E+001 -8.3236955842E+001 -1.7293647216E+002 -3.6153504421E+001 -1.6938929060E+002
6272500000.000 -9.8358106117E+000 -1.1114346848E+002 -4.2658198651E+001 -6.5849904946E+001 -8.8002228980E+001 -2.1484726643E+001 -3.3869689762E+001 -1.4419794716E+002
6405000000.000 -9.7558719041E+000 -1.1185581762E+002 -4.2620038225E+001 -1.0034383363E+002 -8.4997005982E+001 -6.2216113565E+000 -3.3835681024E+001 -1.6170781445E+002
6537500000.000 -9.6400750762E+000 -1.1198020425E+002 -4.2661618376E+001 -1.3460631096E+002 -8.6215587298E+001 -1.7236568801E+002 -4.0101155670E+001 -1.6026343613E+002
6670000000.000 -9.4596325922E+000 -1.1234848211E+002 -4.2695702130E+001 -1.6884389850E+002 -8.8764860494E+001 -1.1315515347E+002 -3.9372224738E+001 -1.3676509932E+002
6802500000.000 -9.3114253928E+000 -1.1322575397E+002 -4.2696235293E+001 +1.5644029099E+002 -9.8579105021E+001 +1.3142546424E+002 -3.8870630537E+001 +1.7962096047E+002
6935000000.000 -9.2450379998E+000 -1.1384256805E+002 -4.2620655421E+001 +1.2193568035E+002 -9.1844805862E+001 +1.6839377760E+002 -3.8641798923E+001 +1.2232513734E+002
7067500000.000 -9.1378799540E+000 -1.1387149051E+002 -4.2630596106E+001 +8.7543460949E+001 -9.1825096187E+001 -7.9118797897E+001 -3.9092222054E+001 +1.1415738967E+002
7200000000.000 -8.9660516083E+000 -1.1429343708E+002 -4.2662262332E+001 +5.3572946194E+001 -8.9872114368E+001 -3.7638602155E+000 -3.2887163360E+001 +1.3142866018E+002
7332500000.000 -8.8398213359E+000 -1.1510662128E+002 -4.2416873491E+001 +1.8951318654E+001 -9.3659305916E+001 -1.7811988949E+002 -2.9087424624E+001 +1.1895261705E+002
7465000000.000 -8.7565596960E+000 -1.1549671974E+002 -4.2520933936E+001 -1.5410628413E+001 -8.7103137228E+001 -1.6980630572E+002 -2.8655055745E+001 +1.2225812523E+002
7597500000.000 -8.6339550015E+000 -1.1568181077E+002 -4.2496248440E+001 -4.9771981781E+001 -9.0084666224E+001 -4.0827031513E+000 -2.6149969131E+001 +1.3738666239E+002
7730000000.000 -8.4724075607E+000 -1.1601335951E+002 -4.2511956084E+001 -8.4203915761E+001 -8.4284603050E+001 +1.6028656928E+002 -2.3729407349E+001 +1.3773624924E+002
7862500000.000 -8.3598693709E+000 -1.1646678080E+002 -4.2444053680E+001 -1.1844650943E+002 -9.6707575442E+001 +1.1238778404E+002 -2.3293631896E+001 +1.4138906807E+002
7995000000.000 -8.2787747440E+000 -1.1667559213E+002 -4.2386545280E+001 -1.5307873439E+002 -9.5437615879E+001 -2.8405699629E+001 -2.1846021629E+001 +1.5427155355E+002
8127500000.000 -8.1343868596E+000 -1.1668274654E+002 -4.2330768950E+001 +1.7287498365E+002 -8.4621506715E+001 +3.5778245447E+001 -2.0026152393E+001 +1.5645108571E+002
8260000000.000 -8.0142959487E+000 -1.1713266820E+002 -4.2296254959E+001 +1.3800855511E+002 -8.9346987464E+001 +1.1819623056E+002 -1.9862855591E+001 +1.6021173069E+002
8392500000.000 -7.9404036449E+000 -1.1727125074E+002 -4.2200905992E+001 +1.0315858881E+002 -8.8819066271E+001 -3.9284121551E+001 -1.9066230969E+001 +1.7040182271E+002
8525000000.000 -7.8484019196E+000 -1.1722713287E+002 -4.2277503162E+001 +6.9036426538E+001 -8.3047021085E+001 +3.0141554679E+001 -1.8212023171E+001 +1.7295508392E+002
8657500000.000 -7.7405554711E+000 -1.1735242177E+002 -4.2033411773E+001 +3.3819345868E+001 -8.3666287917E+001 +1.4090093017E+002 -1.8565242791E+001 +1.7790208289E+002
8790000000.000 -7.6355786925E+000 -1.1763211808E+002 -4.1979140329E+001 -1.3039796937E+000 -8.7886017822E+001 -1.0128295071E+002 -1.8353503356E+001 -1.7175124125E+002
8922500000.000 -7.5937470759E+000 -1.1784541059E+002 -4.2009777382E+001 -3.5851300068E+001 -8.6182820598E+001 -7.8188510888E+001 -1.7981736468E+001 -1.6600661585E+002
9055000000.000 -7.5066830650E+000 -1.1791431352E+002 -4.1908997246E+001 -7.0209834267E+001 -9.1983572962E+001 +1.7661187469E+002 -1.8460006710E+001 -1.5837671189E+002
9187500000.000 -7.4236281000E+000 -1.1813498489E+002 -4.1840913557E+001 -1.0575242376E+002 -8.7920055265E+001 -1.4549954819E+002 -1.8385477452E+001 -1.4634164461E+002
9320000000.000 -7.3513292998E+000 -1.1874481032E+002 -4.1783179303E+001 -1.4090874473E+002 -9.3941191745E+001 +7.4587788744E+000 -1.8209238014E+001 -1.3966568172E+002
9452500000.000 -7.2982902101E+000 -1.1900895919E+002 -4.1729760759E+001 -1.7542740814E+002 -8.1735193467E+001 +1.1490147604E+002 -1.8851338978E+001 -1.3060586408E+002
9585000000.000 -7.2182823582E+000 -1.1926416648E+002 -4.1707117509E+001 +1.4892189672E+002 -9.2484748671E+001 -1.1782486893E+002 -1.8800403429E+001 -1.1822971194E+002
9717500000.000 -7.1066539046E+000 -1.1969548268E+002 -4.1670543360E+001 +1.1427047541E+002 -8.9544064932E+001 +2.4472674003E+000 -1.8805062770E+001 -1.1113077621E+002
9850000000.000 -7.0568636951E+000 -1.2042079532E+002 -4.1626751329E+001 +7.9117832913E+001 -8.3296288837E+001 +7.6235380951E+001 -1.9654149551E+001 -1.0064262138E+002
9982500000.000 -6.9918444273E+000 -1.2049191684E+002 -4.1580151546E+001 +4.3492411839E+001 -8.8358750131E+001 +1.5749768828E+002 -1.9709194644E+001 -8.6419182769E+001
10115000000.000 -6.9014878368E+000 -1.2073144174E+002 -4.1588390294E+001 +8.6501448233E+000 -9.2171611378E+001 +1.6612561304E+002 -1.9918581828E+001 -7.9044222988E+001
10247500000.000 -6.8072551631E+000 -1.2137938331E+002 -4.1553347180E+001 -2.6450356034E+001 -8.7506094077E+001 -9.3998699788E+000 -2.1156231564E+001 -6.6047651737E+001
10380000000.000 -6.7530208883E+000 -1.2182248613E+002 -4.1652094863E+001 -6.2748499355E+001 -8.6985047542E+001 +1.5864415287E+002 -2.1071882826E+001 -4.9880676000E+001
10512500000.000 -6.6925537262E+000 -1.2209649760E+002 -4.1558927200E+001 -9.7748675525E+001 -8.1817519404E+001 -8.9705301000E+001 -2.1508157681E+001 -4.1801098789E+001
10645000000.000 -6.6219867605E+000 -1.2241456655E+002 -4.1569955459E+001 -1.3167784856E+002 -8.3817518895E+001 +7.0013497384E+001 -2.2825863616E+001 -2.3889978267E+001
10777500000.000 -6.5295851153E+000 -1.2287191322E+002 -4.1651682874E+001 -1.6773354165E+002 -9.3886572980E+001 +1.3415816189E+002 -2.2221488449E+001 -5.9013003078E+000
10910000000.000 -6.4573781000E+000 -1.2330861127E+002 -4.1603641412E+001 +1.5645557607E+002 -9.4787600624E+001 -7.3717540866E+001 -2.2798271036E+001 +4.4567745222E+000
11042500000.000 -6.3842019473E+000 -1.2372900537E+002 -4.1743585611E+001 +1.2239653259E+002 -8.9325845408E+001 -8.6694237298E+001 -2.3446422933E+001 +2.7631991220E+001
11175000000.000 -6.2963307408E+000 -1.2393886463E+002 -4.1692733753E+001 +8.6615018780E+001 -9.1383078430E+001 +8.3983640636E+001 -2.2273112732E+001 +4.2833052781E+001
11307500000.000 -6.2318605457E+000 -1.2421131688E+002 -4.1767158957E+001 +5.0273315594E+001 -9.7700990496E+001 -1.1735075377E+002 -2.2741397477E+001 +5.3328488546E+001
11440000000.000 -6.1526799880E+000 -1.2460151104E+002 -4.1792623213E+001 +1.5415351596E+001 -8.4532526206E+001 -1.6004187892E+001 -2.2572180516E+001 +7.5791971639E+001
11572500000.000 -6.0891880694E+000 -1.2461980428E+002 -4.1790793331E+001 -1.9606167930E+001 -8.5270584305E+001 +1.7559438723E+002 -2.1164600570E+001 +8.7067078540E+001
11705000000.000 -6.0260695586E+000 -1.2482904779E+002 -4.1953041791E+001 -5.5663788268E+001 -8.4663021702E+001 -1.7466888326E+002 -2.1784364857E+001 +9.7112365261E+001
11837500000.000 -5.9576846990E+000 -1.2513024962E+002 -4.2055884228E+001 -9.0983165404E+001 -9.0339004484E+001 -9.1677617452E+001 -2.1133112109E+001 +1.1938040728E+002
11970000000.000 -5.9399312956E+000 -1.2531716256E+002 -4.2153320968E+001 -1.2584798001E+002 -8.7758493585E+001 +4.2222477894E+001 -1.9824405704E+001 +1.2554564557E+002
12102500000.000 -5.9048366752E+000 -1.2527613198E+002 -4.2234228127E+001 -1.6152091433E+002 -9.4338389746E+001 +1.7846769358E+002 -2.0759452192E+001 +1.3543180175E+002
12235000000.000 -5.8387587013E+000 -1.2585616134E+002 -4.2439980842E+001 +1.6323005749E+002 -8.2751775171E+001 -1.6366138776E+002 -1.9780655088E+001 +1.5463973379E+002
12367500000.000 -5.8314878144E+000 -1.2597781382E+002 -4.2504388807E+001 +1.2736090170E+002 -8.5925159346E+001 -1.4780082542E+002 -1.8884770429E+001 +1.5796156693E+002
12500000000.000 -5.7999526473E+000 -1.2645838675E+002 -4.2565410230E+001 +9.2548390088E+001 -9.3651925621E+001 -1.2797323399E+002 -2.0061471623E+001 +1.6814138414E+002
12632500000.000 -5.7477906183E+000 -1.2662013293E+002 -4.2804953332E+001 +5.7019002455E+001 -8.8406107686E+001 -1.1212481926E+002 -1.9174337347E+001 -1.7297260354E+002
12765000000.000 -5.7195523640E+000 -1.2694556324E+002 -4.2920670349E+001 +2.1999176249E+001 -8.6461655059E+001 +1.0205335115E+002 -1.8523995576E+001 -1.7125832426E+002
12897500000.000 -5.7079750174E+000 -1.2732598993E+002 -4.3004788695E+001 -1.3123117491E+001 -8.1904674075E+001 +1.1010685875E+002 -2.0125658513E+001 -1.5943279456E+002
13030000000.000 -5.6818842267E+000 -1.2758663772E+002 -4.3329014210E+001 -4.8296560396E+001 -8.8140513932E+001 -7.5704070834E+001 -1.8855353156E+001 -1.4152330113E+002
13162500000.000 -5.6417431044E+000 -1.2779761430E+002 -4.3397068415E+001 -8.3640625645E+001 -8.5945719308E+001 -2.3875471185E+001 -1.8653581846E+001 -1.4156469994E+002
13295000000.000 -5.6049770141E+000 -1.2804909710E+002 -4.3626300397E+001 -1.1836368140E+002 -8.6957389981E+001 +4.7069949686E+001 -2.0048344126E+001 -1.2780886523E+002
13427500000.000 -5.5907036846E+000 -1.2853922021E+002 -4.3746557423E+001 -1.5347632576E+002 -8.6343199186E+001 -1.5029990485E+002 -1.8862273885E+001 -1.1416261544E+002
13560000000.000 -5.5945044104E+000 -1.2862522804E+002 -4.3973655372E+001 +1.7167575612E+002 -8.8813174876E+001 +1.2766210531E+002 -1.9075613214E+001 -1.1462170404E+002
13692500000.000 -5.5465397116E+000 -1.2875470341E+002 -4.4025626027E+001 +1.3601650567E+002 -8.1590377679E+001 +4.7004167218E+001 -2.0831506601E+001 -1.0126889405E+002
13825000000.000 -5.4991425926E+000 -1.2919625739E+002 -4.4167695363E+001 +1.0296980096E+002 -8.5005591933E+001 -1.1252681232E+002 -1.9739676254E+001 -8.7689467302E+001
13957500000.000 -5.4988313581E+000 -1.2964218253E+002 -4.4600682269E+001 +6.6965913766E+001 -9.0638316612E+001 +5.8500528341E+001 -2.0401197497E+001 -9.0167096003E+001
14090000000.000 -5.4857080709E+000 -1.2977988944E+002 -4.4772156508E+001 +3.2377363347E+001 -8.4000682362E+001 -1.7826081138E+002 -2.2680529747E+001 -7.2573900773E+001
14222500000.000 -5.4368244448E+000 -1.2974193659E+002 -4.4921893103E+001 -1.2158538001E+000 -9.2995412347E+001 -1.9911666706E+001 -2.1296351851E+001 -5.9382642411E+001
14355000000.000 -5.3826089748E+000 -1.3021412879E+002 -4.5271341609E+001 -3.8685250254E+001 -8.5038279173E+001 -1.0761090520E+002 -2.2520785837E+001 -6.3739384092E+001
14487500000.000 -5.3626072160E+000 -1.3045976092E+002 -4.5335701892E+001 -7.2459351689E+001 -8.7379968819E+001 +1.1582405332E+000 -2.5567192734E+001 -4.0281552988E+001
14620000000.000 -5.3467636509E+000 -1.3040263085E+002 -4.5547058076E+001 -1.0610922054E+002 -8.7089303908E+001 +1.5893060041E+002 -2.3284625847E+001 -2.7203507258E+001
14752500000.000 -5.2643343535E+000 -1.3040294270E+002 -4.5847155506E+001 -1.4151501755E+002 -8.4294252367E+001 -5.6388062813E+001 -2.5353077674E+001 -3.6973525569E+001
14885000000.000 -5.2243652261E+000 -1.3055422722E+002 -4.5880840580E+001 -1.7550025854E+002 -8.8029192590E+001 -7.5260342161E+000 -2.9000087301E+001 +2.4678791665E+000
15017500000.000 -5.2107580589E+000 -1.3053408666E+002 -4.6249387136E+001 +1.4905019400E+002 -8.6675901595E+001 +1.4325577502E+002 -2.5379712500E+001 +9.3478416107E+000
15150000000.000 -5.1616627036E+000 -1.3035820071E+002 -4.6453461940E+001 +1.1646616359E+002 -8.7770585863E+001 -1.1618557581E+002 -2.9080881662E+001 -2.7368098991E+000
15282500000.000 -5.1317672171E+000 -1.3029243566E+002 -4.6832501974E+001 +7.9108354761E+001 -1.0294038580E+002 -5.0574703456E+001 -3.1278213968E+001 +5.8367448843E+001
