!  2-Port S-parameters saved by WinCal
! VAR MeasName=S-Parameters (CALIBRATED_DATA) read from VNA (C)
! VAR MeasDate=10/16/2015 11:02:53 AM
! VAR NAME=M6082_13_13_2_2_20C_10.4mA_-17.5dBm
! VAR FILENAME=M6082_13_13_2_2_20C_10.4mA_-17.5dBm_1_1.S2P
! VAR DATE=10/16/2015 11:02:53 AM
! VAR PHYS_PORTS=2,1
! VAR ObjTypeName=DATASET
! VAR IndexType=Frequency
!
# Hz S DB R 50
45000000.000 -2.0260822087E+001 +8.6941631578E-001 -4.3952908442E+001 +9.2173218811E+001 -5.9448611038E+001 +4.7255555677E+001 -3.1045917936E+001 +7.9010494543E+000
177500000.000 -2.0082428364E+001 -1.2114593144E+000 -4.3405372239E+001 +7.0701271185E+001 -6.9911817228E+001 +8.4770486073E+001 -3.2595503609E+001 +4.6555278725E+001
310000000.000 -1.9954952132E+001 -3.7926687208E+000 -4.3367762492E+001 +3.8953443174E+001 -8.1117344681E+001 -3.2642560794E+000 -2.3299978346E+001 +6.4619849951E+001
442500000.000 -1.9841511065E+001 -6.7329065259E+000 -4.2675115252E+001 +1.2639437751E-001 -7.8155869791E+001 -2.8393347745E+001 -2.2306283986E+001 +1.7707534059E+001
575000000.000 -1.9772631759E+001 -9.6740948233E+000 -4.3380719992E+001 -3.3357372385E+001 -9.6112909391E+001 -4.4719016447E+001 -3.0434256021E+001 +2.2613018138E+001
707500000.000 -1.9715594283E+001 -1.2152078543E+001 -4.3337082851E+001 -6.8278676490E+001 -8.3715552736E+001 -1.2403783596E+002 -3.4428377071E+001 +8.2463532829E+001
840000000.000 -1.9587210129E+001 -1.4980554992E+001 -4.3300878932E+001 -1.0221571913E+002 -9.6594339148E+001 -1.6842035760E+001 -2.9695353434E+001 +1.2702538921E+002
972500000.000 -1.9459379192E+001 -1.7538658991E+001 -4.3405204883E+001 -1.3605508848E+002 -8.4016890555E+001 +1.2576758546E+002 -2.5913658187E+001 +1.3506716970E+002
1105000000.000 -1.9383530167E+001 -2.0268195010E+001 -4.3397055607E+001 -1.7005087412E+002 -9.1677154190E+001 -1.0925894244E+002 -2.4353384188E+001 +1.4052287113E+002
1237500000.000 -1.9274791568E+001 -2.2640744093E+001 -4.3504561137E+001 +1.5582260614E+002 -9.0451244665E+001 -3.5068028756E+001 -2.3383987228E+001 +1.4980383834E+002
1370000000.000 -1.9160212512E+001 -2.5084741093E+001 -4.3468864081E+001 +1.2220377665E+002 -8.5442590671E+001 +1.1564691100E+002 -2.2062652325E+001 +1.5976282184E+002
1502500000.000 -1.9043018783E+001 -2.7439694537E+001 -4.3479141079E+001 +8.8652088738E+001 -8.2044507019E+001 -1.6251997783E+002 -2.0853983500E+001 +1.6618132773E+002
1635000000.000 -1.8859507617E+001 -2.9555402540E+001 -4.3570354905E+001 +5.5087993772E+001 -8.3344560872E+001 +7.7485597981E-001 -2.0019981875E+001 +1.7315974969E+002
1767500000.000 -1.8688918600E+001 -3.2046821039E+001 -4.3694169296E+001 +2.1615108911E+001 -8.3694216958E+001 +8.9131255878E+001 -1.9004753971E+001 +1.7836648448E+002
1900000000.000 -1.8542857312E+001 -3.3954555021E+001 -4.3544228309E+001 -1.4537990375E+001 -8.2788483606E+001 +1.4725867434E+002 -1.8861150679E+001 -1.7837601577E+002
2032500000.000 -1.8424724094E+001 -3.5744950851E+001 -4.3545560667E+001 -4.8008816733E+001 -7.6114875061E+001 -4.0451203353E+001 -1.8670552091E+001 -1.6799562507E+002
2165000000.000 -1.8189914690E+001 -3.7627990426E+001 -4.3792442956E+001 -8.1224747959E+001 -7.5651980815E+001 +1.1970508187E+002 -1.7738051157E+001 -1.6109147268E+002
2297500000.000 -1.8031896506E+001 -3.9452837167E+001 -4.3826811625E+001 -1.1517920985E+002 -8.3885444212E+001 -1.4861197800E+002 -1.7234326478E+001 -1.5714706859E+002
2430000000.000 -1.7911646172E+001 -4.1085205548E+001 -4.4136449899E+001 -1.4798272738E+002 -7.8779754009E+001 -6.0736609639E+001 -1.6917043477E+001 -1.5290717633E+002
2562500000.000 -1.7723277782E+001 -4.2825737214E+001 -4.3783377236E+001 +1.7706557028E+002 -8.1809752446E+001 -4.8109026515E-001 -1.6818023193E+001 -1.5056597869E+002
2695000000.000 -1.7662140333E+001 -4.4626865950E+001 -4.3734492680E+001 +1.4419478534E+002 -7.5581787204E+001 +1.7774057803E+002 -1.7341897456E+001 -1.4732550291E+002
2827500000.000 -1.7595907565E+001 -4.5930470659E+001 -4.3812492490E+001 +1.0878738123E+002 -7.9003563257E+001 -1.5683364515E+002 -1.7830123169E+001 -1.4037949736E+002
2960000000.000 -1.7433307719E+001 -4.7159236311E+001 -4.3833471882E+001 +7.5608318629E+001 -7.8068149248E+001 +6.0363753544E+000 -1.8123619683E+001 -1.3568613674E+002
3092500000.000 -1.7266627053E+001 -4.9218892449E+001 -4.3967659684E+001 +4.2331436444E+001 -7.4945110236E+001 +1.4756045889E+002 -1.9064211060E+001 -1.2961913370E+002
3225000000.000 -1.7202075779E+001 -5.1118327102E+001 -4.3926690683E+001 +8.3745070001E+000 -8.5760305549E+001 +1.3108323244E+002 -1.9584443379E+001 -1.1986169316E+002
3357500000.000 -1.7131873312E+001 -5.2252192816E+001 -4.4011594547E+001 -2.5991084838E+001 -8.6655580537E+001 +1.8892433918E+001 -1.9935518484E+001 -1.1445724138E+002
3490000000.000 -1.6918949497E+001 -5.3852144565E+001 -4.4074602583E+001 -5.8564740935E+001 -8.9355542551E+001 -5.7470731594E+000 -2.1126598870E+001 -1.0887797091E+002
3622500000.000 -1.6753083707E+001 -5.5687988317E+001 -4.3873320324E+001 -9.2475836131E+001 -8.8336717425E+001 +1.4918009554E+002 -2.1944015006E+001 -9.8318392764E+001
3755000000.000 -1.6609395749E+001 -5.7378364683E+001 -4.3940766005E+001 -1.2598737562E+002 -8.6365696972E+001 +2.9088687411E+001 -2.2675663726E+001 -9.4540360867E+001
3887500000.000 -1.6451571490E+001 -5.8711877613E+001 -4.3788669085E+001 -1.5930867824E+002 -8.6846870626E+001 +8.9575107716E+001 -2.4995404078E+001 -8.7917364137E+001
4020000000.000 -1.6308300300E+001 -6.0051301985E+001 -4.3905342425E+001 +1.6627228407E+002 -9.2326589462E+001 -1.6977071426E+002 -2.6659253297E+001 -7.3449693273E+001
4152500000.000 -1.6124055128E+001 -6.1317418249E+001 -4.3776573480E+001 +1.3153190613E+002 -8.0244923394E+001 -6.3533133594E+001 -2.8803922747E+001 -6.4474641499E+001
4285000000.000 -1.5947728488E+001 -6.2651467729E+001 -4.3761050332E+001 +9.7543283497E+001 -7.9332370727E+001 +6.4691993536E+001 -3.3149252480E+001 -3.8394173104E+001
4417500000.000 -1.5814368941E+001 -6.4120760471E+001 -4.3850507681E+001 +6.2844880262E+001 -8.4355564135E+001 -1.5547481645E+002 -3.1700860755E+001 +7.6390858232E+000
4550000000.000 -1.5649242311E+001 -6.5005990714E+001 -4.4095059511E+001 +3.1276828697E+001 -8.5544532781E+001 -1.4425726327E+002 -3.0195407427E+001 +1.7597765907E+001
4682500000.000 -1.5440118146E+001 -6.6177982119E+001 -4.4088544397E+001 -2.5949148730E+000 -9.0399565214E+001 -9.6842412688E+000 -2.9561849230E+001 +3.7652935465E+001
4815000000.000 -1.5289692415E+001 -6.7442500600E+001 -4.4091045992E+001 -3.5853812733E+001 -8.9512628332E+001 +5.9290417898E+001 -2.7588843028E+001 +4.0611801848E+001
4947500000.000 -1.5144764487E+001 -6.8094622394E+001 -4.4125012598E+001 -6.8572195712E+001 -8.6711830251E+001 -1.2330737485E+002 -2.9266290194E+001 +3.4834350854E+001
5080000000.000 -1.4951130633E+001 -6.8803664470E+001 -4.3984433606E+001 -1.0151634100E+002 -9.0872162793E+001 +5.1835228855E+001 -3.2145365680E+001 +5.5295752900E+001
5212500000.000 -1.4790895753E+001 -6.9816383056E+001 -4.3911342829E+001 -1.3650795399E+002 -8.5867626344E+001 +1.4946640332E+002 -3.1502285957E+001 +6.7981544745E+001
5345000000.000 -1.4684958961E+001 -7.0607698932E+001 -4.3815420979E+001 -1.7064325637E+002 -9.2208027937E+001 -1.4442134679E+002 -3.5232255551E+001 +6.8617621762E+001
5477500000.000 -1.4533296105E+001 -7.0801093787E+001 -4.3685137313E+001 +1.5548778929E+002 -9.3220225920E+001 +2.0687060524E+000 -3.7537650234E+001 +1.3001765474E+002
5610000000.000 -1.4357618097E+001 -7.1568660815E+001 -4.3643426239E+001 +1.2161948175E+002 -8.7601737103E+001 +1.3531685815E+002 -3.3787076932E+001 +1.3423186929E+002
5742500000.000 -1.4283255091E+001 -7.2442623487E+001 -4.3684798752E+001 +8.7445693610E+001 -9.2152571795E+001 +1.1395941576E+002 -3.8149900537E+001 +1.4941679857E+002
5875000000.000 -1.4243080271E+001 -7.2889651317E+001 -4.3726172439E+001 +5.3009686530E+001 -8.8670595059E+001 +5.3187031941E+000 -3.4083706197E+001 -1.7077178544E+002
6007500000.000 -1.4105423604E+001 -7.3245529707E+001 -4.3734833130E+001 +1.9244459421E+001 -8.5956869344E+001 +9.0235190851E+001 -3.2798286557E+001 +1.7869544649E+002
6140000000.000 -1.3963968344E+001 -7.4105551516E+001 -4.3752070959E+001 -1.5611286546E+001 -8.6565382672E+001 +1.6676520573E+002 -3.6497815422E+001 -1.7217530908E+002
6272500000.000 -1.3909042317E+001 -7.5372194081E+001 -4.3677086118E+001 -4.9555277393E+001 -8.0612245105E+001 -4.4284163929E+001 -3.4242697912E+001 -1.4456086128E+002
6405000000.000 -1.3895483186E+001 -7.6012056883E+001 -4.3700034525E+001 -8.3388647242E+001 -8.5161838278E+001 -5.5889503192E+001 -3.3900744299E+001 -1.6306865803E+002
6537500000.000 -1.3768194028E+001 -7.6223992562E+001 -4.3642172667E+001 -1.1772564030E+002 -8.4342306245E+001 +1.4843456877E+002 -4.0241145671E+001 -1.6491043855E+002
6670000000.000 -1.3569780211E+001 -7.7215418346E+001 -4.3744504160E+001 -1.5153735397E+002 -8.3674015790E+001 -1.0504622266E+002 -3.9868142339E+001 -1.4009279066E+002
6802500000.000 -1.3494689840E+001 -7.8652367339E+001 -4.3788534548E+001 +1.7496893947E+002 -8.8065114605E+001 +1.7253645467E+001 -3.8764437512E+001 +1.7743025818E+002
6935000000.000 -1.3498068308E+001 -7.9263099492E+001 -4.3814291579E+001 +1.4131404531E+002 -8.2078025439E+001 +1.3384959845E+002 -3.8183507858E+001 +1.2381055803E+002
7067500000.000 -1.3363223878E+001 -7.9384847221E+001 -4.3799695232E+001 +1.0695153711E+002 -8.8132574986E+001 +7.0844577015E+001 -3.8502512794E+001 +1.1595112521E+002
7200000000.000 -1.3181784378E+001 -8.0554067495E+001 -4.3700776715E+001 +7.2541408842E+001 -8.9983041435E+001 -7.2373993719E+000 -3.2660937113E+001 +1.3154387008E+002
7332500000.000 -1.3110229539E+001 -8.1756912636E+001 -4.3753367337E+001 +3.8969730661E+001 -9.0440528299E+001 -1.6602324773E+001 -2.9028740883E+001 +1.1964560786E+002
7465000000.000 -1.3052007827E+001 -8.2238815073E+001 -4.3837529440E+001 +4.9593402324E+000 -8.7303748106E+001 -9.4939732897E+001 -2.8610835734E+001 +1.2347401988E+002
7597500000.000 -1.2871124273E+001 -8.2828452167E+001 -4.3770575294E+001 -2.9063820282E+001 -9.1910528774E+001 +3.3453309454E+001 -2.6056694346E+001 +1.3773398805E+002
7730000000.000 -1.2727465933E+001 -8.3807757521E+001 -4.3831908800E+001 -6.2432045059E+001 -8.0160111978E+001 +1.5130607930E+002 -2.3704654740E+001 +1.3791809164E+002
7862500000.000 -1.2629003317E+001 -8.4425122571E+001 -4.3863550277E+001 -9.6220628597E+001 -8.2971303629E+001 -1.7520741008E+002 -2.3286436716E+001 +1.4191302580E+002
7995000000.000 -1.2510885913E+001 -8.4691608650E+001 -4.3820808409E+001 -1.3050997076E+002 -9.0842202153E+001 +1.7104109864E+002 -2.1815017222E+001 +1.5458181969E+002
8127500000.000 -1.2318655767E+001 -8.5232160531E+001 -4.3869735098E+001 -1.6360636740E+002 -8.3895625456E+001 +7.6698235997E+001 -2.0028722817E+001 +1.5644608691E+002
8260000000.000 -1.2212755041E+001 -8.5926835344E+001 -4.3833213127E+001 +1.6203451855E+002 -8.3949312959E+001 -1.5700035313E+002 -1.9895268216E+001 +1.6014382650E+002
8392500000.000 -1.2103016291E+001 -8.6092797950E+001 -4.3802032236E+001 +1.2829427198E+002 -9.0253735972E+001 -7.7249949426E+001 -1.9052850172E+001 +1.7044456220E+002
8525000000.000 -1.1988618072E+001 -8.6239798688E+001 -4.3764396811E+001 +9.4310953136E+001 -8.5738611837E+001 +3.9459793651E+001 -1.8194075122E+001 +1.7278183633E+002
8657500000.000 -1.1873332044E+001 -8.6468170350E+001 -4.3678938793E+001 +6.0897974690E+001 -8.6027236097E+001 -1.6697560370E+002 -1.8569458012E+001 +1.7770813040E+002
8790000000.000 -1.1756001565E+001 -8.6830869687E+001 -4.3734497475E+001 +2.6296473308E+001 -8.1370485668E+001 -7.9303734845E+001 -1.8353056554E+001 -1.7188319465E+002
8922500000.000 -1.1701162962E+001 -8.7079826794E+001 -4.3748467126E+001 -7.9504475926E+000 -9.6658780654E+001 +8.2507364392E+001 -1.7986759048E+001 -1.6620550589E+002
9055000000.000 -1.1614002321E+001 -8.7382320577E+001 -4.3729165118E+001 -4.1488367474E+001 -8.6760575408E+001 -1.7920508340E+002 -1.8463934684E+001 -1.5862233343E+002
9187500000.000 -1.1547576072E+001 -8.7610617433E+001 -4.3621494202E+001 -7.5992410703E+001 -8.7755864694E+001 -5.3579976719E+001 -1.8387713292E+001 -1.4670618760E+002
9320000000.000 -1.1497446837E+001 -8.8216040271E+001 -4.3699721559E+001 -1.1013427436E+002 -9.0522841509E+001 -5.7336379282E+001 -1.8219585800E+001 -1.4002253160E+002
9452500000.000 -1.1431771450E+001 -8.8523009924E+001 -4.3596716668E+001 -1.4435828928E+002 -8.6691136057E+001 -1.7812971606E+002 -1.8838132601E+001 -1.3085658792E+002
9585000000.000 -1.1358291606E+001 -8.8920234478E+001 -4.3781408005E+001 -1.7811222937E+002 -8.9640217210E+001 -1.2251266436E+002 -1.8779356285E+001 -1.1867351098E+002
9717500000.000 -1.1254020704E+001 -8.9728503467E+001 -4.3575215830E+001 +1.4786087094E+002 -8.8188687597E+001 -4.4376212610E+001 -1.8829674102E+001 -1.1162653961E+002
9850000000.000 -1.1234104050E+001 -9.0372852304E+001 -4.3563353051E+001 +1.1353895534E+002 -8.2953044441E+001 +5.9247096745E+001 -1.9659399120E+001 -1.0085449072E+002
9982500000.000 -1.1151245798E+001 -9.0508202225E+001 -4.3785161877E+001 +8.0185582151E+001 -8.0861024342E+001 -1.7593335811E+002 -1.9652419610E+001 -8.7069327494E+001
10115000000.000 -1.1053795913E+001 -9.1120610364E+001 -4.3689061385E+001 +4.5447556475E+001 -8.1852055512E+001 -2.8397730094E+001 -1.9926053615E+001 -7.9889957268E+001
10247500000.000 -1.1007246929E+001 -9.1900360961E+001 -4.3733336237E+001 +1.1837402919E+001 -8.1052012979E+001 +3.8250054392E+001 -2.1142308072E+001 -6.6439708844E+001
10380000000.000 -1.0931864076E+001 -9.2142626013E+001 -4.3620265927E+001 -2.1714821088E+001 -8.6205127789E+001 -1.6692514508E+002 -2.0985907330E+001 -5.0614812574E+001
10512500000.000 -1.0844035390E+001 -9.2846885914E+001 -4.3779278963E+001 -5.5937613498E+001 -8.1978841224E+001 -1.0980745150E+002 -2.1462259158E+001 -4.2969539451E+001
10645000000.000 -1.0807188202E+001 -9.3545865147E+001 -4.3747949686E+001 -8.9663501842E+001 -8.7893455238E+001 +1.7662855876E+001 -2.2834930513E+001 -2.4444456179E+001
10777500000.000 -1.0741234254E+001 -9.3856936003E+001 -4.3614036825E+001 -1.2449593733E+002 -9.0525721573E+001 +1.2892298426E+002 -2.2136222972E+001 -6.6476232397E+000
10910000000.000 -1.0622819165E+001 -9.4260201073E+001 -4.3643116937E+001 -1.5819820466E+002 -9.3901847417E+001 -1.3347311007E+002 -2.2756582766E+001 +2.8019902248E+000
11042500000.000 -1.0510545921E+001 -9.5291054389E+001 -4.3635277117E+001 +1.6822104118E+002 -7.8787704871E+001 +9.8087124446E+000 -2.3470879163E+001 +2.6548288649E+001
11175000000.000 -1.0433803773E+001 -9.5764091932E+001 -4.3633782237E+001 +1.3336769851E+002 -8.4615022396E+001 +1.1864161214E+002 -2.2179716168E+001 +4.1892835128E+001
11307500000.000 -1.0372525795E+001 -9.5874268666E+001 -4.3576330611E+001 +9.8827054352E+001 -8.5448096718E+001 -8.9248623017E+001 -2.2704716745E+001 +5.1819057198E+001
11440000000.000 -1.0242666458E+001 -9.6392936399E+001 -4.3525627459E+001 +6.5449501571E+001 -8.2150404414E+001 -1.2125500480E+001 -2.2617945327E+001 +7.4716118488E+001
11572500000.000 -1.0134716838E+001 -9.6627325614E+001 -4.3627163871E+001 +3.1907110335E+001 -8.6748506612E+001 +5.1447123928E+001 -2.1157112373E+001 +8.6186589588E+001
11705000000.000 -1.0072288647E+001 -9.6938986131E+001 -4.3522529209E+001 -3.2784961030E+000 -8.8612704967E+001 -9.2661864711E+001 -2.1741437653E+001 +9.5752052111E+001
11837500000.000 -9.9857713751E+000 -9.7278733191E+001 -4.3595937078E+001 -3.6623143050E+001 -8.9658806748E+001 -1.3012069834E+002 -2.1155611430E+001 +1.1820437062E+002
11970000000.000 -9.9461635501E+000 -9.7367322867E+001 -4.3439819409E+001 -7.0991201056E+001 -9.0527021941E+001 +4.3562137020E+001 -1.9816071996E+001 +1.2459933494E+002
12102500000.000 -9.8687695987E+000 -9.7219254966E+001 -4.3542910270E+001 -1.0613104676E+002 -9.5376949316E+001 -1.5883581771E+002 -2.0741710339E+001 +1.3447649641E+002
12235000000.000 -9.8374624702E+000 -9.8121276461E+001 -4.3549441645E+001 -1.4012757855E+002 -8.4185029470E+001 -3.8783666615E+001 -1.9766088869E+001 +1.5357862328E+002
12367500000.000 -9.8179423355E+000 -9.7927944956E+001 -4.3607545719E+001 -1.7294839268E+002 -8.6185825956E+001 -4.3073814867E-001 -1.8890683703E+001 +1.5683929683E+002
12500000000.000 -9.7707485140E+000 -9.8442358595E+001 -4.3667353736E+001 +1.5200534456E+002 -9.3292659844E+001 +1.5282967600E+002 -2.0048892452E+001 +1.6722515615E+002
12632500000.000 -9.6705768990E+000 -9.8834800840E+001 -4.3783897051E+001 +1.1763893789E+002 -9.3109347605E+001 -8.2011218392E+001 -1.9089043526E+001 -1.7387757759E+002
12765000000.000 -9.6762332862E+000 -9.9177700090E+001 -4.3693918709E+001 +8.4074574692E+001 -8.5631923387E+001 +1.0688379184E+002 -1.8485988129E+001 -1.7244114867E+002
12897500000.000 -9.6726230641E+000 -9.9486833208E+001 -4.3773499995E+001 +4.9874126826E+001 -8.0631636621E+001 +1.1608154097E+002 -2.0154154948E+001 -1.6017541812E+002
13030000000.000 -9.6028699292E+000 -9.9616461803E+001 -4.3791992777E+001 +1.5419561520E+001 -8.4320352209E+001 -6.5478340418E+001 -1.8750279059E+001 -1.4235858808E+002
13162500000.000 -9.5337193662E+000 -9.9970186057E+001 -4.3767467702E+001 -1.8377625067E+001 -9.3242177899E+001 +2.3458302912E+001 -1.8536165348E+001 -1.4291477929E+002
13295000000.000 -9.4840127079E+000 -1.0039176199E+002 -4.3728485471E+001 -5.2824574764E+001 -8.3514910320E+001 +1.3107216738E+002 -2.0020549096E+001 -1.2878811511E+002
13427500000.000 -9.4849278764E+000 -1.0100538800E+002 -4.3842272055E+001 -8.6988106443E+001 -8.5476065268E+001 -1.5418447997E+002 -1.8720147248E+001 -1.1464564139E+002
13560000000.000 -9.4816503414E+000 -1.0089772503E+002 -4.3712027984E+001 -1.2148854098E+002 -8.1809985448E+001 -7.2452133237E+001 -1.8896896532E+001 -1.1573943884E+002
13692500000.000 -9.3827825777E+000 -1.0096955751E+002 -4.3786001293E+001 -1.5452421309E+002 -8.7548017916E+001 +1.1145974839E+002 -2.0776002398E+001 -1.0228487822E+002
13825000000.000 -9.3248395410E+000 -1.0175138598E+002 -4.3869799729E+001 +1.7120389407E+002 -8.1731955081E+001 -1.6143075350E+002 -1.9604073727E+001 -8.7984404916E+001
13957500000.000 -9.3396650813E+000 -1.0228785219E+002 -4.3792628302E+001 +1.3564277165E+002 -8.2754562280E+001 +4.0295306777E+001 -2.0194835678E+001 -9.0701883454E+001
14090000000.000 -9.3029706264E+000 -1.0238932745E+002 -4.3931851047E+001 +1.0277951068E+002 -7.8127972809E+001 +5.6350018134E+001 -2.2534061752E+001 -7.3793752165E+001
14222500000.000 -9.1927689945E+000 -1.0257635448E+002 -4.3835243165E+001 +6.7937048825E+001 -8.5484706230E+001 -1.6853343390E+002 -2.1166555363E+001 -5.9759937532E+001
14355000000.000 -9.1517894085E+000 -1.0324927806E+002 -4.3804041103E+001 +3.3518054483E+001 -8.0422197439E+001 -4.4499308478E+001 -2.2303316141E+001 -6.3675787703E+001
14487500000.000 -9.1182464561E+000 -1.0362611214E+002 -4.3930149387E+001 -4.8323442358E-001 -8.4249308469E+001 +7.4619846541E+001 -2.5286984648E+001 -4.1088234408E+001
14620000000.000 -9.0318616968E+000 -1.0352940018E+002 -4.3862195573E+001 -3.4888148657E+001 -8.5587264309E+001 -1.3761266780E+002 -2.3159549855E+001 -2.7925062294E+001
14752500000.000 -8.8949814986E+000 -1.0400790290E+002 -4.3779582167E+001 -6.9624299729E+001 -8.7515753805E+001 -4.2812284646E+001 -2.5253108395E+001 -3.6238025715E+001
14885000000.000 -8.8583516484E+000 -1.0431022633E+002 -4.3921527005E+001 -1.0430891986E+002 -8.7452345952E+001 +3.7680334284E+000 -2.8502579112E+001 +1.8123502905E+000
15017500000.000 -8.8413447866E+000 -1.0412191539E+002 -4.4019250963E+001 -1.3741877514E+002 -8.4022604584E+001 +1.3950980450E+002 -2.5259279369E+001 +8.0332616377E+000
15150000000.000 -8.7127750614E+000 -1.0392985977E+002 -4.4061648783E+001 -1.7194729641E+002 -7.9792402689E+001 -1.5945371145E+002 -2.9075761471E+001 -1.5661213366E+000
15282500000.000 -8.6316549886E+000 -1.0400703080E+002 -4.4090947531E+001 +1.5461989931E+002 -7.9561523983E+001 -5.6234511489E+001 -3.0573781960E+001 +5.7351838357E+001
