!  2-Port S-parameters saved by WinCal
! VAR MeasName=S-Parameters (CALIBRATED_DATA) read from VNA (C)
! VAR MeasDate=10/16/2015 12:40:33 PM
! VAR NAME=M6082_13_15_2_2_20C_2.5mA_-17.5dBm
! VAR FILENAME=M6082_13_15_2_2_20C_2.5mA_-17.5dBm.S2P
! VAR DATE=10/16/2015 12:40:33 PM
! VAR PHYS_PORTS=2,1
! VAR ObjTypeName=DATASET
! VAR IndexType=Frequency
!
# Hz S DB R 50
45000000.000 -1.7016908111E+001 -7.0697487387E-001 -4.6179034494E+001 +1.0183105175E+002 -5.8340727956E+001 +1.4257177128E+002 -3.0745224884E+001 +3.1702221836E+000
177500000.000 -1.7158982494E+001 -4.0597925980E+000 -4.4555379680E+001 +6.6902022932E+001 -8.0613780182E+001 +1.1946955954E+002 -3.2697531674E+001 +4.6491957393E+001
310000000.000 -1.7171429817E+001 -6.7703185525E+000 -4.4729416919E+001 +3.8207482550E+001 -7.8095289628E+001 +1.3430061094E+002 -2.3349744993E+001 +6.4549022793E+001
442500000.000 -1.7151103162E+001 -9.9215152210E+000 -4.3711387875E+001 -1.0262458723E+000 -7.7346014161E+001 +7.0657237557E+000 -2.2375788200E+001 +1.7164623740E+001
575000000.000 -1.7126236354E+001 -1.3036273776E+001 -4.4351851852E+001 -3.7131874523E+001 -8.4786254281E+001 +1.0925562444E+000 -3.0592094715E+001 +2.2437587070E+001
707500000.000 -1.7099493192E+001 -1.5742444367E+001 -4.4553762511E+001 -7.1914584882E+001 -8.5129024758E+001 -7.2090730488E+001 -3.4554677388E+001 +8.3646591235E+001
840000000.000 -1.7022476004E+001 -1.8648840561E+001 -4.4639175202E+001 -1.0584968642E+002 -8.5778129212E+001 -1.2189823290E+002 -2.9676158476E+001 +1.2736864194E+002
972500000.000 -1.6925351332E+001 -2.1245898447E+001 -4.4748360514E+001 -1.3942967646E+002 -7.9463305890E+001 +1.4440797363E+002 -2.5948820417E+001 +1.3526363843E+002
1105000000.000 -1.6851342135E+001 -2.4094999881E+001 -4.4878480042E+001 -1.7391852238E+002 -8.3163664537E+001 -1.3475777044E+002 -2.4370136556E+001 +1.4080584333E+002
1237500000.000 -1.6773550701E+001 -2.6566399535E+001 -4.4824181662E+001 +1.5187192091E+002 -8.8417390343E+001 -6.8068762857E-001 -2.3401817867E+001 +1.4996153638E+002
1370000000.000 -1.6664383069E+001 -2.9079763378E+001 -4.4975257690E+001 +1.1778708334E+002 -8.8163872990E+001 +6.7038870132E+001 -2.2078829493E+001 +1.5995711229E+002
1502500000.000 -1.6561723550E+001 -3.1540035608E+001 -4.4866599640E+001 +8.3284153844E+001 -8.8610723035E+001 +1.5337192568E+002 -2.0863231275E+001 +1.6637009031E+002
1635000000.000 -1.6383730787E+001 -3.3724446748E+001 -4.5023805073E+001 +4.9163296690E+001 -8.5008922986E+001 +3.3229026077E+001 -2.0035344708E+001 +1.7326913703E+002
1767500000.000 -1.6239881414E+001 -3.6285238194E+001 -4.4945159594E+001 +1.4961893902E+001 -9.9542585349E+001 -5.6495968475E+001 -1.9023440979E+001 +1.7852123605E+002
1900000000.000 -1.6124709816E+001 -3.8366159987E+001 -4.4897966268E+001 -1.9779630451E+001 -8.1307846504E+001 -1.5097407524E+002 -1.8872987726E+001 -1.7828929813E+002
2032500000.000 -1.5996845490E+001 -4.0383285810E+001 -4.5098760618E+001 -5.3555162949E+001 -8.1343724233E+001 -7.7791435636E+001 -1.8689547403E+001 -1.6791705770E+002
2165000000.000 -1.5802290607E+001 -4.2373978734E+001 -4.4997557700E+001 -8.6926455910E+001 -8.7783010814E+001 +9.2730663709E+001 -1.7743615472E+001 -1.6097016280E+002
2297500000.000 -1.5660829364E+001 -4.4260057017E+001 -4.4996709779E+001 -1.2138478729E+002 -8.9373718310E+001 -1.4060613955E+001 -1.7247302129E+001 -1.5707985470E+002
2430000000.000 -1.5539000661E+001 -4.6032986026E+001 -4.4977092409E+001 -1.5625103774E+002 -7.9803185920E+001 -6.5619076855E+001 -1.6936906633E+001 -1.5283314474E+002
2562500000.000 -1.5364558871E+001 -4.7696478426E+001 -4.4883144187E+001 +1.7022915807E+002 -7.7369756565E+001 +4.4420215849E+001 -1.6840222395E+001 -1.5047972117E+002
2695000000.000 -1.5278300533E+001 -4.9613996439E+001 -4.5044987436E+001 +1.3606711367E+002 -7.8122633799E+001 +9.2745449991E+001 -1.7370301289E+001 -1.4716086606E+002
2827500000.000 -1.5200401965E+001 -5.1161046030E+001 -4.5125237349E+001 +1.0174396114E+002 -8.9324584837E+001 +2.7908471346E+001 -1.7848162224E+001 -1.4023200005E+002
2960000000.000 -1.5046671394E+001 -5.2509764216E+001 -4.4876366427E+001 +6.8423617023E+001 -8.0776074786E+001 -2.5751933268E+001 -1.8149228274E+001 -1.3551330649E+002
3092500000.000 -1.4864520732E+001 -5.4383829878E+001 -4.4929326324E+001 +3.4200638915E+001 -8.1028621935E+001 +7.4750360476E+001 -1.9085490203E+001 -1.2938089887E+002
3225000000.000 -1.4766497633E+001 -5.6322542603E+001 -4.4875052486E+001 -5.3637646527E-001 -8.3505605852E+001 -8.1303159216E+001 -1.9591397093E+001 -1.1971022352E+002
3357500000.000 -1.4685760794E+001 -5.7631726091E+001 -4.4816984494E+001 -3.4537800839E+001 -8.5508422252E+001 +3.8295898730E+001 -1.9970272306E+001 -1.1432011021E+002
3490000000.000 -1.4480562847E+001 -5.9066026072E+001 -4.4839427972E+001 -6.8522299544E+001 -8.5897488394E+001 +1.2135714138E+002 -2.1133729440E+001 -1.0863104511E+002
3622500000.000 -1.4286269257E+001 -6.0787050197E+001 -4.4654242793E+001 -1.0135159347E+002 -7.7246850362E+001 -3.1955616689E+001 -2.1939432711E+001 -9.8126238067E+001
3755000000.000 -1.4132207453E+001 -6.2543567345E+001 -4.4732788164E+001 -1.3518655459E+002 -7.7875704707E+001 -2.3178619717E+001 -2.2716947894E+001 -9.4613003429E+001
3887500000.000 -1.3982084205E+001 -6.3781077688E+001 -4.4637375724E+001 -1.7066254506E+002 -7.8180457210E+001 +9.5255863340E+001 -2.5037858808E+001 -8.7850512858E+001
4020000000.000 -1.3821617238E+001 -6.4980513249E+001 -4.4505836150E+001 +1.5531750094E+002 -7.5525201861E+001 -1.0622878634E+002 -2.6668603532E+001 -7.3384665576E+001
4152500000.000 -1.3626940335E+001 -6.6307290663E+001 -4.4501745410E+001 +1.1956279636E+002 -8.5472102050E+001 -1.8711860320E+001 -2.8880383044E+001 -6.4690381962E+001
4285000000.000 -1.3458612936E+001 -6.7572839348E+001 -4.4346183444E+001 +8.5740054363E+001 -8.5285463588E+001 +4.0517481362E+001 -3.3323042012E+001 -3.7644583335E+001
4417500000.000 -1.3306086753E+001 -6.8955809012E+001 -4.4562765100E+001 +5.0984126978E+001 -8.0843598444E+001 +1.1069672205E+002 -3.1737709231E+001 +8.1107007990E+000
4550000000.000 -1.3151274773E+001 -6.9851384567E+001 -4.4650249196E+001 +1.6762715969E+001 -7.9040650764E+001 -1.0424159384E+002 -3.0350535385E+001 +1.8343921944E+001
4682500000.000 -1.2947767783E+001 -7.0940227496E+001 -4.4479238934E+001 -1.8380688047E+001 -9.2585126435E+001 +4.9273250420E+001 -2.9654931658E+001 +3.8737092998E+001
4815000000.000 -1.2793631975E+001 -7.2147528353E+001 -4.4520182193E+001 -5.1499223626E+001 -8.3477877343E+001 +7.8525764224E+001 -2.7629179037E+001 +4.1383754995E+001
4947500000.000 -1.2651475181E+001 -7.2941954374E+001 -4.4349007366E+001 -8.5539757305E+001 -8.5490508872E+001 -9.4671923163E+001 -2.9356403653E+001 +3.5738001434E+001
5080000000.000 -1.2472549957E+001 -7.3633584587E+001 -4.4169258745E+001 -1.1984263594E+002 -9.5498944789E+001 -5.5273289181E+001 -3.2212590351E+001 +5.7091454282E+001
5212500000.000 -1.2312452220E+001 -7.4585394501E+001 -4.4027925136E+001 -1.5437622549E+002 -8.5618998281E+001 +7.2320391838E+001 -3.1553295223E+001 +6.9517473808E+001
5345000000.000 -1.2202005477E+001 -7.5483361625E+001 -4.3804229873E+001 +1.7099634048E+002 -8.8601185908E+001 +1.3830693576E+002 -3.5315817717E+001 +7.0861687502E+001
5477500000.000 -1.2065638882E+001 -7.5839150762E+001 -4.3766037058E+001 +1.3557523352E+002 -8.8729024612E+001 +1.0264688685E+001 -3.7239400937E+001 +1.3153661852E+002
5610000000.000 -1.1889160944E+001 -7.6483415828E+001 -4.3514237783E+001 +9.9740665637E+001 -9.4271622184E+001 -1.8847681418E+001 -3.3633341201E+001 +1.3559963259E+002
5742500000.000 -1.1790395767E+001 -7.7371325168E+001 -4.3498930501E+001 +6.5403992908E+001 -8.4913327596E+001 -9.9523175571E+001 -3.7786742605E+001 +1.5224165665E+002
5875000000.000 -1.1730641474E+001 -7.7994560561E+001 -4.3217299765E+001 +2.9717396719E+001 -9.3626699714E+001 -7.6133384152E+001 -3.3825725142E+001 -1.7033689782E+002
6007500000.000 -1.1606257968E+001 -7.8391950290E+001 -4.3251982681E+001 -5.6544599655E+000 -8.5580035931E+001 +8.2710907271E+001 -3.2665883621E+001 +1.7972755645E+002
6140000000.000 -1.1450767226E+001 -7.9133476847E+001 -4.3154229761E+001 -4.1620327134E+001 -8.7273977002E+001 +1.4369181252E+002 -3.6158978360E+001 -1.6949682242E+002
6272500000.000 -1.1367498652E+001 -8.0353071288E+001 -4.3016618542E+001 -7.5957660987E+001 -8.9618077542E+001 -1.6667389748E+000 -3.3904244842E+001 -1.4405646277E+002
6405000000.000 -1.1314929961E+001 -8.1050616972E+001 -4.2837933728E+001 -1.1193294178E+002 -8.6369457409E+001 +7.9093576810E+001 -3.3782994215E+001 -1.6193754071E+002
6537500000.000 -1.1171830919E+001 -8.1354870147E+001 -4.2826106212E+001 -1.4870052795E+002 -8.5393090537E+001 +5.1650613078E+001 -4.0123353198E+001 -1.6096301150E+002
6670000000.000 -1.1003013981E+001 -8.2331125795E+001 -4.2757984814E+001 +1.7694539350E+002 -9.1496852858E+001 -1.3669852068E+002 -3.9424535640E+001 -1.3730766416E+002
6802500000.000 -1.0876798859E+001 -8.3554772695E+001 -4.2646469194E+001 +1.3924960416E+002 -8.4675582021E+001 +5.3168129631E+001 -3.8911217455E+001 +1.7942877246E+002
6935000000.000 -1.0791564779E+001 -8.4221002120E+001 -4.2479040852E+001 +1.0027705216E+002 -9.2206884113E+001 +9.2019318648E+001 -3.8610843901E+001 +1.2316442107E+002
7067500000.000 -1.0678866079E+001 -8.4563069052E+001 -4.2520421044E+001 +6.6983624479E+001 -9.2464111766E+001 -8.9531640349E+001 -3.8960434554E+001 +1.1495509871E+002
7200000000.000 -1.0523198580E+001 -8.5626517614E+001 -4.2645034994E+001 +3.1992424449E+001 -9.2962158696E+001 -1.6911324414E+001 -3.2867846812E+001 +1.3135485139E+002
7332500000.000 -1.0394384028E+001 -8.6775396027E+001 -4.2447513282E+001 -5.6821265892E+000 -8.4760527122E+001 +1.5192631846E+002 -2.9096640501E+001 +1.1896491148E+002
7465000000.000 -1.0318732388E+001 -8.7397828485E+001 -4.2410581813E+001 -4.1387083568E+001 -9.1309402238E+001 -1.1621232583E+002 -2.8666171778E+001 +1.2258189699E+002
7597500000.000 -1.0200738143E+001 -8.7959640621E+001 -4.2400945135E+001 -7.4162958466E+001 -8.6435821428E+001 -1.7567594583E+001 -2.6136068559E+001 +1.3761799448E+002
7730000000.000 -9.9969369967E+000 -8.8930389291E+001 -4.2464841896E+001 -1.1396046264E+002 -9.3291958034E+001 +9.6592726350E+000 -2.3735435273E+001 +1.3775004372E+002
7862500000.000 -9.8583304977E+000 -8.9828643563E+001 -4.2562762566E+001 -1.5308128073E+002 -8.7828106186E+001 -1.5471620437E+002 -2.3295092001E+001 +1.4154470910E+002
7995000000.000 -9.8012280095E+000 -9.0105382611E+001 -4.2300857307E+001 +1.7504444853E+002 -8.2739561715E+001 -6.3279236375E+001 -2.1831319870E+001 +1.5429427883E+002
8127500000.000 -9.6162191616E+000 -9.0679824753E+001 -4.2168321500E+001 +1.3751271056E+002 -8.9254782916E+001 +3.3491196234E+001 -2.0029432318E+001 +1.5641294117E+002
8260000000.000 -9.4812308149E+000 -9.1708726131E+001 -4.2401440062E+001 +9.8589098629E+001 -9.0283584963E+001 -1.5311137945E+002 -1.9874266522E+001 +1.6019836705E+002
8392500000.000 -9.4011309261E+000 -9.2005436645E+001 -4.2289033922E+001 +6.5241747361E+001 -8.7333914413E+001 -8.5842563863E+001 -1.9063113732E+001 +1.7044509727E+002
8525000000.000 -9.2864695035E+000 -9.2269642562E+001 -4.2197766984E+001 +2.9059217932E+001 -8.5159919466E+001 +8.6648069139E+001 -1.8208646462E+001 +1.7294887665E+002
8657500000.000 -9.1603075317E+000 -9.3025847378E+001 -4.2487085926E+001 -1.0630717165E+001 -8.3989973027E+001 +1.0060616342E+002 -1.8573651740E+001 +1.7794830291E+002
8790000000.000 -9.0563062664E+000 -9.3608357361E+001 -4.2537470143E+001 -4.6417999659E+001 -7.9613877024E+001 -9.4660047822E+001 -1.8348499343E+001 -1.7173776394E+002
8922500000.000 -9.0107255557E+000 -9.3920743870E+001 -4.2410704393E+001 -8.0866994326E+001 -8.2009439727E+001 +4.0608443086E+001 -1.7979876265E+001 -1.6607214224E+002
9055000000.000 -8.9192317647E+000 -9.4435215577E+001 -4.2608729963E+001 -1.1949480986E+002 -8.6669938850E+001 +1.0830838800E+002 -1.8457309560E+001 -1.5841131845E+002
9187500000.000 -8.8501706503E+000 -9.4961348493E+001 -4.2730319607E+001 -1.5551842610E+002 -8.7324262476E+001 -7.2245029666E+001 -1.8378758439E+001 -1.4638638515E+002
9320000000.000 -8.8056174962E+000 -9.5717545956E+001 -4.2758800234E+001 +1.6884759648E+002 -9.2645826244E+001 -3.1407219537E+001 -1.8209660269E+001 -1.3972395450E+002
9452500000.000 -8.7677413078E+000 -9.6189449282E+001 -4.2903083758E+001 +1.3224776082E+002 -8.2515587350E+001 +8.9512400250E+001 -1.8853574868E+001 -1.3060337220E+002
9585000000.000 -8.7113582560E+000 -9.6772914398E+001 -4.3294471929E+001 +9.5425570516E+001 -8.1921636188E+001 -6.2709664229E+001 -1.8784571825E+001 -1.1827939134E+002
9717500000.000 -8.6268418436E+000 -9.7520553166E+001 -4.3261147864E+001 +6.1603623863E+001 -8.4422402168E+001 -2.9866459464E+001 -1.8819579390E+001 -1.1121079245E+002
9850000000.000 -8.6213493129E+000 -9.8425672668E+001 -4.3506567659E+001 +2.5653914033E+001 -8.5942665323E+001 +4.3260127239E+001 -1.9655420258E+001 -1.0058649150E+002
9982500000.000 -8.5741426229E+000 -9.8723687385E+001 -4.3795102340E+001 -1.0879057955E+001 -8.4435840671E+001 -1.5671757448E+002 -1.9689006247E+001 -8.6558496927E+001
10115000000.000 -8.4991817619E+000 -9.9262716797E+001 -4.3879843638E+001 -4.5282347064E+001 -8.3500416022E+001 -4.8644022968E+001 -1.9918681819E+001 -7.9231503086E+001
10247500000.000 -8.4473986377E+000 -1.0021116450E+002 -4.4228420301E+001 -8.0092966846E+001 -9.1842705042E+001 -1.1751766913E+002 -2.1152950696E+001 -6.5931580553E+001
10380000000.000 -8.4242316575E+000 -1.0072065521E+002 -4.4685979277E+001 -1.1707847803E+002 -8.4854144712E+001 +1.6835701161E+002 -2.1045332570E+001 -4.9879739762E+001
10512500000.000 -8.3723901385E+000 -1.0122811481E+002 -4.4580556589E+001 -1.5145844516E+002 -8.7560088727E+001 -1.5048080223E+002 -2.1514289486E+001 -4.2075209820E+001
10645000000.000 -8.3213294166E+000 -1.0179394446E+002 -4.4956190230E+001 +1.7431562115E+002 -8.4245373467E+001 +4.1436021279E+001 -2.2829068224E+001 -2.3849687027E+001
10777500000.000 -8.2689667932E+000 -1.0238680067E+002 -4.5442964470E+001 +1.3817391442E+002 -9.6005198184E+001 -9.6231187447E+001 -2.2191026790E+001 -5.8720846683E+000
10910000000.000 -8.2142013050E+000 -1.0289355900E+002 -4.5642332299E+001 +1.0315694734E+002 -8.1603563571E+001 -1.3818929537E+002 -2.2786096621E+001 +4.1997905517E+000
11042500000.000 -8.1522000911E+000 -1.0355545177E+002 -4.5970741264E+001 +6.8967364697E+001 -8.8639240300E+001 +5.6519606849E+001 -2.3469782856E+001 +2.7681511014E+001
11175000000.000 -8.0827676262E+000 -1.0396580206E+002 -4.6204503072E+001 +3.4667621231E+001 -8.5957041538E+001 +1.1939665088E+002 -2.2236018379E+001 +4.2884305298E+001
11307500000.000 -8.0490349584E+000 -1.0424299952E+002 -4.6568651959E+001 -8.4975572365E-001 -8.1475568546E+001 -1.5900516935E+002 -2.2738677267E+001 +5.3096848685E+001
11440000000.000 -7.9765193858E+000 -1.0483463743E+002 -4.6960023985E+001 -3.5030924303E+001 -1.1346303384E+002 -6.7554910364E+001 -2.2590021637E+001 +7.5777333054E+001
11572500000.000 -7.9051114058E+000 -1.0498458800E+002 -4.7119043363E+001 -6.8932661338E+001 -8.9608063335E+001 +1.2811165813E+002 -2.1146744689E+001 +8.7110567172E+001
11705000000.000 -7.8612174051E+000 -1.0525872022E+002 -4.7600524421E+001 -1.0457592889E+002 -8.6606715381E+001 +1.5118470450E+002 -2.1764899506E+001 +9.7058580712E+001
11837500000.000 -7.8030235979E+000 -1.0566879062E+002 -4.7827013558E+001 -1.3814592308E+002 -8.6250981907E+001 -3.7399006820E+001 -2.1132246635E+001 +1.1931434951E+002
11970000000.000 -7.7869419370E+000 -1.0583943281E+002 -4.8156255114E+001 -1.7259916801E+002 -8.8163696541E+001 -3.7364893066E+001 -1.9825457875E+001 +1.2547691613E+002
12102500000.000 -7.7406104997E+000 -1.0572639901E+002 -4.8427754686E+001 +1.5286590291E+002 -8.4326366677E+001 +1.3676241012E+002 -2.0741038176E+001 +1.3545108554E+002
12235000000.000 -7.7017590810E+000 -1.0645372492E+002 -4.8525080117E+001 +1.1886093874E+002 -8.5382376351E+001 -5.1504037772E+001 -1.9751574487E+001 +1.5457300004E+002
12367500000.000 -7.7027051797E+000 -1.0644007922E+002 -4.8886552743E+001 +8.3927543593E+001 -9.5124622194E+001 +6.8330863487E+001 -1.8884186383E+001 +1.5790090271E+002
12500000000.000 -7.6801663493E+000 -1.0692874564E+002 -4.9075171653E+001 +4.8653330626E+001 -8.4069521241E+001 +6.0401041015E+001 -2.0064435523E+001 +1.6820251996E+002
12632500000.000 -7.6230199898E+000 -1.0709360760E+002 -4.9466971795E+001 +1.3678562112E+001 -8.8638936528E+001 -1.1103626809E+002 -1.9161234508E+001 -1.7295325720E+002
12765000000.000 -7.6156175624E+000 -1.0739977171E+002 -4.9860663751E+001 -1.9531291659E+001 -8.8584399630E+001 +9.6626752165E+001 -1.8518178589E+001 -1.7142267032E+002
12897500000.000 -7.6247710824E+000 -1.0774523250E+002 -5.0027655498E+001 -5.4148977624E+001 -8.8744684511E+001 +6.0012035960E+001 -2.0138204043E+001 -1.5933764945E+002
13030000000.000 -7.6031587344E+000 -1.0796854644E+002 -5.0176051591E+001 -8.7444577344E+001 -8.4180747490E+001 -1.2677284069E+002 -1.8829449964E+001 -1.4151738632E+002
13162500000.000 -7.5598488509E+000 -1.0822964527E+002 -5.0588149609E+001 -1.2293172404E+002 -8.5260413193E+001 +1.1106667043E+001 -1.8647881662E+001 -1.4179475991E+002
13295000000.000 -7.5259178353E+000 -1.0857895568E+002 -5.1143327382E+001 -1.5569979667E+002 -8.6768842676E+001 -1.2024756168E+002 -2.0051710233E+001 -1.2784837177E+002
13427500000.000 -7.5230669898E+000 -1.0915476499E+002 -5.1246384988E+001 +1.7038110546E+002 -8.5772657573E+001 -9.4518505259E+001 -1.8832578400E+001 -1.1408956611E+002
13560000000.000 -7.5251882824E+000 -1.0913981692E+002 -5.1446117292E+001 +1.3405108088E+002 -8.5198006523E+001 -3.7432573717E+001 -1.9040800589E+001 -1.1473631980E+002
13692500000.000 -7.4585349151E+000 -1.0929364908E+002 -5.1798197741E+001 +1.0240518713E+002 -8.5528209193E+001 +6.2420211950E+001 -2.0849189630E+001 -1.0131182314E+002
13825000000.000 -7.4062094422E+000 -1.0988918657E+002 -5.2077484962E+001 +6.8329011753E+001 -8.2356324511E+001 +1.3040133324E+002 -1.9719572791E+001 -8.7510539001E+001
13957500000.000 -7.4192426677E+000 -1.1030530206E+002 -5.2667131140E+001 +3.6284697887E+001 -8.3380126094E+001 -8.0337794551E+001 -2.0384200231E+001 -9.0189614527E+001
14090000000.000 -7.3963346599E+000 -1.1034120923E+002 -5.2283444250E+001 -1.5762408867E+000 -8.3590511613E+001 +1.0533012240E+002 -2.2673219536E+001 -7.2638880394E+001
14222500000.000 -7.3229737241E+000 -1.1035537945E+002 -5.2444391609E+001 -3.4227440316E+001 -8.7180599268E+001 +1.0089897874E+002 -2.1290643935E+001 -5.9254556779E+001
14355000000.000 -7.2832062383E+000 -1.1093661195E+002 -5.3046714000E+001 -6.7038237459E+001 -8.5785471569E+001 -1.6282319421E+002 -2.2501700300E+001 -6.3544460965E+001
14487500000.000 -7.2709946570E+000 -1.1121307540E+002 -5.3215990993E+001 -9.9822264035E+001 -8.1656301332E+001 -9.9716668381E+001 -2.5557904946E+001 -4.0305720679E+001
14620000000.000 -7.2372269551E+000 -1.1110740643E+002 -5.3470909987E+001 -1.3490889894E+002 -8.8434587715E+001 +1.2724923916E+002 -2.3291287818E+001 -2.7288956238E+001
14752500000.000 -7.1342837980E+000 -1.1133706180E+002 -5.3907320655E+001 -1.6973029353E+002 -9.3944457828E+001 -7.7570054549E+001 -2.5403952923E+001 -3.6595868298E+001
14885000000.000 -7.0975106025E+000 -1.1163380536E+002 -5.4204212373E+001 +1.5779867361E+002 -7.9627874132E+001 -8.6695621678E+001 -2.8936452764E+001 +2.5141231485E+000
15017500000.000 -7.0836472945E+000 -1.1163370569E+002 -5.4248348348E+001 +1.2240378663E+002 -8.9766236549E+001 +8.5227627981E+001 -2.5429368961E+001 +8.9530950009E+000
15150000000.000 -6.9986844514E+000 -1.1148416478E+002 -5.4330354970E+001 +9.0373372952E+001 -8.7378247553E+001 -5.0074608221E+001 -2.9171017330E+001 -2.3817593176E+000
15282500000.000 -6.9437130985E+000 -1.1148399960E+002 -5.4779458772E+001 +5.7631624601E+001 -9.1372520554E+001 -1.3378124487E+001 -3.1118023913E+001 +5.8118775021E+001
