!  2-Port S-parameters saved by WinCal
! VAR MeasName=S-Parameters (CALIBRATED_DATA) read from VNA (C)
! VAR MeasDate=10/16/2015 3:19:01 PM
! VAR NAME=M6082_10_15_2_2_20C_12.9mA_-17.5dBm
! VAR FILENAME=M6082_10_15_2_2_20C_12.9mA_-17.5dBm.S2P
! VAR DATE=10/16/2015 3:19:01 PM
! VAR PHYS_PORTS=2,1
! VAR ObjTypeName=DATASET
! VAR IndexType=Frequency
!
# Hz S DB R 50
45000000.000 -1.7532215679E+001 -1.7990458389E+002 -4.2216095766E+001 +9.7905949995E+001 -5.5849450405E+001 +7.7260784293E+001 -3.0431321738E+001 +3.8580427636E+000
177500000.000 -1.7584588747E+001 -1.7729132293E+002 -4.3758703671E+001 +7.0399009598E+001 -8.0033000507E+001 -1.6522895571E+002 -3.2815438719E+001 +4.7457407742E+001
310000000.000 -1.7614371731E+001 -1.7458123905E+002 -4.3359334142E+001 +3.8265323179E+001 -8.8283950008E+001 -1.1343826563E+002 -2.3370233994E+001 +6.4759179318E+001
442500000.000 -1.7595688347E+001 -1.7176537336E+002 -4.2419837781E+001 +5.5050483574E-001 -7.8393350356E+001 +2.1194934112E+001 -2.2391414280E+001 +1.7356256890E+001
575000000.000 -1.7517012395E+001 -1.6871067983E+002 -4.3120098565E+001 -3.5324118538E+001 -8.5021536754E+001 +1.4894390626E+002 -3.0640896655E+001 +2.2639468952E+001
707500000.000 -1.7407336525E+001 -1.6619659138E+002 -4.3289147376E+001 -6.9424108570E+001 -8.1969007247E+001 -1.0046290669E+002 -3.4526378581E+001 +8.3681979180E+001
840000000.000 -1.7297245701E+001 -1.6323419450E+002 -4.3298600735E+001 -1.0338185883E+002 -8.1081751292E+001 -3.1802939954E+001 -2.9677740349E+001 +1.2739337550E+002
972500000.000 -1.7158067773E+001 -1.6050262641E+002 -4.3381009970E+001 -1.3712320695E+002 -8.2736357824E+001 +1.6081955067E+002 -2.5949394479E+001 +1.3540315010E+002
1105000000.000 -1.6967226008E+001 -1.5793294986E+002 -4.3317771684E+001 -1.7166043866E+002 -1.0122156191E+002 +1.3393156984E+002 -2.4366399617E+001 +1.4085855523E+002
1237500000.000 -1.6762922983E+001 -1.5569261776E+002 -4.3367443871E+001 +1.5464673880E+002 -8.2339347604E+001 +4.3671179380E+001 -2.3388986668E+001 +1.4987987098E+002
1370000000.000 -1.6534418768E+001 -1.5357530543E+002 -4.3601406125E+001 +1.2086942098E+002 -8.5829217115E+001 -1.7232905723E+002 -2.2081494870E+001 +1.5998912941E+002
1502500000.000 -1.6325283327E+001 -1.5153556572E+002 -4.3487903632E+001 +8.5826403953E+001 -8.7635966577E+001 -1.5800621139E+002 -2.0871753012E+001 +1.6644843820E+002
1635000000.000 -1.6094760111E+001 -1.4927630150E+002 -4.3623109183E+001 +5.2277201570E+001 -8.3890605475E+001 -1.0219111476E+002 -2.0036958408E+001 +1.7330324287E+002
1767500000.000 -1.5825371707E+001 -1.4755534563E+002 -4.3625049426E+001 +1.8360852994E+001 -8.9710473031E+001 +7.8641415226E+001 -1.9029862281E+001 +1.7857293555E+002
1900000000.000 -1.5617053685E+001 -1.4601275103E+002 -4.3370833594E+001 -1.7280985615E+001 -8.7157361998E+001 -1.1686425733E+002 -1.8868660407E+001 -1.7823448144E+002
2032500000.000 -1.5383188896E+001 -1.4447486533E+002 -4.3735337918E+001 -5.0674392180E+001 -8.7621727554E+001 +5.0187653411E+000 -1.8697828403E+001 -1.6786687396E+002
2165000000.000 -1.5125010662E+001 -1.4278994477E+002 -4.3695072106E+001 -8.5035510740E+001 -8.5531245354E+001 -5.0829122549E+001 -1.7746713004E+001 -1.6093635491E+002
2297500000.000 -1.4891041185E+001 -1.4161126115E+002 -4.3552945006E+001 -1.2046648330E+002 -7.6100118763E+001 +1.1097412947E+002 -1.7243507430E+001 -1.5706970332E+002
2430000000.000 -1.4666294919E+001 -1.4041583063E+002 -4.3877220532E+001 -1.5305404542E+002 -8.1959169398E+001 -1.7368343611E+002 -1.6957567964E+001 -1.5284272989E+002
2562500000.000 -1.4402787752E+001 -1.3927001869E+002 -4.3886075419E+001 +1.7362771613E+002 -8.0833740012E+001 -8.6341740871E+001 -1.6839793726E+001 -1.5042544621E+002
2695000000.000 -1.4153793032E+001 -1.3867813756E+002 -4.3964836156E+001 +1.4017123794E+002 -8.6040341195E+001 -3.0750595657E+001 -1.7380346097E+001 -1.4706992755E+002
2827500000.000 -1.3938526525E+001 -1.3821506984E+002 -4.3943177772E+001 +1.0485216535E+002 -7.7555363474E+001 -1.3035563823E+002 -1.7862211502E+001 -1.4025262718E+002
2960000000.000 -1.3738040332E+001 -1.3724927665E+002 -4.4064473591E+001 +7.0970483264E+001 -8.4923815419E+001 -1.2922097498E+002 -1.8166758197E+001 -1.3543925528E+002
3092500000.000 -1.3450647205E+001 -1.3656348037E+002 -4.3935239746E+001 +3.7040953691E+001 -8.6436165735E+001 +9.8399570357E+001 -1.9094590288E+001 -1.2932321540E+002
3225000000.000 -1.3183112663E+001 -1.3627766657E+002 -4.4266768678E+001 +4.1047042911E+000 -7.8978250109E+001 -6.7698926588E+001 -1.9585283927E+001 -1.1973040764E+002
3357500000.000 -1.3005757976E+001 -1.3599757314E+002 -4.4131056289E+001 -3.1552929368E+001 -8.5546907823E+001 +5.7618406408E+001 -1.9970175627E+001 -1.1418364904E+002
3490000000.000 -1.2760815119E+001 -1.3524714830E+002 -4.4111971828E+001 -6.4641410475E+001 -7.7928953424E+001 +1.2969382480E+002 -2.1144880615E+001 -1.0852168886E+002
3622500000.000 -1.2510470308E+001 -1.3466982503E+002 -4.4195283562E+001 -9.8017371010E+001 -8.0955948911E+001 -1.6776711490E+002 -2.1950217978E+001 -9.8111530731E+001
3755000000.000 -1.2256796973E+001 -1.3435611188E+002 -4.4263770023E+001 -1.3284537722E+002 -7.9627717238E+001 +8.0403543122E+001 -2.2724603191E+001 -9.4656090055E+001
3887500000.000 -1.2056207084E+001 -1.3400664567E+002 -4.3947425368E+001 -1.6701393190E+002 -8.1123710212E+001 +4.0289851758E+001 -2.5031512661E+001 -8.7727163583E+001
4020000000.000 -1.1866460855E+001 -1.3367420362E+002 -4.3989941547E+001 +1.5870537793E+002 -8.2296586259E+001 -1.0482323873E+002 -2.6667515794E+001 -7.3254069875E+001
4152500000.000 -1.1647684746E+001 -1.3313387444E+002 -4.4360871674E+001 +1.2516119470E+002 -8.2573326527E+001 -4.7915922734E+001 -2.8902413060E+001 -6.4820273703E+001
4285000000.000 -1.1437511726E+001 -1.3287036588E+002 -4.4168901646E+001 +8.9041884689E+001 -8.0341174860E+001 +8.6040914740E+001 -3.3365978902E+001 -3.7333744676E+001
4417500000.000 -1.1231860310E+001 -1.3279960967E+002 -4.4249327019E+001 +5.7536668431E+001 -8.6396941683E+001 +1.4277034786E+002 -3.1742951476E+001 +8.2116381068E+000
4550000000.000 -1.1077264726E+001 -1.3248295427E+002 -4.4426463669E+001 +2.3296825915E+001 -8.9438479942E+001 -3.6995807632E+001 -3.0362974400E+001 +1.8450901349E+001
4682500000.000 -1.0882194480E+001 -1.3205363207E+002 -4.4504456248E+001 -1.0321264479E+001 -9.0416250081E+001 -1.3765843533E+002 -2.9687501785E+001 +3.9019311163E+001
4815000000.000 -1.0684356709E+001 -1.3190505715E+002 -4.4608016897E+001 -4.3637088599E+001 -8.5385493338E+001 +1.1383397138E+002 -2.7654409639E+001 +4.1374155815E+001
4947500000.000 -1.0536535464E+001 -1.3174490482E+002 -4.4441311110E+001 -7.7605351054E+001 -9.6528536174E+001 -6.5429156117E+001 -2.9382309029E+001 +3.5579770306E+001
5080000000.000 -1.0384883334E+001 -1.3137038349E+002 -4.4351746940E+001 -1.1086107942E+002 -8.8756138979E+001 -6.5859673485E+000 -3.2259346583E+001 +5.7070184477E+001
5212500000.000 -1.0211854985E+001 -1.3115501123E+002 -4.4318794694E+001 -1.4454430381E+002 -8.1777419776E+001 +9.8096396126E+001 -3.1571625221E+001 +6.9664493584E+001
5345000000.000 -1.0063367245E+001 -1.3116797938E+002 -4.4321520272E+001 -1.7827429870E+002 -8.7379850348E+001 -1.0678507177E+002 -3.5329445741E+001 +7.1201721881E+001
5477500000.000 -9.9624576717E+000 -1.3093525474E+002 -4.4426953366E+001 +1.4752479614E+002 -9.0147098184E+001 -1.2940629694E+002 -3.7243691614E+001 +1.3168144550E+002
5610000000.000 -9.8140550651E+000 -1.3064928498E+002 -4.4413331520E+001 +1.1403787508E+002 -9.1327139875E+001 +7.6017160482E+001 -3.3714308098E+001 +1.3584511423E+002
5742500000.000 -9.6734953594E+000 -1.3074757565E+002 -4.4311813970E+001 +7.9261787164E+001 -8.5004169286E+001 -1.6426377373E+002 -3.7771265188E+001 +1.5256240054E+002
5875000000.000 -9.5772710052E+000 -1.3099146192E+002 -4.4374124778E+001 +4.4221611718E+001 -8.3393443280E+001 -6.1130467458E+001 -3.3780792631E+001 -1.7064172012E+002
6007500000.000 -9.4802599869E+000 -1.3089391726E+002 -4.4320087929E+001 +1.0483460093E+001 -8.6030724393E+001 +1.3562860238E+002 -3.2707669361E+001 +1.7976872247E+002
6140000000.000 -9.3370905907E+000 -1.3077410860E+002 -4.4380478017E+001 -2.4288389829E+001 -8.9938240380E+001 -1.5867679615E+002 -3.6122460226E+001 -1.6944714577E+002
6272500000.000 -9.1871936909E+000 -1.3112316138E+002 -4.4354398219E+001 -5.8425148790E+001 -8.6173480070E+001 -9.6474292753E+001 -3.3870959017E+001 -1.4455704663E+002
6405000000.000 -9.1020518051E+000 -1.3155672623E+002 -4.4471572839E+001 -9.2158321220E+001 -8.5235363761E+001 +5.5425662534E+000 -3.3859021194E+001 -1.6191780917E+002
6537500000.000 -9.0068744739E+000 -1.3140212938E+002 -4.4462421481E+001 -1.2654428170E+002 -8.4435989704E+001 +1.5579228448E+002 -4.0190062234E+001 -1.6027742465E+002
6670000000.000 -8.8444293964E+000 -1.3129225180E+002 -4.4495154776E+001 -1.6001160630E+002 -8.8719017277E+001 -7.0881741105E+001 -3.9421029234E+001 -1.3725247046E+002
6802500000.000 -8.6908725724E+000 -1.3173800131E+002 -4.4562157902E+001 +1.6453845070E+002 -8.7732862207E+001 +1.5107896285E+002 -3.8866082054E+001 +1.7894734568E+002
6935000000.000 -8.6215050899E+000 -1.3215150542E+002 -4.4595541257E+001 +1.3117043846E+002 -9.8280233297E+001 -1.4820879015E+001 -3.8582867407E+001 +1.2236012236E+002
7067500000.000 -8.5369125116E+000 -1.3190455997E+002 -4.4716191166E+001 +9.7699515129E+001 -8.3628221907E+001 -1.6964674127E+002 -3.9063689659E+001 +1.1471415173E+002
7200000000.000 -8.3743411347E+000 -1.3189382231E+002 -4.4798265869E+001 +6.2961546026E+001 -8.2080632690E+001 +5.6151214642E+001 -3.2860711687E+001 +1.3155694341E+002
7332500000.000 -8.2452114269E+000 -1.3235391982E+002 -4.4756548561E+001 +2.9805527540E+001 -8.5303887329E+001 +1.6863649091E+002 -2.9069713245E+001 +1.1915970065E+002
7465000000.000 -8.1678577668E+000 -1.3254854423E+002 -4.4749411353E+001 -4.4651369984E+000 -8.9620466170E+001 -1.7325845645E+002 -2.8638526037E+001 +1.2231166765E+002
7597500000.000 -8.0600712053E+000 -1.3238941476E+002 -4.4968262922E+001 -3.9119452872E+001 -8.3453817852E+001 -1.1697562400E+002 -2.6162118687E+001 +1.3749692228E+002
7730000000.000 -7.9141348539E+000 -1.3241600922E+002 -4.4939700958E+001 -7.1866384301E+001 -9.2347058496E+001 -1.7467726297E+002 -2.3727196797E+001 +1.3795776860E+002
7862500000.000 -7.8092349597E+000 -1.3257933643E+002 -4.5009195772E+001 -1.0603190953E+002 -8.0296727768E+001 -1.7057761806E+002 -2.3273082518E+001 +1.4143398173E+002
7995000000.000 -7.7370670795E+000 -1.3260088516E+002 -4.4920047858E+001 -1.3955926313E+002 -8.4349174250E+001 -5.5982729714E+001 -2.1846280828E+001 +1.5431873326E+002
8127500000.000 -7.6131008573E+000 -1.3232568256E+002 -4.5021144356E+001 -1.7395211878E+002 -9.1721973833E+001 +5.7780020326E+001 -2.0025995480E+001 +1.5647066628E+002
8260000000.000 -7.5037733661E+000 -1.3251770953E+002 -4.5137451077E+001 +1.5259721215E+002 -8.5311150624E+001 -1.6762182040E+002 -1.9852684157E+001 +1.6016505337E+002
8392500000.000 -7.4376958498E+000 -1.3248262899E+002 -4.5008190452E+001 +1.1861958020E+002 -8.0075130266E+001 -8.1557807341E+001 -1.9080379697E+001 +1.7039998511E+002
8525000000.000 -7.3664267072E+000 -1.3229222866E+002 -4.5098973991E+001 +8.5370824543E+001 -8.3447069254E+001 +1.2829494928E+002 -1.8217187261E+001 +1.7302799342E+002
8657500000.000 -7.2708223439E+000 -1.3218037548E+002 -4.5080223813E+001 +5.0540676815E+001 -8.5221785029E+001 +1.4656101973E+002 -1.8565013390E+001 +1.7791140861E+002
8790000000.000 -7.1778291217E+000 -1.3228538016E+002 -4.5062286788E+001 +1.7154355526E+001 -8.8260501651E+001 -1.0624097879E+002 -1.8358102033E+001 -1.7170844962E+002
8922500000.000 -7.1391046046E+000 -1.3240586699E+002 -4.5092913326E+001 -1.7247685751E+001 -8.7818740981E+001 -2.4110432991E+001 -1.7990979601E+001 -1.6598605028E+002
9055000000.000 -7.0691144093E+000 -1.3230660098E+002 -4.4998706071E+001 -5.1732412015E+001 -9.4920711179E+001 -5.9871554361E+001 -1.8459094067E+001 -1.5834168436E+002
9187500000.000 -6.9965797269E+000 -1.3236502358E+002 -4.5041016628E+001 -8.5599984296E+001 -9.1813455646E+001 +1.5218606815E+002 -1.8389904713E+001 -1.4628072229E+002
9320000000.000 -6.9179503848E+000 -1.3281415736E+002 -4.5115330063E+001 -1.1989602089E+002 -8.6780201957E+001 +3.7550127847E+001 -1.8206733029E+001 -1.3965171970E+002
9452500000.000 -6.8746667812E+000 -1.3297655002E+002 -4.5192854873E+001 -1.5368042767E+002 -8.8424856930E+001 +8.9451044854E+001 -1.8852850367E+001 -1.3061188928E+002
9585000000.000 -6.8091493485E+000 -1.3306220602E+002 -4.5162021641E+001 +1.7178729557E+002 -8.6244496074E+001 -1.3970087945E+002 -1.8801960123E+001 -1.1819849103E+002
9717500000.000 -6.7012078452E+000 -1.3327612195E+002 -4.5164607562E+001 +1.3793347691E+002 -8.1554901124E+001 -5.0151610134E+001 -1.8804089541E+001 -1.1112625343E+002
9850000000.000 -6.6482455276E+000 -1.3386492055E+002 -4.5269525017E+001 +1.0371171104E+002 -9.1043509058E+001 +8.1420496539E+001 -1.9658849972E+001 -1.0072757698E+002
9982500000.000 -6.6036333747E+000 -1.3380328832E+002 -4.5181442023E+001 +7.0309134175E+001 -8.5155208201E+001 +1.7346330637E+002 -1.9706456583E+001 -8.6435132847E+001
10115000000.000 -6.5224115579E+000 -1.3386683617E+002 -4.5206535959E+001 +3.5874289443E+001 -7.9391874190E+001 -3.1441924172E+001 -1.9917206593E+001 -7.8997462679E+001
10247500000.000 -6.4302035149E+000 -1.3429360863E+002 -4.5352058575E+001 +2.2469320894E+000 -8.1687387209E+001 -2.8561637803E+001 -2.1144512308E+001 -6.6101058203E+001
10380000000.000 -6.3867320927E+000 -1.3458602595E+002 -4.5400664315E+001 -3.1582837326E+001 -8.6637024894E+001 +8.4784410673E+001 -2.1072017995E+001 -4.9870222968E+001
10512500000.000 -6.3350060384E+000 -1.3472181132E+002 -4.5380628153E+001 -6.4648391611E+001 -9.2151891244E+001 -9.5141192790E+001 -2.1497589257E+001 -4.1804992676E+001
10645000000.000 -6.2634682685E+000 -1.3485378247E+002 -4.5339408910E+001 -9.9657084999E+001 -8.4260378120E+001 -8.0552577376E+001 -2.2817518609E+001 -2.4080666206E+001
10777500000.000 -6.1807991070E+000 -1.3511334711E+002 -4.5507835181E+001 -1.3411307725E+002 -8.7491375277E+001 +9.7066688244E+001 -2.2226697482E+001 -5.9531251052E+000
10910000000.000 -6.1178574372E+000 -1.3537009678E+002 -4.5377182688E+001 -1.6753916107E+002 -8.1219166861E+001 -1.5126291397E+002 -2.2789852609E+001 +4.3134194216E+000
11042500000.000 -6.0512853256E+000 -1.3559930378E+002 -4.5550051564E+001 +1.5866668130E+002 -9.0020472265E+001 -3.6356043379E+001 -2.3444764252E+001 +2.7417405084E+001
11175000000.000 -5.9752359669E+000 -1.3560637953E+002 -4.5513914954E+001 +1.2425977547E+002 -1.0071946246E+002 +5.8468071531E+001 -2.2279351735E+001 +4.2805355703E+001
11307500000.000 -5.9226521172E+000 -1.3569808316E+002 -4.5497145086E+001 +9.0810298459E+001 -8.7031043750E+001 -1.2098842924E+002 -2.2753202586E+001 +5.3257338075E+001
11440000000.000 -5.8452912031E+000 -1.3589426505E+002 -4.5679865519E+001 +5.6607199295E+001 -8.7981284539E+001 -2.5819749193E+001 -2.2573786739E+001 +7.5761996601E+001
11572500000.000 -5.7902688721E+000 -1.3576579265E+002 -4.5565887417E+001 +2.3105309371E+001 -8.9373968935E+001 +1.4886013437E+000 -2.1183782960E+001 +8.7043031682E+001
11705000000.000 -5.7399817727E+000 -1.3579010442E+002 -4.5539635752E+001 -1.2051608594E+001 -8.1887204267E+001 -1.4050381340E+002 -2.1792337339E+001 +9.7059370205E+001
11837500000.000 -5.6740928182E+000 -1.3590413863E+002 -4.5705585023E+001 -4.5479743710E+001 -9.3415549476E+001 -9.9132536157E+000 -2.1136073053E+001 +1.1922856954E+002
11970000000.000 -5.6567097861E+000 -1.3601735682E+002 -4.5690244610E+001 -7.9518484439E+001 -8.8487098123E+001 +1.0899713760E+002 -1.9820630679E+001 +1.2550681607E+002
12102500000.000 -5.6334749670E+000 -1.3582777937E+002 -4.5706419987E+001 -1.1311728168E+002 -8.7214996459E+001 -1.3325758137E+002 -2.0756090869E+001 +1.3546367074E+002
12235000000.000 -5.5649283653E+000 -1.3621318523E+002 -4.5812290520E+001 -1.4736862519E+002 -8.2880884960E+001 -9.7863878312E+001 -1.9780009890E+001 +1.5466061526E+002
12367500000.000 -5.5602796474E+000 -1.3627469727E+002 -4.5929669737E+001 +1.7830999026E+002 -7.9640361787E+001 +7.6349182862E+001 -1.8882897525E+001 +1.5799766371E+002
12500000000.000 -5.5244591735E+000 -1.3659535553E+002 -4.5639424373E+001 +1.4376289022E+002 -8.6434877418E+001 -1.7410629837E+002 -2.0051817736E+001 +1.6807385925E+002
12632500000.000 -5.4767269137E+000 -1.3656453620E+002 -4.5805235972E+001 +1.1053483369E+002 -8.1739312343E+001 -1.2631341758E+002 -1.9188587799E+001 -1.7297103539E+002
12765000000.000 -5.4451326730E+000 -1.3679038047E+002 -4.5839304359E+001 +7.5761287325E+001 -8.3178930389E+001 -3.7235854770E+000 -1.8521506903E+001 -1.7121234933E+002
12897500000.000 -5.4244439103E+000 -1.3706563852E+002 -4.6096256957E+001 +4.1829682531E+001 -8.3208266082E+001 +6.5981071576E+001 -2.0129937787E+001 -1.5953354022E+002
13030000000.000 -5.4018788304E+000 -1.3719047327E+002 -4.5962340918E+001 +8.1581190973E+000 -9.7999895410E+001 -1.0111957622E+002 -1.8861448777E+001 -1.4157702405E+002
13162500000.000 -5.3553025484E+000 -1.3726012548E+002 -4.5906757983E+001 -2.6328691750E+001 -9.3047286955E+001 -1.1335341468E+002 -1.8654074418E+001 -1.4145449841E+002
13295000000.000 -5.3208725973E+000 -1.3738817596E+002 -4.5986536592E+001 -5.9464223467E+001 -8.7324142113E+001 +5.3783360816E+001 -2.0032055548E+001 -1.2792558588E+002
13427500000.000 -5.2979229376E+000 -1.3776224295E+002 -4.5999048532E+001 -9.3288523382E+001 -9.1250808291E+001 -5.8364793595E+001 -1.8872541623E+001 -1.1426459378E+002
13560000000.000 -5.2930840908E+000 -1.3776298011E+002 -4.6182115072E+001 -1.2709256654E+002 -8.3110693083E+001 +2.5873097659E+000 -1.9071999805E+001 -1.1451791834E+002
13692500000.000 -5.2454617390E+000 -1.3777956164E+002 -4.6089769192E+001 -1.6198307042E+002 -8.6077945676E+001 +2.8257390891E+001 -2.0825575546E+001 -1.0130521863E+002
13825000000.000 -5.1948082911E+000 -1.3804481427E+002 -4.6006802244E+001 +1.6527504149E+002 -8.8617100632E+001 +9.4751451964E+001 -1.9742234023E+001 -8.7686662961E+001
13957500000.000 -5.1797025160E+000 -1.3841496624E+002 -4.6123329800E+001 +1.3064822287E+002 -7.7239767851E+001 -1.5043950437E+002 -2.0410241750E+001 -9.0121442582E+001
14090000000.000 -5.1669574890E+000 -1.3844924675E+002 -4.6146720639E+001 +9.7880773671E+001 -8.4644956599E+001 +1.3602804419E+002 -2.2679161966E+001 -7.2604796376E+001
14222500000.000 -5.1176205964E+000 -1.3831136443E+002 -4.6079377410E+001 +6.2407745687E+001 -8.4313959236E+001 -9.5825238289E+001 -2.1290454721E+001 -5.9411544613E+001
14355000000.000 -5.0540741128E+000 -1.3863850564E+002 -4.6142291261E+001 +2.7716215236E+001 -8.2044202939E+001 -1.5294576938E+002 -2.2503002445E+001 -6.3706163250E+001
14487500000.000 -5.0240698277E+000 -1.3878943622E+002 -4.6217231457E+001 -5.5785068882E+000 -9.1678347084E+001 +8.7147204163E+001 -2.5576239278E+001 -4.0149898937E+001
14620000000.000 -5.0109602765E+000 -1.3867671658E+002 -4.6080152404E+001 -4.0323507421E+001 -7.7731722122E+001 +1.5226963455E+002 -2.3279158955E+001 -2.7238752618E+001
14752500000.000 -4.9291359578E+000 -1.3851437081E+002 -4.6300282705E+001 -7.3742616771E+001 -9.2781539323E+001 -6.2853871430E+001 -2.5376548358E+001 -3.6983547385E+001
14885000000.000 -4.8817044323E+000 -1.3855279334E+002 -4.6282873430E+001 -1.0858187217E+002 -8.7750327398E+001 -3.3892349128E+001 -2.9038665694E+001 +2.4417121573E+000
15017500000.000 -4.8627670917E+000 -1.3850168009E+002 -4.6449120244E+001 -1.4281982752E+002 -8.0640455783E+001 +1.9842547503E+001 -2.5395325805E+001 +9.4225330143E+000
15150000000.000 -4.8162629281E+000 -1.3827810199E+002 -4.6241269435E+001 -1.7581794695E+002 -9.0402845837E+001 -1.5794126457E+002 -2.9069721512E+001 -2.7799195789E+000
15282500000.000 -4.7820472443E+000 -1.3813956981E+002 -4.6518669420E+001 +1.5114408020E+002 -8.0600741856E+001 -5.1024413374E+001 -3.1356780919E+001 +5.8357560581E+001
