!  2-Port S-parameters saved by WinCal
! VAR MeasName=S-Parameters (CALIBRATED_DATA) read from VNA (C)
! VAR MeasDate=10/16/2015 1:59:22 PM
! VAR NAME=M6082_13_17_2_2_20C_12.9mA_-17.5dBm
! VAR FILENAME=M6082_13_17_2_2_20C_12.9mA_-17.5dBm.S2P
! VAR DATE=10/16/2015 1:59:22 PM
! VAR PHYS_PORTS=2,1
! VAR ObjTypeName=DATASET
! VAR IndexType=Frequency
!
# Hz S DB R 50
45000000.000 -1.8196360461E+001 +1.7976381430E+002 -4.3561738216E+001 +9.9145564758E+001 -6.2303798725E+001 -8.4602408286E+001 -3.1263910032E+001 +9.1584009151E+000
177500000.000 -1.8292151971E+001 -1.7795087459E+002 -4.4070119020E+001 +6.9731593577E+001 -7.2815894142E+001 +6.4584651492E+001 -3.2697956787E+001 +4.6800531813E+001
310000000.000 -1.8316307407E+001 -1.7594183552E+002 -4.4033163522E+001 +4.1401617727E+001 -8.1502005915E+001 +1.6871196273E+002 -2.3331579744E+001 +6.4715993685E+001
442500000.000 -1.8313965237E+001 -1.7393154238E+002 -4.3153369449E+001 +1.3159645407E+000 -9.9612235111E+001 +9.7325032840E+001 -2.2363812989E+001 +1.7341529441E+001
575000000.000 -1.8263403421E+001 -1.7154214967E+002 -4.3922453167E+001 -3.5095911688E+001 -8.4434512111E+001 +3.7956081657E+001 -3.0632590931E+001 +2.2582409911E+001
707500000.000 -1.8197287933E+001 -1.6972041097E+002 -4.3900969119E+001 -6.9319945185E+001 -8.9316904470E+001 -1.7649138466E+002 -3.4490549793E+001 +8.3711007472E+001
840000000.000 -1.8155943061E+001 -1.6739105275E+002 -4.4127036020E+001 -1.0203292089E+002 -8.4638632914E+001 -1.6357748164E+002 -2.9702306307E+001 +1.2743125923E+002
972500000.000 -1.8092195965E+001 -1.6523303801E+002 -4.4207537770E+001 -1.3682223323E+002 -8.2459687017E+001 -1.3435791987E+002 -2.5945825001E+001 +1.3522524099E+002
1105000000.000 -1.7974663326E+001 -1.6309415991E+002 -4.4131762254E+001 -1.7065620666E+002 -8.7286663235E+001 +1.7353382253E+002 -2.4370253517E+001 +1.4086116434E+002
1237500000.000 -1.7852875290E+001 -1.6129569396E+002 -4.4208720734E+001 +1.5524623418E+002 -8.5567270674E+001 +3.5658455262E+000 -2.3386980424E+001 +1.4998265741E+002
1370000000.000 -1.7713393094E+001 -1.5952377577E+002 -4.4430807380E+001 +1.2287793948E+002 -9.1475988536E+001 +4.7011388647E+001 -2.2069726352E+001 +1.5991404480E+002
1502500000.000 -1.7601372346E+001 -1.5772314078E+002 -4.4267972381E+001 +8.6995427449E+001 -8.0967729527E+001 -1.1968450829E+002 -2.0853051686E+001 +1.6634914572E+002
1635000000.000 -1.7470299646E+001 -1.5563864191E+002 -4.4197674424E+001 +5.3352031968E+001 -9.2803519833E+001 +2.8276451011E+001 -2.0023047213E+001 +1.7323677596E+002
1767500000.000 -1.7298902744E+001 -1.5401652463E+002 -4.4286511583E+001 +2.0583020385E+001 -1.0246264157E+002 -1.3435369314E+002 -1.9022110066E+001 +1.7848434419E+002
1900000000.000 -1.7176629124E+001 -1.5252461568E+002 -4.4125648330E+001 -1.5138564177E+001 -8.6253150554E+001 +1.5094284062E+002 -1.8872449275E+001 -1.7829900634E+002
2032500000.000 -1.7028732327E+001 -1.5113418265E+002 -4.4529999636E+001 -4.9068226528E+001 -7.9066078163E+001 -6.6656433654E+001 -1.8692213449E+001 -1.6793636473E+002
2165000000.000 -1.6873145362E+001 -1.4932469833E+002 -4.4407201425E+001 -8.2907347785E+001 -8.5266734418E+001 +6.9060982310E+001 -1.7749006336E+001 -1.6095432471E+002
2297500000.000 -1.6723445523E+001 -1.4810440060E+002 -4.4497158233E+001 -1.1524029227E+002 -8.2012771141E+001 +3.3938606917E+001 -1.7237525842E+001 -1.5710710435E+002
2430000000.000 -1.6573280014E+001 -1.4680104931E+002 -4.4339529017E+001 -1.5077395953E+002 -8.8526015595E+001 -1.1526448764E+002 -1.6942338727E+001 -1.5284239248E+002
2562500000.000 -1.6378004058E+001 -1.4543939960E+002 -4.4838087109E+001 +1.7738108948E+002 -8.6873725394E+001 +6.2195397917E+001 -1.6847077157E+001 -1.5048555573E+002
2695000000.000 -1.6187138023E+001 -1.4482858981E+002 -4.4623255854E+001 +1.4168312388E+002 -8.0299997097E+001 -4.0710574032E+001 -1.7379362689E+001 -1.4714920024E+002
2827500000.000 -1.6046837485E+001 -1.4422828950E+002 -4.4571173713E+001 +1.0515676478E+002 -8.1455196694E+001 -1.3625106571E+002 -1.7860259542E+001 -1.4035214158E+002
2960000000.000 -1.5907880946E+001 -1.4313010235E+002 -4.4582694626E+001 +7.3515863965E+001 -8.0121995220E+001 -7.8518344589E+000 -1.8155719884E+001 -1.3547369398E+002
3092500000.000 -1.5669904114E+001 -1.4208705655E+002 -4.4729211732E+001 +4.0847241613E+001 -9.0916318238E+001 +1.6550850349E+002 -1.9079081455E+001 -1.2932080378E+002
3225000000.000 -1.5438004235E+001 -1.4166562233E+002 -4.4563683307E+001 +6.0988500348E+000 -9.8443040435E+001 +1.0175518897E+002 -1.9580386740E+001 -1.1977432892E+002
3357500000.000 -1.5299752624E+001 -1.4129012158E+002 -4.4724690595E+001 -2.6505060027E+001 -8.3788582148E+001 +3.5602346770E+001 -1.9964164248E+001 -1.1436162995E+002
3490000000.000 -1.5105045921E+001 -1.4017244782E+002 -4.4903403970E+001 -6.0597491193E+001 -8.1296833208E+001 +1.6397392984E+002 -2.1116713098E+001 -1.0852769597E+002
3622500000.000 -1.4885842697E+001 -1.3927555333E+002 -4.4800393966E+001 -9.3924932464E+001 -7.7243284317E+001 -1.3198120614E+002 -2.1947955270E+001 -9.8291788322E+001
3755000000.000 -1.4648190957E+001 -1.3866973146E+002 -4.4594353471E+001 -1.2904179135E+002 -8.2013546960E+001 -2.9254837638E+001 -2.2720656588E+001 -9.4680966363E+001
3887500000.000 -1.4484191880E+001 -1.3811368511E+002 -4.4584184011E+001 -1.6085912392E+002 -7.5528291857E+001 +4.2461082547E+001 -2.5037796277E+001 -8.7641520447E+001
4020000000.000 -1.4322320659E+001 -1.3748955292E+002 -4.4626191686E+001 +1.6274244800E+002 -7.9602773098E+001 -1.4506794825E+002 -2.6681296191E+001 -7.3204524970E+001
4152500000.000 -1.4131562353E+001 -1.3664223684E+002 -4.4652813986E+001 +1.3009066549E+002 -8.2500389675E+001 -2.0313843896E+001 -2.8888401451E+001 -6.4974472853E+001
4285000000.000 -1.3933607635E+001 -1.3608852266E+002 -4.4847631375E+001 +9.4042080513E+001 -8.0546307354E+001 +1.0299763902E+001 -3.3329022462E+001 -3.7572610594E+001
4417500000.000 -1.3744649704E+001 -1.3576269514E+002 -4.4876625952E+001 +6.1083337802E+001 -8.3861575787E+001 +1.5226828548E+002 -3.1736816677E+001 +7.9713242036E+000
4550000000.000 -1.3619953551E+001 -1.3514383599E+002 -4.4927639185E+001 +2.7869843422E+001 -8.6867777939E+001 -1.1691232596E+002 -3.0301405485E+001 +1.8135121750E+001
4682500000.000 -1.3436456958E+001 -1.3441054012E+002 -4.5047361690E+001 -5.4500579376E+000 -8.5110337539E+001 -8.6028062066E+000 -2.9660360417E+001 +3.8729615612E+001
4815000000.000 -1.3244231575E+001 -1.3399596020E+002 -4.5079795116E+001 -3.8033024261E+001 -8.3768503093E+001 +1.4728931458E+002 -2.7654841501E+001 +4.1273034130E+001
4947500000.000 -1.3119209867E+001 -1.3354827810E+002 -4.5198612550E+001 -7.2917005764E+001 -8.1052881878E+001 -1.0064363361E+002 -2.9365110166E+001 +3.5486893275E+001
5080000000.000 -1.2984335101E+001 -1.3283432109E+002 -4.5132896835E+001 -1.0632216697E+002 -8.7574459597E+001 +7.2893350574E+000 -3.2239806311E+001 +5.6533830191E+001
5212500000.000 -1.2818036728E+001 -1.3235034830E+002 -4.4834684058E+001 -1.3950443847E+002 -9.3941569530E+001 +1.6342187002E+002 -3.1600981954E+001 +6.9406263394E+001
5345000000.000 -1.2680909090E+001 -1.3216670497E+002 -4.4924766882E+001 -1.7370422131E+002 -7.6907163042E+001 -1.2846018278E+002 -3.5328183936E+001 +7.0640680352E+001
5477500000.000 -1.2604891927E+001 -1.3160874838E+002 -4.4622035748E+001 +1.5250608939E+002 -8.1350775648E+001 -3.0435863991E+000 -3.7312777278E+001 +1.3147168869E+002
5610000000.000 -1.2461586334E+001 -1.3101932297E+002 -4.4764231282E+001 +1.1714444952E+002 -8.1998802295E+001 +6.5987862261E+001 -3.3705877131E+001 +1.3533415061E+002
5742500000.000 -1.2327288314E+001 -1.3092294092E+002 -4.4612073374E+001 +8.3750111282E+001 -8.8955750760E+001 -5.8863802373E+001 -3.7851096366E+001 +1.5247037780E+002
5875000000.000 -1.2252187524E+001 -1.3102413405E+002 -4.4739968803E+001 +4.9000813739E+001 -8.8614025042E+001 -5.8605485929E+001 -3.3826503642E+001 -1.7044764984E+002
6007500000.000 -1.2172107661E+001 -1.3062901962E+002 -4.4653653457E+001 +1.6284947647E+001 -8.6178867470E+001 +7.4482172150E+001 -3.2709274142E+001 +1.7956096047E+002
6140000000.000 -1.2023642161E+001 -1.3026136094E+002 -4.4727762105E+001 -1.8563743318E+001 -9.3931311536E+001 +1.3651049583E+002 -3.6160810409E+001 -1.6949458166E+002
6272500000.000 -1.1866963840E+001 -1.3051281191E+002 -4.4790092408E+001 -5.3242497089E+001 -9.0875140712E+001 -6.7420188572E+001 -3.3918098237E+001 -1.4422453726E+002
6405000000.000 -1.1800581505E+001 -1.3085457661E+002 -4.4937170886E+001 -8.6694152385E+001 -9.4440723022E+001 +3.5522632491E+001 -3.3854155220E+001 -1.6200192101E+002
6537500000.000 -1.1717466301E+001 -1.3043301298E+002 -4.4900381659E+001 -1.2153953687E+002 -8.8158528900E+001 +8.2539401648E+001 -4.0219139035E+001 -1.6048225495E+002
6670000000.000 -1.1533838644E+001 -1.3006066970E+002 -4.4874567884E+001 -1.5473286272E+002 -8.5951393828E+001 -1.1796860505E+002 -3.9440966606E+001 -1.3717607308E+002
6802500000.000 -1.1362862772E+001 -1.3044746271E+002 -4.5055696034E+001 +1.7073783761E+002 -8.6098934740E+001 -2.0206559044E+000 -3.8824267094E+001 +1.7904309100E+002
6935000000.000 -1.1308834295E+001 -1.3076410890E+002 -4.4938161122E+001 +1.3684398106E+002 -8.7625712287E+001 +6.1369867823E+001 -3.8566684613E+001 +1.2260550734E+002
7067500000.000 -1.1226244319E+001 -1.3024196720E+002 -4.4928809179E+001 +1.0357576469E+002 -8.6307723863E+001 -4.4141969203E+001 -3.8966263023E+001 +1.1424201200E+002
7200000000.000 -1.1034429758E+001 -1.3001351899E+002 -4.4987148530E+001 +6.8849466642E+001 -8.4805645758E+001 -8.8726805059E+001 -3.2848640855E+001 +1.3150565830E+002
7332500000.000 -1.0889422796E+001 -1.3042007726E+002 -4.5160927116E+001 +3.5314158330E+001 -8.4860513419E+001 +1.6402202461E+002 -2.9099748894E+001 +1.1918124764E+002
7465000000.000 -1.0817486478E+001 -1.3043853936E+002 -4.5149521662E+001 +1.9008367526E+000 -8.5131263975E+001 +1.6759156535E+002 -2.8629799163E+001 +1.2240803514E+002
7597500000.000 -1.0692662048E+001 -1.3005763348E+002 -4.5126802142E+001 -3.2674800363E+001 -9.2396545989E+001 +1.6163168233E+001 -2.6148450956E+001 +1.3743804854E+002
7730000000.000 -1.0527005271E+001 -1.2989997761E+002 -4.5143777902E+001 -6.6768007301E+001 -8.5885847650E+001 +1.5420189214E+002 -2.3731673158E+001 +1.3782018416E+002
7862500000.000 -1.0412775576E+001 -1.2991841820E+002 -4.5195969230E+001 -9.9557904268E+001 -8.6536471763E+001 +1.6860433470E+002 -2.3276654036E+001 +1.4155572407E+002
7995000000.000 -1.0336415071E+001 -1.2970898201E+002 -4.5357994530E+001 -1.3312018690E+002 -8.0090384696E+001 -4.6355905084E+001 -2.1835184288E+001 +1.5428500086E+002
8127500000.000 -1.0190058471E+001 -1.2924059544E+002 -4.5106802991E+001 -1.6833654024E+002 -9.0238435660E+001 +1.2255379834E+002 -2.0029737011E+001 +1.5641206359E+002
8260000000.000 -1.0065985679E+001 -1.2931067336E+002 -4.5072385322E+001 +1.5816174641E+002 -8.2903275147E+001 -1.3144312938E+002 -1.9866452946E+001 +1.6020776592E+002
8392500000.000 -9.9962774276E+000 -1.2905578910E+002 -4.5188024648E+001 +1.2388972757E+002 -8.2685617871E+001 -1.2006010625E+002 -1.9068342508E+001 +1.7042535226E+002
8525000000.000 -9.9174156404E+000 -1.2866665118E+002 -4.5273519371E+001 +9.0950162339E+001 -8.2069869924E+001 +2.6240391490E+001 -1.8210588338E+001 +1.7293653814E+002
8657500000.000 -9.8102146971E+000 -1.2837508483E+002 -4.5189944000E+001 +5.6406341233E+001 -9.4063107317E+001 +1.2876835234E+002 -1.8571233605E+001 +1.7786723734E+002
8790000000.000 -9.7025999381E+000 -1.2831058037E+002 -4.5116635745E+001 +2.2255859849E+001 -8.6183342947E+001 -7.5395137575E+001 -1.8355580657E+001 -1.7170721754E+002
8922500000.000 -9.6653374650E+000 -1.2828631702E+002 -4.5235014592E+001 -1.1128827979E+001 -8.6402162799E+001 -2.0029790381E+001 -1.7988237001E+001 -1.6599949937E+002
9055000000.000 -9.5870278863E+000 -1.2797510128E+002 -4.5169567951E+001 -4.4798569671E+001 -9.3459260541E+001 +8.7780500172E+001 -1.8460970018E+001 -1.5840766849E+002
9187500000.000 -9.5093971894E+000 -1.2790202466E+002 -4.5148575432E+001 -7.9048206918E+001 -8.8028078221E+001 -1.0333307098E+002 -1.8389752526E+001 -1.4633158792E+002
9320000000.000 -9.4292165468E+000 -1.2826075371E+002 -4.5113545969E+001 -1.1324027897E+002 -8.6780644781E+001 -7.6075747984E+000 -1.8212686331E+001 -1.3974201508E+002
9452500000.000 -9.3831990874E+000 -1.2827452555E+002 -4.5179982298E+001 -1.4752062860E+002 -8.5882345110E+001 +1.1109180751E+002 -1.8854358719E+001 -1.3065323815E+002
9585000000.000 -9.3144601528E+000 -1.2822409517E+002 -4.5129581562E+001 +1.7880651058E+002 -8.2724706168E+001 -1.1366650741E+002 -1.8798532820E+001 -1.1827278265E+002
9717500000.000 -9.1853303077E+000 -1.2836575852E+002 -4.5276089570E+001 +1.4478939661E+002 -9.4145337797E+001 -4.8475994337E+001 -1.8809173125E+001 -1.1118212689E+002
9850000000.000 -9.1313048719E+000 -1.2890007430E+002 -4.5246311043E+001 +1.1060635418E+002 -8.7395260558E+001 +4.2950363455E+001 -1.9658054758E+001 -1.0069878199E+002
9982500000.000 -9.0793570566E+000 -1.2870136126E+002 -4.5374133495E+001 +7.6755413990E+001 -8.3236376955E+001 -1.7764784806E+002 -1.9696802545E+001 -8.6570204183E+001
10115000000.000 -8.9770552805E+000 -1.2867400881E+002 -4.5260584708E+001 +4.2783388234E+001 -8.6543509480E+001 -9.5077650948E+001 -1.9923100349E+001 -7.9153175523E+001
10247500000.000 -8.8689920840E+000 -1.2907184283E+002 -4.5333987669E+001 +8.1918646308E+000 -8.1104679402E+001 +2.9609288383E+001 -2.1146012209E+001 -6.6080305155E+001
10380000000.000 -8.8167857887E+000 -1.2925325040E+002 -4.5289776526E+001 -2.4265193160E+001 -8.4304676995E+001 +1.5192823440E+002 -2.1058778157E+001 -5.0008231873E+001
10512500000.000 -8.7471496240E+000 -1.2928738614E+002 -4.5298672788E+001 -5.8659822093E+001 -9.2701017205E+001 +1.7374907177E+002 -2.1510691069E+001 -4.1938302396E+001
10645000000.000 -8.6635874293E+000 -1.2934394423E+002 -4.5299980658E+001 -9.2316539553E+001 -8.5596309063E+001 +8.5650393077E+000 -2.2831412287E+001 -2.4008913177E+001
10777500000.000 -8.5679453493E+000 -1.2952100367E+002 -4.5389994584E+001 -1.2657059557E+002 -9.3287595419E+001 +1.2645794950E+002 -2.2199402718E+001 -5.9938269406E+000
10910000000.000 -8.4885257564E+000 -1.2966012120E+002 -4.5496255302E+001 -1.6099325924E+002 -8.4553609205E+001 -1.7798772794E+002 -2.2793520175E+001 +4.1912963299E+000
11042500000.000 -8.3994585496E+000 -1.2983883928E+002 -4.5445415088E+001 +1.6553521678E+002 -8.2762059409E+001 -1.0809409719E+001 -2.3445804046E+001 +2.7534521386E+001
11175000000.000 -8.3050868003E+000 -1.2977848695E+002 -4.5316702872E+001 +1.3060074811E+002 -8.7752342952E+001 +1.7823849038E+002 -2.2261996488E+001 +4.2703379028E+001
11307500000.000 -8.2442836492E+000 -1.2975727539E+002 -4.5414247386E+001 +9.6813732358E+001 -8.9845478859E+001 -1.1155915394E+002 -2.2738631339E+001 +5.3091456401E+001
11440000000.000 -8.1441948203E+000 -1.2989676764E+002 -4.5476687908E+001 +6.3049333150E+001 -8.5777987238E+001 -2.1960595069E+001 -2.2591470742E+001 +7.5671572164E+001
11572500000.000 -8.0674230932E+000 -1.2967465552E+002 -4.5318177663E+001 +2.9362008727E+001 -8.8233552727E+001 +1.5998866085E+002 -2.1173315187E+001 +8.6968935324E+001
11705000000.000 -8.0038524603E+000 -1.2964494833E+002 -4.5378656299E+001 -4.8293872208E+000 -8.1495989110E+001 -1.3944738485E+002 -2.1789597584E+001 +9.6897492065E+001
11837500000.000 -7.9217005673E+000 -1.2969550332E+002 -4.5497909714E+001 -3.8724491567E+001 -9.8176325497E+001 +1.2729510086E+002 -2.1133378839E+001 +1.1917868828E+002
11970000000.000 -7.8959652469E+000 -1.2967888141E+002 -4.5431329484E+001 -7.2783342548E+001 -8.2346209229E+001 -1.2509396002E+001 -1.9824762757E+001 +1.2541317608E+002
12102500000.000 -7.8570907866E+000 -1.2931600551E+002 -4.5464219620E+001 -1.0646459477E+002 -8.6889247455E+001 -1.7421077485E+002 -2.0751381564E+001 +1.3532354920E+002
12235000000.000 -7.7738126037E+000 -1.2971845554E+002 -4.5525658953E+001 -1.4058929705E+002 -8.5731398690E+001 -1.0444533829E+002 -1.9781937028E+001 +1.5444923118E+002
12367500000.000 -7.7720703383E+000 -1.2961165431E+002 -4.5551732301E+001 -1.7492766879E+002 -9.5743754289E+001 +1.5674732570E+002 -1.8890421058E+001 +1.5784889493E+002
12500000000.000 -7.7265599037E+000 -1.2987259673E+002 -4.5689443284E+001 +1.5078421563E+002 -7.9781370992E+001 +1.0964808370E+002 -2.0057128245E+001 +1.6800573693E+002
12632500000.000 -7.6638364816E+000 -1.2972658464E+002 -4.5580785970E+001 +1.1712722336E+002 -9.0178616866E+001 +1.6349527162E+002 -1.9168320490E+001 -1.7307353734E+002
12765000000.000 -7.6295390867E+000 -1.2988936555E+002 -4.5729466016E+001 +8.2877277566E+001 -8.3948253430E+001 +4.8211749477E+001 -1.8519298883E+001 -1.7143460302E+002
12897500000.000 -7.6112391105E+000 -1.3009541245E+002 -4.5759418406E+001 +4.9212367987E+001 -8.1606969247E+001 +5.7803783108E+001 -2.0133292847E+001 -1.5948499815E+002
13030000000.000 -7.5756645545E+000 -1.3016893666E+002 -4.5858322031E+001 +1.4999473211E+001 -7.9184770778E+001 -1.0176115504E+002 -1.8840785385E+001 -1.4168249991E+002
13162500000.000 -7.5173148615E+000 -1.3021757249E+002 -4.5766791194E+001 -1.8991266218E+001 -8.2042612533E+001 +8.3928376009E+000 -1.8648428722E+001 -1.4174190714E+002
13295000000.000 -7.4670382002E+000 -1.3033023046E+002 -4.5677375682E+001 -5.3097537194E+001 -8.1689537187E+001 +7.5014804527E+001 -2.0034682426E+001 -1.2791405345E+002
13427500000.000 -7.4338346667E+000 -1.3070707464E+002 -4.5839086920E+001 -8.6310508869E+001 -8.8531294491E+001 -1.1380218587E+002 -1.8840346202E+001 -1.1425085390E+002
13560000000.000 -7.4250911637E+000 -1.3061957572E+002 -4.5940701600E+001 -1.2027338985E+002 -8.3210609263E+001 +3.0107908077E+001 -1.9032351998E+001 -1.1477309217E+002
13692500000.000 -7.3549410184E+000 -1.3056812265E+002 -4.5670586742E+001 -1.5344199021E+002 -8.2328533694E+001 +1.1849486780E+002 -2.0817753299E+001 -1.0147618146E+002
13825000000.000 -7.2817055815E+000 -1.3086488197E+002 -4.5652783864E+001 +1.7161879690E+002 -8.7344282154E+001 -8.8381526428E+001 -1.9717849846E+001 -8.7642330301E+001
13957500000.000 -7.2673223170E+000 -1.3118934293E+002 -4.5632337402E+001 +1.3766400931E+002 -8.8429604083E+001 -3.9642563788E+001 -2.0370042764E+001 -9.0114039457E+001
14090000000.000 -7.2444324618E+000 -1.3111093222E+002 -4.5630820312E+001 +1.0312579718E+002 -8.0594623173E+001 -4.1594247684E+001 -2.2635585032E+001 -7.2759710579E+001
14222500000.000 -7.1731868975E+000 -1.3085402933E+002 -4.5897709391E+001 +6.9620823209E+001 -8.7370761765E+001 +1.1211811102E+002 -2.1278578743E+001 -5.9428403501E+001
14355000000.000 -7.1015009501E+000 -1.3123063364E+002 -4.5935945220E+001 +3.5226304426E+001 -8.6821543383E+001 -1.6918307431E+002 -2.2490988339E+001 -6.3651099322E+001
14487500000.000 -7.0670527346E+000 -1.3135458848E+002 -4.5785053367E+001 -6.3815581014E-002 -7.9314522075E+001 +8.3568105113E+001 -2.5507034026E+001 -4.0219179472E+001
14620000000.000 -7.0390597700E+000 -1.3113506366E+002 -4.5682296952E+001 -3.3753472779E+001 -1.0001259920E+002 -8.6299496741E+001 -2.3279189829E+001 -2.7335716812E+001
14752500000.000 -6.9286701999E+000 -1.3101609275E+002 -4.6057370437E+001 -6.8218460468E+001 -8.0726807199E+001 -1.3771522728E+002 -2.5338363078E+001 -3.6769273911E+001
14885000000.000 -6.8721581300E+000 -1.3109938257E+002 -4.6036143419E+001 -1.0131691040E+002 -9.9091364179E+001 -1.0089850596E+002 -2.8953263869E+001 +2.2798351881E+000
15017500000.000 -6.8442607815E+000 -1.3102334154E+002 -4.6189967336E+001 -1.3500492477E+002 -8.2255583632E+001 +1.4454435479E+002 -2.5384894925E+001 +9.0735878642E+000
15150000000.000 -6.7734270227E+000 -1.3070015740E+002 -4.5990019210E+001 -1.6983273424E+002 -7.9311984692E+001 -1.3845865549E+002 -2.9073415418E+001 -2.3768922581E+000
15282500000.000 -6.7201694744E+000 -1.3053160929E+002 -4.6141567734E+001 +1.5620881727E+002 -8.1460508152E+001 -5.1432871375E+001 -3.1170182284E+001 +5.7992521055E+001
