!  2-Port S-parameters saved by WinCal
! VAR MeasName=S-Parameters (CALIBRATED_DATA) read from VNA (C)
! VAR MeasDate=10/16/2015 10:55:14 AM
! VAR NAME=M6082_13_13_2_2_20C_3.5mA_-17.5dBm
! VAR FILENAME=M6082_13_13_2_2_20C_3.5mA_-17.5dBm_1_1.S2P
! VAR DATE=10/16/2015 10:55:14 AM
! VAR PHYS_PORTS=2,1
! VAR ObjTypeName=DATASET
! VAR IndexType=Frequency
!
# Hz S DB R 50
45000000.000 -1.0335793338E+001 -3.6208105703E-001 -4.3717291788E+001 +9.6592914553E+001 -6.0513998436E+001 +9.6691103601E+001 -3.1121228318E+001 +3.1590007644E+000
177500000.000 -1.0349549836E+001 -1.8020470684E+000 -4.3631389222E+001 +6.7114206240E+001 -7.5751442010E+001 +1.1726273209E+002 -3.2512066389E+001 +4.6530613488E+001
310000000.000 -1.0349955115E+001 -3.1937206248E+000 -4.4362984618E+001 +3.9449191425E+001 -7.4349723081E+001 -5.4605251938E+001 -2.3303445145E+001 +6.4300715049E+001
442500000.000 -1.0375175041E+001 -4.7511758722E+000 -4.2993598286E+001 -7.1150862741E-001 -7.7713363802E+001 -8.1086216987E+001 -2.2288907460E+001 +1.7560546693E+001
575000000.000 -1.0387306341E+001 -6.2418694475E+000 -4.3672679878E+001 -3.6385765294E+001 -9.0779941933E+001 +1.7786004682E+002 -3.0434128509E+001 +2.2600861837E+001
707500000.000 -1.0395984097E+001 -7.6386230465E+000 -4.4005524329E+001 -7.0588085031E+001 -8.7641663125E+001 +1.3416325296E+002 -3.4386256723E+001 +8.2248889232E+001
840000000.000 -1.0395670141E+001 -9.1036485111E+000 -4.3934981582E+001 -1.0444693645E+002 -8.6025084032E+001 -8.6583252723E+001 -2.9693175230E+001 +1.2703335639E+002
972500000.000 -1.0385651781E+001 -1.0489161419E+001 -4.4129043029E+001 -1.3913986218E+002 -9.2426095891E+001 -3.7376373879E+001 -2.5910883036E+001 +1.3505799166E+002
1105000000.000 -1.0393489350E+001 -1.1994140438E+001 -4.4141864055E+001 -1.7193432071E+002 -8.9364094871E+001 -1.5612636483E+002 -2.4349073994E+001 +1.4048553980E+002
1237500000.000 -1.0397819448E+001 -1.3332164978E+001 -4.4251350720E+001 +1.5338411936E+002 -9.4007333343E+001 -8.6330499666E+001 -2.3372561415E+001 +1.4989237186E+002
1370000000.000 -1.0399405185E+001 -1.4746067609E+001 -4.4299915364E+001 +1.1964342128E+002 -8.4723214449E+001 +1.1480711007E+002 -2.2051121692E+001 +1.5974069388E+002
1502500000.000 -1.0407784910E+001 -1.6113356373E+001 -4.4346872187E+001 +8.5418801511E+001 -8.4852354131E+001 -1.6644751532E+002 -2.0848861639E+001 +1.6614495885E+002
1635000000.000 -1.0378295157E+001 -1.7362810298E+001 -4.4296041113E+001 +5.2057038204E+001 -8.6434448446E+001 -4.3515050646E+001 -2.0018201185E+001 +1.7317218814E+002
1767500000.000 -1.0366972715E+001 -1.8871797534E+001 -4.4374798505E+001 +1.7623589876E+001 -9.4571226934E+001 +8.4419328256E+000 -1.9000965593E+001 +1.7837889083E+002
1900000000.000 -1.0364120944E+001 -2.0159221053E+001 -4.4439486313E+001 -1.6544150617E+001 -8.5904619631E+001 -1.6634993172E+002 -1.8859182913E+001 -1.7839172301E+002
2032500000.000 -1.0364168018E+001 -2.1346342222E+001 -4.4606884390E+001 -5.1715111788E+001 -8.4105782293E+001 -1.2917267477E+002 -1.8680468526E+001 -1.6798746660E+002
2165000000.000 -1.0314545520E+001 -2.2640372300E+001 -4.4730442972E+001 -8.5272929787E+001 -8.7168177026E+001 +1.0765845959E+002 -1.7730507206E+001 -1.6112807734E+002
2297500000.000 -1.0296357507E+001 -2.3926182444E+001 -4.4951129904E+001 -1.1882232899E+002 -7.8118071061E+001 +1.6813931262E+002 -1.7230516989E+001 -1.5716110472E+002
2430000000.000 -1.0299110656E+001 -2.5018967934E+001 -4.4973437192E+001 -1.5355516776E+002 -8.5936960395E+001 +1.6253778211E+001 -1.6906537897E+001 -1.5297353649E+002
2562500000.000 -1.0272685446E+001 -2.6240989255E+001 -4.5009357035E+001 +1.7340495435E+002 -7.6393715761E+001 -3.4948047369E-001 -1.6802653210E+001 -1.5062659142E+002
2695000000.000 -1.0293754778E+001 -2.7496150334E+001 -4.4824146359E+001 +1.3908033993E+002 -7.6547656567E+001 -1.7509127103E+002 -1.7358702611E+001 -1.4729839448E+002
2827500000.000 -1.0301869573E+001 -2.8444606571E+001 -4.5255062185E+001 +1.0529044272E+002 -8.0695454625E+001 -4.9752099841E+001 -1.7813360241E+001 -1.4042461159E+002
2960000000.000 -1.0296065263E+001 -2.9430522812E+001 -4.5226599614E+001 +7.2504965879E+001 -7.8993613245E+001 +4.3119193434E+001 -1.8125796186E+001 -1.3573364284E+002
3092500000.000 -1.0271965745E+001 -3.0831178610E+001 -4.5166638755E+001 +3.7923849513E+001 -8.2832301365E+001 +9.4915171994E+001 -1.9075148063E+001 -1.2961512508E+002
3225000000.000 -1.0302713872E+001 -3.2087617476E+001 -4.5405328086E+001 +4.0758243656E+000 -7.3175314072E+001 -1.5217313128E+002 -1.9574251295E+001 -1.1989511317E+002
3357500000.000 -1.0314000199E+001 -3.2919682383E+001 -4.5321444607E+001 -3.0377101317E+001 -8.8423189915E+001 -1.2938501147E+001 -1.9937587329E+001 -1.1445868128E+002
3490000000.000 -1.0270605240E+001 -3.4163908989E+001 -4.5098176322E+001 -6.3754677643E+001 -7.6945104179E+001 +1.3301306434E+002 -2.1118261949E+001 -1.0886968432E+002
3622500000.000 -1.0243535120E+001 -3.5482810724E+001 -4.5179622081E+001 -9.6117264882E+001 -9.2326461611E+001 -7.4250023854E+001 -2.1940803611E+001 -9.8293201214E+001
3755000000.000 -1.0233119891E+001 -3.6705752846E+001 -4.5236324341E+001 -1.3242564992E+002 -9.7377359801E+001 +1.6803158660E+002 -2.2686673386E+001 -9.4602893422E+001
3887500000.000 -1.0211863561E+001 -3.7843055972E+001 -4.5177125794E+001 -1.6495471518E+002 -7.7695690675E+001 +9.8190296702E+001 -2.4992501247E+001 -8.8213364379E+001
4020000000.000 -1.0200409832E+001 -3.8939056249E+001 -4.5210519291E+001 +1.6176180789E+002 -8.9271636961E+001 +1.6066411260E+002 -2.6651143272E+001 -7.3401830637E+001
4152500000.000 -1.0179307641E+001 -4.0080569064E+001 -4.5094734769E+001 +1.2931567126E+002 -8.8824304504E+001 -2.9975943846E+001 -2.8776993845E+001 -6.4619126607E+001
4285000000.000 -1.0167287680E+001 -4.1190697605E+001 -4.4952580323E+001 +9.6953308425E+001 -8.1417649351E+001 +2.0911489581E+000 -3.3162272767E+001 -3.8341732503E+001
4417500000.000 -1.0157685656E+001 -4.2348398876E+001 -4.4850033873E+001 +6.3533184097E+001 -9.3163505401E+001 -1.3873981700E+002 -3.1689794054E+001 +7.3731296240E+000
4550000000.000 -1.0121911740E+001 -4.3242197162E+001 -4.4818149276E+001 +2.9792386310E+001 -8.6031523361E+001 -1.0270868730E+002 -3.0227661078E+001 +1.7635602971E+001
4682500000.000 -1.0067613737E+001 -4.4274950261E+001 -4.4472887410E+001 -3.4335847213E+000 -8.2860584160E+001 -3.0913382379E+001 -2.9591280000E+001 +3.7748907809E+001
4815000000.000 -1.0042942999E+001 -4.5350683866E+001 -4.4499367561E+001 -3.7032252375E+001 -8.2030611476E+001 +5.0584232379E+001 -2.7600186324E+001 +4.0451726604E+001
4947500000.000 -9.9981368587E+000 -4.6147365204E+001 -4.4365213356E+001 -7.0063964431E+001 -8.8788631133E+001 -1.5751991087E+002 -2.9265888577E+001 +3.4668239302E+001
5080000000.000 -9.9244784933E+000 -4.6973264322E+001 -4.4075262203E+001 -1.0345360179E+002 -8.9430805159E+001 -1.8081115249E+001 -3.2138491271E+001 +5.5370128589E+001
5212500000.000 -9.8885202037E+000 -4.7981240375E+001 -4.3868774781E+001 -1.3752361349E+002 -9.8166826069E+001 +7.1764539647E+001 -3.1524396788E+001 +6.7969136335E+001
5345000000.000 -9.8688872678E+000 -4.8783717320E+001 -4.3738846480E+001 -1.7114522240E+002 -8.2547812215E+001 -1.5521306578E+002 -3.5247350230E+001 +6.8439290666E+001
5477500000.000 -9.7979698028E+000 -4.9283272817E+001 -4.3507823017E+001 +1.5407172537E+002 -8.4261807032E+001 -1.4051337161E+002 -3.7577740812E+001 +1.2978175024E+002
5610000000.000 -9.7311675709E+000 -5.0168003183E+001 -4.3577827792E+001 +1.2045550684E+002 -8.7755692788E+001 +1.5471605839E+002 -3.3809704843E+001 +1.3402997334E+002
5742500000.000 -9.7332006875E+000 -5.0986381605E+001 -4.3366709148E+001 +8.6071985796E+001 -8.6295870550E+001 -1.3899293703E+002 -3.8172024956E+001 +1.4956430896E+002
5875000000.000 -9.7242567239E+000 -5.1507920918E+001 -4.3282977620E+001 +5.1068400445E+001 -9.0903471321E+001 -5.0447110398E+001 -3.4050413165E+001 -1.7060922616E+002
6007500000.000 -9.6650307373E+000 -5.2120816873E+001 -4.3305755445E+001 +1.6867904891E+001 -9.0247433703E+001 -8.0002781631E+001 -3.2787625516E+001 +1.7854695058E+002
6140000000.000 -9.6232387058E+000 -5.3040093811E+001 -4.3166269514E+001 -1.7037221829E+001 -9.0928495788E+001 -1.4096862633E+002 -3.6474429924E+001 -1.7233978846E+002
6272500000.000 -9.6386181979E+000 -5.4042429100E+001 -4.3143463498E+001 -5.1602137644E+001 -8.8393518424E+001 -5.1512573493E+000 -3.4224303905E+001 -1.4468152477E+002
6405000000.000 -9.6493500170E+000 -5.4595976415E+001 -4.3059383521E+001 -8.6660349582E+001 -8.2354274796E+001 +6.4297425014E+001 -3.3920885868E+001 -1.6325500836E+002
6537500000.000 -9.5880809016E+000 -5.5097403809E+001 -4.3042634892E+001 -1.2026006618E+002 -8.9501843782E+001 +1.7474729150E+002 -4.0193491562E+001 -1.6485317873E+002
6670000000.000 -9.5144868880E+000 -5.6173614341E+001 -4.2896413153E+001 -1.5496744092E+002 -9.1680306686E+001 -7.7163152239E+001 -3.9911961990E+001 -1.3991896306E+002
6802500000.000 -9.5130829187E+000 -5.7308278488E+001 -4.2934492215E+001 +1.7062992522E+002 -8.7957888799E+001 +8.3763803914E+001 -3.8827461995E+001 +1.7711041609E+002
6935000000.000 -9.5288573848E+000 -5.7852772484E+001 -4.2892772030E+001 +1.3561185771E+002 -8.6364342592E+001 +1.2095080833E+002 -3.8253120456E+001 +1.2356303022E+002
7067500000.000 -9.4701024385E+000 -5.8281908016E+001 -4.2680592802E+001 +1.0169621489E+002 -8.6550445500E+001 +1.4721038510E+002 -3.8496110307E+001 +1.1526814166E+002
7200000000.000 -9.4047840166E+000 -5.9468355519E+001 -4.2482517329E+001 +6.7103381805E+001 -8.9555254701E+001 +6.3826417048E+001 -3.2665571358E+001 +1.3144552321E+002
7332500000.000 -9.3973144841E+000 -6.0512981243E+001 -4.2553586369E+001 +3.1894250130E+001 -8.4847417042E+001 +1.3136485603E+002 -2.9029802164E+001 +1.1953940967E+002
7465000000.000 -9.3816668595E+000 -6.1104944998E+001 -4.2306003986E+001 -2.4430479366E+000 -9.9039766740E+001 -2.6214360087E+000 -2.8586956351E+001 +1.2336831036E+002
7597500000.000 -9.3037230059E+000 -6.1958133412E+001 -4.2225298526E+001 -3.6748470324E+001 -8.3868622974E+001 -6.9909996898E+001 -2.6054247061E+001 +1.3764779092E+002
7730000000.000 -9.2366435569E+000 -6.2934433163E+001 -4.2203611274E+001 -7.1836735601E+001 -8.5148424713E+001 +1.2370184698E+002 -2.3702527716E+001 +1.3793752211E+002
7862500000.000 -9.1945983518E+000 -6.3676107378E+001 -4.2058829054E+001 -1.0630951575E+002 -8.5389714677E+001 -1.6043389781E+002 -2.3289619370E+001 +1.4195536190E+002
7995000000.000 -9.1454288550E+000 -6.4242888246E+001 -4.1931988318E+001 -1.4095298837E+002 -9.0283342297E+001 +3.6706717877E+001 -2.1791805908E+001 +1.5465446296E+002
8127500000.000 -9.0317446598E+000 -6.5055416816E+001 -4.1816307763E+001 -1.7501654817E+002 -9.5363823274E+001 +3.3339021959E+001 -2.0024957020E+001 +1.5643300108E+002
8260000000.000 -8.9853336061E+000 -6.5797490616E+001 -4.1797688814E+001 +1.4944713856E+002 -8.2261250502E+001 +1.5166623543E+002 -1.9893905023E+001 +1.6019527294E+002
8392500000.000 -8.9204071155E+000 -6.6288139108E+001 -4.1574012551E+001 +1.1483220783E+002 -8.6240119675E+001 -9.8821722214E+001 -1.9052609180E+001 +1.7045874117E+002
8525000000.000 -8.8499332506E+000 -6.6731449751E+001 -4.1454093083E+001 +7.9791067234E+001 -9.0317364113E+001 +4.6568219363E+001 -1.8190939187E+001 +1.7278803352E+002
8657500000.000 -8.7717143116E+000 -6.7181480644E+001 -4.1445464212E+001 +4.4286962833E+001 -8.3152141348E+001 +1.3826046224E+002 -1.8562160229E+001 +1.7771005622E+002
8790000000.000 -8.7065972909E+000 -6.7768614817E+001 -4.1256603720E+001 +8.8856308554E+000 -9.2066603684E+001 +1.7659859323E+002 -1.8353483177E+001 -1.7186452744E+002
8922500000.000 -8.6783201553E+000 -6.8208290752E+001 -4.1126274948E+001 -2.5777730663E+001 -9.3284563115E+001 -3.7746239986E+001 -1.7980394620E+001 -1.6619440549E+002
9055000000.000 -8.6188290947E+000 -6.8650956550E+001 -4.0992830967E+001 -6.1510052720E+001 -9.8180608342E+001 -1.2267698090E+002 -1.8459517384E+001 -1.5865339030E+002
9187500000.000 -8.5852784745E+000 -6.9077176178E+001 -4.0995412892E+001 -9.6882562734E+001 -9.6679562649E+001 +9.0453288579E+001 -1.8384283978E+001 -1.4670150139E+002
9320000000.000 -8.5605414150E+000 -6.9729907647E+001 -4.0902042692E+001 -1.3236819267E+002 -8.2866342160E+001 +3.4843774902E+001 -1.8221436478E+001 -1.4007038117E+002
9452500000.000 -8.5191286710E+000 -7.0222444424E+001 -4.0834535564E+001 -1.6778403843E+002 -9.8767194029E+001 +1.7213672272E+002 -1.8842403655E+001 -1.3081521549E+002
9585000000.000 -8.4726285095E+000 -7.0770142309E+001 -4.0770174190E+001 +1.5690568187E+002 -8.8849368914E+001 -9.6829586615E+000 -1.8774233003E+001 -1.1875890655E+002
9717500000.000 -8.4238867442E+000 -7.1699950313E+001 -4.0694277876E+001 +1.2096071131E+002 -8.7696827882E+001 -1.0016499195E+002 -1.8828721393E+001 -1.1166308954E+002
9850000000.000 -8.4219776669E+000 -7.2356066906E+001 -4.0770084145E+001 +8.4891250497E+001 -8.1764181944E+001 +1.0717867467E+002 -1.9660637780E+001 -1.0084535666E+002
9982500000.000 -8.3655396358E+000 -7.2781245560E+001 -4.0702914284E+001 +4.9219412129E+001 -8.2269370697E+001 -1.4214276243E+002 -1.9654139273E+001 -8.7085571315E+001
10115000000.000 -8.3137350535E+000 -7.3576410182E+001 -4.0635264538E+001 +1.3586395968E+001 -1.0571032644E+002 -2.8363700316E+001 -1.9921570603E+001 -7.9921629370E+001
10247500000.000 -8.3027946595E+000 -7.4397256450E+001 -4.0692980509E+001 -2.2042626843E+001 -8.9017841892E+001 +2.4552212385E+001 -2.1146188338E+001 -6.6355056567E+001
10380000000.000 -8.2515227244E+000 -7.4903890437E+001 -4.0775114522E+001 -5.8916369422E+001 -8.2421581522E+001 +1.6659521946E+002 -2.0977828574E+001 -5.0573079538E+001
10512500000.000 -8.2160468747E+000 -7.5774281997E+001 -4.0755462087E+001 -9.3178672883E+001 -8.6899363124E+001 -1.1481258350E+002 -2.1467909453E+001 -4.3068015111E+001
10645000000.000 -8.2131800866E+000 -7.6534730250E+001 -4.0764391077E+001 -1.2955116763E+002 -9.3792202928E+001 +1.1635485666E+002 -2.2828640217E+001 -2.4315940165E+001
10777500000.000 -8.1735908065E+000 -7.7043501912E+001 -4.0915359775E+001 -1.6553966197E+002 -9.4832168666E+001 +4.6795338620E+001 -2.2117450243E+001 -6.6247833303E+000
10910000000.000 -8.1029108511E+000 -7.7760434635E+001 -4.1019304375E+001 +1.5864529993E+002 -8.6891786666E+001 -1.1483628250E+002 -2.2759099235E+001 +2.7697320281E+000
11042500000.000 -8.0581679949E+000 -7.8941541946E+001 -4.1053144354E+001 +1.2256640426E+002 -9.3894927086E+001 +8.7750892484E+001 -2.3477400586E+001 +2.6567968589E+001
11175000000.000 -8.0208261414E+000 -7.9596707272E+001 -4.1236114506E+001 +8.6362558429E+001 -9.6452980022E+001 +6.2142568277E+000 -2.2174403421E+001 +4.1851993096E+001
11307500000.000 -7.9862996703E+000 -7.9930291673E+001 -4.1417160188E+001 +5.1336424534E+001 -8.6940695296E+001 -1.2612524680E+002 -2.2698785767E+001 +5.1817565965E+001
11440000000.000 -7.9162349537E+000 -8.0768664656E+001 -4.1537663006E+001 +1.4439633514E+001 -8.2423827263E+001 -3.6025580672E+000 -2.2628360902E+001 +7.4709598093E+001
11572500000.000 -7.8478753668E+000 -8.1302564765E+001 -4.1793885770E+001 -2.1161461903E+001 -8.1980596910E+001 +8.3694745423E+001 -2.1148627076E+001 +8.6135312438E+001
11705000000.000 -7.8177628857E+000 -8.1782919120E+001 -4.1955679349E+001 -5.6285730811E+001 -9.5110817665E+001 -7.6549778486E+001 -2.1747885780E+001 +9.5756338261E+001
11837500000.000 -7.7795172067E+000 -8.2383426940E+001 -4.2040034639E+001 -9.2239649539E+001 -8.1842452437E+001 -6.8050606841E+001 -2.1163813873E+001 +1.1818803092E+002
11970000000.000 -7.7629036636E+000 -8.2699783957E+001 -4.2392465193E+001 -1.2710235843E+002 -9.6613033713E+001 +3.8139267342E+001 -1.9830796409E+001 +1.2454142089E+002
12102500000.000 -7.7093039262E+000 -8.2824143295E+001 -4.2582921324E+001 -1.6244443331E+002 -8.4759463664E+001 +1.4892860546E+002 -2.0746489046E+001 +1.3442736444E+002
12235000000.000 -7.7246716736E+000 -8.3719719675E+001 -4.2894456139E+001 +1.6199787794E+002 -9.4477534863E+001 -5.6831857432E+001 -1.9764509724E+001 +1.5355766823E+002
12367500000.000 -7.7168616506E+000 -8.3776706637E+001 -4.3137632718E+001 +1.2613590437E+002 -8.3513972271E+001 +1.0707686475E+001 -1.8885325796E+001 +1.5682513758E+002
12500000000.000 -7.7072636971E+000 -8.4381310911E+001 -4.3493041050E+001 +9.2155111037E+001 -8.7640716237E+001 +1.6283808120E+002 -2.0061011365E+001 +1.6722958746E+002
12632500000.000 -7.6528562006E+000 -8.4954767072E+001 -4.3623946871E+001 +5.7126498753E+001 -8.4979940692E+001 -1.2674417364E+002 -1.9095211606E+001 -1.7386925018E+002
12765000000.000 -7.6796770783E+000 -8.5366076024E+001 -4.3922906261E+001 +2.2442580899E+001 -7.7098597519E+001 +2.7312802651E+001 -1.8490133752E+001 -1.7250792858E+002
12897500000.000 -7.6979064659E+000 -8.5737126129E+001 -4.4114270961E+001 -1.3222180764E+001 -8.7466638378E+001 +4.8796287670E+001 -2.0150358898E+001 -1.6015843931E+002
13030000000.000 -7.6595654627E+000 -8.6056557198E+001 -4.4275563289E+001 -4.7867771374E+001 -8.8601812287E+001 -1.7222176501E+002 -1.8742369489E+001 -1.4233432628E+002
13162500000.000 -7.6257008013E+000 -8.6554611584E+001 -4.4685139707E+001 -8.1866915855E+001 -8.6091828530E+001 -6.9254041692E+001 -1.8544323975E+001 -1.4299221064E+002
13295000000.000 -7.6132985242E+000 -8.7049696645E+001 -4.4692259573E+001 -1.1628089194E+002 -8.9312473655E+001 +4.5980063888E+001 -2.0018325322E+001 -1.2876790046E+002
13427500000.000 -7.6421331454E+000 -8.7655904467E+001 -4.5072505185E+001 -1.5032226525E+002 -8.9989350077E+001 -3.7197531593E+001 -1.8701030629E+001 -1.1463133520E+002
13560000000.000 -7.6439112010E+000 -8.7684958515E+001 -4.5217611789E+001 +1.7490953068E+002 -8.8328808978E+001 -5.7721630035E+001 -1.8898328436E+001 -1.1579958006E+002
13692500000.000 -7.5834293520E+000 -8.7973343748E+001 -4.5608881557E+001 +1.4116562045E+002 -8.5438999421E+001 +1.2847090263E+001 -2.0790251098E+001 -1.0230291294E+002
13825000000.000 -7.5684628117E+000 -8.8769123322E+001 -4.5871418043E+001 +1.0544849620E+002 -9.4335363206E+001 +1.1931459956E+002 -1.9611964499E+001 -8.7978389311E+001
13957500000.000 -7.6037315663E+000 -8.9269836231E+001 -4.5771055445E+001 +7.0968163028E+001 -8.8837454910E+001 -1.2594468114E+002 -2.0183418640E+001 -9.0821516597E+001
14090000000.000 -7.5859930923E+000 -8.9499567186E+001 -4.6205178840E+001 +3.9094129629E+001 -8.3962198921E+001 +1.5627621712E+002 -2.2541219093E+001 -7.3746472248E+001
14222500000.000 -7.5151744030E+000 -8.9877466803E+001 -4.6390001420E+001 +3.8485876183E+000 -9.1265562656E+001 +1.0878805041E+002 -2.1171735431E+001 -5.9803699229E+001
14355000000.000 -7.5131825464E+000 -9.0575160288E+001 -4.6659663291E+001 -3.1295601133E+001 -7.8786029180E+001 -1.2163157753E+002 -2.2312227843E+001 -6.3640318304E+001
14487500000.000 -7.5110584205E+000 -9.0992305116E+001 -4.6802354463E+001 -6.4874930190E+001 -9.1199854750E+001 +4.0383800570E+001 -2.5307151950E+001 -4.1116227374E+001
14620000000.000 -7.4464092725E+000 -9.1123019961E+001 -4.7223546814E+001 -9.8887634803E+001 -8.9519557909E+001 -1.1607236532E+002 -2.3181426568E+001 -2.7985607923E+001
14752500000.000 -7.3562822092E+000 -9.1768254829E+001 -4.7272416603E+001 -1.3335526591E+002 -8.2625526386E+001 -1.1097717853E+002 -2.5273504872E+001 -3.6162731775E+001
14885000000.000 -7.3467610654E+000 -9.2116874502E+001 -4.7351133133E+001 -1.6690370703E+002 -8.4207293292E+001 -6.4507620756E+000 -2.8522508232E+001 +1.7056822990E+000
15017500000.000 -7.3419197339E+000 -9.2042356709E+001 -4.7697198986E+001 +1.5733552657E+002 -8.2666333063E+001 -1.0327906220E+002 -2.5271946646E+001 +7.7515294989E+000
15150000000.000 -7.2349719396E+000 -9.2067657882E+001 -4.7877452002E+001 +1.2387163805E+002 -8.7042641175E+001 -1.7473449022E+002 -2.9106263409E+001 -1.4936560117E+000
15282500000.000 -7.1836497622E+000 -9.2265521948E+001 -4.7931353296E+001 +8.8430412110E+001 -8.8995526766E+001 -1.1740329604E+001 -3.0551441448E+001 +5.7755735321E+001
