!  2-Port S-parameters saved by WinCal
! VAR MeasName=S-Parameters (CALIBRATED_DATA) read from VNA (C)
! VAR MeasDate=10/16/2015 3:58:53 PM
! VAR NAME=M6082_10_17_2_2_20C_10.4mA_-17.5dBm
! VAR FILENAME=M6082_10_17_2_2_20C_10.4mA_-17.5dBm.S2P
! VAR DATE=10/16/2015 3:58:53 PM
! VAR PHYS_PORTS=2,1
! VAR ObjTypeName=DATASET
! VAR IndexType=Frequency
!
# Hz S DB R 50
45000000.000 -1.7983031734E+001 -1.7905387901E+002 -4.2270646524E+001 +9.0294513397E+001 -6.4726967811E+001 +2.3095428780E+001 -3.0385937187E+001 +7.5200359562E+000
177500000.000 -1.8111800669E+001 -1.7542271294E+002 -4.2416492582E+001 +6.9053292914E+001 -8.1394866948E+001 +6.3775684212E+001 -3.2775029943E+001 +4.6878841863E+001
310000000.000 -1.8073765617E+001 -1.7140040458E+002 -4.2952403723E+001 +3.9986411939E+001 -7.8763643368E+001 -1.2618825155E+002 -2.3341247200E+001 +6.4813659738E+001
442500000.000 -1.7980435460E+001 -1.6739359524E+002 -4.1858636507E+001 +7.8848634747E-001 -8.6083828751E+001 +3.1618629637E+001 -2.2390625386E+001 +1.7276246209E+001
575000000.000 -1.7776953767E+001 -1.6326315427E+002 -4.2234062525E+001 -3.5668091756E+001 -7.5536667159E+001 +9.4514256420E+001 -3.0627068159E+001 +2.2621579355E+001
707500000.000 -1.7540116039E+001 -1.5987565196E+002 -4.2327208625E+001 -6.9576883626E+001 -8.6344332139E+001 -1.3322007151E+002 -3.4481284593E+001 +8.3738123487E+001
840000000.000 -1.7275258719E+001 -1.5621167757E+002 -4.2458120703E+001 -1.0370515680E+002 -8.7238633044E+001 -7.2350194891E+001 -2.9681833818E+001 +1.2739095693E+002
972500000.000 -1.6994486663E+001 -1.5290521586E+002 -4.2478899582E+001 -1.3779977695E+002 -8.1064094993E+001 +1.3684277002E+002 -2.5959965360E+001 +1.3528546359E+002
1105000000.000 -1.6631815237E+001 -1.4994533327E+002 -4.2660510750E+001 -1.7211473982E+002 -9.2656932758E+001 -1.7804749095E+002 -2.4366374560E+001 +1.4087266459E+002
1237500000.000 -1.6281734298E+001 -1.4749450135E+002 -4.2875540058E+001 +1.5369610158E+002 -9.0221152215E+001 -3.0253073090E+001 -2.3400417395E+001 +1.5000048138E+002
1370000000.000 -1.5914270065E+001 -1.4529413749E+002 -4.2583902345E+001 +1.1950373676E+002 -9.3110117455E+001 -1.5482662840E+002 -2.2084516324E+001 +1.5997891232E+002
1502500000.000 -1.5566248079E+001 -1.4322298371E+002 -4.2798537400E+001 +8.5536658901E+001 -9.0626641729E+001 -1.4588538174E+002 -2.0861258910E+001 +1.6638814461E+002
1635000000.000 -1.5203287191E+001 -1.4110046514E+002 -4.2658482336E+001 +5.0854307090E+001 -8.5970184910E+001 -2.9041824984E+001 -2.0022913703E+001 +1.7332293758E+002
1767500000.000 -1.4818097025E+001 -1.3960079774E+002 -4.2808168565E+001 +1.6707379475E+001 -8.9736491750E+001 +1.2479340607E+002 -1.9020077354E+001 +1.7857063643E+002
1900000000.000 -1.4504274231E+001 -1.3821297917E+002 -4.2736866405E+001 -1.7858351880E+001 -8.3310184910E+001 +1.6968956411E+002 -1.8863526577E+001 -1.7825662851E+002
2032500000.000 -1.4166832181E+001 -1.3701074441E+002 -4.2853827616E+001 -5.2418566909E+001 -8.6246831071E+001 -1.7528756952E+001 -1.8693802121E+001 -1.6784180585E+002
2165000000.000 -1.3815874733E+001 -1.3563549827E+002 -4.3058791675E+001 -8.6693658649E+001 -9.6103751959E+001 -2.4380929970E+001 -1.7742681163E+001 -1.6094197688E+002
2297500000.000 -1.3505125973E+001 -1.3476732361E+002 -4.3075345198E+001 -1.2027577155E+002 -8.5184465426E+001 +1.5102673643E+002 -1.7246069255E+001 -1.5702797958E+002
2430000000.000 -1.3206681699E+001 -1.3393523990E+002 -4.2894907183E+001 -1.5492367969E+002 -8.2239600168E+001 -7.5327296937E+001 -1.6946071251E+001 -1.5282975844E+002
2562500000.000 -1.2888349353E+001 -1.3316091542E+002 -4.3139078536E+001 +1.7071657744E+002 -8.2871854178E+001 +2.9996188277E+001 -1.6837574408E+001 -1.5040581245E+002
2695000000.000 -1.2583599039E+001 -1.3292147596E+002 -4.3095756983E+001 +1.3656045725E+002 -8.5720737627E+001 -1.2475957738E+002 -1.7368536474E+001 -1.4716069317E+002
2827500000.000 -1.2321631811E+001 -1.3268295236E+002 -4.3314420154E+001 +1.0375043416E+002 -8.0821440208E+001 -5.6702309702E+001 -1.7858840328E+001 -1.4033549413E+002
2960000000.000 -1.2072974254E+001 -1.3218444332E+002 -4.3343685751E+001 +6.8979207738E+001 -7.9856797391E+001 +2.5487085009E+001 -1.8154875924E+001 -1.3538241609E+002
3092500000.000 -1.1764149083E+001 -1.3179359793E+002 -4.3363058583E+001 +3.4373091087E+001 -8.1469965788E+001 +1.4852681270E+002 -1.9088181638E+001 -1.2922253193E+002
3225000000.000 -1.1471499013E+001 -1.3183847514E+002 -4.3602081829E+001 +1.8760815580E+000 -7.4176746021E+001 -1.2704938034E+002 -1.9576659444E+001 -1.1966199854E+002
3357500000.000 -1.1259656812E+001 -1.3184229642E+002 -4.3474068456E+001 -3.3844364584E+001 -7.8051038328E+001 -2.2543120439E+001 -1.9961567739E+001 -1.1427269088E+002
3490000000.000 -1.0992868887E+001 -1.3149995058E+002 -4.3561564479E+001 -6.7615274380E+001 -8.4269696113E+001 +6.6014658120E+001 -2.1127199424E+001 -1.0854826853E+002
3622500000.000 -1.0725421075E+001 -1.3126551417E+002 -4.3627666099E+001 -1.0099833763E+002 -8.6523893808E+001 +1.6914428651E+002 -2.1930524689E+001 -9.8208853022E+001
3755000000.000 -1.0465865575E+001 -1.3127949833E+002 -4.3447290639E+001 -1.3591366667E+002 -8.1439970775E+001 -8.6531313524E+001 -2.2723344909E+001 -9.4610408926E+001
3887500000.000 -1.0253567139E+001 -1.3122220967E+002 -4.3547416741E+001 -1.6902660689E+002 -8.4373038067E+001 +8.3381760773E+001 -2.5044248841E+001 -8.7678865021E+001
4020000000.000 -1.0046484607E+001 -1.3116853718E+002 -4.3520415084E+001 +1.5677370139E+002 -7.4505780990E+001 +1.5974680510E+002 -2.6683431805E+001 -7.3308663993E+001
4152500000.000 -9.8245752981E+000 -1.3098113031E+002 -4.3557531894E+001 +1.2203438975E+002 -9.2293392914E+001 -5.8408044453E+001 -2.8865361233E+001 -6.4807592554E+001
4285000000.000 -9.6104847372E+000 -1.3100887008E+002 -4.3536629214E+001 +8.8035322654E+001 -8.0244791187E+001 +5.6007102970E+000 -3.3317319801E+001 -3.7277482698E+001
4417500000.000 -9.4093964453E+000 -1.3117814976E+002 -4.3822546264E+001 +5.3809339676E+001 -8.2061627211E+001 +1.3665548654E+002 -3.1733343744E+001 +7.9979396197E+000
4550000000.000 -9.2459916309E+000 -1.3113990370E+002 -4.3760806807E+001 +1.9391432758E+001 -1.0426057383E+002 +1.4002092167E+002 -3.0349386429E+001 +1.8263726974E+001
4682500000.000 -9.0573765131E+000 -1.3103309323E+002 -4.3976783285E+001 -1.3999061206E+001 -9.7261193082E+001 +3.6806052725E+001 -2.9636923378E+001 +3.8805517068E+001
4815000000.000 -8.8636480973E+000 -1.3110697335E+002 -4.4063188295E+001 -4.7052948863E+001 -8.9978882342E+001 -1.3117753243E+002 -2.7631220150E+001 +4.1390360269E+001
4947500000.000 -8.7070252736E+000 -1.3119690639E+002 -4.4068956984E+001 -7.9898345814E+001 -9.5764345397E+001 -5.1345309131E+001 -2.9358693917E+001 +3.5675739644E+001
5080000000.000 -8.5590273074E+000 -1.3106871459E+002 -4.3992852496E+001 -1.1414962606E+002 -8.2820145501E+001 +3.0452218753E+001 -3.2213254134E+001 +5.7040807302E+001
5212500000.000 -8.3939169527E+000 -1.3110702238E+002 -4.4032653225E+001 -1.4757697684E+002 -9.2011446176E+001 -1.0847799901E+002 -3.1563316267E+001 +6.9611984923E+001
5345000000.000 -8.2441313358E+000 -1.3130172471E+002 -4.3829239768E+001 +1.7717968130E+002 -9.6541483674E+001 -7.5952458161E+001 -3.5322890921E+001 +7.1563034217E+001
5477500000.000 -8.1424627343E+000 -1.3128945697E+002 -4.3860688544E+001 +1.4244063112E+002 -8.1727864634E+001 -2.1896676689E+001 -3.7194623877E+001 +1.3164832301E+002
5610000000.000 -8.0016589330E+000 -1.3126671623E+002 -4.3898965839E+001 +1.0919763831E+002 -8.7472078779E+001 +1.3267687978E+002 -3.3658950633E+001 +1.3606599655E+002
5742500000.000 -7.8627111545E+000 -1.3151901040E+002 -4.3831034955E+001 +7.4815275145E+001 -8.1837964364E+001 -1.0426780492E+002 -3.7734653239E+001 +1.5269692827E+002
5875000000.000 -7.7680306932E+000 -1.3191267447E+002 -4.3871126173E+001 +4.0396067822E+001 -9.0772459313E+001 -5.4800222525E+001 -3.3750891412E+001 -1.7065798716E+002
6007500000.000 -7.6704552914E+000 -1.3201157141E+002 -4.3900080972E+001 +5.8509365196E+000 -8.9485089574E+001 +3.0027149497E+001 -3.2686993733E+001 +1.7987521895E+002
6140000000.000 -7.5363760409E+000 -1.3208686961E+002 -4.3939216622E+001 -2.8240181421E+001 -9.1392050418E+001 -1.4282982231E+002 -3.6119789338E+001 -1.6917474195E+002
6272500000.000 -7.4002428756E+000 -1.3255149107E+002 -4.4075082584E+001 -6.2114422703E+001 -9.0096307174E+001 -2.1400604432E+001 -3.3854151123E+001 -1.4441098192E+002
6405000000.000 -7.3162774607E+000 -1.3309213862E+002 -4.3901510773E+001 -9.7418672172E+001 -9.1571187264E+001 +1.3292273423E+001 -3.3824195506E+001 -1.6214214809E+002
6537500000.000 -7.2221019861E+000 -1.3313829048E+002 -4.4178455549E+001 -1.3112002210E+002 -8.6067913325E+001 -1.6844890065E+002 -4.0182579048E+001 -1.5990342672E+002
6670000000.000 -7.0796792820E+000 -1.3319093739E+002 -4.4231169059E+001 -1.6509336040E+002 -9.1062589213E+001 -1.4129105071E+002 -3.9291196967E+001 -1.3691259279E+002
6802500000.000 -6.9437848864E+000 -1.3372660339E+002 -4.4202713399E+001 +1.6072124911E+002 -9.9921174879E+001 +5.6664117121E+001 -3.8902093712E+001 +1.7922711369E+002
6935000000.000 -6.8753423696E+000 -1.3421689457E+002 -4.4283168137E+001 +1.2663190474E+002 -8.4586938429E+001 +4.3660104437E+001 -3.8613565283E+001 +1.2279022134E+002
7067500000.000 -6.8000572760E+000 -1.3416278563E+002 -4.4375455461E+001 +9.3207292486E+001 -9.4139452607E+001 -1.1282389906E+002 -3.9041151737E+001 +1.1462699353E+002
7200000000.000 -6.6603136990E+000 -1.3425867149E+002 -4.4487887515E+001 +5.8728717714E+001 -8.4120374746E+001 -1.3826601349E+001 -3.2906347958E+001 +1.3165679957E+002
7332500000.000 -6.5455258535E+000 -1.3478328500E+002 -4.4402541472E+001 +2.4793038026E+001 -8.9547400696E+001 +5.6979422723E+001 -2.9057341488E+001 +1.1912130638E+002
7465000000.000 -6.4734053991E+000 -1.3506903573E+002 -4.4556363697E+001 -9.0980263698E+000 -8.4873584832E+001 -7.3868852260E+001 -2.8630176920E+001 +1.2240961705E+002
7597500000.000 -6.3859717385E+000 -1.3508510800E+002 -4.4556344165E+001 -4.2707824328E+001 -8.1117753180E+001 -4.3782877436E+001 -2.6161307582E+001 +1.3754700124E+002
7730000000.000 -6.2586336034E+000 -1.3518552951E+002 -4.4593208214E+001 -7.6667099087E+001 -8.4859392882E+001 +9.2366587218E+001 -2.3726809858E+001 +1.3791485569E+002
7862500000.000 -6.1650710013E+000 -1.3547143022E+002 -4.4698851641E+001 -1.1025093273E+002 -8.8450187474E+001 +1.5936729125E+002 -2.3282301937E+001 +1.4150779852E+002
7995000000.000 -6.1024326945E+000 -1.3558661719E+002 -4.4809849021E+001 -1.4411311027E+002 -8.8972093602E+001 -1.7601520783E+002 -2.1846363896E+001 +1.5428246844E+002
8127500000.000 -6.0029155900E+000 -1.3544420182E+002 -4.4676831225E+001 -1.7841295398E+002 -8.3124823876E+001 +7.3411788282E+001 -2.0025805566E+001 +1.5656681499E+002
8260000000.000 -5.9046559586E+000 -1.3571737985E+002 -4.4815135894E+001 +1.4747609772E+002 -8.8776095682E+001 -1.2508123222E+002 -1.9866636160E+001 +1.6017301489E+002
8392500000.000 -5.8473089005E+000 -1.3581447367E+002 -4.4866905022E+001 +1.1401689791E+002 -8.4504223856E+001 -3.7327712063E+001 -1.9074221076E+001 +1.7044271785E+002
8525000000.000 -5.7855727987E+000 -1.3574130883E+002 -4.4849479173E+001 +8.0124375359E+001 -8.4652455023E+001 +6.0789546268E+001 -1.8214705323E+001 +1.7304075209E+002
8657500000.000 -5.7065706392E+000 -1.3574055945E+002 -4.4902068368E+001 +4.6014023807E+001 -8.3873467856E+001 +1.0822567369E+002 -1.8568089657E+001 +1.7801267423E+002
8790000000.000 -5.6242463203E+000 -1.3594267612E+002 -4.4934869326E+001 +1.2303904166E+001 -8.2298536357E+001 -8.3077813154E+001 -1.8353133435E+001 -1.7169677905E+002
8922500000.000 -5.5932894666E+000 -1.3614651599E+002 -4.4766189100E+001 -2.2166751361E+001 -9.3448434837E+001 -1.7521572373E+002 -1.7992826339E+001 -1.6591326938E+002
9055000000.000 -5.5310228185E+000 -1.3615468942E+002 -4.4844512955E+001 -5.6666636713E+001 -8.8182801445E+001 +1.3457797493E+002 -1.8458135207E+001 -1.5827131897E+002
9187500000.000 -5.4682772285E+000 -1.3628447473E+002 -4.4848968161E+001 -9.0062070404E+001 -8.6107988228E+001 +1.7318385639E+002 -1.8392802877E+001 -1.4625048502E+002
9320000000.000 -5.4000356700E+000 -1.3677649914E+002 -4.4974037225E+001 -1.2438129155E+002 -8.9265345372E+001 +1.7578797697E+001 -1.8203129537E+001 -1.3961826601E+002
9452500000.000 -5.3618593471E+000 -1.3702327840E+002 -4.4927395749E+001 -1.5807467844E+002 -8.9726023658E+001 +1.5350733810E+002 -1.8861321749E+001 -1.3054369508E+002
9585000000.000 -5.3077088393E+000 -1.3719191724E+002 -4.5077110779E+001 +1.6802386756E+002 -9.3404296344E+001 -3.8386819137E+001 -1.8809686533E+001 -1.1814367250E+002
9717500000.000 -5.2206714942E+000 -1.3742284145E+002 -4.5107303371E+001 +1.3292833612E+002 -8.8338896138E+001 +1.2488597181E+001 -1.8809509053E+001 -1.1099099139E+002
9850000000.000 -5.1722631856E+000 -1.3805038919E+002 -4.4955459435E+001 +9.9314123590E+001 -9.5155154665E+001 +1.2819059769E+002 -1.9657745489E+001 -1.0056157086E+002
9982500000.000 -5.1344397144E+000 -1.3808519953E+002 -4.5053460387E+001 +6.4659288206E+001 -9.2913963925E+001 +1.6756667408E+002 -1.9722444351E+001 -8.6326740888E+001
10115000000.000 -5.0683261894E+000 -1.3819716223E+002 -4.5196965576E+001 +3.0743858007E+001 -8.7403111863E+001 -1.7067386487E+002 -1.9912835924E+001 -7.8895035444E+001
10247500000.000 -4.9885176861E+000 -1.3861441130E+002 -4.5136917571E+001 -3.2098087001E+000 -8.4259682604E+001 +7.7924109437E+001 -2.1143514759E+001 -6.5975743174E+001
10380000000.000 -4.9551383478E+000 -1.3898634606E+002 -4.5140881503E+001 -3.6777066259E+001 -8.9985153414E+001 +1.0349285036E+002 -2.1082164262E+001 -4.9742416833E+001
10512500000.000 -4.9169915998E+000 -1.3915551548E+002 -4.5084757903E+001 -7.0956881390E+001 -8.6091418183E+001 -9.4402831450E+001 -2.1502140981E+001 -4.1622966249E+001
10645000000.000 -4.8578587771E+000 -1.3930945527E+002 -4.5447505253E+001 -1.0387744217E+002 -8.2684288700E+001 +6.7900056329E+000 -2.2811948948E+001 -2.3895615963E+001
10777500000.000 -4.7896058038E+000 -1.3959638293E+002 -4.5362992846E+001 -1.3809995493E+002 -7.5647349130E+001 +9.3752829069E+001 -2.2226221433E+001 -5.7058158430E+000
10910000000.000 -4.7400060393E+000 -1.3990310153E+002 -4.5320777024E+001 -1.7278212945E+002 -8.4557731748E+001 +1.7096080057E+002 -2.2792414606E+001 +4.6382243719E+000
11042500000.000 -4.6868005726E+000 -1.4014239491E+002 -4.5257790704E+001 +1.5417581088E+002 -8.8494841232E+001 +8.1838815965E+000 -2.3441909433E+001 +2.7810889057E+001
11175000000.000 -4.6256890907E+000 -1.4017707874E+002 -4.5529948281E+001 +1.2027427954E+002 -8.8419568617E+001 +1.5274921897E+002 -2.2282244852E+001 +4.2857925431E+001
11307500000.000 -4.5835715982E+000 -1.4031927720E+002 -4.5429412146E+001 +8.5454675337E+001 -9.0583621221E+001 +1.2298429907E+002 -2.2736223057E+001 +5.3586841575E+001
11440000000.000 -4.5233259951E+000 -1.4053849943E+002 -4.5416317480E+001 +5.0910344149E+001 -8.8000758499E+001 -2.4442401634E+001 -2.2562923482E+001 +7.5886144143E+001
11572500000.000 -4.4840748085E+000 -1.4047598437E+002 -4.5545192824E+001 +1.7432101051E+001 -8.2986483212E+001 +6.2012359405E+000 -2.1163628369E+001 +8.7240050287E+001
11705000000.000 -4.4437921488E+000 -1.4053965764E+002 -4.5524003186E+001 -1.6030458051E+001 -8.5891483656E+001 -1.6448703322E+002 -2.1775558824E+001 +9.7272684700E+001
11837500000.000 -4.3918007486E+000 -1.4067642653E+002 -4.5667980177E+001 -4.9988863908E+001 -8.6227744533E+001 -1.1898921011E+002 -2.1111003225E+001 +1.1944664980E+002
11970000000.000 -4.3807075870E+000 -1.4082039796E+002 -4.5687456808E+001 -8.3774788735E+001 -8.3607164720E+001 +9.4548805765E+000 -1.9822624248E+001 +1.2561360510E+002
12102500000.000 -4.3668371152E+000 -1.4070835580E+002 -4.5717588272E+001 -1.1775804907E+002 -9.0874641061E+001 -1.6521103369E+002 -2.0759657358E+001 +1.3547398201E+002
12235000000.000 -4.3097227403E+000 -1.4106480886E+002 -4.5610200756E+001 -1.5297226641E+002 -8.1753739349E+001 -8.8576324818E+001 -1.9777317970E+001 +1.5477268408E+002
12367500000.000 -4.3068744711E+000 -1.4120164913E+002 -4.5868064636E+001 +1.7389460141E+002 -8.2488688736E+001 -3.8994097729E+001 -1.8881633875E+001 +1.5807976493E+002
12500000000.000 -4.2806521500E+000 -1.4153620427E+002 -4.5740276283E+001 +1.3852627881E+002 -9.8645662342E+001 -4.8860890716E+001 -2.0052241918E+001 +1.6818336664E+002
12632500000.000 -4.2509508301E+000 -1.4154221739E+002 -4.5862479433E+001 +1.0510405833E+002 -8.5115027345E+001 -1.2647911866E+002 -1.9188412798E+001 -1.7288090960E+002
12765000000.000 -4.2213006553E+000 -1.4176773112E+002 -4.5992181894E+001 +7.1664081884E+001 -9.1210696943E+001 +9.9844369199E+001 -1.8521025714E+001 -1.7114381540E+002
12897500000.000 -4.2087134564E+000 -1.4204397851E+002 -4.5918675828E+001 +3.7990553610E+001 -1.0161702578E+002 -1.6494332892E+002 -2.0128373404E+001 -1.5942370434E+002
13030000000.000 -4.1920419279E+000 -1.4222826262E+002 -4.5849201427E+001 +3.5247028710E+000 -9.3402230564E+001 -6.7952422768E+001 -1.8868312670E+001 -1.4146754079E+002
13162500000.000 -4.1587994877E+000 -1.4229606501E+002 -4.5921760449E+001 -3.1234292961E+001 -8.5791130362E+001 +5.8013988753E+000 -1.8659620830E+001 -1.4143731207E+002
13295000000.000 -4.1280690977E+000 -1.4243458025E+002 -4.6092268169E+001 -6.4647272645E+001 -8.4104059471E+001 +1.3360907594E+002 -2.0035259478E+001 -1.2779472161E+002
13427500000.000 -4.1114737986E+000 -1.4278876601E+002 -4.5959557924E+001 -9.8415936229E+001 -8.7998024139E+001 -1.7563253911E+002 -1.8872136076E+001 -1.1409716246E+002
13560000000.000 -4.1159354895E+000 -1.4282987576E+002 -4.6050125896E+001 -1.3261696112E+002 -8.4296359456E+001 -2.8443826302E+001 -1.9072776773E+001 -1.1456344511E+002
13692500000.000 -4.0775230062E+000 -1.4287593828E+002 -4.6067511635E+001 -1.6602304960E+002 -8.2612583566E+001 +1.1127844250E+001 -2.0832202964E+001 -1.0118397678E+002
13825000000.000 -4.0351968185E+000 -1.4313344133E+002 -4.6229168719E+001 +1.5865849760E+002 -8.0671212285E+001 -1.2070907866E+002 -1.9762788130E+001 -8.7674793679E+001
13957500000.000 -4.0303149257E+000 -1.4347660706E+002 -4.6186014088E+001 +1.2706314953E+002 -8.4929126903E+001 -7.7264568134E+001 -2.0416507088E+001 -9.0082548791E+001
14090000000.000 -4.0200507205E+000 -1.4354397362E+002 -4.6203522138E+001 +9.1439906367E+001 -7.7005086608E+001 +1.0992657069E+001 -2.2677281764E+001 -7.2505784031E+001
14222500000.000 -3.9856980213E+000 -1.4342890423E+002 -4.6289955958E+001 +5.8509917188E+001 -9.0100337669E+001 +2.7401008625E+001 -2.1279516540E+001 -5.9339406700E+001
14355000000.000 -3.9361631911E+000 -1.4372486591E+002 -4.6220300269E+001 +2.2975770842E+001 -8.6794393749E+001 -6.2098119455E+001 -2.2539808557E+001 -6.3755765170E+001
14487500000.000 -3.9122428857E+000 -1.4383022854E+002 -4.6173327292E+001 -1.0298877692E+001 -8.3271550811E+001 -1.0995493529E+002 -2.5604381751E+001 -4.0042447107E+001
14620000000.000 -3.9019264858E+000 -1.4378829280E+002 -4.6362590881E+001 -4.5782705245E+001 -9.7543786162E+001 +1.4435923494E+002 -2.3280148009E+001 -2.7229560015E+001
14752500000.000 -3.8427474917E+000 -1.4360746088E+002 -4.6412938099E+001 -7.8865523425E+001 -8.3012281151E+001 -8.6056787202E+001 -2.5364258576E+001 -3.6952987817E+001
14885000000.000 -3.7962832676E+000 -1.4364443761E+002 -4.6380820380E+001 -1.1342033127E+002 -8.5842284390E+001 +7.1385851602E+001 -2.9030844189E+001 +2.6282469416E+000
15017500000.000 -3.7834083632E+000 -1.4364313515E+002 -4.6652626647E+001 -1.4804600732E+002 -7.9178439798E+001 +8.3168100335E+001 -2.5392435939E+001 +9.4131871993E+000
15150000000.000 -3.7553206426E+000 -1.4343778778E+002 -4.6433164319E+001 +1.7812597176E+002 -8.8959720089E+001 +5.7261985485E+001 -2.9062608749E+001 -2.7217365984E+000
15282500000.000 -3.7254795765E+000 -1.4329925853E+002 -4.6593792923E+001 +1.4470947608E+002 -8.4469347277E+001 -4.7935156209E+001 -3.1304311356E+001 +5.8249381265E+001
