!  2-Port S-parameters saved by WinCal
! VAR MeasName=S-Parameters (CALIBRATED_DATA) read from VNA (C)
! VAR MeasDate=10/16/2015 2:39:28 PM
! VAR NAME=M6082_10_13_2_2_20C_8.3mA_-17.5dBm
! VAR FILENAME=M6082_10_13_2_2_20C_8.3mA_-17.5dBm.S2P
! VAR DATE=10/16/2015 2:39:28 PM
! VAR PHYS_PORTS=2,1
! VAR ObjTypeName=DATASET
! VAR IndexType=Frequency
!
# Hz S DB R 50
45000000.000 -2.1408109197E+001 +1.7972754444E+002 -4.2238350071E+001 +9.3943057992E+001 -6.8571636566E+001 -7.5254338690E+001 -3.0974316998E+001 +5.5390223338E+000
177500000.000 -2.1614533990E+001 -1.7658145101E+002 -4.2643670696E+001 +6.7748405142E+001 -6.7132111808E+001 +1.1430101195E+002 -3.2804530425E+001 +4.6304521555E+001
310000000.000 -2.1632164551E+001 -1.7258644455E+002 -4.2525920108E+001 +3.9455369336E+001 -7.2433371793E+001 -9.8215240933E+001 -2.3349237912E+001 +6.4643122882E+001
442500000.000 -2.1588792179E+001 -1.6851250332E+002 -4.1489589177E+001 +7.4595441293E-001 -8.0392101779E+001 -2.3803780334E+001 -2.2366587525E+001 +1.7398371073E+001
575000000.000 -2.1438700941E+001 -1.6414672398E+002 -4.2132361979E+001 -3.4815639339E+001 -8.5005758308E+001 +3.7433930157E+001 -3.0624287931E+001 +2.2296515227E+001
707500000.000 -2.1229287350E+001 -1.6063818080E+002 -4.2234408912E+001 -6.9126122621E+001 -8.4121113446E+001 -4.3458330114E+001 -3.4480612131E+001 +8.3619215347E+001
840000000.000 -2.1016704705E+001 -1.5674978877E+002 -4.2400791721E+001 -1.0336137929E+002 -8.3089841091E+001 -1.1631352319E+001 -2.9695215696E+001 +1.2727797607E+002
972500000.000 -2.0769819170E+001 -1.5316793715E+002 -4.2431637860E+001 -1.3664628585E+002 -9.0358819114E+001 +4.9336522316E+001 -2.5964390484E+001 +1.3528100243E+002
1105000000.000 -2.0434089555E+001 -1.4987322849E+002 -4.2514796386E+001 -1.7133596765E+002 -8.2025463091E+001 +1.7180358135E+002 -2.4363161021E+001 +1.4080373378E+002
1237500000.000 -2.0106837770E+001 -1.4714458784E+002 -4.2647268842E+001 +1.5526562184E+002 -8.4151791597E+001 +8.4509323869E+000 -2.3390337381E+001 +1.4989523363E+002
1370000000.000 -1.9759219808E+001 -1.4466348754E+002 -4.2560165782E+001 +1.2093670262E+002 -9.9680504313E+001 -6.5281969301E+000 -2.2079149785E+001 +1.5993860570E+002
1502500000.000 -1.9435668796E+001 -1.4227393514E+002 -4.2704809075E+001 +8.7154546050E+001 -8.5246702121E+001 -1.5509421924E+002 -2.0868167713E+001 +1.6640195663E+002
1635000000.000 -1.9091308226E+001 -1.3971578425E+002 -4.2597409119E+001 +5.2999307123E+001 -8.4470371384E+001 -1.5577252455E+001 -2.0033497824E+001 +1.7325952792E+002
1767500000.000 -1.8709368754E+001 -1.3780918778E+002 -4.2621820538E+001 +1.9631455905E+001 -9.3937065272E+001 -1.6940709307E+002 -1.9019158824E+001 +1.7848681216E+002
1900000000.000 -1.8411465712E+001 -1.3611734747E+002 -4.2625323242E+001 -1.5601670027E+001 -8.1557572356E+001 -1.7507560973E+002 -1.8870157048E+001 -1.7830713496E+002
2032500000.000 -1.8084902825E+001 -1.3465164516E+002 -4.2753264526E+001 -4.8855537253E+001 -7.9485186528E+001 -9.5876127251E+001 -1.8688552209E+001 -1.6792230676E+002
2165000000.000 -1.7728092913E+001 -1.3275428075E+002 -4.2679762979E+001 -8.3540486289E+001 -9.0871222984E+001 -4.7561174042E+001 -1.7748706763E+001 -1.6096928060E+002
2297500000.000 -1.7429827860E+001 -1.3158817345E+002 -4.2839350887E+001 -1.1850871873E+002 -7.9107607797E+001 -1.3956039984E+002 -1.7244703641E+001 -1.5708018937E+002
2430000000.000 -1.7134659175E+001 -1.3045589756E+002 -4.3125281873E+001 -1.5146562657E+002 -7.5996953548E+001 -3.5304805028E+001 -1.6945486720E+001 -1.5285593154E+002
2562500000.000 -1.6805211988E+001 -1.2930537517E+002 -4.2945157080E+001 +1.7571629606E+002 -7.9680631653E+001 -2.9681084664E+001 -1.6842239821E+001 -1.5044773354E+002
2695000000.000 -1.6482379159E+001 -1.2899266668E+002 -4.2885052657E+001 +1.4213186378E+002 -7.3577343945E+001 -1.5533915223E+002 -1.7373206609E+001 -1.4713695653E+002
2827500000.000 -1.6244320013E+001 -1.2864828938E+002 -4.2920849414E+001 +1.0708403201E+002 -8.6497934503E+001 -8.9253568838E+001 -1.7848495451E+001 -1.4035214656E+002
2960000000.000 -1.5997855509E+001 -1.2771149745E+002 -4.3086215665E+001 +7.2119089710E+001 -9.1206861078E+001 -4.1627012753E+000 -1.8164531654E+001 -1.3539410167E+002
3092500000.000 -1.5648054703E+001 -1.2706377512E+002 -4.2952989018E+001 +3.9046753748E+001 -8.3825517329E+001 +8.7326678140E+001 -1.9085081088E+001 -1.2926933771E+002
3225000000.000 -1.5333399833E+001 -1.2707986679E+002 -4.3104679891E+001 +4.5062520233E+000 -8.1448820621E+001 -1.3832939147E+002 -1.9576506494E+001 -1.1968059021E+002
3357500000.000 -1.5132795073E+001 -1.2695176796E+002 -4.3319069401E+001 -2.8800094399E+001 -7.7610127711E+001 -7.3916551905E+001 -1.9962304808E+001 -1.1427249624E+002
3490000000.000 -1.4832709022E+001 -1.2621883727E+002 -4.3093625573E+001 -6.1185617249E+001 -7.6079580408E+001 +1.5418137597E+002 -2.1128021019E+001 -1.0858684316E+002
3622500000.000 -1.4529406617E+001 -1.2572418137E+002 -4.2893387379E+001 -9.7425737880E+001 -8.4388831488E+001 +1.0219803890E+002 -2.1929646504E+001 -9.8210775030E+001
3755000000.000 -1.4230052496E+001 -1.2563339296E+002 -4.3141878325E+001 -1.3001199713E+002 -8.0223075654E+001 -6.0817132935E+001 -2.2721158541E+001 -9.4603247099E+001
3887500000.000 -1.3996361675E+001 -1.2537882309E+002 -4.3252381553E+001 -1.6459679000E+002 -7.9479580917E+001 +1.4009996560E+002 -2.5052749817E+001 -8.7811604105E+001
4020000000.000 -1.3776493474E+001 -1.2510082170E+002 -4.3249217022E+001 +1.6181874294E+002 -8.2236237161E+001 -1.1383997362E+002 -2.6675179612E+001 -7.3071408634E+001
4152500000.000 -1.3522062732E+001 -1.2459128805E+002 -4.3195111374E+001 +1.2743864502E+002 -8.1297718355E+001 -9.4304043775E+001 -2.8872406078E+001 -6.4735390305E+001
4285000000.000 -1.3282459695E+001 -1.2444255415E+002 -4.3169465813E+001 +9.3575475228E+001 -8.1019159298E+001 +4.1455743221E+001 -3.3332743131E+001 -3.7294438318E+001
4417500000.000 -1.3053629987E+001 -1.2447148864E+002 -4.3198165026E+001 +5.9967654203E+001 -8.9888253237E+001 +1.2571738614E+002 -3.1699566521E+001 +7.9645742114E+000
4550000000.000 -1.2872541209E+001 -1.2418317936E+002 -4.3254196481E+001 +2.4953876632E+001 -8.3743393623E+001 -1.6899216049E+002 -3.0316376687E+001 +1.8184473349E+001
4682500000.000 -1.2641558583E+001 -1.2383765102E+002 -4.3382152972E+001 -7.7910476584E+000 -9.0252859410E+001 -2.2092397526E+001 -2.9636446713E+001 +3.8820001552E+001
4815000000.000 -1.2420138559E+001 -1.2378125195E+002 -4.3402003092E+001 -4.0321805254E+001 -8.8795222899E+001 -1.3358833286E+002 -2.7620475042E+001 +4.1216082788E+001
4947500000.000 -1.2251081777E+001 -1.2362448787E+002 -4.3434184257E+001 -7.5156390575E+001 -9.6313723308E+001 -8.1436957707E+001 -2.9347690052E+001 +3.5836931043E+001
5080000000.000 -1.2075676077E+001 -1.2323677449E+002 -4.3313430210E+001 -1.0818823119E+002 -8.5139328754E+001 -1.3844006295E+001 -3.2223948983E+001 +5.6989700951E+001
5212500000.000 -1.1878028639E+001 -1.2306515994E+002 -4.3260009343E+001 -1.4122623564E+002 -9.0730266559E+001 +9.4195854652E+001 -3.1538382023E+001 +6.9697209351E+001
5345000000.000 -1.1716840125E+001 -1.2316728730E+002 -4.3177951209E+001 -1.7569056833E+002 -8.6054288548E+001 -1.0538028001E+002 -3.5330709881E+001 +7.1246082866E+001
5477500000.000 -1.1602669084E+001 -1.2286747596E+002 -4.3176370052E+001 +1.4945568096E+002 -1.0096247557E+002 -4.6097106582E+001 -3.7179986455E+001 +1.3202874989E+002
5610000000.000 -1.1433754507E+001 -1.2259749065E+002 -4.3154457704E+001 +1.1555218390E+002 -8.2392377499E+001 +5.9529466295E+001 -3.3639323474E+001 +1.3572080381E+002
5742500000.000 -1.1279898959E+001 -1.2274908522E+002 -4.2945912064E+001 +8.1324255548E+001 -8.4737543725E+001 +1.7451183465E+002 -3.7741185981E+001 +1.5267941489E+002
5875000000.000 -1.1182957386E+001 -1.2302227382E+002 -4.3152208787E+001 +4.7161079488E+001 -8.8343288525E+001 -2.4715148885E+001 -3.3749449724E+001 -1.7076469712E+002
6007500000.000 -1.1078262543E+001 -1.2290655689E+002 -4.3144183214E+001 +1.2789483088E+001 -9.1567845212E+001 +8.9510857201E+001 -3.2678558664E+001 +1.7956486246E+002
6140000000.000 -1.0913924242E+001 -1.2281900910E+002 -4.2980406428E+001 -2.1602992933E+001 -9.1030490231E+001 -1.4480687727E+002 -3.6098055418E+001 -1.6961360008E+002
6272500000.000 -1.0750083784E+001 -1.2330804002E+002 -4.3046649374E+001 -5.6625770067E+001 -8.6970931925E+001 -2.4955755217E+001 -3.3862361122E+001 -1.4453783875E+002
6405000000.000 -1.0667400856E+001 -1.2378321987E+002 -4.3218345800E+001 -9.0247338305E+001 -9.2532099991E+001 +5.9574648977E+001 -3.3816043816E+001 -1.6184654232E+002
6537500000.000 -1.0560859020E+001 -1.2360173149E+002 -4.3120548966E+001 -1.2399178141E+002 -9.2684803997E+001 -1.2269931784E+002 -4.0176089457E+001 -1.6056785242E+002
6670000000.000 -1.0372322926E+001 -1.2355000381E+002 -4.3166276905E+001 -1.5785234149E+002 -8.7213853524E+001 -5.5878660155E+001 -3.9373307603E+001 -1.3732106948E+002
6802500000.000 -1.0206948726E+001 -1.2414003130E+002 -4.3209199482E+001 +1.6781744120E+002 -9.6390817655E+001 +1.2601959183E+001 -3.8848320439E+001 +1.7949032413E+002
6935000000.000 -1.0138115687E+001 -1.2457434775E+002 -4.3275380250E+001 +1.3416339854E+002 -9.0683595130E+001 -2.6814878722E+001 -3.8580789814E+001 +1.2295772437E+002
7067500000.000 -1.0040264262E+001 -1.2428093121E+002 -4.3237115403E+001 +1.0025713577E+002 -8.6267107374E+001 -4.6593295995E+001 -3.8991581034E+001 +1.1442684225E+002
7200000000.000 -9.8502356428E+000 -1.2435331435E+002 -4.3287657844E+001 +6.5796718564E+001 -8.1709498173E+001 +1.6833905309E+001 -3.2853854586E+001 +1.3168376574E+002
7332500000.000 -9.7138500901E+000 -1.2493438366E+002 -4.3328715612E+001 +3.2305964493E+001 -9.4062967497E+001 +8.9741390875E+001 -2.9088717055E+001 +1.1911036529E+002
7465000000.000 -9.6311756517E+000 -1.2510489889E+002 -4.3458038682E+001 -1.8146886711E+000 -8.9189166461E+001 -1.4424451614E+002 -2.8625847265E+001 +1.2237751784E+002
7597500000.000 -9.4998996308E+000 -1.2497940493E+002 -4.3520602098E+001 -3.5881113014E+001 -8.6100053803E+001 -3.3510242148E+001 -2.6150045094E+001 +1.3748560080E+002
7730000000.000 -9.3372133315E+000 -1.2507344226E+002 -4.3387041454E+001 -6.9720937755E+001 -8.3234451763E+001 +7.4995357211E+001 -2.3721339146E+001 +1.3799259011E+002
7862500000.000 -9.2214491348E+000 -1.2528233682E+002 -4.3593100014E+001 -1.0323401367E+002 -8.2612414882E+001 -1.3747901397E+002 -2.3284301483E+001 +1.4158082424E+002
7995000000.000 -9.1384492918E+000 -1.2526788481E+002 -4.3536156813E+001 -1.3741566978E+002 -8.6041895234E+001 -3.8912434690E+001 -2.1843340778E+001 +1.5432206022E+002
8127500000.000 -8.9921886762E+000 -1.2501682662E+002 -4.3464468473E+001 -1.7063338652E+002 -9.2852105500E+001 -4.4274230415E+001 -2.0030045092E+001 +1.5657620407E+002
8260000000.000 -8.8706520789E+000 -1.2525970814E+002 -4.3507489558E+001 +1.5506269458E+002 -8.2319618922E+001 -1.6593400619E+002 -1.9867422739E+001 +1.6021918941E+002
8392500000.000 -8.7928672049E+000 -1.2519030607E+002 -4.3464237702E+001 +1.2114423542E+002 -8.3516204977E+001 -6.4642714297E+001 -1.9076181305E+001 +1.7044851161E+002
8525000000.000 -8.7091202986E+000 -1.2496039592E+002 -4.3545333984E+001 +8.7278673126E+001 -8.6114207088E+001 -3.8311732176E+001 -1.8208936077E+001 +1.7299343702E+002
8657500000.000 -8.6027715206E+000 -1.2486069876E+002 -4.3561468283E+001 +5.2670244114E+001 -9.5645906440E+001 +2.0204585877E+001 -1.8566297249E+001 +1.7799268803E+002
8790000000.000 -8.4951250072E+000 -1.2498687775E+002 -4.3422793471E+001 +1.9017284987E+001 -8.6570666955E+001 +1.7748417286E+002 -1.8356434217E+001 -1.7170822480E+002
8922500000.000 -8.4552188490E+000 -1.2507145753E+002 -4.3555458333E+001 -1.5227696170E+001 -9.1506960355E+001 +1.3221293328E+002 -1.7986834791E+001 -1.6599823229E+002
9055000000.000 -8.3756325329E+000 -1.2494561911E+002 -4.3403335260E+001 -4.9423698729E+001 -8.3379730653E+001 +1.7811298817E+002 -1.8456678148E+001 -1.5832635373E+002
9187500000.000 -8.2908964879E+000 -1.2502792493E+002 -4.3482170766E+001 -8.3403247918E+001 -8.7420642586E+001 -1.7378110591E+002 -1.8388301037E+001 -1.4627468531E+002
9320000000.000 -8.2124764938E+000 -1.2550105270E+002 -4.3408061588E+001 -1.1693225721E+002 -8.6959300252E+001 -6.1982067934E+001 -1.8209865653E+001 -1.3964583054E+002
9452500000.000 -8.1636163635E+000 -1.2566228510E+002 -4.3554276873E+001 -1.5218484673E+002 -8.3716892360E+001 +1.2724547025E+002 -1.8854866116E+001 -1.3059048977E+002
9585000000.000 -8.0890194666E+000 -1.2572853578E+002 -4.3433029461E+001 +1.7396912474E+002 -9.1440882224E+001 -1.4678891465E+002 -1.8801233607E+001 -1.1818728105E+002
9717500000.000 -7.9711925900E+000 -1.2599872920E+002 -4.3462376352E+001 +1.4062697146E+002 -8.4062679248E+001 -8.6792008021E+001 -1.8822339870E+001 -1.1104189582E+002
9850000000.000 -7.9164744108E+000 -1.2661889770E+002 -4.3519773415E+001 +1.0609762975E+002 -8.9163980931E+001 +9.5156410626E+001 -1.9658023752E+001 -1.0060894159E+002
9982500000.000 -7.8608654902E+000 -1.2653837457E+002 -4.3505739623E+001 +7.1909134760E+001 -8.0943945577E+001 +1.5152873885E+002 -1.9710106345E+001 -8.6346789736E+001
10115000000.000 -7.7687633213E+000 -1.2661757032E+002 -4.3558400853E+001 +3.7700827396E+001 -7.8805224753E+001 -1.1426845641E+002 -1.9916893263E+001 -7.8986837403E+001
10247500000.000 -7.6660255616E+000 -1.2712432974E+002 -4.3509570463E+001 +3.6405355188E+000 -7.9678320897E+001 +1.1465418266E+002 -2.1151207130E+001 -6.5887515120E+001
10380000000.000 -7.6182245360E+000 -1.2742725572E+002 -4.3622326172E+001 -3.0710639725E+001 -8.5937497808E+001 +1.6925021611E+002 -2.1067802132E+001 -4.9699491762E+001
10512500000.000 -7.5570627583E+000 -1.2755065135E+002 -4.3591702661E+001 -6.3441415198E+001 -9.9660589173E+001 +1.7897106026E+002 -2.1514208879E+001 -4.1725156153E+001
10645000000.000 -7.4772693481E+000 -1.2772971648E+002 -4.3550379585E+001 -9.7790813105E+001 -8.8667686789E+001 -3.4248498413E+001 -2.2819554857E+001 -2.3812046259E+001
10777500000.000 -7.3859229285E+000 -1.2802196139E+002 -4.3612297723E+001 -1.3255865228E+002 -9.2889553831E+001 +1.2244718586E+002 -2.2219490719E+001 -5.7524322888E+000
10910000000.000 -7.3136002105E+000 -1.2831564601E+002 -4.3680144166E+001 -1.6598804984E+002 -9.2581942485E+001 -8.3596845057E+001 -2.2789030096E+001 +4.5396796813E+000
11042500000.000 -7.2323620316E+000 -1.2858131921E+002 -4.3596744223E+001 +1.5993937517E+002 -8.1271272655E+001 -3.3103095436E+000 -2.3443975075E+001 +2.7715259622E+001
11175000000.000 -7.1424035266E+000 -1.2860667491E+002 -4.3568402642E+001 +1.2613566711E+002 -8.5820290339E+001 +7.8697021443E+001 -2.2269189566E+001 +4.2948502997E+001
11307500000.000 -7.0827875902E+000 -1.2869838274E+002 -4.3645854618E+001 +9.1987469390E+001 -8.3397367313E+001 -1.2361610082E+002 -2.2731822773E+001 +5.3451901285E+001
11440000000.000 -6.9902719951E+000 -1.2893643506E+002 -4.3555997442E+001 +5.7353519431E+001 -8.5847172300E+001 -7.1921668916E+001 -2.2564981889E+001 +7.5940253641E+001
11572500000.000 -6.9252393147E+000 -1.2878587671E+002 -4.3665970801E+001 +2.3483364155E+001 -8.9436379044E+001 +7.2753332538E+001 -2.1153068804E+001 +8.7195927180E+001
11705000000.000 -6.8638705154E+000 -1.2884487150E+002 -4.3689644103E+001 -1.0111084066E+001 -8.7299370527E+001 -1.0958695098E+002 -2.1765506400E+001 +9.7326330762E+001
11837500000.000 -6.7875305325E+000 -1.2897091809E+002 -4.3608879546E+001 -4.4606316326E+001 -7.9972349393E+001 -1.1087803316E+002 -2.1110575875E+001 +1.1950211838E+002
11970000000.000 -6.7692227208E+000 -1.2903515279E+002 -4.3660289277E+001 -7.8739064788E+001 -9.0786616264E+001 +8.4577270278E+001 -1.9808184165E+001 +1.2560328931E+002
12102500000.000 -6.7351931291E+000 -1.2881961671E+002 -4.3625841291E+001 -1.1298293180E+002 -8.0799272266E+001 +1.5331564166E+002 -2.0729897141E+001 +1.3557994803E+002
12235000000.000 -6.6567249778E+000 -1.2928067017E+002 -4.3675165264E+001 -1.4705149789E+002 -8.3759933716E+001 -8.4687892646E+001 -1.9766474062E+001 +1.5473579887E+002
12367500000.000 -6.6503459277E+000 -1.2928755498E+002 -4.3705018461E+001 +1.7834232487E+002 -8.2832014716E+001 +5.1982624672E+001 -1.8869418669E+001 +1.5808527691E+002
12500000000.000 -6.6112687464E+000 -1.2963902799E+002 -4.3723256905E+001 +1.4382846429E+002 -8.6613548366E+001 +7.7281324946E+001 -2.0044470823E+001 +1.6823896969E+002
12632500000.000 -6.5491138899E+000 -1.2963117445E+002 -4.3756332517E+001 +1.0995558892E+002 -8.2385519433E+001 -3.6226050939E+001 -1.9169717171E+001 -1.7287227343E+002
12765000000.000 -6.5161741255E+000 -1.2986055993E+002 -4.3921578940E+001 +7.6151092207E+001 -7.9068399388E+001 +1.8025678561E+001 -1.8507301332E+001 -1.7119702433E+002
12897500000.000 -6.4975481174E+000 -1.3013645475E+002 -4.3804364595E+001 +4.1643735222E+001 -8.8187301293E+001 +1.6588802123E+002 -2.0125222534E+001 -1.5939360655E+002
13030000000.000 -6.4624898620E+000 -1.3026444765E+002 -4.3789634582E+001 +7.8028551573E+000 -8.1932806239E+001 -1.1603917590E+002 -1.8846311485E+001 -1.4146064311E+002
13162500000.000 -6.4112480494E+000 -1.3034816225E+002 -4.3933352151E+001 -2.6845613869E+001 -8.7373309591E+001 +5.3974643704E+001 -1.8642299011E+001 -1.4143507494E+002
13295000000.000 -6.3674026189E+000 -1.3050201240E+002 -4.3908685175E+001 -5.9970255153E+001 -7.9074252778E+001 +9.4750257544E+001 -2.0032157084E+001 -1.2775665380E+002
13427500000.000 -6.3388631245E+000 -1.3089364060E+002 -4.3895664127E+001 -9.4752272176E+001 -8.4653681034E+001 -1.4157800311E+002 -1.8858990443E+001 -1.1411719742E+002
13560000000.000 -6.3362319258E+000 -1.3090259913E+002 -4.3875331233E+001 -1.2920276464E+002 -8.0507140245E+001 -4.5292804501E+001 -1.9054163346E+001 -1.1456773160E+002
13692500000.000 -6.2769699295E+000 -1.3091774017E+002 -4.3872355041E+001 -1.6245697852E+002 -8.2082290050E+001 -1.7405673438E+002 -2.0824754562E+001 -1.0114732016E+002
13825000000.000 -6.2147188646E+000 -1.3125488932E+002 -4.3872144783E+001 +1.6231864211E+002 -8.2851300502E+001 -1.3452112293E+002 -1.9723320752E+001 -8.7543369658E+001
13957500000.000 -6.2052782197E+000 -1.3166009002E+002 -4.3976955011E+001 +1.2934607562E+002 -8.4922975462E+001 +1.1105558522E+001 -2.0408176975E+001 -8.9983964238E+001
14090000000.000 -6.1830877320E+000 -1.3168502572E+002 -4.3845970714E+001 +9.5983399902E+001 -8.8814439250E+001 +2.4810921123E+001 -2.2678436544E+001 -7.2500263470E+001
14222500000.000 -6.1202384832E+000 -1.3154232515E+002 -4.3927598633E+001 +5.9920366280E+001 -8.0451093947E+001 +1.4152241912E+002 -2.1291241982E+001 -5.9246308350E+001
14355000000.000 -6.0515745276E+000 -1.3195982190E+002 -4.3868869415E+001 +2.5626548069E+001 -8.7145357150E+001 +1.2354885215E+001 -2.2528746454E+001 -6.3693890347E+001
14487500000.000 -6.0192685391E+000 -1.3215679381E+002 -4.4072295074E+001 -8.6120507109E+000 -8.5654985233E+001 -1.6074140770E+001 -2.5579836226E+001 -4.0031404622E+001
14620000000.000 -5.9959736933E+000 -1.3200393078E+002 -4.3959295322E+001 -4.3181866255E+001 -7.5492094295E+001 +1.2613720040E+002 -2.3266487169E+001 -2.7258415719E+001
14752500000.000 -5.8990769883E+000 -1.3189801212E+002 -4.4067583632E+001 -7.5837278324E+001 -8.3757635903E+001 -1.5110388297E+002 -2.5356147816E+001 -3.6771092368E+001
14885000000.000 -5.8460336765E+000 -1.3200186133E+002 -4.4188752591E+001 -1.1090979191E+002 -8.3793607357E+001 +8.2942590468E+001 -2.8983101499E+001 +2.6322936835E+000
15017500000.000 -5.8215193199E+000 -1.3192319333E+002 -4.4195046334E+001 -1.4649539282E+002 -8.9542220215E+001 +1.3807176493E+001 -2.5387423846E+001 +9.4756845641E+000
15150000000.000 -5.7635808213E+000 -1.3168880099E+002 -4.4238759746E+001 -1.7890282936E+002 -7.6223714746E+001 -1.3666135818E+002 -2.9075236287E+001 -2.6012925462E+000
15282500000.000 -5.7261889130E+000 -1.3153542205E+002 -4.4348366284E+001 +1.4637118662E+002 -8.1712984310E+001 -6.1227703519E+001 -3.1245468262E+001 +5.8113422623E+001
