!  2-Port S-parameters saved by WinCal
! VAR MeasName=S-Parameters (CALIBRATED_DATA) read from VNA (C)
! VAR MeasDate=10/16/2015 2:30:54 PM
! VAR NAME=M6082_10_13_2_2_20C_2.5mA_-17.5dBm
! VAR FILENAME=M6082_10_13_2_2_20C_2.5mA_-17.5dBm.S2P
! VAR DATE=10/16/2015 2:30:54 PM
! VAR PHYS_PORTS=2,1
! VAR ObjTypeName=DATASET
! VAR IndexType=Frequency
!
# Hz S DB R 50
45000000.000 -2.6261951771E+001 -2.3265372248E+000 -4.3172039433E+001 +1.0678351154E+002 -6.2349429056E+001 +1.3383271163E+001 -3.1033086619E+001 +5.5200416856E+000
177500000.000 -2.5963103737E+001 -1.1872443477E+001 -4.3859798341E+001 +6.8596169290E+001 -8.4981286336E+001 +1.6486413453E+002 -3.2695171758E+001 +4.6069859075E+001
310000000.000 -2.5487868780E+001 -2.1280733555E+001 -4.3816315185E+001 +3.7913281472E+001 -7.8421266140E+001 -3.5599042366E+000 -2.3364544592E+001 +6.4698541989E+001
442500000.000 -2.4941654205E+001 -3.0138746913E+001 -4.2964555384E+001 -1.3933855839E+000 -8.6866430624E+001 -4.6449184744E+001 -2.2401308265E+001 +1.7204636802E+001
575000000.000 -2.4209162719E+001 -3.8165198659E+001 -4.3391227479E+001 -3.7403187333E+001 -8.7298636552E+001 +1.7424856251E+002 -3.0610712025E+001 +2.2402116509E+001
707500000.000 -2.3540511706E+001 -4.4874545165E+001 -4.3648731164E+001 -7.1860929896E+001 -8.8807375868E+001 -1.1976239613E+002 -3.4540149333E+001 +8.3897639519E+001
840000000.000 -2.2743712038E+001 -5.0641942634E+001 -4.3696286146E+001 -1.0670785481E+002 -8.5526663735E+001 +4.7487447147E+001 -2.9698438309E+001 +1.2744536302E+002
972500000.000 -2.1986157338E+001 -5.5349847284E+001 -4.3806976810E+001 -1.4027630437E+002 -8.4774194918E+001 +1.0497000933E+002 -2.5959825362E+001 +1.3543279499E+002
1105000000.000 -2.1285665424E+001 -5.9914678912E+001 -4.3999849993E+001 -1.7457075203E+002 -8.4709961937E+001 -1.3438608915E+002 -2.4374230944E+001 +1.4089342256E+002
1237500000.000 -2.0640210932E+001 -6.3525440135E+001 -4.3884613952E+001 +1.5095286629E+002 -9.0041403504E+001 +1.2926936553E+002 -2.3395702838E+001 +1.4995312601E+002
1370000000.000 -1.9997818861E+001 -6.6846455810E+001 -4.4000471708E+001 +1.1628812180E+002 -9.5234744832E+001 -3.0829041692E-002 -2.2080811053E+001 +1.5998486054E+002
1502500000.000 -1.9539151077E+001 -6.9700619369E+001 -4.3408925083E+001 +8.2988377898E+001 -8.7736431689E+001 -1.3128280436E+002 -2.0853095058E+001 +1.6639125485E+002
1635000000.000 -1.8913491835E+001 -7.1854144118E+001 -4.3458885056E+001 +4.8219485921E+001 -9.6956920248E+001 -5.3042894234E+001 -2.0028661471E+001 +1.7330745800E+002
1767500000.000 -1.8340085826E+001 -7.4381467905E+001 -4.3344860331E+001 +1.4584553640E+001 -9.7681575586E+001 +1.1385960030E+002 -1.9023744628E+001 +1.7852313829E+002
1900000000.000 -1.7861004233E+001 -7.6377734977E+001 -4.3326069526E+001 -2.1077065723E+001 -8.9144486638E+001 +1.4889489313E+002 -1.8871022407E+001 -1.7824168179E+002
2032500000.000 -1.7405293156E+001 -7.8264644690E+001 -4.3476803588E+001 -5.5131056998E+001 -8.6683606544E+001 -1.5135908416E+001 -1.8694344525E+001 -1.6788527805E+002
2165000000.000 -1.6885838449E+001 -7.9716188427E+001 -4.3524335060E+001 -8.9323600141E+001 -7.6402865832E+001 +3.1176653883E+001 -1.7749730892E+001 -1.6100441786E+002
2297500000.000 -1.6477636984E+001 -8.1362175689E+001 -4.3523091027E+001 -1.2270727489E+002 -7.9016944334E+001 -1.6322462628E+002 -1.7246121963E+001 -1.5704512023E+002
2430000000.000 -1.6114029273E+001 -8.2824376673E+001 -4.3693104685E+001 -1.5690074688E+002 -7.5432946439E+001 -1.0965586084E+002 -1.6940732010E+001 -1.5288236637E+002
2562500000.000 -1.5697664966E+001 -8.4116060921E+001 -4.3561302364E+001 +1.6824035931E+002 -7.2663389198E+001 +6.1662718301E+001 -1.6846781793E+001 -1.5050063337E+002
2695000000.000 -1.5377759595E+001 -8.5893712956E+001 -4.3859132038E+001 +1.3361861180E+002 -8.7865089186E+001 +1.1366716081E+002 -1.7366946540E+001 -1.4711173630E+002
2827500000.000 -1.5095892473E+001 -8.7259975320E+001 -4.3650687399E+001 +9.9887988816E+001 -8.0453246525E+001 -1.0985591940E+002 -1.7845337827E+001 -1.4028963645E+002
2960000000.000 -1.4781494095E+001 -8.8180289920E+001 -4.3675947749E+001 +6.5845007384E+001 -7.6187832850E+001 +1.5060310569E+001 -1.8155356417E+001 -1.3546117588E+002
3092500000.000 -1.4421076748E+001 -8.9563057435E+001 -4.3725585189E+001 +3.2324464344E+001 -8.6192446145E+001 -1.1307538258E+002 -1.9082773153E+001 -1.2931279159E+002
3225000000.000 -1.4124781006E+001 -9.1160250974E+001 -4.3680413455E+001 -2.3002851151E+000 -7.9859762984E+001 -9.2962671951E+001 -1.9587746062E+001 -1.1967249248E+002
3357500000.000 -1.3904792061E+001 -9.2258564555E+001 -4.3615344702E+001 -3.6499143493E+001 -8.4823737591E+001 -1.5267677808E+001 -1.9969364890E+001 -1.1424333647E+002
3490000000.000 -1.3569609715E+001 -9.3122698238E+001 -4.3727003558E+001 -7.0482224584E+001 -8.7026500995E+001 +8.3491491006E+001 -2.1126726225E+001 -1.0853409815E+002
3622500000.000 -1.3255678948E+001 -9.4218717267E+001 -4.3609398084E+001 -1.0456436036E+002 -8.5228844421E+001 -1.2754447549E+002 -2.1933166030E+001 -9.8106547205E+001
3755000000.000 -1.2968945958E+001 -9.5436458302E+001 -4.3401259652E+001 -1.3877510394E+002 -8.3618997872E+001 -4.6428720405E+001 -2.2711145338E+001 -9.4714785202E+001
3887500000.000 -1.2725860183E+001 -9.6219639606E+001 -4.3246064788E+001 -1.7282524881E+002 -9.2125798125E+001 +1.4847919459E+002 -2.5052963043E+001 -8.7848726642E+001
4020000000.000 -1.2486125121E+001 -9.7040782081E+001 -4.3337095031E+001 +1.5345917006E+002 -9.8368317188E+001 -1.5539025420E+002 -2.6657366860E+001 -7.3252096942E+001
4152500000.000 -1.2215439360E+001 -9.7748132786E+001 -4.3111878339E+001 +1.1755198279E+002 -7.6892566310E+001 -7.1586761631E+001 -2.8870138487E+001 -6.4675328827E+001
4285000000.000 -1.1973863591E+001 -9.8573489778E+001 -4.3091689623E+001 +8.3402036161E+001 -9.2980096051E+001 -5.0269027195E+001 -3.3418397404E+001 -3.7330917661E+001
4417500000.000 -1.1742144323E+001 -9.9507314086E+001 -4.3171197937E+001 +4.8532671825E+001 -7.9311002767E+001 +1.5022014736E+002 -3.1750747531E+001 +8.0759953195E+000
4550000000.000 -1.1546169983E+001 -1.0006404725E+002 -4.3180105299E+001 +1.3393592860E+001 -8.3316522393E+001 -9.1432252478E+001 -3.0317551890E+001 +1.8298359181E+001
4682500000.000 -1.1298805522E+001 -1.0060723016E+002 -4.3263308908E+001 -2.0924556386E+001 -8.4763446032E+001 -7.7171730664E+000 -2.9677198557E+001 +3.8936460394E+001
4815000000.000 -1.1064442522E+001 -1.0163966579E+002 -4.3431644202E+001 -5.4100698145E+001 -9.9218410495E+001 +7.1930557235E+001 -2.7636557957E+001 +4.1270622093E+001
4947500000.000 -1.0898820979E+001 -1.0196477129E+002 -4.3115684332E+001 -8.8462831094E+001 -8.1669410914E+001 -1.5908246246E+002 -2.9371039842E+001 +3.5886875063E+001
5080000000.000 -1.0707120587E+001 -1.0233460091E+002 -4.2994354646E+001 -1.2253744965E+002 -8.9790351236E+001 -2.4297818129E+001 -3.2239349916E+001 +5.7134181608E+001
5212500000.000 -1.0507167013E+001 -1.0289312445E+002 -4.2908407972E+001 -1.5732138614E+002 -8.9867322278E+001 -5.4687769485E+001 -3.1562310320E+001 +6.9552653244E+001
5345000000.000 -1.0352245247E+001 -1.0358375239E+002 -4.2653648994E+001 +1.6791042290E+002 -9.0966812761E+001 -6.6389305828E+001 -3.5335528265E+001 +7.1349931689E+001
5477500000.000 -1.0223113966E+001 -1.0383191386E+002 -4.2574670106E+001 +1.3349143637E+002 -8.8872772109E+001 -2.7805892246E+001 -3.7193098250E+001 +1.3184080337E+002
5610000000.000 -1.0040268110E+001 -1.0417905654E+002 -4.2477220841E+001 +9.7822281758E+001 -9.4379033759E+001 +8.8382252564E+001 -3.3664867015E+001 +1.3554125718E+002
5742500000.000 -9.8993023466E+000 -1.0485748241E+002 -4.2457052598E+001 +6.3266334557E+001 -9.9985184524E+001 +1.4795085564E+002 -3.7784203718E+001 +1.5279211785E+002
5875000000.000 -9.8116273367E+000 -1.0548385263E+002 -4.2151718581E+001 +2.8179857268E+001 -8.4442429818E+001 -8.0091587933E-002 -3.3750517285E+001 -1.7022663549E+002
6007500000.000 -9.6883119599E+000 -1.0578895555E+002 -4.2160257794E+001 -6.8058309758E+000 -8.6136649800E+001 +2.7782115544E+001 -3.2684731494E+001 +1.7967282775E+002
6140000000.000 -9.5257251031E+000 -1.0619350430E+002 -4.2046589137E+001 -4.2796368112E+001 -8.3433147920E+001 +1.5831628916E+002 -3.6114438365E+001 -1.6950674189E+002
6272500000.000 -9.3919205452E+000 -1.0708737793E+002 -4.1931216536E+001 -7.6979295031E+001 -8.4670044394E+001 -5.0974383050E+001 -3.3871108486E+001 -1.4440053073E+002
6405000000.000 -9.3144757825E+000 -1.0783061606E+002 -4.1848662440E+001 -1.1247114165E+002 -7.9631210731E+001 +1.5585433332E+001 -3.3828547107E+001 -1.6196072694E+002
6537500000.000 -9.1833926185E+000 -1.0797496259E+002 -4.1755707975E+001 -1.4890777781E+002 -9.7204581662E+001 -7.0278271792E+001 -4.0138648739E+001 -1.6019809380E+002
6670000000.000 -9.0135476077E+000 -1.0843807044E+002 -4.1656624177E+001 +1.7717870512E+002 -1.0208786784E+002 -1.1433542236E+002 -3.9374376827E+001 -1.3682848432E+002
6802500000.000 -8.8615784848E+000 -1.0936443577E+002 -4.1507825551E+001 +1.4137775159E+002 -9.0422862579E+001 -4.7106772424E+000 -3.8905673011E+001 +1.7968446331E+002
6935000000.000 -8.7677675296E+000 -1.0994252428E+002 -4.1549925160E+001 +1.0346435817E+002 -9.3919407807E+001 -1.5582335941E+002 -3.8583108581E+001 +1.2265560218E+002
7067500000.000 -8.6606398448E+000 -1.1005072431E+002 -4.1361668634E+001 +6.8516676237E+001 -8.1731353259E+001 -5.9197090862E+001 -3.9026349095E+001 +1.1449367911E+002
7200000000.000 -8.5020341162E+000 -1.1059716587E+002 -4.1237209292E+001 +3.5332047060E+001 -8.5046621506E+001 +4.0244089278E+001 -3.2897728836E+001 +1.3150633578E+002
7332500000.000 -8.3518339009E+000 -1.1139543670E+002 -4.1191860294E+001 -2.5110611633E+000 -8.4962117447E+001 +4.3738606148E+001 -2.9094199922E+001 +1.1882975463E+002
7465000000.000 -8.2510477937E+000 -1.1186311351E+002 -4.1126919476E+001 -3.8646934872E+001 -9.0800815845E+001 -1.0000776542E+002 -2.8651302153E+001 +1.2225299784E+002
7597500000.000 -8.1489033585E+000 -1.1216274438E+002 -4.1043663155E+001 -7.1353635786E+001 -8.4965699615E+001 -8.3220589575E+001 -2.6162014614E+001 +1.3751261600E+002
7730000000.000 -7.9597737198E+000 -1.1260960801E+002 -4.1073550130E+001 -1.1031035951E+002 -8.2723690798E+001 +3.4957446803E+001 -2.3736678710E+001 +1.3796695079E+002
7862500000.000 -7.7936556595E+000 -1.1316226588E+002 -4.1073858850E+001 -1.5037169302E+002 -8.6928743072E+001 -1.4059371520E+002 -2.3285913906E+001 +1.4143785760E+002
7995000000.000 -7.7393885131E+000 -1.1346890970E+002 -4.0907397969E+001 +1.7802517051E+002 -9.1899026218E+001 -8.3590707384E+001 -2.1836343936E+001 +1.5425733713E+002
8127500000.000 -7.5860563180E+000 -1.1362721965E+002 -4.0944182966E+001 +1.4248711975E+002 -8.1747433700E+001 +3.9209704972E+001 -2.0034225591E+001 +1.5644701425E+002
8260000000.000 -7.4193928565E+000 -1.1429826899E+002 -4.0992661013E+001 +1.0193945188E+002 -8.4335342377E+001 +1.2447022380E+002 -1.9870113080E+001 +1.6019220952E+002
8392500000.000 -7.3528424053E+000 -1.1453268965E+002 -4.0864526779E+001 +6.9027492894E+001 -9.0212909674E+001 -1.2671979496E+002 -1.9064262569E+001 +1.7037217210E+002
8525000000.000 -7.2693444220E+000 -1.1464428827E+002 -4.0902207847E+001 +3.4382385507E+001 -8.4463793898E+001 +2.4588219803E+001 -1.8211640509E+001 +1.7300737503E+002
8657500000.000 -7.1269226615E+000 -1.1507628423E+002 -4.1101278904E+001 -5.8500804946E+000 -8.9084557852E+001 +1.5195967219E+002 -1.8566720106E+001 +1.7796662954E+002
8790000000.000 -7.0162940857E+000 -1.1558019334E+002 -4.1236756584E+001 -4.2272523547E+001 -1.0466547750E+002 -1.7707467261E+002 -1.8355354097E+001 -1.7172205704E+002
8922500000.000 -6.9880607659E+000 -1.1583166190E+002 -4.1015285351E+001 -7.5247996879E+001 -9.0178086713E+001 -3.1044101131E+001 -1.7991298745E+001 -1.6598016197E+002
9055000000.000 -6.8904055001E+000 -1.1618128721E+002 -4.1254692395E+001 -1.1343940952E+002 -8.3978681529E+001 +8.2939442265E+001 -1.8456151327E+001 -1.5835726559E+002
9187500000.000 -6.8054497159E+000 -1.1662667700E+002 -4.1399791230E+001 -1.5004092392E+002 -8.5768981161E+001 -8.6238061376E+001 -1.8388989712E+001 -1.4631093962E+002
9320000000.000 -6.7476732905E+000 -1.1731668460E+002 -4.1316189037E+001 +1.7591778073E+002 -8.6063356403E+001 -8.2579134303E+001 -1.8209105564E+001 -1.3964542311E+002
9452500000.000 -6.7019288966E+000 -1.1775598621E+002 -4.1444410200E+001 +1.3999800258E+002 -7.9746515886E+001 +1.3567431281E+002 -1.8853385641E+001 -1.3058716760E+002
9585000000.000 -6.6218356901E+000 -1.1829580616E+002 -4.1726358591E+001 +1.0173674895E+002 -8.2528151343E+001 -1.0465403099E+002 -1.8800769386E+001 -1.1820508108E+002
9717500000.000 -6.5319377021E+000 -1.1877756269E+002 -4.1633010077E+001 +6.7874084746E+001 -8.3357284054E+001 -3.1598446554E+001 -1.8815254242E+001 -1.1109953261E+002
9850000000.000 -6.4926313664E+000 -1.1966931439E+002 -4.1836388729E+001 +3.1946707130E+001 -8.1128784745E+001 +6.6304790837E+001 -1.9656399740E+001 -1.0060907265E+002
9982500000.000 -6.4439448141E+000 -1.1995209840E+002 -4.2201230836E+001 -4.6586959166E+000 -9.3400662925E+001 +1.7448015366E+002 -1.9703939068E+001 -8.6440400283E+001
10115000000.000 -6.3697181854E+000 -1.2030412981E+002 -4.2256304401E+001 -3.9617793336E+001 -9.4039865393E+001 +3.4434494435E+001 -1.9919046986E+001 -7.8946567175E+001
10247500000.000 -6.2973797747E+000 -1.2103062573E+002 -4.2278121345E+001 -7.4274856008E+001 -8.7922821781E+001 +6.7902552125E+001 -2.1148694325E+001 -6.5960508446E+001
10380000000.000 -6.2644956173E+000 -1.2167064949E+002 -4.2869061969E+001 -1.1254369032E+002 -9.3452260803E+001 +1.4024683220E+002 -2.1067983546E+001 -4.9769737511E+001
10512500000.000 -6.2231009536E+000 -1.2200158890E+002 -4.3001916385E+001 -1.4614345792E+002 -8.9590065227E+001 -1.7945271752E+002 -2.1512623835E+001 -4.1768131058E+001
10645000000.000 -6.1630448164E+000 -1.2234659258E+002 -4.2914813275E+001 -1.7989681956E+002 -8.3180705786E+001 +4.7998715567E+001 -2.2818678191E+001 -2.3832630143E+001
10777500000.000 -6.0976960774E+000 -1.2295368362E+002 -4.3390426084E+001 +1.4345222348E+002 -9.0075346765E+001 -1.4487606653E+002 -2.2208938084E+001 -5.7680871821E+000
10910000000.000 -6.0508637817E+000 -1.2348324202E+002 -4.3693562017E+001 +1.0742172447E+002 -8.6292904241E+001 -1.4533437650E+002 -2.2783303292E+001 +4.4823103334E+000
11042500000.000 -5.9926915743E+000 -1.2391678217E+002 -4.3873784488E+001 +7.3651883053E+001 -8.9386949484E+001 -5.2160183628E+001 -2.3443140018E+001 +2.7771099956E+001
11175000000.000 -5.9266723011E+000 -1.2417364975E+002 -4.4074932579E+001 +3.8244065255E+001 -8.4732074938E+001 +1.3298273509E+002 -2.2265156404E+001 +4.2962502905E+001
11307500000.000 -5.8887649207E+000 -1.2452120670E+002 -4.4574298124E+001 +2.7766995639E+000 -9.4200535646E+001 -8.8319338708E+001 -2.2743093796E+001 +5.3491884855E+001
11440000000.000 -5.8357232116E+000 -1.2493256338E+002 -4.5808881188E+001 -2.9909245445E+001 -8.2990453818E+001 -4.5981776483E+001 -2.2568217667E+001 +7.5904621164E+001
11572500000.000 -5.7924053208E+000 -1.2498071821E+002 -4.6070285059E+001 -6.4694601547E+001 -7.9994347335E+001 +8.4023037222E+001 -2.1163508214E+001 +8.7172536471E+001
11705000000.000 -5.7383862302E+000 -1.2520140579E+002 -4.5286589698E+001 -1.0181857371E+002 -8.3230926715E+001 +7.7237453889E+001 -2.1772610736E+001 +9.7170232701E+001
11837500000.000 -5.6871415275E+000 -1.2550579388E+002 -4.5480290781E+001 -1.3567623653E+002 -8.7097364703E+001 +2.2861664909E+001 -2.1121142628E+001 +1.1944445073E+002
11970000000.000 -5.6806843935E+000 -1.2567801924E+002 -4.5659827015E+001 -1.7083756949E+002 -8.5272240734E+001 +9.7523600660E+001 -1.9819289583E+001 +1.2566633148E+002
12102500000.000 -5.6636731657E+000 -1.2564711717E+002 -4.6095206600E+001 +1.5447635147E+002 -8.3824238363E+001 -1.1441336382E+002 -2.0745968182E+001 +1.3557933793E+002
12235000000.000 -5.6257127588E+000 -1.2620389583E+002 -4.7375780850E+001 +1.2332649072E+002 -8.7751443746E+001 +3.6586461253E+001 -1.9763209871E+001 +1.5472008742E+002
12367500000.000 -5.6152055196E+000 -1.2631251134E+002 -4.6619998432E+001 +8.5114323790E+001 -9.4586029775E+001 +4.0947462714E+001 -1.8872924216E+001 +1.5806562496E+002
12500000000.000 -5.5955386591E+000 -1.2677032936E+002 -4.6740145986E+001 +5.0392229098E+001 -9.9631389497E+001 +8.4172360024E+001 -2.0054325609E+001 +1.6822767392E+002
12632500000.000 -5.5568659341E+000 -1.2690305013E+002 -4.7232542251E+001 +1.6852386437E+001 -8.5403876818E+001 -2.9344649146E+001 -1.9167512910E+001 -1.7290010841E+002
12765000000.000 -5.5379442887E+000 -1.2720301851E+002 -4.7517295730E+001 -1.7990502041E+001 -9.7755493675E+001 +1.4300441325E+002 -1.8517259367E+001 -1.7122413760E+002
12897500000.000 -5.5352931777E+000 -1.2756637407E+002 -4.7599124131E+001 -5.2194273466E+001 -8.3101692459E+001 +9.7138259116E+001 -2.0129313745E+001 -1.5938345651E+002
13030000000.000 -5.5181453293E+000 -1.2778582588E+002 -4.8059884593E+001 -8.6785097407E+001 -8.1972662820E+001 -9.4026645394E+001 -1.8851034506E+001 -1.4142601887E+002
13162500000.000 -5.4968257221E+000 -1.2794789646E+002 -4.9413871565E+001 -1.1790146945E+002 -8.5920934901E+001 -7.7809007279E+001 -1.8650357650E+001 -1.4143574745E+002
13295000000.000 -5.4573466625E+000 -1.2819247822E+002 -4.8535363368E+001 -1.5614033828E+002 -9.5629650842E+001 -1.4771807741E+001 -2.0024924279E+001 -1.2775021592E+002
13427500000.000 -5.4471267367E+000 -1.2863859119E+002 -4.8727630236E+001 +1.6877970587E+002 -8.7622494322E+001 -1.3563705737E+002 -1.8853233408E+001 -1.1413168042E+002
13560000000.000 -5.4560035500E+000 -1.2870433288E+002 -4.9259864947E+001 +1.3411777616E+002 -8.0931679141E+001 -5.2311741927E+001 -1.9064167276E+001 -1.1459792031E+002
13692500000.000 -5.4143751403E+000 -1.2880878754E+002 -4.9451074276E+001 +1.0266604179E+002 -8.3991096011E+001 +5.3092929127E+001 -2.0829003761E+001 -1.0126560488E+002
13825000000.000 -5.3722141987E+000 -1.2921153829E+002 -4.9708991152E+001 +6.7681556238E+001 -8.5195305001E+001 +3.1482379724E+001 -1.9730098443E+001 -8.7547813005E+001
13957500000.000 -5.3744966557E+000 -1.2962517669E+002 -4.9984700326E+001 +3.1705530095E+001 -8.3898373907E+001 -1.5609522282E+002 -2.0405745503E+001 -8.9970227633E+001
14090000000.000 -5.3665330847E+000 -1.2972916071E+002 -5.0211877742E+001 -4.6478347332E-001 -9.1612653062E+001 -4.7995269924E+001 -2.2688802174E+001 -7.2628561476E+001
14222500000.000 -5.3173681677E+000 -1.2968685370E+002 -5.0849975207E+001 -3.5466792569E+001 -8.1998756496E+001 +1.2697951543E+002 -2.1293161467E+001 -5.9232869318E+001
14355000000.000 -5.2704332477E+000 -1.3011976160E+002 -5.0798295085E+001 -6.9148808316E+001 -8.2024669798E+001 -8.3957988590E+001 -2.2525808865E+001 -6.3634972066E+001
14487500000.000 -5.2523203016E+000 -1.3035026851E+002 -5.0715270685E+001 -1.0001368588E+002 -8.5932582759E+001 +1.0326907241E+002 -2.5579391888E+001 -4.0257218555E+001
14620000000.000 -5.2391661764E+000 -1.3027455242E+002 -5.1428117513E+001 -1.3539154912E+002 -7.6726903141E+001 +1.5928902481E+002 -2.3302914149E+001 -2.7324956378E+001
14752500000.000 -5.1578760597E+000 -1.3024565520E+002 -5.1572545065E+001 -1.7035085734E+002 -8.8906387868E+001 +1.6054593544E+002 -2.5372983589E+001 -3.6768060589E+001
14885000000.000 -5.1202670063E+000 -1.3039150110E+002 -5.1873214488E+001 +1.5564298194E+002 -8.1579073512E+001 -9.9076130852E-001 -2.8995543668E+001 +2.4481001388E+000
15017500000.000 -5.1074315306E+000 -1.3036705514E+002 -5.1982521624E+001 +1.2199186368E+002 -7.4708011150E+001 +1.1074703407E+002 -2.5417861826E+001 +9.4348332161E+000
15150000000.000 -5.0590450915E+000 -1.3017072954E+002 -5.2165574175E+001 +8.8578085816E+001 -7.8439490350E+001 -1.7815560975E+002 -2.9071558337E+001 -2.5877558165E+000
15282500000.000 -5.0290586528E+000 -1.3008778255E+002 -5.2883912453E+001 +5.4380432655E+001 -8.1507918424E+001 +5.8011572824E+001 -3.1296559448E+001 +5.8018858351E+001
