!  2-Port S-parameters saved by WinCal
! VAR MeasName=S-Parameters (CALIBRATED_DATA) read from VNA (C)
! VAR MeasDate=10/16/2015 10:48:22 AM
! VAR NAME=M6082_13_13_2_2_20C_1.4mA_-17.5dBm 2
! VAR FILENAME=M6082_13_13_2_2_20C_1.4mA_-17.5dBm 2_1_1.S2P
! VAR DATE=10/16/2015 10:48:22 AM
! VAR PHYS_PORTS=2,1
! VAR ObjTypeName=DATASET
! VAR IndexType=Frequency
!
# Hz S DB R 50
45000000.000 -6.2746934740E+000 -5.1853227301E-001 -4.4547706568E+001 +1.0771374866E+002 -6.0901958952E+001 +4.6157441292E+001 -3.1344108960E+001 +6.8705713793E+000
177500000.000 -6.3129033663E+000 -1.9642771834E+000 -4.7581905370E+001 +6.4833163939E+001 -6.8833324587E+001 +7.6808814726E+001 -3.2626686406E+001 +4.5641479586E+001
310000000.000 -6.3225111799E+000 -3.3964397496E+000 -4.6047753604E+001 +3.6192398121E+001 -8.2624458116E+001 -1.0522472978E+002 -2.3299174124E+001 +6.4110204557E+001
442500000.000 -6.4077677915E+000 -4.4965782117E+000 -4.6913734700E+001 -3.5965443924E+000 -8.4499525577E+001 +1.4510304527E+001 -2.2297398736E+001 +1.7703775287E+001
575000000.000 -6.4650576476E+000 -5.6534598041E+000 -4.7119495049E+001 -4.1594272731E+001 -7.9898341882E+001 +2.8527792764E+001 -3.0425445498E+001 +2.2667464851E+001
707500000.000 -6.4518263396E+000 -6.9315141715E+000 -4.7732304204E+001 -7.7132319578E+001 -8.5454758439E+001 -3.0318623627E+001 -3.4410983397E+001 +8.2067241686E+001
840000000.000 -6.5053961658E+000 -7.9946590088E+000 -4.7645146817E+001 -1.1202681248E+002 -8.8211846146E+001 -9.4867892036E+001 -2.9735941803E+001 +1.2693392761E+002
972500000.000 -6.5356359773E+000 -9.0151631654E+000 -4.7478901926E+001 -1.4594201341E+002 -7.9820718371E+001 +6.6502434726E+001 -2.5909490501E+001 +1.3508239600E+002
1105000000.000 -6.5274748742E+000 -1.0324741412E+001 -4.7875575218E+001 +1.7716428341E+002 -8.2469934297E+001 -1.2021703154E+002 -2.4333806574E+001 +1.4041450992E+002
1237500000.000 -6.5343705331E+000 -1.1405978342E+001 -4.8071279940E+001 +1.4049918493E+002 -8.5828265542E+001 +5.1539078021E+001 -2.3366154319E+001 +1.4979397915E+002
1370000000.000 -6.5847592648E+000 -1.2417295332E+001 -4.7652177921E+001 +1.0557316831E+002 -8.8686231351E+001 -1.0626658715E+002 -2.2044408441E+001 +1.5972460316E+002
1502500000.000 -6.6134485612E+000 -1.3431001694E+001 -4.7568829365E+001 +6.9459241094E+001 -8.4668625788E+001 -1.7615724763E+002 -2.0846663148E+001 +1.6610634411E+002
1635000000.000 -6.5666038991E+000 -1.4614293957E+001 -4.8019554837E+001 +3.2231034195E+001 -8.9901490872E+001 -6.4151248656E+001 -2.0001823564E+001 +1.7311685440E+002
1767500000.000 -6.6038522134E+000 -1.5656940305E+001 -4.7512466517E+001 -3.6520161345E+000 -8.4251863130E+001 +8.9843292795E+001 -1.8993523977E+001 +1.7829849128E+002
1900000000.000 -6.6431138511E+000 -1.6484416430E+001 -4.6978995386E+001 -3.8403713617E+001 -8.7327220016E+001 +1.4128943507E+002 -1.8843390099E+001 -1.7836593638E+002
2032500000.000 -6.6543159674E+000 -1.7546902345E+001 -4.7155419479E+001 -7.4364229404E+001 -8.5507240753E+001 +1.3239367882E+001 -1.8664790122E+001 -1.6801520042E+002
2165000000.000 -6.6762068331E+000 -1.8353854193E+001 -4.6708129311E+001 -1.0814505915E+002 -8.3706513199E+001 +6.2100943728E+001 -1.7724054888E+001 -1.6112840183E+002
2297500000.000 -6.7222705155E+000 -1.9169900199E+001 -4.5850241379E+001 -1.4016149971E+002 -8.0233740932E+001 +1.5360655128E+002 -1.7223625913E+001 -1.5715956859E+002
2430000000.000 -6.7466754044E+000 -2.0002920698E+001 -4.5840597956E+001 -1.7401620671E+002 -8.0222592931E+001 -2.8718116980E+001 -1.6906494559E+001 -1.5293930874E+002
2562500000.000 -6.7529716998E+000 -2.0850394665E+001 -4.5543068313E+001 +1.5211993677E+002 -9.1678578074E+001 +6.4643047890E+000 -1.6798905651E+001 -1.5067519021E+002
2695000000.000 -6.8269635732E+000 -2.1651059002E+001 -4.4864373341E+001 +1.2028002148E+002 -7.4589130832E+001 -1.7660933781E+002 -1.7353563665E+001 -1.4729333931E+002
2827500000.000 -6.8238526359E+000 -2.2342057425E+001 -4.4534856955E+001 +8.2715907655E+001 -8.1137961294E+001 -1.1746173794E+002 -1.7816028957E+001 -1.4042990549E+002
2960000000.000 -6.7607944508E+000 -2.3257594385E+001 -4.4706175561E+001 +4.1079663258E+001 -7.7737695677E+001 +2.8545867045E+001 -1.8116440715E+001 -1.3569054700E+002
3092500000.000 -6.7631270538E+000 -2.4164959017E+001 -4.4186959641E+001 +6.3062355829E+000 -7.8438216613E+001 -1.0434893029E+002 -1.9069262059E+001 -1.2958810175E+002
3225000000.000 -6.7545135701E+000 -2.5249429465E+001 -4.3991858212E+001 -3.1803618964E+001 -8.3249619522E+001 -1.1577684332E+002 -1.9567155004E+001 -1.1981787247E+002
3357500000.000 -6.6867549630E+000 -2.6475555617E+001 -4.4182293470E+001 -8.0377020894E+001 -9.4134953055E+001 +9.1206105951E+001 -1.9923677970E+001 -1.1452410373E+002
3490000000.000 -6.6534351664E+000 -2.7590363892E+001 -4.3879898401E+001 -1.1867879610E+002 -7.9844866136E+001 +6.7902692136E+001 -2.1109764525E+001 -1.0890303092E+002
3622500000.000 -6.6346229336E+000 -2.8877799589E+001 -4.3622485496E+001 -1.5714573258E+002 -8.1769135412E+001 -6.5751375906E+001 -2.1936956729E+001 -9.8239816885E+001
3755000000.000 -6.6375828883E+000 -3.0614121526E+001 -4.4619270877E+001 +1.5741322184E+002 -8.1986871187E+001 -6.2927388858E+001 -2.2671328507E+001 -9.4636504468E+001
3887500000.000 -6.6504598091E+000 -3.1918495699E+001 -4.5039477661E+001 +1.1582184228E+002 -7.9943970860E+001 +3.6617532333E+001 -2.4970238355E+001 -8.8053231722E+001
4020000000.000 -6.6575632632E+000 -3.2928659828E+001 -4.4886354665E+001 +7.7888329757E+001 -8.3510698222E+001 -1.7884560550E+002 -2.6652418728E+001 -7.3529277545E+001
4152500000.000 -6.6861244736E+000 -3.4195845621E+001 -4.5807789759E+001 +3.7163686769E+001 -8.6533858195E+001 -8.2732306920E+001 -2.8781803507E+001 -6.4434379895E+001
4285000000.000 -6.7125834574E+000 -3.5287842808E+001 -4.6148260231E+001 -1.9966233121E+000 -9.6562265465E+001 +1.0025777923E+002 -3.3130996938E+001 -3.8406340128E+001
4417500000.000 -6.7345602933E+000 -3.6344054058E+001 -4.6217634248E+001 -3.8801442298E+001 -8.7950453064E+001 +7.9332532893E+001 -3.1714659444E+001 +7.3667912913E+000
4550000000.000 -6.7555961297E+000 -3.7250105584E+001 -4.6604056961E+001 -7.6113993730E+001 -8.5562930038E+001 -8.3590041738E+001 -3.0206674175E+001 +1.7632495505E+001
4682500000.000 -6.7748125123E+000 -3.8234778479E+001 -4.7989934838E+001 -1.1422157249E+002 -8.1456044202E+001 +2.0629602049E+001 -2.9600378267E+001 +3.7584791147E+001
4815000000.000 -6.7941050544E+000 -3.9166084470E+001 -4.7897720671E+001 -1.4951837880E+002 -8.6194156315E+001 +1.5240362516E+002 -2.7595462914E+001 +4.0273900250E+001
4947500000.000 -6.8028388768E+000 -3.9895476532E+001 -4.8140376016E+001 +1.7459198625E+002 -8.0686002470E+001 -1.1134845734E+002 -2.9264103683E+001 +3.4635010571E+001
5080000000.000 -6.7935298110E+000 -4.0592587836E+001 -4.9157690587E+001 +1.3743199272E+002 -8.3728028058E+001 +6.3778779489E+001 -3.2156551911E+001 +5.4971871232E+001
5212500000.000 -6.8065643012E+000 -4.1481414767E+001 -4.8842105482E+001 +1.0338978315E+002 -8.5206466330E+001 +1.7411652335E+002 -3.1528636727E+001 +6.7726445256E+001
5345000000.000 -6.8233330062E+000 -4.2208024438E+001 -4.8665293636E+001 +6.7691597977E+001 -1.0460773107E+002 -1.1187383288E+002 -3.5247755061E+001 +6.8053576862E+001
5477500000.000 -6.8045969698E+000 -4.2624477737E+001 -4.9593497043E+001 +3.1871891533E+001 -8.7721584522E+001 -1.2224403777E+001 -3.7688911936E+001 +1.2980503492E+002
5610000000.000 -6.7942277663E+000 -4.3331924882E+001 -4.9923686315E+001 -3.4748347809E+000 -9.0143254929E+001 +4.3569692472E+001 -3.3815941076E+001 +1.3405297806E+002
5742500000.000 -6.8248343430E+000 -4.4046447093E+001 -4.9647658373E+001 -3.9926397664E+001 -8.6187704710E+001 +1.3913933060E+002 -3.8149864969E+001 +1.4867803118E+002
5875000000.000 -6.8433280341E+000 -4.4441346134E+001 -5.0254148236E+001 -7.2807174917E+001 -9.5964575757E+001 -6.2391019089E+000 -3.4122854453E+001 -1.7065092214E+002
6007500000.000 -6.8266378859E+000 -4.4888756736E+001 -5.0857867526E+001 -1.0784612579E+002 -8.8621911398E+001 +1.5069981689E+002 -3.2798207682E+001 +1.7848077035E+002
6140000000.000 -6.8318088293E+000 -4.5783262773E+001 -5.0670175625E+001 -1.4510106434E+002 -9.0396564910E+001 +1.5823598064E+002 -3.6509667604E+001 -1.7245415887E+002
6272500000.000 -6.8756315140E+000 -4.6607354006E+001 -5.0972598394E+001 -1.7870984880E+002 -8.6281586860E+001 -9.8101484640E+001 -3.4298864513E+001 -1.4485936801E+002
6405000000.000 -6.8986202791E+000 -4.6960603019E+001 -5.1464909421E+001 +1.4776019363E+002 -1.0160170265E+002 -1.2568947261E+002 -3.3917916036E+001 -1.6341664429E+002
6537500000.000 -6.8810978139E+000 -4.7441639623E+001 -5.1455610902E+001 +1.1196977117E+002 -8.5086883146E+001 -1.1430387301E+002 -4.0298879201E+001 -1.6589174507E+002
6670000000.000 -6.8661911812E+000 -4.8450009213E+001 -5.1739300435E+001 +7.6238953357E+001 -9.0715012967E+001 -9.7300913326E+001 -3.9981251710E+001 -1.4119905264E+002
6802500000.000 -6.8809087638E+000 -4.9205637301E+001 -5.2311195723E+001 +4.3490231301E+001 -8.5881149622E+001 +6.9896301186E+001 -3.8742697109E+001 +1.7683787177E+002
6935000000.000 -6.9167347282E+000 -4.9576380787E+001 -5.3060816461E+001 +1.1193039364E+001 -8.6689468308E+001 -1.4261370968E+002 -3.8158207505E+001 +1.2361406059E+002
7067500000.000 -6.9068965489E+000 -5.0160710928E+001 -5.2779488804E+001 -2.5076371972E+001 -8.8832481123E+001 -1.3274138544E+001 -3.8423607039E+001 +1.1612482477E+002
7200000000.000 -6.8934411892E+000 -5.1166575108E+001 -5.2975647768E+001 -6.1773424690E+001 -9.5781675809E+001 +1.6016949037E+002 -3.2623930223E+001 +1.3140624257E+002
7332500000.000 -6.9097385208E+000 -5.1933724199E+001 -5.3532145929E+001 -9.3986473239E+001 -8.5340537734E+001 -7.6520004112E+001 -2.9010345262E+001 +1.1966532459E+002
7465000000.000 -6.9363848182E+000 -5.2563139876E+001 -5.3572813821E+001 -1.2606654806E+002 -9.1567809233E+001 -1.6176766702E+002 -2.8582871357E+001 +1.2335584153E+002
7597500000.000 -6.9145226225E+000 -5.3413061316E+001 -5.4078568780E+001 -1.6312457105E+002 -8.7542200927E+001 -3.1448458486E+000 -2.6054119066E+001 +1.3776424212E+002
7730000000.000 -6.8785568237E+000 -5.4073943800E+001 -5.4518670259E+001 +1.6289700387E+002 -8.6179294685E+001 +1.6987402910E+002 -2.3700232169E+001 +1.3788580288E+002
7862500000.000 -6.8682490726E+000 -5.4694489074E+001 -5.5079594308E+001 +1.3066520138E+002 -8.6274351472E+001 +1.3781545490E+002 -2.3294661761E+001 +1.4189685800E+002
7995000000.000 -6.8811343379E+000 -5.5425851490E+001 -5.4875205137E+001 +9.5954904462E+001 -8.5167023029E+001 -3.2634560428E+001 -2.1793659683E+001 +1.5458621415E+002
8127500000.000 -6.8164603206E+000 -5.6146233729E+001 -5.5516071833E+001 +6.0269780178E+001 -8.5993495998E+001 +3.4637287182E+001 -2.0021119142E+001 +1.5635318399E+002
8260000000.000 -6.7996148025E+000 -5.6716267421E+001 -5.6115678714E+001 +2.3713277241E+001 -8.7588106123E+001 +1.6870360492E+002 -1.9897475099E+001 +1.6015234773E+002
8392500000.000 -6.7884809364E+000 -5.7333520734E+001 -5.5589157340E+001 -6.4237138929E+000 -8.5741507047E+001 -4.6643005230E+001 -1.9054657606E+001 +1.7044454283E+002
8525000000.000 -6.7507772643E+000 -5.7737981477E+001 -5.6656288501E+001 -4.0060865304E+001 -8.7862985730E+001 +5.8106220908E+001 -1.8187733337E+001 +1.7277640317E+002
8657500000.000 -6.7029173148E+000 -5.8059174712E+001 -5.7018567946E+001 -7.2675316304E+001 -8.4440318478E+001 +1.7124883224E+002 -1.8566222982E+001 +1.7768487480E+002
8790000000.000 -6.6855293636E+000 -5.8669133871E+001 -5.7136007602E+001 -1.0672770688E+002 -9.9138198401E+001 -4.1146378238E+001 -1.8352281505E+001 -1.7187296591E+002
8922500000.000 -6.6926185482E+000 -5.9130525157E+001 -5.7730535877E+001 -1.4010385209E+002 -8.5998407168E+001 -4.8339409835E+001 -1.7986118726E+001 -1.6621011253E+002
9055000000.000 -6.6554991480E+000 -5.9401118160E+001 -5.7937277448E+001 -1.7508158744E+002 -8.5150096651E+001 +1.4073857967E+002 -1.8461585229E+001 -1.5864805862E+002
9187500000.000 -6.6596432093E+000 -5.9849636659E+001 -5.7832586203E+001 +1.5135556199E+002 -8.8731478028E+001 +1.6725609887E+002 -1.8390885003E+001 -1.4673806503E+002
9320000000.000 -6.6675301973E+000 -6.0447177925E+001 -5.8243613281E+001 +1.1893754248E+002 -9.6747386769E+001 -1.1908561101E+002 -1.8224660855E+001 -1.4010135859E+002
9452500000.000 -6.6476597955E+000 -6.0797350781E+001 -5.8439340112E+001 +8.5163372811E+001 -8.3550605058E+001 +8.2477741828E+001 -1.8841824406E+001 -1.3083719368E+002
9585000000.000 -6.6267895397E+000 -6.1238409099E+001 -5.8371287459E+001 +5.0820651735E+001 -8.7505546444E+001 -1.1223357560E+002 -1.8772581269E+001 -1.1875509213E+002
9717500000.000 -6.6330085630E+000 -6.2145159803E+001 -5.8377354987E+001 +1.5187282496E+001 -9.4053779056E+001 -4.4003825813E+001 -1.8835783467E+001 -1.1171657529E+002
9850000000.000 -6.6435197294E+000 -6.2572968346E+001 -5.9071703874E+001 -1.9561752215E+001 -8.6865583885E+001 -2.4670970124E+001 -1.9655917430E+001 -1.0081800444E+002
9982500000.000 -6.6172660422E+000 -6.2978468461E+001 -5.9248870008E+001 -5.5334759002E+001 -7.7100079008E+001 -1.4617554008E+002 -1.9646321949E+001 -8.7105004573E+001
10115000000.000 -6.6107048545E+000 -6.3722856478E+001 -5.9676512401E+001 -8.8074843925E+001 -8.5072177736E+001 -7.5220203607E+001 -1.9937641995E+001 -7.9935829521E+001
10247500000.000 -6.6174728956E+000 -6.4340421012E+001 -5.9768071963E+001 -1.1459806039E+002 -9.0670124397E+001 +3.9405087355E+001 -2.1147656691E+001 -6.6427039633E+001
10380000000.000 -6.5783239113E+000 -6.4654090112E+001 -6.0587986180E+001 -1.5096811176E+002 -7.9999526152E+001 -1.5454509699E+002 -2.0967181130E+001 -5.0633927444E+001
10512500000.000 -6.5933546012E+000 -6.5572893691E+001 -6.0722299370E+001 +1.7442622562E+002 -8.5378190835E+001 -1.1123305706E+002 -2.1466431195E+001 -4.3104959220E+001
10645000000.000 -6.6168073026E+000 -6.6202371633E+001 -6.0779984824E+001 +1.3663280469E+002 -8.3445061576E+001 +8.7546149501E+001 -2.2829497121E+001 -2.4428170612E+001
10777500000.000 -6.5785659506E+000 -6.6474075747E+001 -6.1643554186E+001 +1.0888449481E+002 -9.1266860097E+001 -1.7413651642E+002 -2.2112150727E+001 -6.7077199105E+000
10910000000.000 -6.5493728451E+000 -6.7164002186E+001 -6.0721667071E+001 +7.1345604627E+001 -7.9621637357E+001 -1.2367759899E+002 -2.2756180762E+001 +2.6035163575E+000
11042500000.000 -6.5469622620E+000 -6.8276900619E+001 -6.1305722330E+001 +3.8310822254E+001 -8.9497480494E+001 -3.3177691396E+001 -2.3476843711E+001 +2.6509623898E+001
11175000000.000 -6.5209318458E+000 -6.8747192807E+001 -6.2328276589E+001 +8.2980654313E+000 -7.8799785182E+001 +8.6894001683E+001 -2.2178428615E+001 +4.1740134277E+001
11307500000.000 -6.4918106974E+000 -6.8968188003E+001 -6.2604283468E+001 -3.0941228548E+001 -8.7684665077E+001 -6.0326944006E+001 -2.2703666681E+001 +5.1588796771E+001
11440000000.000 -6.4668692607E+000 -6.9851138302E+001 -6.2791668018E+001 -6.3701385020E+001 -8.2576858472E+001 -8.5256538962E+000 -2.2639522251E+001 +7.4631102446E+001
11572500000.000 -6.4190266765E+000 -7.0311081141E+001 -6.3070693938E+001 -9.5069381065E+001 -8.1841993008E+001 +6.7818358820E+001 -2.1153773518E+001 +8.6010418816E+001
11705000000.000 -6.3970124501E+000 -7.0678673057E+001 -6.3951071009E+001 -1.3082137904E+002 -8.3819215861E+001 -1.4840183103E+002 -2.1754768720E+001 +9.5596938118E+001
11837500000.000 -6.3824529673E+000 -7.1267599102E+001 -6.3202604981E+001 -1.6452769457E+002 -8.5411030854E+001 +2.2656446226E+001 -2.1165837405E+001 +1.1806763473E+002
11970000000.000 -6.3743590064E+000 -7.1577721373E+001 -6.3438272747E+001 +1.6347545970E+002 -8.0295690103E+001 +9.2140385758E+001 -1.9822398298E+001 +1.2446694405E+002
12102500000.000 -6.3142339363E+000 -7.1621673758E+001 -6.4208903388E+001 +1.2221754203E+002 -8.8729945545E+001 +1.3930588379E+002 -2.0749398496E+001 +1.3433282059E+002
12235000000.000 -6.3467938898E+000 -7.2424500915E+001 -6.3304263881E+001 +1.0660042922E+002 -8.2373805194E+001 -1.0091381656E+002 -1.9768134665E+001 +1.5340544582E+002
12367500000.000 -6.3468363625E+000 -7.2515797781E+001 -6.4266469261E+001 +6.5058801556E+001 -9.0187368281E+001 -9.4622458000E+001 -1.8887563261E+001 +1.5667440612E+002
12500000000.000 -6.3385709046E+000 -7.3032352331E+001 -6.3878852948E+001 +2.5303396591E+001 -9.1943754490E+001 -1.6944426440E+002 -2.0061062793E+001 +1.6711212399E+002
12632500000.000 -6.3019589390E+000 -7.3607300027E+001 -6.4556177574E+001 +2.8852500354E-001 -8.2144681692E+001 -7.8318196207E+001 -1.9090245741E+001 -1.7402715631E+002
12765000000.000 -6.3338301717E+000 -7.3987125561E+001 -6.4693641410E+001 -3.7298452317E+001 -9.5756129253E+001 -6.3607702336E+001 -1.8490408833E+001 -1.7263551402E+002
12897500000.000 -6.3523166173E+000 -7.4290159906E+001 -6.4533141117E+001 -7.0082535337E+001 -8.2670335015E+001 +1.3450739241E+002 -2.0167326265E+001 -1.6024590405E+002
13030000000.000 -6.3188189673E+000 -7.4618863226E+001 -6.5535613531E+001 -1.0227588806E+002 -8.8738891187E+001 -8.7670193261E+001 -1.8739758831E+001 -1.4246690935E+002
13162500000.000 -6.3026464658E+000 -7.5117798891E+001 -6.5495844813E+001 -1.2918524250E+002 -8.6453330936E+001 +2.5336977283E+000 -1.8545468694E+001 -1.4316226897E+002
13295000000.000 -6.2951261324E+000 -7.5606592663E+001 -6.4418799263E+001 +1.7850885102E+002 -8.2918485594E+001 +1.3996516670E+002 -2.0022253848E+001 -1.2890689077E+002
13427500000.000 -6.3284518573E+000 -7.6078874315E+001 -6.6823721016E+001 +1.4765651228E+002 -8.8654622473E+001 -5.3104665314E+001 -1.8695220119E+001 -1.1474624112E+002
13560000000.000 -6.3327512361E+000 -7.6155861260E+001 -6.5719361935E+001 +1.1107919342E+002 -8.0180067893E+001 -5.4431163788E+001 -1.8886898548E+001 -1.1597257677E+002
13692500000.000 -6.2836745792E+000 -7.6522843548E+001 -6.7615291153E+001 +8.3217767863E+001 -8.8262728039E+001 -5.3170995537E+001 -2.0777550793E+001 -1.0239476545E+002
13825000000.000 -6.2878383747E+000 -7.7277176240E+001 -6.7557777914E+001 +5.7532715643E+001 -7.7766453776E+001 +1.2432636104E+002 -1.9590717916E+001 -8.7972898583E+001
13957500000.000 -6.3257178931E+000 -7.7677056738E+001 -6.6329742872E+001 +2.2982053153E+001 -8.2801324849E+001 -7.2406547766E+001 -2.0172154844E+001 -9.0867274622E+001
14090000000.000 -6.3083921870E+000 -7.7927586806E+001 -6.6827520040E+001 -6.1088495761E+000 -9.7333663968E+001 +1.3570091149E+002 -2.2525251228E+001 -7.3971890921E+001
14222500000.000 -6.2515664641E+000 -7.8387212473E+001 -6.6687427965E+001 -5.0222285709E+001 -8.6588046754E+001 -1.5099474816E+002 -2.1147859647E+001 -5.9791324421E+001
14355000000.000 -6.2673189131E+000 -7.9064738100E+001 -6.6582218474E+001 -7.1899733112E+001 -8.4870256687E+001 -1.3259049970E+002 -2.2300035995E+001 -6.3670601545E+001
14487500000.000 -6.2773076841E+000 -7.9490092843E+001 -6.8040868334E+001 -1.0114090391E+002 -9.2141593354E+001 -3.6999452608E+001 -2.5243635915E+001 -4.1080824047E+001
14620000000.000 -6.2219352859E+000 -7.9717722077E+001 -6.8529960148E+001 -1.2783599810E+002 -8.3030392868E+001 +8.1512619308E+001 -2.3155554146E+001 -2.8105119878E+001
14752500000.000 -6.1613438995E+000 -8.0444773379E+001 -6.9409136129E+001 -1.6563157357E+002 -8.9917337356E+001 -7.0439158008E+001 -2.5256979405E+001 -3.5989109488E+001
14885000000.000 -6.1627369161E+000 -8.0783710084E+001 -6.8202243223E+001 +1.5156648079E+002 -7.8866265001E+001 -2.9063155572E+001 -2.8429276731E+001 +1.8894550729E+000
15017500000.000 -6.1518658951E+000 -8.0752175911E+001 -6.7968270444E+001 +1.1795270245E+002 -8.2946777988E+001 +1.3058943136E+002 -2.5243216870E+001 +7.7782174486E+000
15150000000.000 -6.0599543139E+000 -8.0941081188E+001 -6.7749187907E+001 +9.3249983606E+001 -8.2371240610E+001 +7.8566318735E+001 -2.9094378340E+001 -1.3888297804E+000
15282500000.000 -6.0228106805E+000 -8.1222589317E+001 -6.7022432651E+001 +4.3835947894E+001 -8.4738478340E+001 -3.3302408332E+001 -3.0497457397E+001 +5.7281814427E+001
