!  2-Port S-parameters saved by WinCal
! VAR MeasName=S-Parameters (CALIBRATED_DATA) read from VNA (C)
! VAR MeasDate=10/16/2015 12:43:09 PM
! VAR NAME=M6082_13_15_2_2_20C_3.5mA_-17.5dBm
! VAR FILENAME=M6082_13_15_2_2_20C_3.5mA_-17.5dBm.S2P
! VAR DATE=10/16/2015 12:43:09 PM
! VAR PHYS_PORTS=2,1
! VAR ObjTypeName=DATASET
! VAR IndexType=Frequency
!
# Hz S DB R 50
45000000.000 -2.0693626050E+001 -1.3187350623E+000 -4.3158640993E+001 +9.0670129996E+001 -5.4223048524E+001 -8.7930836264E+001 -3.0811876754E+001 +7.6093118340E+000
177500000.000 -2.0739799639E+001 -5.3556028941E+000 -4.4111689670E+001 +6.9608997874E+001 -7.2682752831E+001 +7.9781153291E+001 -3.2692659264E+001 +4.5971247779E+001
310000000.000 -2.0691770453E+001 -9.0985036063E+000 -4.4055469062E+001 +3.6198782828E+001 -8.8948408829E+001 -3.1975273827E+001 -2.3356858183E+001 +6.4576554933E+001
442500000.000 -2.0635825708E+001 -1.3254254776E+001 -4.3093533183E+001 -5.5199169133E-001 -9.8910756260E+001 +1.1597495984E+001 -2.2381834424E+001 +1.7288331478E+001
575000000.000 -2.0570086743E+001 -1.7233311841E+001 -4.3480538030E+001 -3.6754878795E+001 -8.5220812641E+001 +1.0157564836E+002 -3.0598664488E+001 +2.2521608311E+001
707500000.000 -2.0539112138E+001 -2.0800747434E+001 -4.3512350827E+001 -7.0311204151E+001 -9.5601663323E+001 +1.7262807219E+002 -3.4509588600E+001 +8.3325960538E+001
840000000.000 -2.0357706900E+001 -2.4509172832E+001 -4.3682092888E+001 -1.0455361164E+002 -9.6909626597E+001 +6.3874636071E+000 -2.9682162912E+001 +1.2750592487E+002
972500000.000 -2.0142495592E+001 -2.7844946555E+001 -4.3721344557E+001 -1.3789372244E+002 -7.9567058096E+001 +4.8505754575E+001 -2.5977229441E+001 +1.3524297275E+002
1105000000.000 -1.9961509301E+001 -3.1365301829E+001 -4.3820291119E+001 -1.7226998207E+002 -8.6297832868E+001 -1.3149024712E+002 -2.4373511998E+001 +1.4080168212E+002
1237500000.000 -1.9778563011E+001 -3.4424027976E+001 -4.3877115883E+001 +1.5350845509E+002 -8.4472424134E+001 -9.1868454935E+001 -2.3388053046E+001 +1.4995619492E+002
1370000000.000 -1.9553950530E+001 -3.7439215540E+001 -4.3830911511E+001 +1.1957369633E+002 -8.8023831829E+001 -2.0111486187E+001 -2.2079294175E+001 +1.5994121403E+002
1502500000.000 -1.9336034091E+001 -4.0278449258E+001 -4.3920603348E+001 +8.5158680760E+001 -9.1510181157E+001 +1.4648312183E+002 -2.0866173764E+001 +1.6635792822E+002
1635000000.000 -1.9028853739E+001 -4.2735682356E+001 -4.3926988928E+001 +5.1218146193E+001 -8.0589784631E+001 -8.6873390467E+001 -2.0026602771E+001 +1.7326710891E+002
1767500000.000 -1.8764878647E+001 -4.5642179224E+001 -4.3868511628E+001 +1.6941084188E+001 -9.9667378800E+001 +9.1967323670E+001 -1.9018302476E+001 +1.7849477241E+002
1900000000.000 -1.8537305473E+001 -4.7795883874E+001 -4.3901882820E+001 -1.7508163269E+001 -9.0723108908E+001 -1.1855513482E+002 -1.8871550744E+001 -1.7829342167E+002
2032500000.000 -1.8308066961E+001 -4.9913213865E+001 -4.4028586319E+001 -5.2476702115E+001 -8.4737426362E+001 -2.6045444903E+001 -1.8689467054E+001 -1.6787872555E+002
2165000000.000 -1.7979899885E+001 -5.1982670087E+001 -4.4089496582E+001 -8.5963008161E+001 -7.6572444855E+001 +8.0187677384E+001 -1.7750047989E+001 -1.6100012967E+002
2297500000.000 -1.7756498096E+001 -5.4036669597E+001 -4.3918333159E+001 -1.2000957727E+002 -9.3643858263E+001 +5.9403394911E+001 -1.7240346239E+001 -1.5706125062E+002
2430000000.000 -1.7547288456E+001 -5.5768762594E+001 -4.3898541356E+001 -1.5357658264E+002 -8.1467138499E+001 -6.8790844195E+001 -1.6946518600E+001 -1.5284898500E+002
2562500000.000 -1.7273934353E+001 -5.7511171004E+001 -4.4211177851E+001 +1.7204401027E+002 -8.3015090169E+001 +1.2615227679E+002 -1.6837522661E+001 -1.5050376240E+002
2695000000.000 -1.7115770137E+001 -5.9550435658E+001 -4.4203480518E+001 +1.3779697839E+002 -8.2702284174E+001 +8.9618344549E+001 -1.7374273034E+001 -1.4708239088E+002
2827500000.000 -1.6978894813E+001 -6.1041647898E+001 -4.4217301819E+001 +1.0378481084E+002 -7.7711609326E+001 -9.2703844020E+001 -1.7847413110E+001 -1.4032482457E+002
2960000000.000 -1.6749348505E+001 -6.2355166080E+001 -4.4081384116E+001 +6.8987122736E+001 -8.0106461439E+001 +2.4142793745E+000 -1.8152676307E+001 -1.3548352357E+002
3092500000.000 -1.6496682293E+001 -6.4238199612E+001 -4.4189427280E+001 +3.5466425619E+001 -8.7303290905E+001 +1.5662760629E+002 -1.9084248013E+001 -1.2939707799E+002
3225000000.000 -1.6325540626E+001 -6.6308481144E+001 -4.4277932727E+001 +2.3120529391E+000 -8.6669975840E+001 +1.7138814210E+002 -1.9572950717E+001 -1.1975107549E+002
3357500000.000 -1.6201671551E+001 -6.7583167500E+001 -4.4032861408E+001 -3.2135998562E+001 -9.0915788119E+001 -1.6772699400E+001 -1.9963270671E+001 -1.1441153259E+002
3490000000.000 -1.5925018155E+001 -6.8909482786E+001 -4.4211172793E+001 -6.5329129519E+001 -7.8608973588E+001 -1.3500514371E+002 -2.1126486377E+001 -1.0853881669E+002
3622500000.000 -1.5661222313E+001 -7.0517294431E+001 -4.4169112286E+001 -9.9487364068E+001 -8.3460173530E+001 -5.3379655162E+001 -2.1952199102E+001 -9.8232269632E+001
3755000000.000 -1.5445519777E+001 -7.2243400462E+001 -4.4120813169E+001 -1.3301415253E+002 -8.3679460046E+001 -3.8614746599E+001 -2.2715089562E+001 -9.4579043740E+001
3887500000.000 -1.5252829936E+001 -7.3373234777E+001 -4.3986809827E+001 -1.6781118085E+002 -7.7269026903E+001 +6.5518122015E+001 -2.5060954067E+001 -8.7897663859E+001
4020000000.000 -1.5050979701E+001 -7.4434328704E+001 -4.4114087785E+001 +1.5777820116E+002 -9.4728233310E+001 -7.9030003058E+001 -2.6662835558E+001 -7.3314956860E+001
4152500000.000 -1.4805089117E+001 -7.5567919948E+001 -4.4044633045E+001 +1.2381440163E+002 -8.5046711970E+001 +2.4165714796E+001 -2.8878018582E+001 -6.4522944722E+001
4285000000.000 -1.4596913842E+001 -7.6745236663E+001 -4.4005009955E+001 +8.9293777057E+001 -9.0205366955E+001 +3.9784555104E+001 -3.3362404998E+001 -3.7552921336E+001
4417500000.000 -1.4409625426E+001 -7.7962186595E+001 -4.4085511225E+001 +5.5145544434E+001 -8.2333949504E+001 +1.4995863607E+002 -3.1770096249E+001 +8.2739107437E+000
4550000000.000 -1.4224069813E+001 -7.8731952010E+001 -4.4160791610E+001 +2.0773392400E+001 -9.5298625404E+001 -8.6379496137E+001 -3.0342091510E+001 +1.8363334819E+001
4682500000.000 -1.3988994694E+001 -7.9608846498E+001 -4.4075136862E+001 -1.2062879232E+001 -8.6210605763E+001 +5.2850415022E+001 -2.9658567665E+001 +3.8993207607E+001
4815000000.000 -1.3798469155E+001 -8.0655568728E+001 -4.4182579496E+001 -4.5806753312E+001 -8.8450469678E+001 +1.4317527716E+002 -2.7621227693E+001 +4.1349828957E+001
4947500000.000 -1.3631377085E+001 -8.1326157472E+001 -4.3929694303E+001 -7.9635223140E+001 -9.2436597599E+001 -1.4055137704E+002 -2.9365037575E+001 +3.5727558344E+001
5080000000.000 -1.3435372984E+001 -8.1821992701E+001 -4.3905520524E+001 -1.1313616274E+002 -8.4740214722E+001 -7.7354683003E+000 -3.2223989376E+001 +5.7018803259E+001
5212500000.000 -1.3238273285E+001 -8.2622323273E+001 -4.3756965647E+001 -1.4719924964E+002 -9.0172243010E+001 +1.3787717433E+002 -3.1521316804E+001 +6.9407089411E+001
5345000000.000 -1.3101796705E+001 -8.3464327292E+001 -4.3613887110E+001 +1.7844249872E+002 -8.7351868178E+001 -1.4002209165E+002 -3.5294259456E+001 +7.0762906381E+001
5477500000.000 -1.2960714232E+001 -8.3640489282E+001 -4.3451611980E+001 +1.4406796732E+002 -8.5494780691E+001 -1.7658565337E+001 -3.7253210760E+001 +1.3148172512E+002
5610000000.000 -1.2771563805E+001 -8.4160529189E+001 -4.3355514400E+001 +1.0897973467E+002 -9.2089506978E+001 -1.6536874184E+002 -3.3622669895E+001 +1.3549042454E+002
5742500000.000 -1.2646788296E+001 -8.4980398736E+001 -4.3352743722E+001 +7.4457064425E+001 -8.0796981717E+001 -1.5687298655E+002 -3.7773086192E+001 +1.5227946818E+002
5875000000.000 -1.2584070114E+001 -8.5576883516E+001 -4.3246847211E+001 +4.0565335271E+001 -8.8089348254E+001 -1.5186012054E+002 -3.3783778213E+001 -1.7040285928E+002
6007500000.000 -1.2460436184E+001 -8.5847445416E+001 -4.3265180746E+001 +5.7030709410E+000 -8.2444951765E+001 +1.1068090629E+001 -3.2644651807E+001 +1.7948689620E+002
6140000000.000 -1.2291305695E+001 -8.6513807618E+001 -4.3220761031E+001 -2.9214357250E+001 -9.8639889018E+001 -1.8465969816E+001 -3.6145818801E+001 -1.6994226120E+002
6272500000.000 -1.2190445322E+001 -8.7663746043E+001 -4.3107710211E+001 -6.3298651212E+001 -8.1937168645E+001 -7.2864320332E+001 -3.3883845621E+001 -1.4433698720E+002
6405000000.000 -1.2148979135E+001 -8.8381675512E+001 -4.3165844693E+001 -9.8444406842E+001 -8.8294082579E+001 +9.4499729751E+001 -3.3779546784E+001 -1.6192810534E+002
6537500000.000 -1.2017261282E+001 -8.8556050250E+001 -4.3097997017E+001 -1.3265765748E+002 -9.0472385217E+001 -1.5334968968E+002 -4.0075811930E+001 -1.6097762834E+002
6670000000.000 -1.1822304964E+001 -8.9331619345E+001 -4.3072823014E+001 -1.6731691134E+002 -8.2574077271E+001 -9.4897621491E+001 -3.9412493913E+001 -1.3706776979E+002
6802500000.000 -1.1707963378E+001 -9.0551939449E+001 -4.3057226452E+001 +1.5837929274E+002 -9.2781130212E+001 -2.1940816051E+001 -3.8886347963E+001 +1.7969237461E+002
6935000000.000 -1.1667380706E+001 -9.1162441233E+001 -4.2978346706E+001 +1.2340820064E+002 -9.8861504004E+001 +1.4653581189E+002 -3.8687745824E+001 +1.2310176093E+002
7067500000.000 -1.1540369288E+001 -9.1300752576E+001 -4.2939417650E+001 +8.9300581266E+001 -1.0429697446E+002 +1.3424967287E+002 -3.8983396556E+001 +1.1452782781E+002
7200000000.000 -1.1356964313E+001 -9.2182225844E+001 -4.3008285278E+001 +5.4908454220E+001 -7.9800228748E+001 -1.7622928717E+001 -3.2859600680E+001 +1.3163393822E+002
7332500000.000 -1.1250595670E+001 -9.3216845066E+001 -4.2913033374E+001 +2.0091643073E+001 -8.4846812747E+001 -1.5989374957E+002 -2.9105552129E+001 +1.1904203728E+002
7465000000.000 -1.1174011423E+001 -9.3673659247E+001 -4.2840369306E+001 -1.4246680994E+001 -8.3664625253E+001 -1.7879566385E+002 -2.8645585071E+001 +1.2242867077E+002
7597500000.000 -1.1021488916E+001 -9.4089604793E+001 -4.2854442078E+001 -4.8517579966E+001 -1.0098943046E+002 +7.5857881652E+001 -2.6133877749E+001 +1.3755620594E+002
7730000000.000 -1.0853465010E+001 -9.4760602113E+001 -4.2773342304E+001 -8.3693439113E+001 -8.6951302578E+001 +1.1853745865E+002 -2.3743116727E+001 +1.3783342904E+002
7862500000.000 -1.0737798860E+001 -9.5307785386E+001 -4.2654011865E+001 -1.1806365208E+002 -8.7524488488E+001 -8.4216425082E+001 -2.3298050688E+001 +1.4159243286E+002
7995000000.000 -1.0645333095E+001 -9.5616366003E+001 -4.2648306520E+001 -1.5212633067E+002 -8.7893422483E+001 -4.1644534708E+001 -2.1837874919E+001 +1.5430942278E+002
8127500000.000 -1.0459451849E+001 -9.5883745970E+001 -4.2570071123E+001 +1.7312827235E+002 -8.3767276854E+001 -8.5608872449E+001 -2.0025941332E+001 +1.5645886630E+002
8260000000.000 -1.0336812937E+001 -9.6497611288E+001 -4.2515620456E+001 +1.3824324934E+002 -9.4886556430E+001 +1.3621761421E+001 -1.9870196675E+001 +1.6024464120E+002
8392500000.000 -1.0246979719E+001 -9.6693884294E+001 -4.2507060713E+001 +1.0371655141E+002 -8.1280316618E+001 -8.0382752177E+001 -1.9069579008E+001 +1.7048570372E+002
8525000000.000 -1.0130645179E+001 -9.6759844987E+001 -4.2312462470E+001 +6.8942138145E+001 -8.9501062314E+001 +1.7730589952E+001 -1.8202824954E+001 +1.7297153128E+002
8657500000.000 -9.9948180282E+000 -9.7002326033E+001 -4.2268341040E+001 +3.2707624328E+001 -7.9033382322E+001 +1.3605871155E+002 -1.8576492190E+001 +1.7795320094E+002
8790000000.000 -9.8832384956E+000 -9.7396362671E+001 -4.2154988607E+001 -1.5723274840E+000 -8.8949725504E+001 +1.9830756169E+000 -1.8356726910E+001 -1.7167138113E+002
8922500000.000 -9.8304373701E+000 -9.7624742650E+001 -4.2134558995E+001 -3.6526516227E+001 -1.0311202734E+002 +9.7738945545E+001 -1.7984731568E+001 -1.6599990528E+002
9055000000.000 -9.7200814642E+000 -9.7741294034E+001 -4.1912161103E+001 -7.1586047121E+001 -9.0303249281E+001 +1.4850731536E+002 -1.8456578853E+001 -1.5831479932E+002
9187500000.000 -9.6357464001E+000 -9.8067489777E+001 -4.1945732503E+001 -1.0693234693E+002 -8.7982081557E+001 -1.4046570950E+002 -1.8381511572E+001 -1.4631546699E+002
9320000000.000 -9.5714789054E+000 -9.8749763619E+001 -4.1945947823E+001 -1.4182357521E+002 -8.5345386319E+001 +9.2991198573E+001 -1.8209113824E+001 -1.3967570874E+002
9452500000.000 -9.5095861795E+000 -9.9001831777E+001 -4.1855907292E+001 -1.7736379738E+002 -1.0010494718E+002 +1.3091397508E+002 -1.8855052276E+001 -1.3055371060E+002
9585000000.000 -9.4163742111E+000 -9.9321231286E+001 -4.1848195290E+001 +1.4658272059E+002 -8.6148327197E+001 -1.4594407015E+002 -1.8788728169E+001 -1.1827255668E+002
9717500000.000 -9.3060340159E+000 -1.0004390859E+002 -4.1752559456E+001 +1.1195628857E+002 -8.3170817124E+001 +2.7007162647E+000 -1.8815893143E+001 -1.1118908500E+002
9850000000.000 -9.2665402122E+000 -1.0079867913E+002 -4.1714733092E+001 +7.5929852275E+001 -8.1160609213E+001 +9.2306015803E+001 -1.9658597799E+001 -1.0051986933E+002
9982500000.000 -9.1861646504E+000 -1.0093126083E+002 -4.1715736909E+001 +4.0857281572E+001 -9.5174460851E+001 -1.4161536161E+002 -1.9683944815E+001 -8.6461264899E+001
10115000000.000 -9.0779673360E+000 -1.0142012778E+002 -4.1703348701E+001 +5.9874317217E+000 -8.3249221318E+001 -8.3376444581E+001 -1.9924317861E+001 -7.9103097867E+001
10247500000.000 -8.9963314832E+000 -1.0227555181E+002 -4.1682126570E+001 -2.9449783342E+001 -8.6556883498E+001 -1.3782484364E+000 -2.1157877074E+001 -6.5851393392E+001
10380000000.000 -8.9289635681E+000 -1.0270482291E+002 -4.1816823892E+001 -6.6527685900E+001 -7.9112104406E+001 +1.4286378616E+002 -2.1053296817E+001 -4.9796677384E+001
10512500000.000 -8.8548559403E+000 -1.0320166968E+002 -4.1778745600E+001 -1.0146643481E+002 -8.2377518781E+001 -1.3986779594E+002 -2.1522850202E+001 -4.1973661102E+001
10645000000.000 -8.7798135525E+000 -1.0374549909E+002 -4.1743744195E+001 -1.3577809693E+002 -8.2545260305E+001 +2.1578427159E+000 -2.2832924393E+001 -2.3814582011E+001
10777500000.000 -8.6840957308E+000 -1.0428230982E+002 -4.1937094305E+001 -1.7227312733E+002 -9.3531664987E+001 +5.0412132031E+001 -2.2183715586E+001 -5.7908514163E+000
10910000000.000 -8.5998100613E+000 -1.0477817569E+002 -4.1897783934E+001 +1.5202179205E+002 -8.7594005271E+001 -1.3031853365E+002 -2.2790737943E+001 +4.2352816134E+000
11042500000.000 -8.5136092108E+000 -1.0544678914E+002 -4.1937978400E+001 +1.1697359073E+002 -8.1023550995E+001 +3.1534977973E+001 -2.3461918327E+001 +2.7829055555E+001
11175000000.000 -8.4148890924E+000 -1.0585616845E+002 -4.1945399192E+001 +8.1267610324E+001 -8.6293771764E+001 +9.2037861430E+001 -2.2236500646E+001 +4.2889189594E+001
11307500000.000 -8.3539964155E+000 -1.0614931138E+002 -4.2203981051E+001 +4.4881731062E+001 -9.5856190034E+001 -7.5438475601E+001 -2.2733795159E+001 +5.3268731288E+001
11440000000.000 -8.2651726941E+000 -1.0673567744E+002 -4.2152065427E+001 +1.0482044182E+001 -9.5852638245E+001 -5.9218757781E+001 -2.2566379617E+001 +7.5892524171E+001
11572500000.000 -8.1719945945E+000 -1.0689341265E+002 -4.2300369622E+001 -2.4833952507E+001 -8.1904133379E+001 +1.2810737186E+002 -2.1146894281E+001 +8.7180441113E+001
11705000000.000 -8.1065659541E+000 -1.0723479675E+002 -4.2529479444E+001 -6.0830530736E+001 -8.5919184630E+001 -1.5108760432E+001 -2.1761481666E+001 +9.7131325250E+001
11837500000.000 -8.0318043815E+000 -1.0766683156E+002 -4.2576316335E+001 -9.5691575735E+001 -9.1548158265E+001 +1.2825950619E+002 -2.1119941029E+001 +1.1935721176E+002
11970000000.000 -8.0027486186E+000 -1.0788267560E+002 -4.2639395897E+001 -1.3126689932E+002 -9.0270942331E+001 -6.1905700809E+001 -1.9810900385E+001 +1.2558192969E+002
12102500000.000 -7.9437577728E+000 -1.0781258310E+002 -4.2883017345E+001 -1.6682630282E+002 -8.2782948493E+001 +1.3943331128E+002 -2.0740160579E+001 +1.3553687450E+002
12235000000.000 -7.8927215347E+000 -1.0857899394E+002 -4.2972994778E+001 +1.5802070380E+002 -8.1343806236E+001 -5.2697561721E+001 -1.9751889442E+001 +1.5465665300E+002
12367500000.000 -7.8877190137E+000 -1.0860907459E+002 -4.3055204496E+001 +1.2314663084E+002 -8.2304219343E+001 +4.9176395816E+001 -1.8875808538E+001 +1.5798962591E+002
12500000000.000 -7.8519693089E+000 -1.0912519312E+002 -4.3325719114E+001 +8.6365557729E+001 -8.1893020745E+001 +1.4923516264E+002 -2.0047567647E+001 +1.6826165235E+002
12632500000.000 -7.7865421487E+000 -1.0934364101E+002 -4.3466238706E+001 +5.1838771081E+001 -8.0553866781E+001 -7.8781083950E+001 -1.9148935736E+001 -1.7291136129E+002
12765000000.000 -7.7727384620E+000 -1.0968390073E+002 -4.3632044943E+001 +1.7127598450E+001 -8.8098735954E+001 +4.4822655802E+001 -1.8518297660E+001 -1.7139086715E+002
12897500000.000 -7.7750640289E+000 -1.1006939996E+002 -4.3835983945E+001 -1.8210555721E+001 -8.8146231128E+001 +1.7896942517E+002 -2.0135604283E+001 -1.5924206078E+002
13030000000.000 -7.7474191164E+000 -1.1034832608E+002 -4.4061609253E+001 -5.4157142347E+001 -8.1668218914E+001 -1.4904688895E+002 -1.8816150670E+001 -1.4142865338E+002
13162500000.000 -7.6959184815E+000 -1.1064365489E+002 -4.4185348658E+001 -8.9199331272E+001 -8.6976553368E+001 +1.4095189722E+001 -1.8640560278E+001 -1.4168520748E+002
13295000000.000 -7.6599630523E+000 -1.1102886901E+002 -4.4468853429E+001 -1.2355190488E+002 -7.8128770586E+001 +8.6714983032E+001 -2.0052191208E+001 -1.2776178038E+002
13427500000.000 -7.6536509720E+000 -1.1165172041E+002 -4.4645653142E+001 -1.5906127528E+002 -8.8206388478E+001 -9.0650623674E+001 -1.8833476228E+001 -1.1402942961E+002
13560000000.000 -7.6562091883E+000 -1.1166069168E+002 -4.4790054332E+001 +1.6602356661E+002 -8.3931934569E+001 -6.6979682133E+001 -1.9035684767E+001 -1.1474877438E+002
13692500000.000 -7.5882219677E+000 -1.1185974676E+002 -4.5204549933E+001 +1.3239280618E+002 -8.0379094619E+001 -2.0289894309E-001 -2.0847396597E+001 -1.0127259947E+002
13825000000.000 -7.5293637461E+000 -1.1245888711E+002 -4.5185322391E+001 +9.7363256185E+001 -8.5198182111E+001 -3.9637767467E+001 -1.9721570641E+001 -8.7378599292E+001
13957500000.000 -7.5397192910E+000 -1.1291609162E+002 -4.5505296367E+001 +6.0892879619E+001 -8.3116499614E+001 +1.8018473926E+001 -2.0375938922E+001 -9.0027388038E+001
14090000000.000 -7.5196666248E+000 -1.1296176254E+002 -4.5855972260E+001 +2.6513499256E+001 -7.8214502527E+001 +8.0837376235E+001 -2.2680234412E+001 -7.2577631095E+001
14222500000.000 -7.4420176591E+000 -1.1298279942E+002 -4.5990718246E+001 -6.4884227729E+000 -8.5658579791E+001 +8.9514783808E+001 -2.1295726493E+001 -5.9246416835E+001
14355000000.000 -7.3970278348E+000 -1.1358409511E+002 -4.6374696900E+001 -4.0678615380E+001 -8.1620735672E+001 -9.0607071251E+001 -2.2519114873E+001 -6.3526392078E+001
14487500000.000 -7.3873999991E+000 -1.1385589211E+002 -4.6611179470E+001 -7.5987870916E+001 -7.8000213349E+001 +2.0393918488E+001 -2.5559257704E+001 -4.0253519038E+001
14620000000.000 -7.3532234152E+000 -1.1376979484E+002 -4.6625350426E+001 -1.1029241409E+002 -8.4062066665E+001 -1.2967404592E+002 -2.3302616138E+001 -2.7311347494E+001
14752500000.000 -7.2492240641E+000 -1.1397803186E+002 -4.6796545999E+001 -1.4495181301E+002 -8.4848910907E+001 -1.2230568855E+002 -2.5394529268E+001 -3.6618129246E+001
14885000000.000 -7.2134575273E+000 -1.1426881198E+002 -4.6978816746E+001 +1.7992678250E+002 -9.3300834268E+001 +6.3394118649E+001 -2.8918738290E+001 +2.5975742620E+000
15017500000.000 -7.2005851016E+000 -1.1427669662E+002 -4.7258690932E+001 +1.4534649250E+002 -8.6528386352E+001 +1.1434413351E+002 -2.5391063587E+001 +9.1150874126E+000
15150000000.000 -7.1159474888E+000 -1.1410890516E+002 -4.7428380180E+001 +1.1056695003E+002 -8.1996757026E+001 -1.1444795622E+002 -2.9147937878E+001 -2.1841757404E+000
15282500000.000 -7.0641669244E+000 -1.1411203893E+002 -4.7510174355E+001 +7.7837741818E+001 -8.8263337283E+001 +5.1723192201E+001 -3.1110887540E+001 +5.8124917507E+001
