!  2-Port S-parameters saved by WinCal
! VAR MeasName=S-Parameters (CALIBRATED_DATA) read from VNA (C)
! VAR MeasDate=10/16/2015 1:55:16 PM
! VAR NAME=M6082_13_17_2_2_20C_8.3mA_-17.5dBm
! VAR FILENAME=M6082_13_17_2_2_20C_8.3mA_-17.5dBm.S2P
! VAR DATE=10/16/2015 1:55:16 PM
! VAR PHYS_PORTS=2,1
! VAR ObjTypeName=DATASET
! VAR IndexType=Frequency
!
# Hz S DB R 50
45000000.000 -2.2770674637E+001 -1.7944973206E+002 -4.3147275750E+001 +9.2129885619E+001 -6.5499296570E+001 -8.1559244756E+001 -3.0975373607E+001 +9.0113212985E+000
177500000.000 -2.2910949838E+001 -1.7554621721E+002 -4.3315941530E+001 +7.0401902738E+001 -7.9417835201E+001 +1.3068399904E+002 -3.2827598456E+001 +4.6572019206E+001
310000000.000 -2.2857702616E+001 -1.7132311108E+002 -4.3447594914E+001 +3.8637280966E+001 -8.0343964704E+001 -1.1998038170E+002 -2.3365730606E+001 +6.4489861241E+001
442500000.000 -2.2764348559E+001 -1.6698624025E+002 -4.2355624488E+001 +1.2829013556E+000 -8.2301041522E+001 -4.2252917802E+001 -2.2391855105E+001 +1.7317963315E+001
575000000.000 -2.2538528258E+001 -1.6269365343E+002 -4.2833897280E+001 -3.4943944434E+001 -9.1658288648E+001 +6.5774769048E+001 -3.0607765461E+001 +2.2681018969E+001
707500000.000 -2.2292149522E+001 -1.5925710509E+002 -4.3228351131E+001 -6.9178246537E+001 -8.2437634406E+001 -1.6046669561E+002 -3.4530100841E+001 +8.3509366916E+001
840000000.000 -2.2054962576E+001 -1.5526431280E+002 -4.3104382399E+001 -1.0277007441E+002 -8.2307699320E+001 +1.9961699810E+001 -2.9688299328E+001 +1.2735433594E+002
972500000.000 -2.1788010758E+001 -1.5179072361E+002 -4.3206787613E+001 -1.3659451576E+002 -7.8137468234E+001 +5.8477920641E+001 -2.5952819456E+001 +1.3518248467E+002
1105000000.000 -2.1414598027E+001 -1.4863701156E+002 -4.3212083535E+001 -1.7061146686E+002 -8.7379232156E+001 -5.3232930455E+001 -2.4361920378E+001 +1.4071948660E+002
1237500000.000 -2.1075997380E+001 -1.4605057176E+002 -4.3301141692E+001 +1.5537931054E+002 -8.1121727008E+001 -4.7358562041E+001 -2.3394598984E+001 +1.4994054108E+002
1370000000.000 -2.0721686958E+001 -1.4363788803E+002 -4.3360166488E+001 +1.2060882078E+002 -9.5410101145E+001 +6.8165877777E+001 -2.2074976572E+001 +1.5992797281E+002
1502500000.000 -2.0388432183E+001 -1.4131913145E+002 -4.3562403963E+001 +8.6788880870E+001 -8.3025260236E+001 +1.5711427676E+002 -2.0863983204E+001 +1.6632913668E+002
1635000000.000 -2.0045874998E+001 -1.3880932077E+002 -4.3465062133E+001 +5.4041324404E+001 -8.2372357477E+001 +7.9801656635E+000 -2.0026950756E+001 +1.7324917616E+002
1767500000.000 -1.9654992003E+001 -1.3693275576E+002 -4.3256380440E+001 +1.8655540915E+001 -9.0007314910E+001 -1.6327535920E+002 -1.9016153723E+001 +1.7847562202E+002
1900000000.000 -1.9368486603E+001 -1.3530467018E+002 -4.3326675194E+001 -1.5412038166E+001 -8.5490227533E+001 -1.4031937878E+002 -1.8869965615E+001 -1.7826493479E+002
2032500000.000 -1.9036624613E+001 -1.3385321377E+002 -4.3557003659E+001 -4.9072453366E+001 -8.3556457474E+001 -5.6409337659E+001 -1.8691159225E+001 -1.6788594187E+002
2165000000.000 -1.8691225658E+001 -1.3193579007E+002 -4.3613716811E+001 -8.2467347699E+001 -7.9449902533E+001 +8.0126297778E+001 -1.7750999055E+001 -1.6098726323E+002
2297500000.000 -1.8395654026E+001 -1.3083858696E+002 -4.3567467352E+001 -1.1607220632E+002 -8.3212651189E+001 +1.7328619215E+002 -1.7243558231E+001 -1.5708683916E+002
2430000000.000 -1.8102451517E+001 -1.2972189845E+002 -4.3463643344E+001 -1.5105669730E+002 -8.1453835998E+001 -7.1853111594E+001 -1.6945263368E+001 -1.5284631897E+002
2562500000.000 -1.7778733889E+001 -1.2848641509E+002 -4.3867146066E+001 +1.7613359016E+002 -7.7247523314E+001 +7.7168995759E+001 -1.6838125784E+001 -1.5044914937E+002
2695000000.000 -1.7473278331E+001 -1.2829029819E+002 -4.3546852282E+001 +1.4023547436E+002 -8.1844818341E+001 -1.3949146507E+002 -1.7369483241E+001 -1.4713167574E+002
2827500000.000 -1.7242656901E+001 -1.2786856414E+002 -4.3943121893E+001 +1.0779965505E+002 -8.0365978050E+001 -1.0639921437E+002 -1.7839787393E+001 -1.4024025644E+002
2960000000.000 -1.6989628771E+001 -1.2697653601E+002 -4.3598510219E+001 +7.2531287274E+001 -7.7291931998E+001 -3.8649802006E+001 -1.8164212832E+001 -1.3550293283E+002
3092500000.000 -1.6649269929E+001 -1.2631319817E+002 -4.3862059166E+001 +3.8241484146E+001 -8.5306386321E+001 +1.4825468852E+002 -1.9080626490E+001 -1.2936729062E+002
3225000000.000 -1.6335644536E+001 -1.2639601289E+002 -4.3716758767E+001 +4.9622069096E+000 -7.5954338016E+001 -1.2311934321E+002 -1.9578977153E+001 -1.1977380760E+002
3357500000.000 -1.6136697216E+001 -1.2626468305E+002 -4.4023684972E+001 -2.7007773213E+001 -7.7552645132E+001 +1.6864283065E+001 -1.9970156113E+001 -1.1430064307E+002
3490000000.000 -1.5838507942E+001 -1.2548795227E+002 -4.3713832317E+001 -6.2083888158E+001 -9.0606510934E+001 -1.2899722235E+002 -2.1125970667E+001 -1.0863480420E+002
3622500000.000 -1.5541885718E+001 -1.2496008276E+002 -4.3837620026E+001 -9.6039592474E+001 -7.8073957017E+001 +1.5966890509E+002 -2.1943415729E+001 -9.8096854244E+001
3755000000.000 -1.5234465731E+001 -1.2482133438E+002 -4.3775131055E+001 -1.2895304558E+002 -8.3885873487E+001 +1.6552141248E+001 -2.2703434844E+001 -9.4677661166E+001
3887500000.000 -1.5003927570E+001 -1.2448813078E+002 -4.3778371313E+001 -1.6267833184E+002 -8.1626052571E+001 +9.5503656685E+001 -2.5046452765E+001 -8.7799504353E+001
4020000000.000 -1.4789682187E+001 -1.2415856002E+002 -4.3809104000E+001 +1.6280353021E+002 -8.1658568076E+001 -1.2752354138E+002 -2.6657124143E+001 -7.3124822733E+001
4152500000.000 -1.4526946656E+001 -1.2364035348E+002 -4.3972741686E+001 +1.2675810072E+002 -8.2919299196E+001 -1.1332920108E+002 -2.8892585548E+001 -6.4854090339E+001
4285000000.000 -1.4287633511E+001 -1.2341245013E+002 -4.3944893099E+001 +9.4263570548E+001 -7.9554643546E+001 +5.6802036193E+001 -3.3326083043E+001 -3.7660060753E+001
4417500000.000 -1.4054583410E+001 -1.2345771094E+002 -4.4079656900E+001 +6.0504179729E+001 -8.5738032224E+001 -1.2396741854E+002 -3.1754422905E+001 +8.1307004749E+000
4550000000.000 -1.3875565624E+001 -1.2304614011E+002 -4.4080512684E+001 +2.6101832105E+001 -8.9427714561E+001 -3.1758712503E+001 -3.0298925513E+001 +1.8293561834E+001
4682500000.000 -1.3643832781E+001 -1.2261279607E+002 -4.4078259255E+001 -7.1491325575E+000 -8.4118116500E+001 -8.8376731629E+000 -2.9658162472E+001 +3.8694573375E+001
4815000000.000 -1.3417136758E+001 -1.2251722990E+002 -4.4181123552E+001 -3.9749811411E+001 -8.4499375032E+001 -1.5289413631E+002 -2.7636677507E+001 +4.1141842544E+001
4947500000.000 -1.3254613026E+001 -1.2231250767E+002 -4.4106658802E+001 -7.2129243395E+001 -8.5331967813E+001 -5.5671728786E+001 -2.9353619246E+001 +3.5626060303E+001
5080000000.000 -1.3075557311E+001 -1.2184002668E+002 -4.4032248928E+001 -1.0708243846E+002 -8.3341310759E+001 -2.0106077047E+001 -3.2229837898E+001 +5.6828462995E+001
5212500000.000 -1.2876099009E+001 -1.2163524582E+002 -4.3991197101E+001 -1.4063557022E+002 -8.5816986101E+001 +1.3724889111E+002 -3.1558442139E+001 +6.9290537891E+001
5345000000.000 -1.2715897508E+001 -1.2170270646E+002 -4.3833514158E+001 -1.7568648998E+002 -9.6012603650E+001 -1.6624997545E+002 -3.5327747158E+001 +7.0952549842E+001
5477500000.000 -1.2609884441E+001 -1.2127655469E+002 -4.3885133006E+001 +1.5083603116E+002 -9.0853224753E+001 +8.5352760449E+000 -3.7293038659E+001 +1.3157040809E+002
5610000000.000 -1.2432784299E+001 -1.2095560037E+002 -4.3762960501E+001 +1.1722740607E+002 -8.5513816769E+001 +4.9769316952E+001 -3.3700068410E+001 +1.3573147535E+002
5742500000.000 -1.2276389618E+001 -1.2108822933E+002 -4.3870917276E+001 +8.2788202397E+001 -8.4741319519E+001 +1.7694800045E+002 -3.7837823820E+001 +1.5260236948E+002
5875000000.000 -1.2191142919E+001 -1.2131613967E+002 -4.3747724805E+001 +4.7513969672E+001 -8.4064568366E+001 -5.1719691893E+001 -3.3805729669E+001 -1.7048968954E+002
6007500000.000 -1.2082949157E+001 -1.2108850103E+002 -4.3798859784E+001 +1.3187585600E+001 -8.2384314236E+001 +6.7288961737E+001 -3.2707439484E+001 +1.7952329350E+002
6140000000.000 -1.1915447430E+001 -1.2095400305E+002 -4.3763337789E+001 -2.0810769263E+001 -8.8585972847E+001 -1.9755487804E+001 -3.6160786348E+001 -1.6989619604E+002
6272500000.000 -1.1751832657E+001 -1.2145393799E+002 -4.3748207881E+001 -5.4762799140E+001 -8.4357924613E+001 -6.7549207453E+001 -3.3921452337E+001 -1.4433896726E+002
6405000000.000 -1.1677236201E+001 -1.2190816065E+002 -4.3840762897E+001 -8.9158194646E+001 -8.4146283086E+001 +5.8899951633E+001 -3.3818795175E+001 -1.6204933923E+002
6537500000.000 -1.1572837686E+001 -1.2164624985E+002 -4.3923552663E+001 -1.2261982149E+002 -8.4416278422E+001 +1.6283556295E+002 -4.0209700114E+001 -1.6086317294E+002
6670000000.000 -1.1372484964E+001 -1.2155044099E+002 -4.3854232695E+001 -1.5714889296E+002 -8.4447170928E+001 -1.1244096433E+002 -3.9450350035E+001 -1.3764488628E+002
6802500000.000 -1.1201264580E+001 -1.2216220174E+002 -4.3885255990E+001 +1.6893854951E+002 -9.3365936578E+001 +3.9870507003E+001 -3.8846465890E+001 +1.7894493516E+002
6935000000.000 -1.1138352075E+001 -1.2258637812E+002 -4.3926072174E+001 +1.3457649407E+002 -9.3432547599E+001 +1.1988098439E+002 -3.8555550042E+001 +1.2277567672E+002
7067500000.000 -1.1035823229E+001 -1.2221652801E+002 -4.3962509886E+001 +1.0103851475E+002 -9.1268107256E+001 -1.5624872043E+001 -3.8894636891E+001 +1.1492635410E+002
7200000000.000 -1.0834194902E+001 -1.2224781397E+002 -4.4055033420E+001 +6.7052309904E+001 -9.0085073503E+001 -8.8940034829E+001 -3.2842172120E+001 +1.3161522736E+002
7332500000.000 -1.0690049267E+001 -1.2285113830E+002 -4.3979951728E+001 +3.2753655570E+001 -9.3856406083E+001 +1.3955078158E+002 -2.9058444434E+001 +1.1927988518E+002
7465000000.000 -1.0607672382E+001 -1.2299969126E+002 -4.4024159677E+001 -1.3896110643E+000 -9.1091160680E+001 -1.4936634058E+002 -2.8649137447E+001 +1.2261196788E+002
7597500000.000 -1.0470793381E+001 -1.2281659558E+002 -4.3961160408E+001 -3.4733867627E+001 -7.9010014473E+001 -1.0650307490E+001 -2.6134806684E+001 +1.3762858706E+002
7730000000.000 -1.0294338703E+001 -1.2284606199E+002 -4.4151892831E+001 -6.9140443782E+001 -9.1384089954E+001 +2.6224324963E+001 -2.3726864685E+001 +1.3790774405E+002
7862500000.000 -1.0174540876E+001 -1.2302114773E+002 -4.4111444399E+001 -1.0251596315E+002 -8.5785410918E+001 -9.5079699827E+001 -2.3274791546E+001 +1.4163256667E+002
7995000000.000 -1.0091468328E+001 -1.2297326834E+002 -4.4052817587E+001 -1.3711060713E+002 -8.6636748722E+001 -4.6769566469E+001 -2.1837178640E+001 +1.5429365087E+002
8127500000.000 -9.9346181552E+000 -1.2266186044E+002 -4.4025119316E+001 -1.7054017650E+002 -8.4898387668E+001 +2.6388052392E+001 -2.0032624476E+001 +1.5651621776E+002
8260000000.000 -9.8031500726E+000 -1.2289696731E+002 -4.4081693682E+001 +1.5638989389E+002 -8.6021445291E+001 +1.5692249581E+002 -1.9864462714E+001 +1.6017132124E+002
8392500000.000 -9.7250285286E+000 -1.2277256352E+002 -4.4042554025E+001 +1.2153837420E+002 -8.5600620978E+001 -8.1514988867E+001 -1.9073817413E+001 +1.7040331889E+002
8525000000.000 -9.6355436296E+000 -1.2250840117E+002 -4.4086924030E+001 +8.8077442643E+001 -8.2818162024E+001 +6.9943993310E+001 -1.8215867097E+001 +1.7297167635E+002
8657500000.000 -9.5198817275E+000 -1.2236365047E+002 -4.4225424903E+001 +5.3270974026E+001 -8.5219709008E+001 +1.1698287990E+002 -1.8570608607E+001 +1.7790635167E+002
8790000000.000 -9.4071763110E+000 -1.2242445225E+002 -4.3993276459E+001 +2.0047611285E+001 -9.0195692671E+001 -1.4632668591E+002 -1.8349947923E+001 -1.7179116661E+002
8922500000.000 -9.3663222953E+000 -1.2248814475E+002 -4.4203165118E+001 -1.4186749898E+001 -8.3619721320E+001 -1.7252229623E+001 -1.7982671264E+001 -1.6609613055E+002
9055000000.000 -9.2802043762E+000 -1.2230939041E+002 -4.4142167659E+001 -4.8597107572E+001 -8.4179922393E+001 +1.3250949237E+002 -1.8459899715E+001 -1.5838486785E+002
9187500000.000 -9.1969970401E+000 -1.2233374439E+002 -4.4122240319E+001 -8.3183823423E+001 -8.7851941965E+001 +1.2200063419E+002 -1.8387305156E+001 -1.4637286663E+002
9320000000.000 -9.1167657045E+000 -1.2277574025E+002 -4.3971885028E+001 -1.1700610589E+002 -9.3661183828E+001 +1.1270414957E+002 -1.8206874941E+001 -1.3973252856E+002
9452500000.000 -9.0667477549E+000 -1.2288292470E+002 -4.4176506708E+001 -1.5049107728E+002 -8.6978072869E+001 +1.0636277673E+002 -1.8852596250E+001 -1.3064325648E+002
9585000000.000 -8.9924834766E+000 -1.2291642861E+002 -4.4135569280E+001 +1.7469925408E+002 -9.4208849392E+001 +9.1369861350E+001 -1.8798826919E+001 -1.1829327883E+002
9717500000.000 -8.8672482378E+000 -1.2318663575E+002 -4.4085708923E+001 +1.4021906467E+002 -8.3250042346E+001 -1.6632073490E+001 -1.8813456174E+001 -1.1120943837E+002
9850000000.000 -8.8163922022E+000 -1.2381184371E+002 -4.4143237562E+001 +1.0776605396E+002 -8.5004275740E+001 +8.1195083664E+001 -1.9654160797E+001 -1.0076661286E+002
9982500000.000 -8.7550585877E+000 -1.2369471827E+002 -4.4163663103E+001 +7.3094510785E+001 -8.2857514991E+001 +1.7583218259E+002 -1.9696561855E+001 -8.6508979449E+001
10115000000.000 -8.6530176761E+000 -1.2377214653E+002 -4.4273861628E+001 +3.8808810305E+001 -8.8649807221E+001 +1.1125903187E+002 -1.9920615663E+001 -7.9182776147E+001
10247500000.000 -8.5466738244E+000 -1.2429785599E+002 -4.4131824206E+001 +4.8063572242E+000 -8.8147973468E+001 +6.1171047916E+001 -2.1144500858E+001 -6.6150174250E+001
10380000000.000 -8.4945892669E+000 -1.2455988699E+002 -4.4155594887E+001 -2.9403139277E+001 -8.2601454457E+001 +1.2990254313E+002 -2.1063791312E+001 -4.9970800035E+001
10512500000.000 -8.4244853374E+000 -1.2467954792E+002 -4.4107515786E+001 -6.2861470994E+001 -9.2968203080E+001 -1.0506557759E+002 -2.1492337228E+001 -4.2014606067E+001
10645000000.000 -8.3400277142E+000 -1.2485432171E+002 -4.4080133847E+001 -9.7397399625E+001 -8.1837202031E+001 +5.2743974364E-003 -2.2818001750E+001 -2.3939773142E+001
10777500000.000 -8.2450585814E+000 -1.2511175133E+002 -4.4147620971E+001 -1.3182647524E+002 -8.5752960370E+001 -2.6383636437E+001 -2.2196353596E+001 -5.9153120682E+000
10910000000.000 -8.1671355861E+000 -1.2534067138E+002 -4.4061585189E+001 -1.6590346970E+002 -9.2677173031E+001 +1.7231096049E+002 -2.2790496658E+001 +4.1747260123E+000
11042500000.000 -8.0762431338E+000 -1.2562163476E+002 -4.4123494650E+001 +1.6077058136E+002 -8.5095202640E+001 +1.5270937341E+001 -2.3454073901E+001 +2.7489612680E+001
11175000000.000 -7.9820749534E+000 -1.2563728885E+002 -4.4144272119E+001 +1.2658152805E+002 -8.6049011662E+001 -1.5778025576E+002 -2.2259384562E+001 +4.2699054267E+001
11307500000.000 -7.9212831299E+000 -1.2570161087E+002 -4.3965897665E+001 +9.2131153357E+001 -8.4067828745E+001 -1.5128383044E+002 -2.2744483710E+001 +5.3217938786E+001
11440000000.000 -7.8229377393E+000 -1.2594590087E+002 -4.4309149761E+001 +5.7863822654E+001 -8.5841335473E+001 +4.4957229832E+000 -2.2581497140E+001 +7.5651927399E+001
11572500000.000 -7.7464251684E+000 -1.2580297546E+002 -4.4179015709E+001 +2.4238729494E+001 -8.8991779589E+001 +7.2605641379E+001 -2.1167835517E+001 +8.6995885392E+001
11705000000.000 -7.6805923557E+000 -1.2585633846E+002 -4.4285247981E+001 -9.6888941405E+000 -7.9098527544E+001 +1.7053704518E+002 -2.1777406322E+001 +9.6936399627E+001
11837500000.000 -7.5996351297E+000 -1.2597942223E+002 -4.4212645295E+001 -4.4576408033E+001 -1.0401297916E+002 +8.7129664270E+001 -2.1138089875E+001 +1.1923030402E+002
11970000000.000 -7.5719141869E+000 -1.2601738338E+002 -4.4256121979E+001 -7.7446280979E+001 -8.0293868740E+001 -1.0560385298E+001 -1.9821494859E+001 +1.2547669494E+002
12102500000.000 -7.5276167377E+000 -1.2575962590E+002 -4.4164942468E+001 -1.1263157653E+002 -8.3077135267E+001 +1.1371664020E+002 -2.0745456362E+001 +1.3537890140E+002
12235000000.000 -7.4500942227E+000 -1.2622757393E+002 -4.4323845213E+001 -1.4685780410E+002 -8.1993217954E+001 -7.3762134459E+001 -1.9777848751E+001 +1.5456596566E+002
12367500000.000 -7.4427286809E+000 -1.2616138330E+002 -4.4281171529E+001 +1.7971823075E+002 -9.1132085909E+001 +3.2555967838E+001 -1.8887477383E+001 +1.5788793508E+002
12500000000.000 -7.4006970872E+000 -1.2647267426E+002 -4.4178649860E+001 +1.4382671624E+002 -9.0049520161E+001 +1.3584603567E+002 -2.0065348551E+001 +1.6802798019E+002
12632500000.000 -7.3347478718E+000 -1.2640529577E+002 -4.4264434707E+001 +1.1070964864E+002 -9.5055812084E+001 +6.9316352188E+001 -1.9168481783E+001 -1.7304939874E+002
12765000000.000 -7.3043505866E+000 -1.2661813968E+002 -4.4193419026E+001 +7.6012079297E+001 -8.9011043085E+001 +4.5778378183E+001 -1.8520222024E+001 -1.7141318030E+002
12897500000.000 -7.2858926814E+000 -1.2689619310E+002 -4.4293526057E+001 +4.2157996718E+001 -8.3505646721E+001 +1.7995347888E+001 -2.0131395780E+001 -1.5952758189E+002
13030000000.000 -7.2511042537E+000 -1.2700649051E+002 -4.4445645058E+001 +7.9679853599E+000 -9.1608817809E+001 -1.2888403750E+002 -1.8846900293E+001 -1.4162863803E+002
13162500000.000 -7.1936444771E+000 -1.2710525809E+002 -4.4323421764E+001 -2.6227382633E+001 -8.8658349758E+001 +2.8951802793E+001 -1.8641427221E+001 -1.4170450893E+002
13295000000.000 -7.1443050689E+000 -1.2727666163E+002 -4.4272789427E+001 -6.0291142452E+001 -8.2224032293E+001 +9.6501877792E+001 -2.0039433631E+001 -1.2795239576E+002
13427500000.000 -7.1131784263E+000 -1.2770750600E+002 -4.4331016708E+001 -9.4755610166E+001 -8.8387504146E+001 -1.0845888153E+002 -1.8851021647E+001 -1.1423429353E+002
13560000000.000 -7.1058614466E+000 -1.2767271994E+002 -4.4123948980E+001 -1.2869959389E+002 -8.1553576200E+001 -6.8373490432E+001 -1.9039508150E+001 -1.1468931020E+002
13692500000.000 -7.0336969530E+000 -1.2767904632E+002 -4.4294553452E+001 -1.6213237368E+002 -1.0447771293E+002 +1.7868409756E+001 -2.0821275800E+001 -1.0140981647E+002
13825000000.000 -6.9640805684E+000 -1.2804337195E+002 -4.4344043612E+001 +1.6285371635E+002 -7.8967138690E+001 +1.1904484830E+002 -1.9724396328E+001 -8.7610882626E+001
13957500000.000 -6.9521793408E+000 -1.2839807169E+002 -4.4500251426E+001 +1.2824146760E+002 -7.8514792775E+001 -8.9740948349E+001 -2.0390445033E+001 -9.0171461601E+001
14090000000.000 -6.9280650065E+000 -1.2833907650E+002 -4.4349549060E+001 +9.4697941990E+001 -8.2518714001E+001 -7.9179146623E+000 -2.2649586759E+001 -7.2687545054E+001
14222500000.000 -6.8586890990E+000 -1.2818253491E+002 -4.4427642236E+001 +5.9919711414E+001 -8.2077405240E+001 -1.3779907723E+002 -2.1279577811E+001 -5.9345055239E+001
14355000000.000 -6.7898717495E+000 -1.2861326369E+002 -4.4326787550E+001 +2.5610930324E+001 -8.4193737985E+001 -8.7861747722E+001 -2.2485477673E+001 -6.3623635128E+001
14487500000.000 -6.7589275191E+000 -1.2877962086E+002 -4.4526856515E+001 -8.4245248852E+000 -7.9904698004E+001 +2.3949842083E+001 -2.5541337316E+001 -4.0370446352E+001
14620000000.000 -6.7306399810E+000 -1.2860824598E+002 -4.4632389090E+001 -4.2463529764E+001 -8.8865906755E+001 +1.4342627847E+002 -2.3271221404E+001 -2.7374899540E+001
14752500000.000 -6.6249851887E+000 -1.2855646670E+002 -4.4599524578E+001 -7.7028855891E+001 -8.7975227272E+001 -1.4937181741E+002 -2.5345826914E+001 -3.6611852197E+001
14885000000.000 -6.5696094872E+000 -1.2870227844E+002 -4.4582413325E+001 -1.1107225095E+002 -8.1556391354E+001 +1.4295717182E+001 -2.8972588964E+001 +2.3156437504E+000
15017500000.000 -6.5437205844E+000 -1.2866560877E+002 -4.4445652341E+001 -1.4537504118E+002 -8.1439142609E+001 +1.4155145464E+002 -2.5363611231E+001 +9.2810913952E+000
15150000000.000 -6.4722645708E+000 -1.2840840157E+002 -4.4569231526E+001 +1.7936196815E+002 -7.8632975343E+001 -1.1814822033E+002 -2.9047108337E+001 -2.3697001129E+000
15282500000.000 -6.4212888958E+000 -1.2828290164E+002 -4.4611346327E+001 +1.4524813807E+002 -8.0804955854E+001 +4.1448383808E-001 -3.1219662150E+001 +5.7968481189E+001
