!  2-Port S-parameters saved by WinCal
! VAR MeasName=S-Parameters (CALIBRATED_DATA) read from VNA (C)
! VAR MeasDate=10/16/2015 3:53:54 PM
! VAR NAME=M6082_10_17_2_2_20C_6.4mA_-17.5dBm
! VAR FILENAME=M6082_10_17_2_2_20C_6.4mA_-17.5dBm.S2P
! VAR DATE=10/16/2015 3:53:54 PM
! VAR PHYS_PORTS=2,1
! VAR ObjTypeName=DATASET
! VAR IndexType=Frequency
!
# Hz S DB R 50
45000000.000 -2.2584665629E+001 -1.7822498194E+002 -4.1074575921E+001 +1.0543192516E+002 -6.9932065236E+001 -6.4808001475E+001 -3.0638900711E+001 +2.5450521095E+000
177500000.000 -2.2560705025E+001 -1.7040450161E+002 -4.2501010201E+001 +6.7460717021E+001 -6.9905363180E+001 +9.8326874888E+001 -3.2808836429E+001 +4.7061858923E+001
310000000.000 -2.2278635261E+001 -1.6218951585E+002 -4.2694760874E+001 +3.8004879896E+001 -7.3418200145E+001 -1.3520373759E+002 -2.3318362157E+001 +6.4603021500E+001
442500000.000 -2.1800533901E+001 -1.5504906342E+002 -4.1561338730E+001 -1.0890054228E+000 -7.9584268535E+001 -8.9389584362E+001 -2.2401655060E+001 +1.7226464032E+001
575000000.000 -2.1138538874E+001 -1.4862642407E+002 -4.2092582042E+001 -3.6399891661E+001 -8.3422186893E+001 +9.0886272857E+001 -3.0635361283E+001 +2.2475288002E+001
707500000.000 -2.0459612504E+001 -1.4384403294E+002 -4.2192959983E+001 -7.0639750400E+001 -8.0469991085E+001 -1.3329344222E+002 -3.4462295329E+001 +8.3789623392E+001
840000000.000 -1.9766042447E+001 -1.3933385957E+002 -4.2413552586E+001 -1.0499996347E+002 -9.2178700953E+001 -9.7695238602E+001 -2.9682894944E+001 +1.2721408935E+002
972500000.000 -1.9084163331E+001 -1.3559389755E+002 -4.2399725862E+001 -1.3954538842E+002 -8.8134146122E+001 +1.0676626047E+002 -2.5949176571E+001 +1.3538934411E+002
1105000000.000 -1.8370316516E+001 -1.3273826851E+002 -4.2464563058E+001 -1.7350934710E+002 -8.7375922507E+001 -1.1152992243E+002 -2.4356513842E+001 +1.4081851810E+002
1237500000.000 -1.7719756786E+001 -1.3056665171E+002 -4.2455172096E+001 +1.5212025298E+002 -9.5936404125E+001 +2.3246426587E+001 -2.3402742772E+001 +1.4997855249E+002
1370000000.000 -1.7089726767E+001 -1.2877602919E+002 -4.2595774862E+001 +1.1792015590E+002 -8.7644646904E+001 +1.1867494560E+002 -2.2089485780E+001 +1.6002021873E+002
1502500000.000 -1.6510665063E+001 -1.2727707991E+002 -4.2607323703E+001 +8.3683433699E+001 -8.6524082175E+001 -9.9559744312E+001 -2.0870513048E+001 +1.6644543900E+002
1635000000.000 -1.5939964394E+001 -1.2572267789E+002 -4.2613012211E+001 +4.8887858999E+001 -8.4193802603E+001 -1.2592216608E+001 -2.0026815880E+001 +1.7326031998E+002
1767500000.000 -1.5390692643E+001 -1.2486184056E+002 -4.2567652711E+001 +1.4600406384E+001 -7.9850794172E+001 +6.6920972956E+001 -1.9021505026E+001 +1.7855672752E+002
1900000000.000 -1.4925912218E+001 -1.2408687351E+002 -4.2658128807E+001 -1.9884682593E+001 -8.3729613259E+001 -1.3353440877E+002 -1.8873429258E+001 -1.7825848053E+002
2032500000.000 -1.4468093555E+001 -1.2352461781E+002 -4.2788223392E+001 -5.3995609055E+001 -8.2205376253E+001 -8.8379217332E+001 -1.8692433706E+001 -1.6790721271E+002
2165000000.000 -1.4002571359E+001 -1.2279289967E+002 -4.2724357885E+001 -8.8625927677E+001 -8.3532570096E+001 +2.8798540266E+000 -1.7744213757E+001 -1.6094026758E+002
2297500000.000 -1.3599231221E+001 -1.2247728953E+002 -4.2982518369E+001 -1.2327881231E+002 -7.9056179838E+001 +1.4332578102E+002 -1.7247233446E+001 -1.5708695996E+002
2430000000.000 -1.3227582903E+001 -1.2226395962E+002 -4.3154304857E+001 -1.5789294006E+002 -8.1447584632E+001 -1.3883091635E+002 -1.6944735475E+001 -1.5277896619E+002
2562500000.000 -1.2833173485E+001 -1.2202223533E+002 -4.3052434851E+001 +1.6889451088E+002 -9.0506638884E+001 +6.1830814171E+001 -1.6829903534E+001 -1.5045197701E+002
2695000000.000 -1.2477862992E+001 -1.2230182676E+002 -4.3125998197E+001 +1.3490863250E+002 -7.9145999773E+001 +1.4849046581E+002 -1.7377890103E+001 -1.4710736787E+002
2827500000.000 -1.2175756505E+001 -1.2258723449E+002 -4.3201237394E+001 +9.9164611109E+001 -8.6015313720E+001 +1.6710978834E+002 -1.7861353632E+001 -1.4035281775E+002
2960000000.000 -1.1875323226E+001 -1.2248434922E+002 -4.3178453384E+001 +6.7075294970E+001 -7.8322921080E+001 +3.4119548442E+001 -1.8154656302E+001 -1.3541114987E+002
3092500000.000 -1.1526363367E+001 -1.2263423325E+002 -4.3287673617E+001 +3.2612388842E+001 -8.5882724825E+001 -9.6926457996E+001 -1.9076774805E+001 -1.2925248726E+002
3225000000.000 -1.1215428792E+001 -1.2312958130E+002 -4.3189370034E+001 -1.2602801869E+000 -8.7853253142E+001 -1.6116996012E+002 -1.9579957129E+001 -1.1974152340E+002
3357500000.000 -1.0977884230E+001 -1.2351457476E+002 -4.3331992879E+001 -3.6742394810E+001 -8.0657878078E+001 +2.1662031018E+001 -1.9951528724E+001 -1.1422378120E+002
3490000000.000 -1.0681071201E+001 -1.2352917833E+002 -4.3519583716E+001 -6.9788494955E+001 -8.0496374252E+001 +1.0674881479E+002 -2.1121463050E+001 -1.0858279639E+002
3622500000.000 -1.0391660375E+001 -1.2372857059E+002 -4.3332435337E+001 -1.0309725178E+002 -8.7884421708E+001 -1.3819741692E+002 -2.1933923487E+001 -9.8187257544E+001
3755000000.000 -1.0120376267E+001 -1.2412390612E+002 -4.3353231359E+001 -1.3854920972E+002 -7.5867345280E+001 -4.0644164978E+001 -2.2729796481E+001 -9.4640865031E+001
3887500000.000 -9.8917422337E+000 -1.2439208632E+002 -4.3391673075E+001 -1.7198636973E+002 -8.1706680891E+001 +6.7035416096E+001 -2.5045338958E+001 -8.7711810397E+001
4020000000.000 -9.6695626069E+000 -1.2465340872E+002 -4.3398484421E+001 +1.5263447009E+002 -8.2088236603E+001 -7.5930289381E+000 -2.6676481860E+001 -7.3460148610E+001
4152500000.000 -9.4368639901E+000 -1.2478462998E+002 -4.3515086613E+001 +1.1910591196E+002 -7.9208174257E+001 -1.0918236860E+002 -2.8870925406E+001 -6.4686300646E+001
4285000000.000 -9.2165304802E+000 -1.2507397444E+002 -4.3476118846E+001 +8.4647789833E+001 -8.2693974593E+001 -6.7946861300E+000 -3.3399534213E+001 -3.7274714160E+001
4417500000.000 -9.0066158432E+000 -1.2553079810E+002 -4.3644220485E+001 +5.1293131968E+001 -8.9013974723E+001 +1.2897833835E+002 -3.1703866640E+001 +7.9133521011E+000
4550000000.000 -8.8314837596E+000 -1.2571803636E+002 -4.3714780308E+001 +1.7112433095E+001 -9.8173402438E+001 -5.7824467789E+000 -3.0338643197E+001 +1.8064519379E+001
4682500000.000 -8.6373700234E+000 -1.2585553417E+002 -4.3905604348E+001 -1.7047147265E+001 -8.4085323501E+001 +8.5311034548E+000 -2.9672831329E+001 +3.8767918274E+001
4815000000.000 -8.4408870216E+000 -1.2616428385E+002 -4.3945562673E+001 -5.0223904310E+001 -8.9114174589E+001 +1.5260625289E+002 -2.7645685508E+001 +4.1409542470E+001
4947500000.000 -8.2844868336E+000 -1.2645463589E+002 -4.3917785935E+001 -8.3364711073E+001 -8.1717552907E+001 -4.4718590614E+001 -2.9377607497E+001 +3.5826931805E+001
5080000000.000 -8.1294499464E+000 -1.2655114524E+002 -4.3780867728E+001 -1.1783120141E+002 -8.7792989836E+001 +4.4071372867E+000 -3.2257546067E+001 +5.7027141088E+001
5212500000.000 -7.9639596724E+000 -1.2677892010E+002 -4.3804228700E+001 -1.5135659765E+002 -8.5489731141E+001 -1.3882918573E+002 -3.1583319219E+001 +6.9580581631E+001
5345000000.000 -7.8145498582E+000 -1.2717945049E+002 -4.3734442473E+001 +1.7440766769E+002 -1.0224172614E+002 +1.3253868429E+001 -3.5316305744E+001 +7.1463271842E+001
5477500000.000 -7.7059723040E+000 -1.2732718756E+002 -4.3706942951E+001 +1.3993338990E+002 -8.3301713392E+001 +1.1983350029E+001 -3.7242795501E+001 +1.3214658468E+002
5610000000.000 -7.5667583506E+000 -1.2747076341E+002 -4.3716437750E+001 +1.0542181304E+002 -8.9024607194E+001 +6.7617732060E+001 -3.3694930073E+001 +1.3588062748E+002
5742500000.000 -7.4270749268E+000 -1.2787732771E+002 -4.3707588742E+001 +7.1037448945E+001 -8.4538100187E+001 +1.6152806230E+002 -3.7756109206E+001 +1.5312637219E+002
5875000000.000 -7.3340575546E+000 -1.2839393132E+002 -4.3742229800E+001 +3.6807266470E+001 -9.1564247750E+001 +1.5128066270E+001 -3.3740039353E+001 -1.7056738985E+002
6007500000.000 -7.2390826532E+000 -1.2863215873E+002 -4.3717735376E+001 +2.2137137961E+000 -9.1684701438E+001 +8.4511596978E+001 -3.2712469831E+001 +1.7953954680E+002
6140000000.000 -7.1045153108E+000 -1.2886430148E+002 -4.3798103585E+001 -3.2130497651E+001 -8.9332859152E+001 -1.7869975161E+002 -3.6131034061E+001 -1.6936894938E+002
6272500000.000 -6.9731731160E+000 -1.2945181620E+002 -4.3763658920E+001 -6.5715767419E+001 -8.9224483153E+001 -6.0447880307E+001 -3.3865836036E+001 -1.4465385392E+002
6405000000.000 -6.8928405732E+000 -1.3011250409E+002 -4.3807205196E+001 -1.0047852174E+002 -8.3599457023E+001 +3.2890405905E+001 -3.3785932237E+001 -1.6241676924E+002
6537500000.000 -6.7992798800E+000 -1.3025320439E+002 -4.3883014714E+001 -1.3467525741E+002 -8.5781885275E+001 +1.6658778220E+002 -4.0107882266E+001 -1.6077862101E+002
6670000000.000 -6.6620071209E+000 -1.3045734083E+002 -4.3914923307E+001 -1.6922994309E+002 -8.8941875486E+001 -4.4379919437E+001 -3.9373659890E+001 -1.3760182763E+002
6802500000.000 -6.5336872384E+000 -1.3110670352E+002 -4.4008278012E+001 +1.5697071856E+002 -9.0099075751E+001 +1.0917630150E+001 -3.8773520067E+001 +1.7895138699E+002
6935000000.000 -6.4669819589E+000 -1.3168688920E+002 -4.4085157703E+001 +1.2276346982E+002 -8.9334390704E+001 +1.2899348146E+002 -3.8562267967E+001 +1.2281799825E+002
7067500000.000 -6.3926747124E+000 -1.3171902075E+002 -4.4149170885E+001 +8.8610069040E+001 -8.6805255296E+001 -1.1322190442E+002 -3.9011619928E+001 +1.1482231173E+002
7200000000.000 -6.2609621299E+000 -1.3194285269E+002 -4.4284319192E+001 +5.4219171386E+001 -8.4984373736E+001 -2.0712581589E+001 -3.2854426745E+001 +1.3190282734E+002
7332500000.000 -6.1519390665E+000 -1.3255657428E+002 -4.4140665014E+001 +2.0152486128E+001 -8.8836436850E+001 +1.0294085535E+002 -2.9073939015E+001 +1.1917347985E+002
7465000000.000 -6.0831986992E+000 -1.3292481131E+002 -4.4210057693E+001 -1.3811918137E+001 -8.7288592898E+001 -5.8793950802E+001 -2.8625547898E+001 +1.2251259767E+002
7597500000.000 -5.9978170559E+000 -1.3302285612E+002 -4.4345859739E+001 -4.7497164864E+001 -8.3120345856E+001 -9.8932100087E+001 -2.6151982164E+001 +1.3755211939E+002
7730000000.000 -5.8760120683E+000 -1.3321707790E+002 -4.4298795050E+001 -8.1614161300E+001 -8.7892910595E+001 +6.4325478941E+001 -2.3723135402E+001 +1.3801578033E+002
7862500000.000 -5.7885886168E+000 -1.3358779053E+002 -4.4378286606E+001 -1.1597543651E+002 -8.5277160954E+001 -4.0336917892E+001 -2.3287229099E+001 +1.4146154503E+002
7995000000.000 -5.7288980524E+000 -1.3379119574E+002 -4.4351883591E+001 -1.4941980263E+002 -8.8895104206E+001 +4.7900480033E+000 -2.1849482531E+001 +1.5428156328E+002
8127500000.000 -5.6333388924E+000 -1.3373464108E+002 -4.4323221609E+001 +1.7781303360E+002 -8.1530333053E+001 +3.5725295394E+001 -2.0028153407E+001 +1.5655293114E+002
8260000000.000 -5.5378471093E+000 -1.3407016422E+002 -4.4449172176E+001 +1.4242376244E+002 -9.0728152322E+001 +1.3907766653E+002 -1.9859799780E+001 +1.6019383893E+002
8392500000.000 -5.4869510847E+000 -1.3423839577E+002 -4.4413852124E+001 +1.0824035661E+002 -9.6209170070E+001 -3.4169785070E+001 -1.9076365636E+001 +1.7040844864E+002
8525000000.000 -5.4260043726E+000 -1.3424256667E+002 -4.4537186593E+001 +7.5013541670E+001 -8.2072237676E+001 -1.4952361552E+001 -1.8210088705E+001 +1.7304088462E+002
8657500000.000 -5.3525643504E+000 -1.3430390232E+002 -4.4440005938E+001 +4.1219134145E+001 -9.4649474673E+001 -1.7426675192E+002 -1.8564243322E+001 +1.7797647860E+002
8790000000.000 -5.2745026235E+000 -1.3455976067E+002 -4.4399046324E+001 +6.6087938625E+000 -9.2940388592E+001 +7.6714513008E+000 -1.8354969275E+001 -1.7172973665E+002
8922500000.000 -5.2441459498E+000 -1.3480778612E+002 -4.4472178833E+001 -2.8166211994E+001 -8.4690680937E+001 +5.7603426489E+000 -1.7993720059E+001 -1.6600835810E+002
9055000000.000 -5.1855796742E+000 -1.3487533917E+002 -4.4440253548E+001 -6.1586944477E+001 -8.3712659405E+001 +8.7986831138E+001 -1.8461247772E+001 -1.5836755799E+002
9187500000.000 -5.1250246162E+000 -1.3506914658E+002 -4.4506930935E+001 -9.6262127315E+001 -8.2654403634E+001 -1.4528972873E+002 -1.8383952390E+001 -1.4629382755E+002
9320000000.000 -5.0639077454E+000 -1.3559581742E+002 -4.4541151086E+001 -1.3017641716E+002 -9.1469198314E+001 +5.0380446036E+001 -1.8205367782E+001 -1.3963837555E+002
9452500000.000 -5.0253166456E+000 -1.3588316785E+002 -4.4500900149E+001 -1.6450228472E+002 -8.5530222622E+001 -1.2725519900E+002 -1.8853099171E+001 -1.3065115318E+002
9585000000.000 -4.9745499165E+000 -1.3610933534E+002 -4.4517036765E+001 +1.6167913249E+002 -9.1256616290E+001 +1.2306482522E+002 -1.8806248304E+001 -1.1822230980E+002
9717500000.000 -4.8922426198E+000 -1.3638775613E+002 -4.4517033084E+001 +1.2786168258E+002 -8.6177123089E+001 -3.4166245527E+001 -1.8807166122E+001 -1.1107895704E+002
9850000000.000 -4.8487157463E+000 -1.3703904621E+002 -4.4537930970E+001 +9.2670545444E+001 -8.9837571545E+001 -1.3775661319E+002 -1.9662936790E+001 -1.0062998757E+002
9982500000.000 -4.8134445733E+000 -1.3711799017E+002 -4.4662029103E+001 +5.8893191647E+001 -8.1530592532E+001 +1.3374252703E+002 -1.9716873347E+001 -8.6416011636E+001
10115000000.000 -4.7531289595E+000 -1.3727976252E+002 -4.4647593394E+001 +2.4479282621E+001 -8.3431251289E+001 -8.2807781241E+001 -1.9913976267E+001 -7.9012627694E+001
10247500000.000 -4.6782548818E+000 -1.3773628787E+002 -4.4622129328E+001 -9.5449112130E+000 -7.9585094666E+001 +6.1449790972E+001 -2.1142705528E+001 -6.6117244890E+001
10380000000.000 -4.6454626270E+000 -1.3813492927E+002 -4.4733820351E+001 -4.3418897297E+001 -8.9654842801E+001 +1.2790328755E+002 -2.1080775683E+001 -4.9789078378E+001
10512500000.000 -4.6119825456E+000 -1.3834608828E+002 -4.4707304063E+001 -7.7747599834E+001 -8.8626335569E+001 -1.1213205408E+002 -2.1508326873E+001 -4.1788146140E+001
10645000000.000 -4.5594894816E+000 -1.3853422603E+002 -4.4698580268E+001 -1.1155131391E+002 -8.4436395740E+001 +1.2918979521E+002 -2.2816559888E+001 -2.3968627370E+001
10777500000.000 -4.4915123298E+000 -1.3884014483E+002 -4.4687238527E+001 -1.4550921774E+002 -8.6332094504E+001 -1.2213624024E+002 -2.2230979197E+001 -5.8168759485E+000
10910000000.000 -4.4445165598E+000 -1.3918120358E+002 -4.4757519398E+001 -1.7990786949E+002 -9.0890242193E+001 -1.5370166056E+002 -2.2791018381E+001 +4.4107255777E+000
11042500000.000 -4.3977237437E+000 -1.3945801985E+002 -4.4906770712E+001 +1.4710781283E+002 -8.6436248373E+001 -1.6281627858E+002 -2.3438505301E+001 +2.7546052394E+001
11175000000.000 -4.3415273443E+000 -1.3952938750E+002 -4.4801623853E+001 +1.1153289742E+002 -9.6930306332E+001 +7.4041992614E+001 -2.2279456267E+001 +4.2771146046E+001
11307500000.000 -4.3013521066E+000 -1.3970383225E+002 -4.4859971649E+001 +7.8094229776E+001 -8.5880364415E+001 -1.2508355572E+002 -2.2746301323E+001 +5.3407160830E+001
11440000000.000 -4.2455810212E+000 -1.3995079406E+002 -4.4810976186E+001 +4.3248412215E+001 -8.8033547054E+001 -1.2988774874E+002 -2.2571217725E+001 +7.5814797819E+001
11572500000.000 -4.2078773266E+000 -1.3992023200E+002 -4.4710137793E+001 +8.1234570538E+000 -8.9839687355E+001 +5.6533683749E+001 -2.1179453187E+001 +8.7122217183E+001
11705000000.000 -4.1713443432E+000 -1.4000986536E+002 -4.4921536118E+001 -2.4911163313E+001 -1.0484902741E+002 -8.4362945036E+001 -2.1771202166E+001 +9.7115043772E+001
11837500000.000 -4.1227808301E+000 -1.4018039394E+002 -4.4845483641E+001 -6.0076635132E+001 -8.2127528965E+001 -5.2010937221E+001 -2.1123882978E+001 +1.1932618040E+002
11970000000.000 -4.1120381821E+000 -1.4034341122E+002 -4.4909144799E+001 -9.4495132076E+001 -8.4730469170E+001 +5.1526670669E+001 -1.9821499736E+001 +1.2553195287E+002
12102500000.000 -4.0997815411E+000 -1.4027016091E+002 -4.4811653891E+001 -1.2826443567E+002 -8.4509496830E+001 -1.7087323879E+002 -2.0747463588E+001 +1.3541267744E+002
12235000000.000 -4.0489612392E+000 -1.4064117892E+002 -4.4925943224E+001 -1.6315864473E+002 -8.5525210116E+001 -7.4549490229E+001 -1.9775570245E+001 +1.5464855597E+002
12367500000.000 -4.0440695517E+000 -1.4079535232E+002 -4.4931993552E+001 +1.6257652789E+002 -9.0469407244E+001 +1.2236901121E+002 -1.8881234928E+001 +1.5802696131E+002
12500000000.000 -4.0230032721E+000 -1.4114079534E+002 -4.4976855496E+001 +1.2866737560E+002 -9.2482760706E+001 -1.7563453714E+002 -2.0054615484E+001 +1.6806546466E+002
12632500000.000 -3.9954005520E+000 -1.4117343793E+002 -4.4935469360E+001 +9.3834284193E+001 -8.5068113543E+001 -7.8128877041E+001 -1.9179503038E+001 -1.7294034894E+002
12765000000.000 -3.9683210145E+000 -1.4142816024E+002 -4.5171144392E+001 +5.9670623011E+001 -8.7495721258E+001 +3.7893397528E+001 -1.8525929970E+001 -1.7125636197E+002
12897500000.000 -3.9566151250E+000 -1.4171484876E+002 -4.5250937198E+001 +2.5192872506E+001 -9.9842186274E+001 -1.0024368363E+002 -2.0121289783E+001 -1.5948857321E+002
13030000000.000 -3.9445946947E+000 -1.4191043637E+002 -4.5104814427E+001 -9.4372614450E+000 -9.6732713842E+001 -1.7317032011E+002 -1.8870404306E+001 -1.4156198269E+002
13162500000.000 -3.9133701529E+000 -1.4200180809E+002 -4.5189290969E+001 -4.3730636216E+001 -8.1641083206E+001 -1.1672647979E+002 -1.8657464178E+001 -1.4151566702E+002
13295000000.000 -3.8857082320E+000 -1.4215092294E+002 -4.5231674226E+001 -7.7754517637E+001 -9.5981105869E+001 +2.1121086833E+001 -2.0030629623E+001 -1.2786267182E+002
13427500000.000 -3.8712722347E+000 -1.4254195028E+002 -4.5311990432E+001 -1.1248737730E+002 -8.1859331949E+001 -1.3275504497E+002 -1.8873923406E+001 -1.1423501113E+002
13560000000.000 -3.8750869981E+000 -1.4260179133E+002 -4.5301183033E+001 -1.4614183241E+002 -8.4472299429E+001 -3.1775750002E+001 -1.9060736617E+001 -1.1455305174E+002
13692500000.000 -3.8416539316E+000 -1.4263647633E+002 -4.5377407251E+001 +1.7916273587E+002 -1.0159850642E+002 +6.8343309604E+001 -2.0816358170E+001 -1.0136408414E+002
13825000000.000 -3.8006835203E+000 -1.4292697470E+002 -4.5411446730E+001 +1.4580342227E+002 -8.5429973826E+001 -3.5504992323E+001 -1.9733391377E+001 -8.7661440732E+001
13957500000.000 -3.7976690348E+000 -1.4328388418E+002 -4.5302982440E+001 +1.1035790787E+002 -7.9637458395E+001 -1.2624140130E+002 -2.0404354375E+001 -9.0052665756E+001
14090000000.000 -3.7898358560E+000 -1.4335948550E+002 -4.5393378165E+001 +7.7202944225E+001 -8.2325143068E+001 -6.6642805404E+001 -2.2667186686E+001 -7.2551677748E+001
14222500000.000 -3.7584425393E+000 -1.4327133222E+002 -4.5528168488E+001 +4.2592512219E+001 -8.3602957467E+001 +1.1705644520E+002 -2.1285069885E+001 -5.9391319684E+001
14355000000.000 -3.7081573869E+000 -1.4359100977E+002 -4.5421335921E+001 +8.2314353933E+000 -8.4980828776E+001 -6.2350909402E+001 -2.2513784928E+001 -6.3817472042E+001
14487500000.000 -3.6878982665E+000 -1.4368939124E+002 -4.5607465618E+001 -2.6037268234E+001 -8.5619007941E+001 +1.0536451010E+002 -2.5594414074E+001 -4.0313955907E+001
14620000000.000 -3.6829062069E+000 -1.4366715941E+002 -4.5418549191E+001 -6.1223938413E+001 -9.1861249103E+001 +1.5901622524E+002 -2.3263606348E+001 -2.7177055852E+001
14752500000.000 -3.6242418098E+000 -1.4350589749E+002 -4.5527191298E+001 -9.6017517660E+001 -8.2459115949E+001 -1.2190148217E+002 -2.5337457131E+001 -3.6888484822E+001
14885000000.000 -3.5818765115E+000 -1.4356428503E+002 -4.5609058893E+001 -1.3123127213E+002 -8.7821167783E+001 +1.4781924596E+002 -2.9050448063E+001 +2.4357262860E+000
15017500000.000 -3.5693840024E+000 -1.4357262772E+002 -4.5629005602E+001 -1.6555393334E+002 -7.9780034929E+001 +7.0222427151E+001 -2.5383626716E+001 +9.4653274241E+000
15150000000.000 -3.5438448926E+000 -1.4338936702E+002 -4.5668181376E+001 +1.6095942764E+002 -7.9274851726E+001 -1.2844362425E+002 -2.9043697359E+001 -2.7994894015E+000
15282500000.000 -3.5157351469E+000 -1.4325905342E+002 -4.5847697312E+001 +1.2709486940E+002 -8.2672961219E+001 -6.4725778485E+001 -3.1284379974E+001 +5.8045367800E+001
