!  2-Port S-parameters saved by WinCal
! VAR MeasName=S-Parameters (CALIBRATED_DATA) read from VNA (C)
! VAR MeasDate=10/16/2015 10:52:13 AM
! VAR NAME=M6082_13_13_2_2_20C_2.5mA_-17.5dBm
! VAR FILENAME=M6082_13_13_2_2_20C_2.5mA_-17.5dBm_1_1.S2P
! VAR DATE=10/16/2015 10:52:13 AM
! VAR PHYS_PORTS=2,1
! VAR ObjTypeName=DATASET
! VAR IndexType=Frequency
!
# Hz S DB R 50
45000000.000 -8.6377306605E+000 -3.2614495619E-001 -4.4413278302E+001 +8.8692062938E+001 -6.1358979541E+001 -9.5385148392E+001 -3.1153243570E+001 +5.5079626388E+000
177500000.000 -8.6869178776E+000 -1.8446983110E+000 -4.5266048943E+001 +6.7905562853E+001 -7.7772127372E+001 +1.3161954974E+002 -3.2529467996E+001 +4.6316179730E+001
310000000.000 -8.6941744691E+000 -3.1486898932E+000 -4.4917246630E+001 +3.8382106086E+001 -7.0195845799E+001 -1.0634481515E+002 -2.3298139849E+001 +6.4250169156E+001
442500000.000 -8.7288173416E+000 -4.6359137840E+000 -4.3991900863E+001 -6.9650516141E-001 -8.4485804897E+001 +2.6661588152E+000 -2.2302190309E+001 +1.7642102971E+001
575000000.000 -8.7480448741E+000 -6.0526050851E+000 -4.4846081209E+001 -3.6027899768E+001 -8.7722853737E+001 +1.3834899454E+002 -3.0408512411E+001 +2.2662078088E+001
707500000.000 -8.7649580572E+000 -7.3418678793E+000 -4.5000692592E+001 -6.9724029486E+001 -8.8827393769E+001 -1.5469702190E+002 -3.4369297099E+001 +8.2044878746E+001
840000000.000 -8.7812905238E+000 -8.7098095115E+000 -4.4995511533E+001 -1.0411515106E+002 -9.6194157656E+001 +1.4622032756E+001 -2.9708395079E+001 +1.2685820156E+002
972500000.000 -8.7898081752E+000 -9.9542008479E+000 -4.5160020549E+001 -1.3814042677E+002 -1.0518167312E+002 +1.2713539398E+002 -2.5901636832E+001 +1.3496646161E+002
1105000000.000 -8.8089925643E+000 -1.1291023601E+001 -4.5151477915E+001 -1.7185975971E+002 -8.1683287380E+001 -1.0411227752E+002 -2.4332547201E+001 +1.4051471068E+002
1237500000.000 -8.8257795553E+000 -1.2520163283E+001 -4.5173010705E+001 +1.5434040700E+002 -8.4403888212E+001 -4.9686227382E+001 -2.3368845600E+001 +1.4976686587E+002
1370000000.000 -8.8419947331E+000 -1.3803855117E+001 -4.5302242121E+001 +1.2036416139E+002 -8.9575124824E+001 +3.8192785267E+001 -2.2050521741E+001 +1.5975395459E+002
1502500000.000 -8.8629889487E+000 -1.5045157720E+001 -4.5185837856E+001 +8.6888863055E+001 -8.4124206578E+001 -1.5850127469E+002 -2.0843040741E+001 +1.6607999869E+002
1635000000.000 -8.8466548079E+000 -1.6134608723E+001 -4.5193279852E+001 +5.2698403793E+001 -9.3265599633E+001 +3.4451439739E+001 -2.0002282859E+001 +1.7310547799E+002
1767500000.000 -8.8556654040E+000 -1.7511459618E+001 -4.5198326761E+001 +1.9150941773E+001 -8.3387531310E+001 +1.0785672673E+002 -1.8997993191E+001 +1.7830735720E+002
1900000000.000 -8.8715935086E+000 -1.8689076399E+001 -4.5061689903E+001 -1.5031961976E+001 -8.1758745548E+001 +1.6348774997E+002 -1.8851900377E+001 -1.7838732384E+002
2032500000.000 -8.8837938897E+000 -1.9728236881E+001 -4.5145845876E+001 -4.9467567221E+001 -7.7851983511E+001 -4.6814170588E+001 -1.8664316467E+001 -1.6806375644E+002
2165000000.000 -8.8665259115E+000 -2.0903370731E+001 -4.5291516145E+001 -8.2467110450E+001 -9.1126365737E+001 -2.3172104514E+001 -1.7733640088E+001 -1.6111567338E+002
2297500000.000 -8.8749088657E+000 -2.2023308481E+001 -4.5268697139E+001 -1.1605409556E+002 -9.2334966397E+001 -1.5723917169E+002 -1.7223369116E+001 -1.5716372742E+002
2430000000.000 -8.8897534064E+000 -2.3005955820E+001 -4.5208571144E+001 -1.4998661180E+002 -8.5066259080E+001 -9.7257609542E+001 -1.6910811604E+001 -1.5290755487E+002
2562500000.000 -8.8821972327E+000 -2.4034558168E+001 -4.5156204728E+001 +1.7478407476E+002 -7.4791282776E+001 +3.3711517124E+001 -1.6806626485E+001 -1.5063614644E+002
2695000000.000 -8.9159718431E+000 -2.5157093139E+001 -4.5117236541E+001 +1.4297005869E+002 -7.3848783746E+001 +1.1303763455E+002 -1.7345274565E+001 -1.4727676950E+002
2827500000.000 -8.9391602181E+000 -2.5964298088E+001 -4.4994882607E+001 +1.0762804099E+002 -7.5615908481E+001 -5.6167702864E+001 -1.7817427966E+001 -1.4045976385E+002
2960000000.000 -8.9334028885E+000 -2.6838432915E+001 -4.4920735495E+001 +7.4092297598E+001 -8.0074052356E+001 -6.2985895234E+000 -1.8109299225E+001 -1.3567754680E+002
3092500000.000 -8.9276567911E+000 -2.8077661564E+001 -4.4872337036E+001 +3.9677458651E+001 -7.6484741477E+001 +1.5028479245E+002 -1.9062772002E+001 -1.2963675016E+002
3225000000.000 -8.9670874445E+000 -2.9190742504E+001 -4.4988358048E+001 +6.7133799357E+000 -1.0275123925E+002 +5.1425413257E+001 -1.9567374652E+001 -1.1987384430E+002
3357500000.000 -8.9841096399E+000 -2.9963612991E+001 -4.4731388301E+001 -2.6474468370E+001 -7.3585145785E+001 -8.9767621697E+000 -1.9919877544E+001 -1.1450076932E+002
3490000000.000 -8.9522269626E+000 -3.1065038437E+001 -4.4670552105E+001 -6.0699832056E+001 -8.0661207067E+001 +1.3371162825E+002 -2.1098859466E+001 -1.0886792988E+002
3622500000.000 -8.9500825016E+000 -3.2259618560E+001 -4.4544618100E+001 -9.5033941625E+001 -8.1393158346E+001 -1.1968862610E+002 -2.1931012070E+001 -9.8319655325E+001
3755000000.000 -8.9533678678E+000 -3.3361074140E+001 -4.4478172159E+001 -1.2969983729E+002 -8.7570605799E+001 -3.8453004023E+001 -2.2661599016E+001 -9.4544914218E+001
3887500000.000 -8.9380842073E+000 -3.4363872938E+001 -4.4234453539E+001 -1.6431277402E+002 -7.7881774948E+001 +9.5729565249E+001 -2.4959347543E+001 -8.7991802744E+001
4020000000.000 -8.9332827563E+000 -3.5304312998E+001 -4.4247720030E+001 +1.6274790281E+002 -8.3920976203E+001 +1.4199932761E+002 -2.6629712535E+001 -7.3585718786E+001
4152500000.000 -8.8977951306E+000 -3.6320997921E+001 -4.4175022280E+001 +1.2767270802E+002 -8.1940183852E+001 -1.3059796590E+002 -2.8747259811E+001 -6.4430412661E+001
4285000000.000 -8.8819399648E+000 -3.7361400651E+001 -4.3942826859E+001 +9.3219320419E+001 -7.9503681053E+001 +8.4011991826E+001 -3.3146821227E+001 -3.8454338145E+001
4417500000.000 -8.8761610129E+000 -3.8431049728E+001 -4.3956060534E+001 +5.6777732957E+001 -8.1376835674E+001 +1.3046077234E+002 -3.1706698596E+001 +7.1967517908E+000
4550000000.000 -8.8467672021E+000 -3.9290088205E+001 -4.3894590593E+001 +2.4284992998E+001 -8.7414633492E+001 -1.3697697462E+001 -3.0178525257E+001 +1.7410843122E+001
4682500000.000 -8.7970091921E+000 -4.0317492928E+001 -4.3949081270E+001 -9.9683304750E+000 -7.8279381218E+001 +4.6078401825E+001 -2.9587952241E+001 +3.7623650585E+001
4815000000.000 -8.7895071043E+000 -4.1320767262E+001 -4.3906405803E+001 -4.3464117513E+001 -8.3777499803E+001 +1.6334939260E+002 -2.7572999982E+001 +4.0391816530E+001
4947500000.000 -8.7547564850E+000 -4.2093864326E+001 -4.3851032040E+001 -7.7759277713E+001 -8.7606639351E+001 -1.1885950795E+002 -2.9239850164E+001 +3.4545866061E+001
5080000000.000 -8.6886134070E+000 -4.2891595517E+001 -4.3618165883E+001 -1.1250320036E+002 -8.5844611276E+001 +6.4207614340E+001 -3.2104470204E+001 +5.5058662470E+001
5212500000.000 -8.6685476650E+000 -4.3847764908E+001 -4.3361544607E+001 -1.4676184856E+002 -8.4180906759E+001 +1.4408829932E+002 -3.1516375079E+001 +6.7583828745E+001
5345000000.000 -8.6622281090E+000 -4.4614548073E+001 -4.3127516769E+001 +1.7897780887E+002 -8.9992997446E+001 -9.3350421244E+001 -3.5203734256E+001 +6.8092278567E+001
5477500000.000 -8.5945813624E+000 -4.5123052042E+001 -4.3087908642E+001 +1.4368758461E+002 -1.0191693504E+002 -8.5297140770E+001 -3.7615862756E+001 +1.2979706420E+002
5610000000.000 -8.5458744265E+000 -4.5957459036E+001 -4.2788787043E+001 +1.0850641218E+002 -9.9480862486E+001 -1.0354920480E+002 -3.3831256913E+001 +1.3391739192E+002
5742500000.000 -8.5521900960E+000 -4.6722873488E+001 -4.2732464590E+001 +7.4116029218E+001 -8.7631695036E+001 -1.2934400387E+002 -3.8215336394E+001 +1.4869287122E+002
5875000000.000 -8.5442066896E+000 -4.7197705621E+001 -4.2570073710E+001 +3.8745560566E+001 -8.5521513043E+001 +6.5598460414E+000 -3.4136491013E+001 -1.7107003806E+002
6007500000.000 -8.4953084717E+000 -4.7784332096E+001 -4.2468773187E+001 +3.6526467290E+000 -9.0524693358E+001 +1.0042156347E+002 -3.2802541669E+001 +1.7839170122E+002
6140000000.000 -8.4673824019E+000 -4.8661687003E+001 -4.2325038343E+001 -3.1210537448E+001 -8.7052209054E+001 -1.6549854935E+002 -3.6461514141E+001 -1.7240259365E+002
6272500000.000 -8.4846853585E+000 -4.9587604311E+001 -4.2247145672E+001 -6.6610433555E+001 -8.5000303979E+001 -1.2657003178E+002 -3.4280214654E+001 -1.4493545530E+002
6405000000.000 -8.4901684725E+000 -5.0113211523E+001 -4.2137748578E+001 -1.0193050197E+002 -8.3036627241E+001 +4.6027693578E+001 -3.3888478497E+001 -1.6326838571E+002
6537500000.000 -8.4383452271E+000 -5.0633887655E+001 -4.1994578069E+001 -1.3714790422E+002 -9.1982624168E+001 -1.5025327795E+002 -4.0292313740E+001 -1.6565194118E+002
6670000000.000 -8.3803034413E+000 -5.1692776708E+001 -4.1870898446E+001 -1.7216798599E+002 -8.1888686256E+001 -6.6187274699E+001 -3.9965444945E+001 -1.4045661405E+002
6802500000.000 -8.3807834502E+000 -5.2775834344E+001 -4.1985549210E+001 +1.5236148413E+002 -9.0314495450E+001 +1.2205694137E+002 -3.8778055207E+001 +1.7702937806E+002
6935000000.000 -8.3927106517E+000 -5.3365838848E+001 -4.1971974150E+001 +1.1598624818E+002 -9.0788765007E+001 +9.0168152384E+001 -3.8106793279E+001 +1.2372967472E+002
7067500000.000 -8.3456647026E+000 -5.3825280006E+001 -4.1693705870E+001 +8.1575950496E+001 -8.6346122443E+001 -1.1821926083E+002 -3.8489982755E+001 +1.1582672585E+002
7200000000.000 -8.2967095393E+000 -5.5022872556E+001 -4.1658261916E+001 +4.5927156328E+001 -8.4413337244E+001 +1.3767782385E+001 -3.2635706628E+001 +1.3140301865E+002
7332500000.000 -8.2935822811E+000 -5.6089427060E+001 -4.1866669540E+001 +1.0249709530E+001 -8.8909402541E+001 +6.8239493559E+001 -2.9032005238E+001 +1.1969522594E+002
7465000000.000 -8.2835699361E+000 -5.6645974248E+001 -4.1513668104E+001 -2.5003533376E+001 -8.3406882287E+001 -1.4406031824E+002 -2.8605566297E+001 +1.2345986524E+002
7597500000.000 -8.2031140345E+000 -5.7500876549E+001 -4.1051454611E+001 -6.1760542106E+001 -7.9630642719E+001 -1.0794823531E+001 -2.6062828128E+001 +1.3770016102E+002
7730000000.000 -8.1672449886E+000 -5.8652682660E+001 -4.1814102503E+001 -9.7729685474E+001 -9.3515127046E+001 +8.3697234565E+001 -2.3715445101E+001 +1.3789442624E+002
7862500000.000 -8.1296963391E+000 -5.9447204126E+001 -4.1842673468E+001 -1.3301123782E+002 -8.6055151540E+001 -1.4900390246E+002 -2.3293148801E+001 +1.4196957663E+002
7995000000.000 -8.0671698411E+000 -5.9960851941E+001 -4.0985732515E+001 -1.7004963773E+002 -8.0536732857E+001 +6.2083057758E+000 -2.1797328053E+001 +1.5463720213E+002
8127500000.000 -7.9879341825E+000 -6.0928355631E+001 -4.1341903472E+001 +1.5464138777E+002 -8.7090952665E+001 -1.7429997729E+002 -2.0024816105E+001 +1.5646927210E+002
8260000000.000 -7.9577143268E+000 -6.1778135244E+001 -4.1602571016E+001 +1.1871600465E+002 -8.2861840661E+001 +1.7341272657E+002 -1.9891896952E+001 +1.6018398180E+002
8392500000.000 -7.8811119646E+000 -6.2339221792E+001 -4.0953689229E+001 +8.0572265791E+001 -8.5108874672E+001 +3.5610282387E+001 -1.9051533224E+001 +1.7045198579E+002
8525000000.000 -7.8189899809E+000 -6.2928047436E+001 -4.0968419567E+001 +4.3576593999E+001 -8.5090156918E+001 +3.8238435270E+001 -1.8189863997E+001 +1.7276031169E+002
8657500000.000 -7.7809011284E+000 -6.3549865826E+001 -4.1508205051E+001 +8.3006291079E+000 -8.3929975474E+001 +1.7872473341E+002 -1.8565930943E+001 +1.7768309815E+002
8790000000.000 -7.7150302100E+000 -6.4214305849E+001 -4.1214965201E+001 -2.9909355334E+001 -8.8226233204E+001 -8.0976450428E+001 -1.8350033356E+001 -1.7188421252E+002
8922500000.000 -7.6893362251E+000 -6.4800568016E+001 -4.0963240824E+001 -6.7665192170E+001 -8.1607768038E+001 -2.0680514537E+000 -1.7983156258E+001 -1.6625415610E+002
9055000000.000 -7.6551781189E+000 -6.5364603520E+001 -4.1313083154E+001 -1.0435842526E+002 -8.4557512957E+001 +1.1569875932E+002 -1.8463653492E+001 -1.5864272440E+002
9187500000.000 -7.6348184081E+000 -6.5890633628E+001 -4.1333602781E+001 -1.4176181500E+002 -9.1183234657E+001 -3.0191714127E+001 -1.8394856347E+001 -1.4673826083E+002
9320000000.000 -7.6309676970E+000 -6.6617076239E+001 -4.1311828488E+001 -1.7711998171E+002 -8.6224969278E+001 +9.5398999295E+001 -1.8228639503E+001 -1.4010496744E+002
9452500000.000 -7.6121485718E+000 -6.7188859578E+001 -4.1544671223E+001 +1.4613386672E+002 -8.4279283393E+001 +1.0137570304E+002 -1.8843525504E+001 -1.3087978089E+002
9585000000.000 -7.5922006357E+000 -6.7797432060E+001 -4.1800543995E+001 +1.0949531928E+002 -8.7666953274E+001 -1.0094058119E+002 -1.8768529976E+001 -1.1872096481E+002
9717500000.000 -7.5742405984E+000 -6.8732496409E+001 -4.1814643646E+001 +7.4656293346E+001 -8.6380977770E+001 -6.3685685907E+001 -1.8835071158E+001 -1.1167150662E+002
9850000000.000 -7.5954865075E+000 -6.9391698889E+001 -4.2129421124E+001 +3.8269972881E+001 -8.1505591595E+001 +3.1302013239E+001 -1.9656409533E+001 -1.0081220810E+002
9982500000.000 -7.5677213471E+000 -6.9848198979E+001 -4.2423015498E+001 +2.5268066044E+000 -8.4349471045E+001 -1.4402958966E+002 -1.9644189904E+001 -8.7076306701E+001
10115000000.000 -7.5444098805E+000 -7.0654980469E+001 -4.2516603492E+001 -3.2579397506E+001 -8.7162730352E+001 +9.3850815697E+000 -1.9927494696E+001 -7.9980719850E+001
10247500000.000 -7.5578781529E+000 -7.1427113371E+001 -4.2868329181E+001 -6.8875159979E+001 -8.5344680178E+001 +7.9521539052E+001 -2.1156044447E+001 -6.6372909737E+001
10380000000.000 -7.5343739574E+000 -7.1900079603E+001 -4.3218589499E+001 -1.0524140838E+002 -7.8826710242E+001 +1.2550776331E+002 -2.0974238184E+001 -5.0602038457E+001
10512500000.000 -7.5207172986E+000 -7.2775650724E+001 -4.3351229493E+001 -1.3860105998E+002 -8.6774244219E+001 -1.1614653728E+002 -2.1461752111E+001 -4.3084937878E+001
10645000000.000 -7.5401635117E+000 -7.3478109396E+001 -4.3525211687E+001 -1.7419925285E+002 -8.4447016276E+001 +3.6649796091E+001 -2.2837779170E+001 -2.4403077416E+001
10777500000.000 -7.5236805692E+000 -7.3921821203E+001 -4.4026221242E+001 +1.5063301961E+002 -8.8556118111E+001 +1.4198940855E+002 -2.2117927052E+001 -6.6700778388E+000
10910000000.000 -7.4757527929E+000 -7.4588215949E+001 -4.4144640706E+001 +1.1515413945E+002 -8.6023251317E+001 -1.7210511480E+002 -2.2751417263E+001 +2.6981978975E+000
11042500000.000 -7.4555436712E+000 -7.5713125677E+001 -4.4560850143E+001 +8.0838756164E+001 -8.2035021589E+001 +3.3353341123E+001 -2.3472423847E+001 +2.6520586127E+001
11175000000.000 -7.4385191298E+000 -7.6284795273E+001 -4.4823395157E+001 +4.5207025358E+001 -8.6064052251E+001 +1.3148478887E+002 -2.2169514855E+001 +4.1808064053E+001
11307500000.000 -7.4169646908E+000 -7.6545480262E+001 -4.5318979186E+001 +1.0404473954E+001 -9.1898697031E+001 +1.3224925427E+002 -2.2700365850E+001 +5.1765713354E+001
11440000000.000 -7.3691809434E+000 -7.7343824244E+001 -4.5356489446E+001 -2.4264443269E+001 -8.4010501201E+001 +5.7368661376E+001 -2.2634300183E+001 +7.4695814478E+001
11572500000.000 -7.3170491738E+000 -7.7817763973E+001 -4.5790250441E+001 -5.9508959655E+001 -9.3278927475E+001 +9.4995434188E+001 -2.1153567755E+001 +8.6063057125E+001
11705000000.000 -7.2983782831E+000 -7.8243939932E+001 -4.6017744000E+001 -9.3467981425E+001 -8.7334253153E+001 -1.2597352141E+002 -2.1738205510E+001 +9.5615751135E+001
11837500000.000 -7.2737916802E+000 -7.8786725045E+001 -4.6374682466E+001 -1.2765734165E+002 -8.2295226561E+001 -9.5267167037E+001 -2.1162048763E+001 +1.1808262804E+002
11970000000.000 -7.2625897540E+000 -7.9050090127E+001 -4.6603833548E+001 -1.6294281223E+002 -8.6151896311E+001 +3.1189706779E+001 -1.9817602255E+001 +1.2447898187E+002
12102500000.000 -7.2155950658E+000 -7.9142587899E+001 -4.6913623996E+001 +1.6267487622E+002 -9.7190432539E+001 +1.6245708671E+002 -2.0738473111E+001 +1.3436226604E+002
12235000000.000 -7.2383215482E+000 -7.9966848970E+001 -4.7276132688E+001 +1.2821804484E+002 -9.1286846079E+001 -6.3112893731E+001 -1.9766975296E+001 +1.5350441437E+002
12367500000.000 -7.2349662904E+000 -8.0003436067E+001 -4.7513136523E+001 +9.5048154128E+001 -8.0606971398E+001 +1.1786215425E+001 -1.8882376352E+001 +1.5674564215E+002
12500000000.000 -7.2275786585E+000 -8.0552211400E+001 -4.7591150518E+001 +5.9495201739E+001 -8.0284162257E+001 +1.2431826811E+002 -2.0053265759E+001 +1.6717350995E+002
12632500000.000 -7.1863844320E+000 -8.1107733528E+001 -4.8052869779E+001 +2.5114395307E+001 -8.6060257680E+001 -6.0591554334E+001 -1.9089950722E+001 -1.7398975777E+002
12765000000.000 -7.2119273647E+000 -8.1466854326E+001 -4.8352178187E+001 -7.9042132499E+000 -8.8190842818E+001 +3.7074871007E+001 -1.8479327758E+001 -1.7258575600E+002
12897500000.000 -7.2322826438E+000 -8.1800244935E+001 -4.8419612964E+001 -4.4314999318E+001 -9.6955450221E+001 +5.8876072879E+001 -2.0157520105E+001 -1.6019107199E+002
13030000000.000 -7.2007246889E+000 -8.2105292074E+001 -4.8752628364E+001 -7.7423705743E+001 -8.3113811309E+001 -1.3393936826E+002 -1.8737802396E+001 -1.4240052412E+002
13162500000.000 -7.1722934410E+000 -8.2586495184E+001 -4.9280126166E+001 -1.1214179692E+002 -8.3245820189E+001 +4.0530312868E+001 -1.8538569308E+001 -1.4304623997E+002
13295000000.000 -7.1648903134E+000 -8.3061289410E+001 -4.9419622151E+001 -1.4732473916E+002 -8.2896394384E+001 +1.4494147149E+002 -2.0033352141E+001 -1.2883353513E+002
13427500000.000 -7.1954366883E+000 -8.3615154392E+001 -4.9741849606E+001 -1.7943179949E+002 -9.8078533821E+001 -1.3917277734E+002 -1.8709185416E+001 -1.1470369670E+002
13560000000.000 -7.2017079346E+000 -8.3642774440E+001 -4.9642885737E+001 +1.4504788705E+002 -8.4121143238E+001 -5.9602199368E+001 -1.8889997682E+001 -1.1587773781E+002
13692500000.000 -7.1424573192E+000 -8.3926322856E+001 -5.0402038443E+001 +1.1193961710E+002 -8.3692370803E+001 +5.6848763985E+001 -2.0780529763E+001 -1.0237215525E+002
13825000000.000 -7.1395658594E+000 -8.4719857797E+001 -5.0336527748E+001 +7.7985531228E+001 -7.9278779766E+001 +1.5844080054E+002 -1.9606966090E+001 -8.7992094355E+001
13957500000.000 -7.1741870544E+000 -8.5175829658E+001 -5.1091820242E+001 +4.4631114699E+001 -8.4664347336E+001 -1.0854234364E+002 -2.0183045986E+001 -9.0837108455E+001
14090000000.000 -7.1566519586E+000 -8.5399539013E+001 -5.1043445406E+001 +1.1390656939E+001 -8.2602976349E+001 +1.7126785259E+002 -2.2517420315E+001 -7.3856030339E+001
14222500000.000 -7.0919004023E+000 -8.5800793263E+001 -5.1144873027E+001 -2.4042803795E+001 -8.4149857331E+001 +1.7605611616E+002 -2.1145303266E+001 -5.9772283153E+001
14355000000.000 -7.0952530843E+000 -8.6481433278E+001 -5.1294307978E+001 -5.8906401232E+001 -8.4209695365E+001 +5.9854248361E+000 -2.2285921562E+001 -6.3713458065E+001
14487500000.000 -7.0974266294E+000 -8.6900867335E+001 -5.1317323224E+001 -8.9044781756E+001 -8.2920082129E+001 +1.1288321272E+002 -2.5266883994E+001 -4.1041895647E+001
14620000000.000 -7.0369407893E+000 -8.7050333915E+001 -5.2150351581E+001 -1.2292655781E+002 -9.9330462770E+001 +5.9329813406E+001 -2.3165216448E+001 -2.8089238031E+001
14752500000.000 -6.9584346041E+000 -8.7720367279E+001 -5.2101541653E+001 -1.5973342902E+002 -8.1114562852E+001 -6.3190769027E+001 -2.5262224943E+001 -3.6053879777E+001
14885000000.000 -6.9532151385E+000 -8.8054853239E+001 -5.2092401276E+001 +1.6889649421E+002 -9.2691825525E+001 +1.1798493423E+002 -2.8457176859E+001 +1.7363180632E+000
15017500000.000 -6.9464344498E+000 -8.7999927472E+001 -5.2415282513E+001 +1.3336912554E+002 -9.0644447424E+001 +9.4223775042E+001 -2.5240010509E+001 +7.7854107633E+000
15150000000.000 -6.8453364724E+000 -8.8076947821E+001 -5.2659352215E+001 +1.0100098115E+002 -9.0477662199E+001 +8.6939236765E+001 -2.9094746224E+001 -1.4169211745E+000
15282500000.000 -6.7952556443E+000 -8.8306042629E+001 -5.2440398499E+001 +6.4778322225E+001 -8.4027504770E+001 -4.3921984639E+000 -3.0504318447E+001 +5.7611250452E+001
