!  2-Port S-parameters saved by WinCal
! VAR MeasName=S-Parameters (CALIBRATED_DATA) read from VNA (C)
! VAR MeasDate=10/16/2015 3:04:16 PM
! VAR NAME=M6082_10_15_2_2_20C_1.8mA_-17.5dBm
! VAR FILENAME=M6082_10_15_2_2_20C_1.8mA_-17.5dBm.S2P
! VAR DATE=10/16/2015 3:04:16 PM
! VAR PHYS_PORTS=2,1
! VAR ObjTypeName=DATASET
! VAR IndexType=Frequency
!
# Hz S DB R 50
45000000.000 -1.9373228450E+001 -4.9230579766E+000 -4.5766687696E+001 +1.0673558716E+002 -6.2227599503E+001 -3.0860060042E+001 -3.0353137487E+001 +7.0071588708E+000
177500000.000 -1.9199214018E+001 -1.1278270224E+001 -4.5388319737E+001 +6.5763336078E+001 -7.0825989124E+001 +3.7580449917E+001 -3.2673029583E+001 +4.6291567180E+001
310000000.000 -1.8591463975E+001 -1.9422921979E+001 -4.5556021207E+001 +3.7669649365E+001 -7.5076731185E+001 -1.6325018581E+002 -2.3346528820E+001 +6.4568012075E+001
442500000.000 -1.8916090779E+001 -2.6879106245E+001 -4.4820504280E+001 -5.3473850392E+000 -8.5397010485E+001 -4.9154573167E+001 -2.2386811775E+001 +1.7163010237E+001
575000000.000 -1.8909168185E+001 -3.3632325333E+001 -4.5305920677E+001 -4.2301617440E+001 -7.7588523107E+001 +1.4181925115E+002 -3.0662321927E+001 +2.2522750390E+001
707500000.000 -1.8530285801E+001 -3.9872675419E+001 -4.5445074204E+001 -7.7500035284E+001 -8.6160863603E+001 -8.4433805079E+001 -3.4534267742E+001 +8.3863709254E+001
840000000.000 -1.8227379012E+001 -4.5364197894E+001 -4.5295202735E+001 -1.1240624451E+002 -8.0011370306E+001 +2.7264712943E+001 -2.9688538807E+001 +1.2750039018E+002
972500000.000 -1.7582869236E+001 -5.0230446129E+001 -4.5545863715E+001 -1.4809305316E+002 -9.2290029106E+001 +1.0251141619E+002 -2.5974549655E+001 +1.3538279634E+002
1105000000.000 -1.7158326303E+001 -5.4881080344E+001 -4.5306117568E+001 +1.7622023892E+002 -7.9276539832E+001 -1.5468745207E+002 -2.4362788721E+001 +1.4087793433E+002
1237500000.000 -1.6595365638E+001 -5.8818416808E+001 -4.5497557638E+001 +1.4077774204E+002 -8.3289697194E+001 -5.3099865308E+001 -2.3407883020E+001 +1.4994026028E+002
1370000000.000 -1.6027307459E+001 -6.2665293065E+001 -4.5644312490E+001 +1.0569958686E+002 -9.4489738910E+001 -1.7179186803E+002 -2.2069273185E+001 +1.6002731998E+002
1502500000.000 -1.5783422330E+001 -6.5863515510E+001 -4.5424813758E+001 +7.0498553411E+001 -9.3240939871E+001 -5.6130499309E+001 -2.0864965116E+001 +1.6640706571E+002
1635000000.000 -1.5138368209E+001 -6.8721302017E+001 -4.5519871351E+001 +3.4096357958E+001 -9.8952108563E+001 +1.4522438080E+002 -2.0025690440E+001 +1.7330975727E+002
1767500000.000 -1.4662523279E+001 -7.1736279262E+001 -4.5502028121E+001 -2.4715537684E+000 -9.6577698057E+001 -4.1316927727E+001 -1.9015482895E+001 +1.7853039895E+002
1900000000.000 -1.4554252767E+001 -7.3990130256E+001 -4.4836310661E+001 -3.5525761782E+001 -9.4430234897E+001 -4.4704914491E+001 -1.8869460645E+001 -1.7821896004E+002
2032500000.000 -1.4238547514E+001 -7.6281620158E+001 -4.4780448425E+001 -7.1174067144E+001 -7.9832276871E+001 -3.7150024304E+001 -1.8698328102E+001 -1.6789118225E+002
2165000000.000 -1.3833365064E+001 -7.8194802614E+001 -4.4624872024E+001 -1.0530368239E+002 -8.3398920104E+001 -1.4781962997E+001 -1.7744938420E+001 -1.6093861598E+002
2297500000.000 -1.3633644136E+001 -8.0773171685E+001 -4.4451972732E+001 -1.3823028275E+002 -7.8410642443E+001 +1.3329916783E+002 -1.7249730225E+001 -1.5705233098E+002
2430000000.000 -1.3350509485E+001 -8.2806647440E+001 -4.4322395419E+001 -1.7097060350E+002 -7.4365467318E+001 -1.6401720957E+002 -1.6939861592E+001 -1.5285768091E+002
2562500000.000 -1.2923585226E+001 -8.4140728055E+001 -4.4319706523E+001 +1.5303614706E+002 -7.6409223691E+001 +8.7206541034E+001 -1.6837519939E+001 -1.5039903032E+002
2695000000.000 -1.2651856003E+001 -8.6518096209E+001 -4.4199245482E+001 +1.1938273285E+002 -8.4337600657E+001 -4.6012196400E+001 -1.7372276420E+001 -1.4712746014E+002
2827500000.000 -1.2393906956E+001 -8.8349953114E+001 -4.4496221644E+001 +8.5116046791E+001 -7.8663030708E+001 -9.0538007093E+001 -1.7852940235E+001 -1.4033670969E+002
2960000000.000 -1.2035592276E+001 -8.9517711917E+001 -4.4207040388E+001 +4.8685380018E+001 -8.6537575403E+001 +5.2657096021E+001 -1.8166438769E+001 -1.3538417693E+002
3092500000.000 -1.1685409498E+001 -9.1248793133E+001 -4.4257335432E+001 +1.3498595762E+001 -8.4332565051E+001 +1.1223741568E+002 -1.9084635735E+001 -1.2922629605E+002
3225000000.000 -1.1442439751E+001 -9.3193952816E+001 -4.4107280920E+001 -1.8518126765E+001 -7.6136453340E+001 -1.2360886909E+002 -1.9582462209E+001 -1.1971258452E+002
3357500000.000 -1.1212386640E+001 -9.4652504248E+001 -4.4380569099E+001 -5.4436290028E+001 -7.8194244318E+001 -4.0534997611E+000 -1.9955676288E+001 -1.1422655551E+002
3490000000.000 -1.0908339938E+001 -9.5737164773E+001 -4.4240357478E+001 -8.9127463798E+001 -8.3551387345E+001 +1.7083079825E+002 -2.1128766428E+001 -1.0846249676E+002
3622500000.000 -1.0653773659E+001 -9.7058466464E+001 -4.3953627260E+001 -1.2294703989E+002 -1.0257548284E+002 -1.4081639797E+002 -2.1942009374E+001 -9.8161798908E+001
3755000000.000 -1.0387645143E+001 -9.8302627763E+001 -4.4040265988E+001 -1.5947704944E+002 -8.0944115100E+001 +1.3504710866E+001 -2.2739540000E+001 -9.4588973632E+001
3887500000.000 -1.0120574573E+001 -9.9124047793E+001 -4.3792230047E+001 +1.6290208885E+002 -9.6172998118E+001 -1.2377246564E+002 -2.5066872125E+001 -8.7690448014E+001
4020000000.000 -9.8907909756E+000 -9.9916093571E+001 -4.3609241206E+001 +1.2745110264E+002 -8.6398316150E+001 -1.2027938417E+002 -2.6688570449E+001 -7.3273851883E+001
4152500000.000 -9.6112591553E+000 -1.0055761894E+002 -4.3352147890E+001 +8.8510854182E+001 -9.1298789277E+001 -1.2440477375E+002 -2.8926428713E+001 -6.4755800618E+001
4285000000.000 -9.2309058638E+000 -1.0118438089E+002 -4.3368823954E+001 +4.4426278360E+001 -7.9414419774E+001 +2.9797842873E+001 -3.3390938871E+001 -3.7273292485E+001
4417500000.000 -8.8647152180E+000 -1.0224199571E+002 -4.3395392832E+001 -6.8661200160E-002 -9.1392498154E+001 -1.2928564385E+002 -3.1739744207E+001 +8.0912901495E+000
4550000000.000 -8.6260253428E+000 -1.0308253737E+002 -4.3630449092E+001 -3.8075885285E+001 -8.2033774393E+001 -9.5329974359E+001 -3.0344074608E+001 +1.8369571914E+001
4682500000.000 -8.2681964264E+000 -1.0443011141E+002 -4.4093253798E+001 -8.2972972387E+001 -9.2356696433E+001 +7.2683248196E+000 -2.9673331579E+001 +3.9168688705E+001
4815000000.000 -8.0210367452E+000 -1.0587161456E+002 -4.4468446286E+001 -1.2460396408E+002 -1.0123228867E+002 -2.4755168952E+001 -2.7644489851E+001 +4.1601372336E+001
4947500000.000 -7.8569926286E+000 -1.0686290936E+002 -4.4354032983E+001 -1.6025849681E+002 -8.8928269258E+001 -7.0668845819E+001 -2.9384061251E+001 +3.5905362406E+001
5080000000.000 -7.6772402745E+000 -1.0792306438E+002 -4.4676161808E+001 +1.6040898867E+002 -8.8310166793E+001 +4.2406019972E+000 -3.2225553607E+001 +5.7389256380E+001
5212500000.000 -7.5078576783E+000 -1.0924078780E+002 -4.5229845462E+001 +1.2042090176E+002 -8.6677531827E+001 +9.6401714798E+001 -3.1532368119E+001 +6.9804153665E+001
5345000000.000 -7.3829780261E+000 -1.1013636744E+002 -4.4924468582E+001 +8.4607385997E+001 -9.4418088395E+001 -2.5889847952E+001 -3.5311889677E+001 +7.1587209653E+001
5477500000.000 -7.2853297541E+000 -1.1084887777E+002 -4.5193115612E+001 +4.8161222312E+001 -8.0855220944E+001 -8.3269576642E+000 -3.7181333485E+001 +1.3177934609E+002
5610000000.000 -7.1620302030E+000 -1.1183769818E+002 -4.5702535371E+001 +9.1813036038E+000 -8.3988956983E+001 +6.2393857753E+001 -3.3649109622E+001 +1.3619592986E+002
5742500000.000 -7.0564748142E+000 -1.1273685278E+002 -4.5717854980E+001 -2.6939103901E+001 -8.7871034997E+001 -1.4938955874E+002 -3.7699961374E+001 +1.5317242704E+002
5875000000.000 -6.9843325197E+000 -1.1347231358E+002 -4.5368623372E+001 -6.2232251977E+001 -8.7745338288E+001 -1.3353917343E+002 -3.3698078908E+001 -1.7056768150E+002
6007500000.000 -6.9148759440E+000 -1.1431434977E+002 -4.5774987456E+001 -9.8208227451E+001 -9.3409594922E+001 -2.2645427889E+001 -3.2666602394E+001 +1.7973692936E+002
6140000000.000 -6.8117177082E+000 -1.1513792133E+002 -4.6362317789E+001 -1.3659565965E+002 -8.3790200480E+001 +1.4188246303E+002 -3.6046934164E+001 -1.6924683453E+002
6272500000.000 -6.7002457780E+000 -1.1596127463E+002 -4.5862357500E+001 -1.6989815392E+002 -9.1381802939E+001 +1.0776431509E+001 -3.3817419273E+001 -1.4430365172E+002
6405000000.000 -6.6496456892E+000 -1.1696186378E+002 -4.6115580555E+001 +1.5448250374E+002 -8.2248727154E+001 +2.5513870428E+001 -3.3817939913E+001 -1.6164476758E+002
6537500000.000 -6.5943001258E+000 -1.1760429368E+002 -4.6788465190E+001 +1.1670119614E+002 -9.0666730617E+001 -5.1770728647E+001 -4.0166155456E+001 -1.5976207488E+002
6670000000.000 -6.4699231363E+000 -1.1808537646E+002 -4.6516099746E+001 +8.3119662671E+001 -8.4295497688E+001 -4.9178715485E+001 -3.9329399401E+001 -1.3679398825E+002
6802500000.000 -6.3727745833E+000 -1.1908537766E+002 -4.6545328148E+001 +4.7745833385E+001 -9.6223362752E+001 -5.5810030051E+000 -3.8855169802E+001 +1.7985871252E+002
6935000000.000 -6.3648154831E+000 -1.2008109511E+002 -4.7598165371E+001 +1.1036861904E+001 -8.1841333877E+001 +1.4590525735E+002 -3.8706043536E+001 +1.2248021923E+002
7067500000.000 -6.3035425756E+000 -1.2034290667E+002 -4.7456683450E+001 -2.3336565679E+001 -1.0039324992E+002 -1.4926269647E+002 -3.9094314999E+001 +1.1481004074E+002
7200000000.000 -6.1780139347E+000 -1.2076832945E+002 -4.7006797834E+001 -5.5477605794E+001 -8.7327794601E+001 +1.7673874633E+001 -3.2895908572E+001 +1.3182821033E+002
7332500000.000 -6.1134888379E+000 -1.2173636717E+002 -4.7650150912E+001 -9.1638271370E+001 -8.5586290230E+001 +1.7419142436E+002 -2.9081805196E+001 +1.1907076047E+002
7465000000.000 -6.0789224398E+000 -1.2233024222E+002 -4.8044959123E+001 -1.2716376557E+002 -8.4487166832E+001 -1.0524256623E+002 -2.8651211252E+001 +1.2231211529E+002
7597500000.000 -5.9851529047E+000 -1.2256561914E+002 -4.7638120887E+001 -1.6101237591E+002 -9.0858371348E+001 -1.4954257712E+002 -2.6163200695E+001 +1.3765292753E+002
7730000000.000 -5.9018912004E+000 -1.2309400549E+002 -4.8003496902E+001 +1.6429507974E+002 -8.7470532512E+001 +3.2896772670E+001 -2.3725400138E+001 +1.3795715631E+002
7862500000.000 -5.8562833829E+000 -1.2373432312E+002 -4.9010168305E+001 +1.2769479502E+002 -8.9087359611E+001 +1.6890814771E+002 -2.3275680413E+001 +1.4154251055E+002
7995000000.000 -5.8017651656E+000 -1.2403054967E+002 -4.8743989740E+001 +9.3988137930E+001 -8.0639195814E+001 -1.8574439185E+001 -2.1838785853E+001 +1.5422857550E+002
8127500000.000 -5.7129299917E+000 -1.2419091655E+002 -4.8927329823E+001 +6.1261716536E+001 -8.0431822203E+001 -7.4850533053E+001 -2.0018538691E+001 +1.5652789659E+002
8260000000.000 -5.6554071754E+000 -1.2477308817E+002 -4.9479114951E+001 +2.5180336141E+001 -8.9942542848E+001 +1.0057762550E-001 -1.9857419226E+001 +1.6022005873E+002
8392500000.000 -5.6184015253E+000 -1.2503523741E+002 -4.9559814275E+001 -9.6773343747E+000 -8.7437305211E+001 -1.1599310125E+002 -1.9072112746E+001 +1.7043111596E+002
8525000000.000 -5.5669856959E+000 -1.2513871704E+002 -4.9689610163E+001 -4.2157611589E+001 -8.6289009078E+001 +6.4223562743E+001 -1.8211492400E+001 +1.7304333857E+002
8657500000.000 -5.5147438479E+000 -1.2539960855E+002 -5.0376922747E+001 -7.7940217699E+001 -9.6629426320E+001 -9.4444237018E+001 -1.8567671552E+001 +1.7798680668E+002
8790000000.000 -5.4549630291E+000 -1.2576431076E+002 -5.0797689246E+001 -1.1177986608E+002 -8.7811499280E+001 -1.6759268395E+002 -1.8353109650E+001 -1.7173334665E+002
8922500000.000 -5.4374674707E+000 -1.2606872464E+002 -5.0687903944E+001 -1.4642275759E+002 -8.4171986467E+001 -2.6133747671E+001 -1.7984350077E+001 -1.6598981611E+002
9055000000.000 -5.3954537633E+000 -1.2626818342E+002 -5.1124390705E+001 +1.7980086933E+002 -8.3918842469E+001 +1.6628970364E+002 -1.8459209521E+001 -1.5830395788E+002
9187500000.000 -5.3520898965E+000 -1.2654123858E+002 -5.1512601764E+001 +1.4675627665E+002 -8.7542582938E+001 +1.3739066053E+002 -1.8383105051E+001 -1.4622991892E+002
9320000000.000 -5.3025665519E+000 -1.2718413153E+002 -5.1641502168E+001 +1.1208436845E+002 -8.7596127237E+001 +6.4820940484E+001 -1.8203591739E+001 -1.3962733823E+002
9452500000.000 -5.2851010360E+000 -1.2753117365E+002 -5.2121618187E+001 +7.7452648613E+001 -8.8335940523E+001 +2.2000620062E+001 -1.8859464312E+001 -1.3056096279E+002
9585000000.000 -5.2462516260E+000 -1.2783149806E+002 -5.2407300929E+001 +4.3860422085E+001 -8.8073540059E+001 -7.7466793720E+001 -1.8807446893E+001 -1.1812280831E+002
9717500000.000 -5.1720449842E+000 -1.2824522451E+002 -5.2488415718E+001 +1.0476706792E+001 -8.6351279955E+001 -4.9878740363E+001 -1.8808225939E+001 -1.1104489835E+002
9850000000.000 -5.1473862897E+000 -1.2898678015E+002 -5.2930977836E+001 -2.4450217244E+001 -8.2834646362E+001 +1.4186570133E+002 -1.9660684801E+001 -1.0059512245E+002
9982500000.000 -5.1229929924E+000 -1.2911244567E+002 -5.3382326170E+001 -5.7788128141E+001 -8.9673858454E+001 -1.6977510446E+002 -1.9713296526E+001 -8.6311541213E+001
10115000000.000 -5.0691715494E+000 -1.2935832059E+002 -5.3681397376E+001 -9.4297215475E+001 -8.1323398391E+001 -3.1667592102E+001 -1.9916636186E+001 -7.8887907764E+001
10247500000.000 -5.0081821433E+000 -1.2994165539E+002 -5.3569828949E+001 -1.2498948475E+002 -8.9682843829E+001 +3.0049389895E+001 -2.1151696507E+001 -6.5864195115E+001
10380000000.000 -4.9881392387E+000 -1.3037311303E+002 -5.4081242186E+001 -1.6175463231E+002 -8.7617275242E+001 -1.6474488130E+002 -2.1093768342E+001 -4.9645001989E+001
10512500000.000 -4.9602448589E+000 -1.3064812740E+002 -5.4593447184E+001 +1.6519300779E+002 -8.6402365984E+001 -1.1159556967E+002 -2.1516797868E+001 -4.1545353480E+001
10645000000.000 -4.9133162478E+000 -1.3094772808E+002 -5.4599969866E+001 +1.3154961866E+002 -9.2679441817E+001 +5.7454281182E+001 -2.2825926694E+001 -2.3648784228E+001
10777500000.000 -4.8591397483E+000 -1.3132421310E+002 -5.5070356618E+001 +9.4983913137E+001 -8.6235789418E+001 +1.3997563793E+002 -2.2221650699E+001 -5.6091992004E+000
10910000000.000 -4.8204389274E+000 -1.3173218442E+002 -5.5648178785E+001 +6.2131881759E+001 -9.1363895677E+001 +5.0079916876E+001 -2.2792055681E+001 +4.7771591558E+000
11042500000.000 -4.7766763659E+000 -1.3208339483E+002 -5.6368220044E+001 +2.7547352154E+001 -8.6624257233E+001 +4.0056048293E+001 -2.3436134483E+001 +2.7921151619E+001
11175000000.000 -4.7246368113E+000 -1.3223518889E+002 -5.6141061225E+001 -5.2019634952E+000 -9.2330150905E+001 +1.0533311317E+002 -2.2280549939E+001 +4.3111701639E+001
11307500000.000 -4.6916941643E+000 -1.3246021270E+002 -5.6807736533E+001 -4.1089155374E+001 -8.6584146131E+001 -3.6075932666E+001 -2.2748231565E+001 +5.3679250197E+001
11440000000.000 -4.6400164542E+000 -1.3279302402E+002 -5.6923234560E+001 -7.3048265113E+001 -8.4596065578E+001 -3.6050556988E-001 -2.2556118803E+001 +7.6069767477E+001
11572500000.000 -4.6053231038E+000 -1.3278605680E+002 -5.6825235405E+001 -1.0764889258E+002 -8.7581047673E+001 -2.0961765941E+001 -2.1163488725E+001 +8.7380190150E+001
11705000000.000 -4.5724784050E+000 -1.3294103264E+002 -5.7106099105E+001 -1.3698018232E+002 -9.5015896108E+001 -9.2766777239E+001 -2.1778431599E+001 +9.7440081072E+001
11837500000.000 -4.5272027319E+000 -1.3315695472E+002 -5.7607112598E+001 -1.7148525971E+002 -7.9007020984E+001 -2.8402751561E+001 -2.1109607133E+001 +1.1962412973E+002
11970000000.000 -4.5225995494E+000 -1.3335676624E+002 -5.7835151913E+001 +1.5042316233E+002 -8.0423636199E+001 +6.5799947129E+001 -1.9815686031E+001 +1.2578368554E+002
12102500000.000 -4.5145489783E+000 -1.3328444758E+002 -5.7905517795E+001 +1.2236149860E+002 -8.1850803801E+001 +1.7634985234E+002 -2.0742642703E+001 +1.3573063647E+002
12235000000.000 -4.4663440769E+000 -1.3373863778E+002 -5.8912232533E+001 +8.9575148207E+001 -9.1126433171E+001 -1.2809755879E+002 -1.9758993899E+001 +1.5485069793E+002
12367500000.000 -4.4708562219E+000 -1.3387661618E+002 -5.8742717996E+001 +5.2617425264E+001 -8.9663011596E+001 -1.6981768880E+002 -1.8869909594E+001 +1.5829480560E+002
12500000000.000 -4.4541324905E+000 -1.3427835603E+002 -5.8862604870E+001 +1.6276262942E+001 -8.1504657012E+001 +1.2769177562E+002 -2.0047937239E+001 +1.6837111440E+002
12632500000.000 -4.4250461351E+000 -1.3435176896E+002 -5.9150649452E+001 -1.5509356904E+001 -9.0780317732E+001 -8.3263093796E+001 -1.9183478306E+001 -1.7271852854E+002
12765000000.000 -4.4057886786E+000 -1.3463040792E+002 -5.9240060306E+001 -4.6327641652E+001 -8.4563728665E+001 -2.8618644491E+000 -1.8519822139E+001 -1.7105736621E+002
12897500000.000 -4.4011445893E+000 -1.3496819125E+002 -5.9964123109E+001 -8.2942056914E+001 -9.0877859404E+001 +1.7581821732E+002 -2.0128487685E+001 -1.5926221733E+002
13030000000.000 -4.3883593795E+000 -1.3517520337E+002 -6.0100014115E+001 -1.1723094577E+002 -8.1323385639E+001 -1.4753166740E+002 -1.8861158133E+001 -1.4130396460E+002
13162500000.000 -4.3609824635E+000 -1.3530538667E+002 -6.0067085321E+001 -1.5070120718E+002 -8.3067994378E+001 -1.6259026692E+000 -1.8672545150E+001 -1.4129478193E+002
13295000000.000 -4.3366320287E+000 -1.3551638444E+002 -6.1153982304E+001 +1.7046457971E+002 -8.7034954692E+001 +1.2203386213E+002 -2.0051786142E+001 -1.2764299478E+002
13427500000.000 -4.3269022347E+000 -1.3592481647E+002 -6.0637211292E+001 +1.3934130476E+002 -8.1918426769E+001 -1.3375193568E+002 -1.8880455256E+001 -1.1405437315E+002
13560000000.000 -4.3375167429E+000 -1.3599929696E+002 -6.0321185442E+001 +1.0674591571E+002 -8.6423120708E+001 -1.4367248536E+002 -1.9086777590E+001 -1.1439380189E+002
13692500000.000 -4.3032081676E+000 -1.3608769964E+002 -6.0748554088E+001 +7.0933499400E+001 -8.1685795772E+001 +1.3651845140E+002 -2.0840159131E+001 -1.0106676106E+002
13825000000.000 -4.2660986871E+000 -1.3640136866E+002 -6.1369038371E+001 +3.7482419647E+001 -8.0686718107E+001 -9.4486051006E+001 -1.9758314274E+001 -8.7480253939E+001
13957500000.000 -4.2676522924E+000 -1.3679483410E+002 -6.2670121272E+001 +9.2887616707E-001 -8.0566108327E+001 -4.7475138326E+001 -2.0435974944E+001 -8.9850619019E+001
14090000000.000 -4.2635726970E+000 -1.3690817668E+002 -6.1692633908E+001 -3.3964574132E+001 -8.4024439061E+001 +2.0678137646E+001 -2.2712207998E+001 -7.2483125751E+001
14222500000.000 -4.2291492740E+000 -1.3682010642E+002 -6.2739293375E+001 -6.0523668021E+001 -7.4777572921E+001 +1.4897163672E+002 -2.1307554545E+001 -5.9223609219E+001
14355000000.000 -4.1819199808E+000 -1.3720167529E+002 -6.2195757415E+001 -9.4770032335E+001 -8.0943083319E+001 -8.5801656796E+001 -2.2550246463E+001 -6.3577850386E+001
14487500000.000 -4.1690107711E+000 -1.3740337030E+002 -6.2547841226E+001 -1.2074032796E+002 -8.3469988897E+001 +2.6972830771E+001 -2.5646554187E+001 -4.0019743391E+001
14620000000.000 -4.1639067217E+000 -1.3732301354E+002 -6.3784619537E+001 -1.5442791956E+002 -7.5166076372E+001 +1.2061839054E+002 -2.3316257183E+001 -2.7062640251E+001
14752500000.000 -4.0950658552E+000 -1.3722932354E+002 -6.3520406037E+001 +1.6240001389E+002 -7.8650375671E+001 -9.2966976936E+001 -2.5401089494E+001 -3.6886586290E+001
14885000000.000 -4.0578861362E+000 -1.3735108287E+002 -6.3380376029E+001 +1.4231663588E+002 -9.5133598494E+001 -6.9860168060E+001 -2.9093724611E+001 +2.5195759164E+000
15017500000.000 -4.0520948354E+000 -1.3731992021E+002 -6.3620798779E+001 +1.0255887450E+002 -7.4899656235E+001 +1.6168586643E+002 -2.5404089574E+001 +9.6798780409E+000
15150000000.000 -4.0165474002E+000 -1.3714834567E+002 -6.4223146724E+001 +7.5575846137E+001 -8.1820568474E+001 -1.2103327378E+002 -2.9130109767E+001 -2.6678670259E+000
15282500000.000 -3.9886626068E+000 -1.3705626990E+002 -6.3059564548E+001 +3.5741510194E+001 -7.8847857754E+001 -2.5045915890E+001 -3.1388206738E+001 +5.7993112486E+001
