!  2-Port S-parameters saved by WinCal
! VAR MeasName=S-Parameters (CALIBRATED_DATA) read from VNA (C)
! VAR MeasDate=10/16/2015 4:02:34 PM
! VAR NAME=M6082_10_17_2_2_20C_15.6mA_-17.5dBm
! VAR FILENAME=M6082_10_17_2_2_20C_15.6mA_-17.5dBm.S2P
! VAR DATE=10/16/2015 4:02:34 PM
! VAR PHYS_PORTS=2,1
! VAR ObjTypeName=DATASET
! VAR IndexType=Frequency
!
# Hz S DB R 50
45000000.000 -1.5926517495E+001 +1.7998085583E+002 -4.8232328303E+001 +1.1193720914E+002 -6.2168459558E+001 -4.2795614908E+001 -3.0896722003E+001 +9.6865756201E+000
177500000.000 -1.6073013763E+001 -1.7784112307E+002 -4.7145287447E+001 +7.9049285919E+001 -7.1503994957E+001 +1.3090823743E+002 -3.2755766039E+001 +4.7479202777E+001
310000000.000 -1.6149300415E+001 -1.7494275147E+002 -4.7031608120E+001 +5.0816736104E+001 -7.2717914710E+001 -1.5287276601E+002 -2.3342714111E+001 +6.4887164331E+001
442500000.000 -1.6147855800E+001 -1.7203772451E+002 -4.5205603058E+001 +1.2483212400E+001 -8.7203500629E+001 +1.0339023173E+002 -2.2384331868E+001 +1.7293459747E+001
575000000.000 -1.6069653211E+001 -1.6887000572E+002 -4.5167499533E+001 -2.4276300286E+001 -8.4418915987E+001 +1.3759521025E+002 -3.0601179105E+001 +2.2664876652E+001
707500000.000 -1.5951615105E+001 -1.6621654311E+002 -4.5065141408E+001 -5.9074439809E+001 -8.0444472800E+001 -1.4360232197E+002 -3.4474451517E+001 +8.3751796226E+001
840000000.000 -1.5829624950E+001 -1.6330490054E+002 -4.5060885665E+001 -9.3573892854E+001 -8.4246478984E+001 +7.6126663679E+001 -2.9673988963E+001 +1.2736818451E+002
972500000.000 -1.5686108543E+001 -1.6053532221E+002 -4.4736118875E+001 -1.2905396561E+002 -9.2875594056E+001 -2.9289345999E+000 -2.5943730065E+001 +1.3523284612E+002
1105000000.000 -1.5472819345E+001 -1.5798554228E+002 -4.4904116855E+001 -1.6299124218E+002 -9.4836880710E+001 -8.2807409290E+001 -2.4356874221E+001 +1.4074436869E+002
1237500000.000 -1.5260158384E+001 -1.5574072564E+002 -4.4677658565E+001 +1.6267096993E+002 -9.0757382514E+001 +4.6985791670E+001 -2.3405011227E+001 +1.4996243147E+002
1370000000.000 -1.5023584849E+001 -1.5369509679E+002 -4.4610997660E+001 +1.2833295875E+002 -8.2928056258E+001 +1.5101654982E+002 -2.2072002083E+001 +1.5997944108E+002
1502500000.000 -1.4802058749E+001 -1.5167239256E+002 -4.4579252044E+001 +9.3640576348E+001 -8.7122259524E+001 +1.5207161454E+002 -2.0855517881E+001 +1.6636504974E+002
1635000000.000 -1.4554133041E+001 -1.4951882654E+002 -4.4543325281E+001 +5.8737816237E+001 -8.1608616182E+001 -6.7794094707E+001 -2.0023242681E+001 +1.7324765730E+002
1767500000.000 -1.4284166084E+001 -1.4790799376E+002 -4.4513203851E+001 +2.4119669051E+001 -9.5124444494E+001 -1.8479228339E+001 -1.9024517090E+001 +1.7849369481E+002
1900000000.000 -1.4061599038E+001 -1.4640050216E+002 -4.4473195698E+001 -1.0667405844E+001 -8.1176429226E+001 -1.5238670564E+002 -1.8866053114E+001 -1.7823693056E+002
2032500000.000 -1.3807483978E+001 -1.4501184184E+002 -4.4400649354E+001 -4.4975952415E+001 -8.6817375910E+001 -6.3755103785E+001 -1.8691080080E+001 -1.6790143527E+002
2165000000.000 -1.3546934725E+001 -1.4345325875E+002 -4.4734947894E+001 -8.0405589591E+001 -8.5994056710E+001 +1.2671200567E+002 -1.7741649177E+001 -1.6095324295E+002
2297500000.000 -1.3305623289E+001 -1.4234816997E+002 -4.4515966204E+001 -1.1423612598E+002 -8.0673468973E+001 +7.8088890358E+001 -1.7239133344E+001 -1.5707499829E+002
2430000000.000 -1.3067393321E+001 -1.4130484997E+002 -4.4616989791E+001 -1.4792957070E+002 -8.8510403072E+001 +1.3930203324E+002 -1.6946964993E+001 -1.5286821354E+002
2562500000.000 -1.2811794147E+001 -1.4023332757E+002 -4.4629664231E+001 +1.7662506436E+002 -8.9522740593E+001 +1.3233569296E+001 -1.6832597607E+001 -1.5042794079E+002
2695000000.000 -1.2555024040E+001 -1.3973553662E+002 -4.4428363409E+001 +1.4116684749E+002 -8.8365263230E+001 +1.5655360621E+002 -1.7386252677E+001 -1.4713909715E+002
2827500000.000 -1.2331457690E+001 -1.3931359821E+002 -4.4717704740E+001 +1.0745109823E+002 -6.8423096667E+001 -1.4232309045E+002 -1.7871485013E+001 -1.4032628157E+002
2960000000.000 -1.2124835514E+001 -1.3848507012E+002 -4.4580374178E+001 +7.1415733201E+001 -7.5949988778E+001 +3.7674398274E+001 -1.8148026929E+001 -1.3541208494E+002
3092500000.000 -1.1849855461E+001 -1.3791120634E+002 -4.4732514610E+001 +3.9732585183E+001 -9.2907612292E+001 -1.2013883234E+001 -1.9080781179E+001 -1.2927916974E+002
3225000000.000 -1.1584890757E+001 -1.3763223282E+002 -4.4747984664E+001 +4.4644021557E+000 -8.0408043266E+001 -1.5818155835E+002 -1.9577723275E+001 -1.1970433867E+002
3357500000.000 -1.1399986355E+001 -1.3747099617E+002 -4.4763859010E+001 -3.0758608354E+001 -9.2120941251E+001 -3.4569541543E+001 -1.9960511890E+001 -1.1429341938E+002
3490000000.000 -1.1161859404E+001 -1.3686295689E+002 -4.4709121790E+001 -6.2983189867E+001 -7.9668477756E+001 +1.1221954981E+002 -2.1127561513E+001 -1.0853332071E+002
3622500000.000 -1.0917748479E+001 -1.3639723401E+002 -4.5013524851E+001 -9.7120187960E+001 -8.4027907987E+001 -1.9751873561E+001 -2.1931930702E+001 -9.8201916054E+001
3755000000.000 -1.0673442855E+001 -1.3616090654E+002 -4.4875505804E+001 -1.3192865335E+002 -9.2477649839E+001 -3.4903394569E+001 -2.2713568698E+001 -9.4629186730E+001
3887500000.000 -1.0479196460E+001 -1.3590279040E+002 -4.4851051274E+001 -1.6539560137E+002 -7.7927878902E+001 +1.2853507601E+002 -2.5042158723E+001 -8.7628608073E+001
4020000000.000 -1.0289960378E+001 -1.3565187573E+002 -4.4794842337E+001 +1.5944811997E+002 -8.3651086651E+001 -1.4452824214E+002 -2.6663136878E+001 -7.3370862027E+001
4152500000.000 -1.0082111040E+001 -1.3527332835E+002 -4.4886136498E+001 +1.2475141014E+002 -8.4616052563E+001 -7.0696843148E+001 -2.8862149600E+001 -6.4727074946E+001
4285000000.000 -9.8811040376E+000 -1.3508966770E+002 -4.5132566049E+001 +8.9871738966E+001 -8.5330955695E+001 +8.1572958748E+001 -3.3364991137E+001 -3.7530722841E+001
4417500000.000 -9.6861329464E+000 -1.3508296352E+002 -4.5263763214E+001 +5.6309932474E+001 -8.8956801258E+001 -8.6963774266E+001 -3.1715469252E+001 +8.1982807478E+000
4550000000.000 -9.5318617746E+000 -1.3488608099E+002 -4.5341698317E+001 +2.1655022082E+001 -1.1474663921E+002 -1.4640187885E+002 -3.0327947113E+001 +1.8279470026E+001
4682500000.000 -9.3503316177E+000 -1.3458821182E+002 -4.5297237408E+001 -1.0679878826E+001 -8.2783368307E+001 +1.3865069154E+001 -2.9647841260E+001 +3.8795334980E+001
4815000000.000 -9.1633184819E+000 -1.3449933381E+002 -4.5410924769E+001 -4.4179653767E+001 -8.8434848513E+001 +1.3427457391E+002 -2.7628342005E+001 +4.1326334795E+001
4947500000.000 -9.0161900956E+000 -1.3444490013E+002 -4.5452164830E+001 -7.8405510614E+001 -8.5125894276E+001 -6.4173808209E+001 -2.9375281170E+001 +3.5683106780E+001
5080000000.000 -8.8742370274E+000 -1.3418426737E+002 -4.5367540089E+001 -1.1198493907E+002 -7.9821600624E+001 +5.0985865467E+001 -3.2256822827E+001 +5.6958097743E+001
5212500000.000 -8.7124923264E+000 -1.3406782680E+002 -4.5305120814E+001 -1.4680958216E+002 -8.8442533238E+001 -1.6619705428E+002 -3.1587089036E+001 +6.9522616038E+001
5345000000.000 -8.5674483474E+000 -1.3414129075E+002 -4.5124713753E+001 +1.7986199753E+002 -8.4461378777E+001 -1.7761271935E+002 -3.5299025932E+001 +7.1175837296E+001
5477500000.000 -8.4684878781E+000 -1.3403792128E+002 -4.5236476258E+001 +1.4543825194E+002 -9.4303981684E+001 -3.8693447687E+000 -3.7239930185E+001 +1.3171527481E+002
5610000000.000 -8.3335750563E+000 -1.3384778390E+002 -4.5089985492E+001 +1.1077811075E+002 -8.0096909226E+001 +1.0272218240E+002 -3.3676250337E+001 +1.3587686967E+002
5742500000.000 -8.1927118367E+000 -1.3398065491E+002 -4.5383988101E+001 +7.7159721437E+001 -9.2205133140E+001 -8.2026469156E+001 -3.7784662169E+001 +1.5252601916E+002
5875000000.000 -8.1017040260E+000 -1.3428825852E+002 -4.5299971139E+001 +4.3097126557E+001 -8.8031240609E+001 +7.3812999268E+000 -3.3795240202E+001 -1.7094574859E+002
6007500000.000 -8.0045851491E+000 -1.3428685004E+002 -4.5334239248E+001 +8.3732321040E+000 -8.6955301954E+001 +6.1650948262E+001 -3.2723138295E+001 +1.7947987434E+002
6140000000.000 -7.8738478996E+000 -1.3425923994E+002 -4.5259025330E+001 -2.6544904589E+001 -8.6028164024E+001 -1.3471751894E+002 -3.6171387093E+001 -1.6962108596E+002
6272500000.000 -7.7326056808E+000 -1.3461150895E+002 -4.5373644698E+001 -6.1018551673E+001 -8.8330123919E+001 -7.8429576866E+001 -3.3870400309E+001 -1.4446357675E+002
6405000000.000 -7.6510018285E+000 -1.3508950128E+002 -4.5496722175E+001 -9.5652494750E+001 -8.6591714223E+001 +4.9356179065E+001 -3.3860041205E+001 -1.6213942144E+002
6537500000.000 -7.5567729275E+000 -1.3503393862E+002 -4.5462573656E+001 -1.2960415426E+002 -8.4301471424E+001 +6.4526716878E+001 -4.0180494515E+001 -1.6102431631E+002
6670000000.000 -7.4121356150E+000 -1.3499274388E+002 -4.5644293402E+001 -1.6304364932E+002 -8.5694481559E+001 -2.7922172898E+001 -3.9399504930E+001 -1.3765650924E+002
6802500000.000 -7.2728470455E+000 -1.3544843979E+002 -4.5628333788E+001 +1.6264940264E+002 -8.2844827627E+001 -8.9837121273E+000 -3.8834127357E+001 +1.7907784241E+002
6935000000.000 -7.2007454522E+000 -1.3586824456E+002 -4.5700321272E+001 +1.2807913878E+002 -9.1224646107E+001 +1.5028620637E+002 -3.8554131015E+001 +1.2239082614E+002
7067500000.000 -7.1257688935E+000 -1.3573439503E+002 -4.5796460026E+001 +9.4410753309E+001 -8.7126136986E+001 -7.2208228449E+001 -3.8962215038E+001 +1.1469877401E+002
7200000000.000 -6.9840735885E+000 -1.3574047135E+002 -4.5947878585E+001 +5.9802458731E+001 -8.5521517255E+001 -5.0123987754E+001 -3.2854569174E+001 +1.3173619304E+002
7332500000.000 -6.8639331125E+000 -1.3619360294E+002 -4.5932894717E+001 +2.5959057233E+001 -8.3693277829E+001 +1.1356262561E+002 -2.9059056642E+001 +1.1910098865E+002
7465000000.000 -6.7872527293E+000 -1.3641950683E+002 -4.5886616039E+001 -7.6088655358E+000 -9.1880424928E+001 -1.3634985638E+002 -2.8633192386E+001 +1.2238377943E+002
7597500000.000 -6.6998833717E+000 -1.3635180273E+002 -4.6073952965E+001 -4.1919580970E+001 -1.0188405295E+002 +6.8460159864E+001 -2.6140419961E+001 +1.3753774261E+002
7730000000.000 -6.5669899513E+000 -1.3638132147E+002 -4.6058178510E+001 -7.5446657045E+001 -8.2372708125E+001 +5.5251094937E+001 -2.3722908316E+001 +1.3799907074E+002
7862500000.000 -6.4713763738E+000 -1.3660719524E+002 -4.6233020820E+001 -1.0918751584E+002 -8.0073363541E+001 -1.3519330384E+002 -2.3271162437E+001 +1.4164338857E+002
7995000000.000 -6.4085689580E+000 -1.3666028237E+002 -4.6197250176E+001 -1.4332360439E+002 -9.0921969771E+001 -9.4573846444E+001 -2.1848319350E+001 +1.5430926563E+002
8127500000.000 -6.3045250211E+000 -1.3646415091E+002 -4.6111964690E+001 -1.7648308302E+002 -9.1401719199E+001 +4.0360834924E+001 -2.0030868841E+001 +1.5656667820E+002
8260000000.000 -6.1990879495E+000 -1.3667500029E+002 -4.6313279513E+001 +1.4878957913E+002 -8.7822198495E+001 +4.9264244578E+001 -1.9857868992E+001 +1.6026011677E+002
8392500000.000 -6.1434061403E+000 -1.3671071203E+002 -4.6356429996E+001 +1.1553757674E+002 -8.6754973118E+001 -4.5387616032E+001 -1.9069367956E+001 +1.7041823711E+002
8525000000.000 -6.0807987519E+000 -1.3659753570E+002 -4.6156597821E+001 +8.1223876625E+001 -8.4344492325E+001 +8.7938762890E+001 -1.8208893245E+001 +1.7302034755E+002
8657500000.000 -5.9959091075E+000 -1.3654376090E+002 -4.6144208701E+001 +4.7204066745E+001 -8.2475079624E+001 +1.6366747898E+002 -1.8565745598E+001 +1.7799466968E+002
8790000000.000 -5.9115622005E+000 -1.3668762774E+002 -4.6430781427E+001 +1.3270696475E+001 -1.0117415179E+002 -8.6050821173E+001 -1.8360029828E+001 -1.7168282196E+002
8922500000.000 -5.8778361270E+000 -1.3686360924E+002 -4.6410258278E+001 -2.0765068757E+001 -8.7059984223E+001 -6.2478440175E+001 -1.7989067159E+001 -1.6597847558E+002
9055000000.000 -5.8133505241E+000 -1.3682083116E+002 -4.6329876152E+001 -5.4754243770E+001 -9.2738576441E+001 +1.0591521465E+002 -1.8459286253E+001 -1.5837465772E+002
9187500000.000 -5.7490310608E+000 -1.3691530049E+002 -4.6424017619E+001 -8.9238696152E+001 -9.4930940044E+001 -6.2694710379E+001 -1.8391049586E+001 -1.4627568154E+002
9320000000.000 -5.6768853785E+000 -1.3737753331E+002 -4.6453054277E+001 -1.2388041296E+002 -8.6398201522E+001 -2.6154300046E+001 -1.8208078312E+001 -1.3965118026E+002
9452500000.000 -5.6361518590E+000 -1.3758070177E+002 -4.6532528222E+001 -1.5687789362E+002 -8.4380414197E+001 +6.4063244828E+001 -1.8857824603E+001 -1.3065014103E+002
9585000000.000 -5.5789829729E+000 -1.3772139232E+002 -4.6583280239E+001 +1.6963049535E+002 -9.1450784256E+001 -1.1240909614E+002 -1.8801966684E+001 -1.1822660413E+002
9717500000.000 -5.4867477868E+000 -1.3790914524E+002 -4.6640570869E+001 +1.3462757075E+002 -8.5415678585E+001 +3.1570811236E+000 -1.8804779925E+001 -1.1109330420E+002
9850000000.000 -5.4366127841E+000 -1.3850602771E+002 -4.6670972519E+001 +1.0081446245E+002 -8.0588298584E+001 +3.7816890614E+001 -1.9658550240E+001 -1.0065876907E+002
9982500000.000 -5.3985780483E+000 -1.3850798617E+002 -4.6753963230E+001 +6.7012195423E+001 -8.8033927057E+001 +1.0496314145E+002 -1.9712852399E+001 -8.6398603818E+001
10115000000.000 -5.3284057301E+000 -1.3860097533E+002 -4.6730468775E+001 +3.3690067526E+001 -8.0997900940E+001 -6.4762812104E+001 -1.9916990803E+001 -7.9024203142E+001
10247500000.000 -5.2459949762E+000 -1.3898514109E+002 -4.6888133489E+001 -2.0529541224E-001 -8.8539244635E+001 +4.9228386202E+001 -2.1145667971E+001 -6.6007632286E+001
10380000000.000 -5.2060439872E+000 -1.3932687155E+002 -4.6853237873E+001 -3.5833048480E+001 -8.6328071350E+001 +1.0977490754E+002 -2.1087411334E+001 -4.9748804405E+001
10512500000.000 -5.1649118381E+000 -1.3947157469E+002 -4.6832835220E+001 -6.9178514757E+001 -9.2698392350E+001 -5.0718530254E+001 -2.1499196018E+001 -4.1668267708E+001
10645000000.000 -5.1030841858E+000 -1.3958709512E+002 -4.6930405642E+001 -1.0375958238E+002 -9.0498286945E+001 -6.5710881773E+000 -2.2817855824E+001 -2.3889738120E+001
10777500000.000 -5.0328270618E+000 -1.3985454860E+002 -4.6950646589E+001 -1.3673010359E+002 -8.3989226106E+001 +1.1262584257E+002 -2.2228161847E+001 -5.8320198362E+000
10910000000.000 -4.9773888367E+000 -1.4014717647E+002 -4.7073009670E+001 -1.7134739193E+002 -8.2881385558E+001 -1.1994666383E+002 -2.2783794075E+001 +4.4795434633E+000
11042500000.000 -4.9206598921E+000 -1.4034985987E+002 -4.7119084527E+001 +1.5468847968E+002 -8.7606256752E+001 +2.8458134186E+001 -2.3439425085E+001 +2.7530904497E+001
11175000000.000 -4.8580520356E+000 -1.4037106832E+002 -4.6986928909E+001 +1.2072286096E+002 -8.2487348198E+001 +1.2088820513E+002 -2.2281978452E+001 +4.2759435750E+001
11307500000.000 -4.8101941411E+000 -1.4048948327E+002 -4.6955386732E+001 +8.7976309882E+001 -8.5931290449E+001 -1.3757922817E+002 -2.2737948283E+001 +5.3323017716E+001
11440000000.000 -4.7478561085E+000 -1.4068615390E+002 -4.7178466370E+001 +5.2462051290E+001 -9.9560444259E+001 -5.8973543916E+000 -2.2561372574E+001 +7.5773675432E+001
11572500000.000 -4.7058315231E+000 -1.4058814069E+002 -4.7090883102E+001 +1.9284212524E+001 -8.8311563226E+001 +9.5359456075E+001 -2.1177860786E+001 +8.7112720143E+001
11705000000.000 -4.6606262443E+000 -1.4063127549E+002 -4.7212145606E+001 -1.5409035806E+001 -8.4218960148E+001 +1.4607467731E+002 -2.1772814829E+001 +9.7137983106E+001
11837500000.000 -4.6083865691E+000 -1.4075158262E+002 -4.7360670471E+001 -4.8194647040E+001 -8.8987596860E+001 -7.9571308423E+001 -2.1125071740E+001 +1.1930205251E+002
11970000000.000 -4.5936331457E+000 -1.4088836541E+002 -4.7363789966E+001 -8.3576697456E+001 -8.7192651479E+001 -1.1872314402E+002 -1.9821348785E+001 +1.2554439824E+002
12102500000.000 -4.5764395105E+000 -1.4076091262E+002 -4.7226381438E+001 -1.1646117194E+002 -8.7297936427E+001 -1.5769719694E+002 -2.0744341520E+001 +1.3546304395E+002
12235000000.000 -4.5177565978E+000 -1.4109419497E+002 -4.7442058910E+001 -1.5075443047E+002 -8.9803664834E+001 -9.2782494387E+001 -1.9770779819E+001 +1.5465645665E+002
12367500000.000 -4.5138166888E+000 -1.4122838427E+002 -4.7419729527E+001 +1.7591072444E+002 -9.8369759281E+001 +3.2721540224E+001 -1.8881702305E+001 +1.5798841356E+002
12500000000.000 -4.4845927438E+000 -1.4154200510E+002 -4.7509449387E+001 +1.4034951092E+002 -8.5795970254E+001 -1.5827390647E+002 -2.0066109595E+001 +1.6805167920E+002
12632500000.000 -4.4530194026E+000 -1.4153374936E+002 -4.7634155976E+001 +1.0702412071E+002 -9.7741913918E+001 -8.9631748535E+001 -1.9175349068E+001 -1.7296176698E+002
12765000000.000 -4.4199727952E+000 -1.4174900560E+002 -4.7596937876E+001 +7.3666287632E+001 -8.1171683394E+001 +9.4967307229E+001 -1.8514096562E+001 -1.7124599527E+002
12897500000.000 -4.4037249159E+000 -1.4201960488E+002 -4.7506675800E+001 +3.7915785212E+001 -9.3931276997E+001 +6.5520252243E+001 -2.0130798134E+001 -1.5955510370E+002
13030000000.000 -4.3870573526E+000 -1.4218054350E+002 -4.7841480161E+001 +5.5376009819E+000 -8.4635751125E+001 -7.8127931828E+001 -1.8853434189E+001 -1.4155048183E+002
13162500000.000 -4.3515407710E+000 -1.4223232733E+002 -4.7764081446E+001 -2.9029953500E+001 -1.0448707132E+002 -6.8036224669E+001 -1.8639959186E+001 -1.4153574470E+002
13295000000.000 -4.3170452991E+000 -1.4235000604E+002 -4.7805143489E+001 -6.2710189830E+001 -9.4648388356E+001 +1.3802628159E+002 -2.0033283769E+001 -1.2789018571E+002
13427500000.000 -4.2996847637E+000 -1.4271272991E+002 -4.7796038894E+001 -9.6061110400E+001 -8.4824937397E+001 +1.7932668515E+002 -1.8871229656E+001 -1.1424174737E+002
13560000000.000 -4.3004978237E+000 -1.4274109249E+002 -4.7658550682E+001 -1.3067089325E+002 -8.6338520121E+001 -3.2563413632E+000 -1.9054730261E+001 -1.1462549531E+002
13692500000.000 -4.2619357019E+000 -1.4275652520E+002 -4.7883184938E+001 -1.6453940708E+002 -8.9051669298E+001 +1.0027913631E+002 -2.0821217550E+001 -1.0131417280E+002
13825000000.000 -4.2166708374E+000 -1.4301105477E+002 -4.7782367296E+001 +1.6083432183E+002 -7.7566200027E+001 +1.2916333114E+002 -1.9738147464E+001 -8.7702608970E+001
13957500000.000 -4.2093870052E+000 -1.4335919795E+002 -4.8061408441E+001 +1.2562886698E+002 -9.1996208097E+001 +5.8566106043E+001 -2.0400887325E+001 -9.0009155605E+001
14090000000.000 -4.1959296956E+000 -1.4341808394E+002 -4.8036117360E+001 +9.3951824092E+001 -8.5201009536E+001 +5.2459236803E+001 -2.2653176426E+001 -7.2574481322E+001
14222500000.000 -4.1618689575E+000 -1.4328905768E+002 -4.8090213169E+001 +5.8568872975E+001 -8.2008153987E+001 +1.5766916667E+002 -2.1281116927E+001 -5.9392026958E+001
14355000000.000 -4.1068430155E+000 -1.4358628628E+002 -4.8127598835E+001 +2.5576149860E+001 -8.1853532544E+001 -8.9017067661E+001 -2.2499416161E+001 -6.3743849575E+001
14487500000.000 -4.0811415185E+000 -1.4368676193E+002 -4.7973463061E+001 -7.0579759811E+000 -8.6898106983E+001 -4.9095966515E+001 -2.5568006702E+001 -4.0204560692E+001
14620000000.000 -4.0716483335E+000 -1.4362523805E+002 -4.8414815219E+001 -4.1780147777E+001 -8.8608374466E+001 -5.6660809713E+001 -2.3264627890E+001 -2.7271790683E+001
14752500000.000 -4.0043417631E+000 -1.4342732816E+002 -4.8164359202E+001 -7.7300511604E+001 -8.0064708144E+001 -1.1616017813E+002 -2.5367463025E+001 -3.6887738208E+001
14885000000.000 -3.9601238024E+000 -1.4346112869E+002 -4.8113636585E+001 -1.0977905402E+002 -7.8881438149E+001 -5.9359675903E+001 -2.9027098568E+001 +2.5590712910E+000
15017500000.000 -3.9452390457E+000 -1.4347212812E+002 -4.8335056885E+001 -1.4485430286E+002 -8.6162765813E+001 -1.7714572084E+002 -2.5368500756E+001 +9.4096557589E+000
15150000000.000 -3.9155374021E+000 -1.4324097673E+002 -4.8527556104E+001 -1.7873466561E+002 -8.0077375391E+001 -1.0200090165E+002 -2.9026931002E+001 -2.7817135176E+000
15282500000.000 -3.8829942293E+000 -1.4308690277E+002 -4.8464373408E+001 +1.4771509371E+002 -8.0119354321E+001 -8.4164519607E+001 -3.1290566710E+001 +5.8343116627E+001
