!  2-Port S-parameters saved by WinCal
! VAR MeasName=S-Parameters (CALIBRATED_DATA) read from VNA (C)
! VAR MeasDate=10/16/2015 1:42:19 PM
! VAR NAME=M6082_13_17_2_2_20C_2.5mA_-17.5dBm
! VAR FILENAME=M6082_13_17_2_2_20C_2.5mA_-17.5dBm.S2P
! VAR DATE=10/16/2015 1:42:19 PM
! VAR PHYS_PORTS=2,1
! VAR ObjTypeName=DATASET
! VAR IndexType=Frequency
!
# Hz S DB R 50
45000000.000 -2.2662233329E+001 -6.5629054492E-001 -4.2929329968E+001 +9.6642860325E+001 -6.0511492857E+001 +1.6196163469E+001 -3.0763220333E+001 +3.9348019735E+000
177500000.000 -2.2610575328E+001 -7.9247061054E+000 -4.4490624094E+001 +6.8766930894E+001 -7.5071872921E+001 +8.8177050466E+001 -3.2909421992E+001 +4.6889351043E+001
310000000.000 -2.2473456156E+001 -1.4160983160E+001 -4.4479298402E+001 +3.5940074377E+001 -7.6836004523E+001 -1.5059426709E+002 -2.3338105277E+001 +6.4544659127E+001
442500000.000 -2.2248843949E+001 -2.0299534281E+001 -4.3528505331E+001 -2.7222143695E+000 -8.2773866707E+001 -4.8153618080E+001 -2.2399180863E+001 +1.7230453278E+001
575000000.000 -2.1975233861E+001 -2.6384675716E+001 -4.3867267248E+001 -3.7600832520E+001 -9.0012887222E+001 -6.8434577032E+001 -3.0635063299E+001 +2.2601275098E+001
707500000.000 -2.1673673265E+001 -3.1697782327E+001 -4.4041628041E+001 -7.2143609980E+001 -8.7571335014E+001 -1.6535540203E+002 -3.4527320030E+001 +8.3818877987E+001
840000000.000 -2.1255324622E+001 -3.6787566020E+001 -4.4084060328E+001 -1.0647750143E+002 -9.4032113784E+001 +1.1915339838E+001 -2.9693106314E+001 +1.2735126814E+002
972500000.000 -2.0823153622E+001 -4.1209886282E+001 -4.4281037046E+001 -1.4089420913E+002 -8.6942679976E+001 +1.0011123663E+002 -2.5939319816E+001 +1.3523119681E+002
1105000000.000 -2.0406808595E+001 -4.5677009137E+001 -4.4318996228E+001 -1.7423599351E+002 -8.4042535237E+001 -8.3869285934E+001 -2.4358092783E+001 +1.4081701379E+002
1237500000.000 -2.0009338603E+001 -4.9455662930E+001 -4.4355553525E+001 +1.5101944236E+002 -8.2747079163E+001 -3.6471333397E+001 -2.3392602206E+001 +1.4995002861E+002
1370000000.000 -1.9589603627E+001 -5.2959566054E+001 -4.4332939877E+001 +1.1681656747E+002 -8.7774977008E+001 +8.3755002089E+001 -2.2070022135E+001 +1.5995172219E+002
1502500000.000 -1.9172295382E+001 -5.6168852228E+001 -4.4358623847E+001 +8.2524039916E+001 -8.3740550790E+001 -1.4519935818E+002 -2.0862616870E+001 +1.6636362147E+002
1635000000.000 -1.8720288890E+001 -5.8770012179E+001 -4.4462294765E+001 +4.8255151264E+001 -8.4470524732E+001 -6.4757440322E+001 -2.0022972808E+001 +1.7326993511E+002
1767500000.000 -1.8282025917E+001 -6.1665355138E+001 -4.4433985277E+001 +1.3968899692E+001 -8.4130933839E+001 +9.6604907316E+001 -1.9016900666E+001 +1.7851453968E+002
1900000000.000 -1.7926875586E+001 -6.4067829938E+001 -4.4497233627E+001 -2.0761315154E+001 -8.0799299623E+001 -1.7600208341E+002 -1.8872027750E+001 -1.7827028377E+002
2032500000.000 -1.7575579779E+001 -6.6287975444E+001 -4.4496614846E+001 -5.5557121412E+001 -9.0272120142E+001 -5.3063591545E+001 -1.8684155252E+001 -1.6793043215E+002
2165000000.000 -1.7136814719E+001 -6.8210850041E+001 -4.4639047928E+001 -8.9827556234E+001 -8.1565478318E+001 +7.9208887014E+001 -1.7748264365E+001 -1.6099704553E+002
2297500000.000 -1.6806626739E+001 -7.0208755261E+001 -4.4557986093E+001 -1.2354215573E+002 -8.7578347565E+001 +1.3537649480E+001 -1.7239490305E+001 -1.5710508493E+002
2430000000.000 -1.6513535883E+001 -7.1937955667E+001 -4.4753362974E+001 -1.5754614508E+002 -9.5255629189E+001 +4.6624906645E+001 -1.6949273332E+001 -1.5287769476E+002
2562500000.000 -1.6150856894E+001 -7.3518759636E+001 -4.4717657045E+001 +1.6932603088E+002 -7.7050015547E+001 -1.9867285232E+001 -1.6839888910E+001 -1.5046350855E+002
2695000000.000 -1.5896513369E+001 -7.5577718541E+001 -4.4725956181E+001 +1.3478196918E+002 -8.0865926240E+001 +1.4762991131E+002 -1.7370467274E+001 -1.4717745471E+002
2827500000.000 -1.5675831641E+001 -7.7097393509E+001 -4.4946925975E+001 +9.9564331919E+001 -7.9014599898E+001 -1.7241102304E+002 -1.7846883867E+001 -1.4032328779E+002
2960000000.000 -1.5400644026E+001 -7.8222575681E+001 -4.4677460186E+001 +6.5780365727E+001 -8.2649897339E+001 -3.8305236181E+001 -1.8159675591E+001 -1.3549266654E+002
3092500000.000 -1.5071477168E+001 -7.9899988667E+001 -4.4621967753E+001 +3.1718423509E+001 -7.7381841283E+001 +6.6440239338E+001 -1.9074359915E+001 -1.2935880197E+002
3225000000.000 -1.4821558166E+001 -8.1769429624E+001 -4.4496946662E+001 -1.5934955471E+000 -8.6764353051E+001 -4.9076128067E+001 -1.9584498594E+001 -1.1970585764E+002
3357500000.000 -1.4642091288E+001 -8.2966857186E+001 -4.4850890873E+001 -3.5735594202E+001 -7.8353246254E+001 +4.5269593635E+000 -1.9957916174E+001 -1.1423081977E+002
3490000000.000 -1.4328651945E+001 -8.4036965283E+001 -4.4685344551E+001 -6.9216641822E+001 -8.4819275726E+001 +1.0754030773E+002 -2.1121686370E+001 -1.0861740381E+002
3622500000.000 -1.4033595336E+001 -8.5360922494E+001 -4.4493375654E+001 -1.0515844572E+002 -7.9827962110E+001 -1.4946761350E+002 -2.1938897373E+001 -9.8208542565E+001
3755000000.000 -1.3766454960E+001 -8.6794971455E+001 -4.4505887149E+001 -1.3800664677E+002 -7.7462769743E+001 -1.3417504107E+002 -2.2714675463E+001 -9.4686729655E+001
3887500000.000 -1.3540385579E+001 -8.7794766408E+001 -4.4342458445E+001 -1.7319622326E+002 -8.3948277127E+001 +1.2347555444E+002 -2.5027024503E+001 -8.7870750537E+001
4020000000.000 -1.3312917979E+001 -8.8720584005E+001 -4.4200060565E+001 +1.5224393583E+002 -8.1623953398E+001 -1.7999228028E+002 -2.6665227906E+001 -7.3285648855E+001
4152500000.000 -1.3047978689E+001 -8.9595533583E+001 -4.4124360776E+001 +1.1684301220E+002 -8.0708264084E+001 -4.6044782061E+001 -2.8872483927E+001 -6.4772060128E+001
4285000000.000 -1.2814920075E+001 -9.0539031598E+001 -4.4167171654E+001 +8.2590001833E+001 -8.1628062095E+001 +1.0369219819E+002 -3.3320848405E+001 -3.7588665957E+001
4417500000.000 -1.2594265823E+001 -9.1638226884E+001 -4.4253823312E+001 +4.7488183520E+001 -8.1284912723E+001 +1.2030293045E+002 -3.1731343405E+001 +7.9705294200E+000
4550000000.000 -1.2400012703E+001 -9.2282088621E+001 -4.4187680981E+001 +1.3193269488E+001 -8.6339072635E+001 -5.1093987356E+001 -3.0277198122E+001 +1.7990970564E+001
4682500000.000 -1.2152057372E+001 -9.2969504810E+001 -4.4174682241E+001 -2.1497448331E+001 -8.0285136087E+001 -3.9158976348E+000 -2.9676371963E+001 +3.8786681358E+001
4815000000.000 -1.1943025876E+001 -9.3892967028E+001 -4.4175607741E+001 -5.4798757112E+001 -8.4076545527E+001 +1.0455813069E+002 -2.7643852224E+001 +4.1221740910E+001
4947500000.000 -1.1773188772E+001 -9.4514433232E+001 -4.4104650611E+001 -8.8842932486E+001 -1.0533007740E+002 -1.0173230468E+002 -2.9362064411E+001 +3.5664034732E+001
5080000000.000 -1.1576541279E+001 -9.4945331441E+001 -4.3939684336E+001 -1.2340622073E+002 -1.0409972603E+002 -1.6838010517E+002 -3.2257717610E+001 +5.6930195577E+001
5212500000.000 -1.1378418507E+001 -9.5624188332E+001 -4.3790710419E+001 -1.5826295454E+002 -9.4533503457E+001 +1.7523399667E+002 -3.1577153329E+001 +6.9347923141E+001
5345000000.000 -1.1235129214E+001 -9.6348990724E+001 -4.3674867739E+001 +1.6721015415E+002 -8.4107653946E+001 -1.6947397207E+002 -3.5378208564E+001 +7.1173287799E+001
5477500000.000 -1.1099672632E+001 -9.6594533050E+001 -4.3469978065E+001 +1.3249455640E+002 -8.3910525075E+001 -5.6355434785E+001 -3.7252035999E+001 +1.3183196262E+002
5610000000.000 -1.0911215942E+001 -9.7005812173E+001 -4.3339368979E+001 +9.6302966844E+001 -8.2677744528E+001 +7.6915016543E+001 -3.3702908046E+001 +1.3580002463E+002
5742500000.000 -1.0775437136E+001 -9.7731675164E+001 -4.3237980989E+001 +6.2160362177E+001 -8.3065877056E+001 -1.1892152783E+002 -3.7786558481E+001 +1.5274364487E+002
5875000000.000 -1.0695714874E+001 -9.8356298827E+001 -4.3084493820E+001 +2.7319679089E+001 -8.8429590764E+001 +1.0709610228E+002 -3.3774411128E+001 -1.7045389093E+002
6007500000.000 -1.0566440718E+001 -9.8631739573E+001 -4.2941678535E+001 -8.2645470669E+000 -8.5281774868E+001 +1.2563475906E+002 -3.2725001368E+001 +1.7953415247E+002
6140000000.000 -1.0397611006E+001 -9.9096907054E+001 -4.2912119616E+001 -4.4467822907E+001 -8.5137482839E+001 +1.1924768239E+002 -3.6167652322E+001 -1.6969169539E+002
6272500000.000 -1.0271552081E+001 -1.0006961391E+002 -4.2712578062E+001 -7.8781959772E+001 -8.3438068272E+001 -5.6233419713E+001 -3.3895770024E+001 -1.4437707801E+002
6405000000.000 -1.0196716124E+001 -1.0079025083E+002 -4.2611085301E+001 -1.1399302544E+002 -9.9809705480E+001 -1.4710481446E+001 -3.3849623103E+001 -1.6201446068E+002
6537500000.000 -1.0056452534E+001 -1.0095247633E+002 -4.2486562297E+001 -1.5144252302E+002 -8.2463192451E+001 +9.4002419978E+001 -4.0134229018E+001 -1.6103508603E+002
6670000000.000 -9.8742514973E+000 -1.0150552422E+002 -4.2453475142E+001 +1.7397335386E+002 -8.8372093003E+001 -8.0181176547E+001 -3.9458744183E+001 -1.3709697803E+002
6802500000.000 -9.7223466026E+000 -1.0251573809E+002 -4.2346339901E+001 +1.3763698298E+002 -8.8672835220E+001 -1.0282005820E+002 -3.8885162553E+001 +1.7933676165E+002
6935000000.000 -9.6210807987E+000 -1.0319338885E+002 -4.2286367661E+001 +9.9520762223E+001 -8.7990428626E+001 +9.3869649215E+001 -3.8571199288E+001 +1.2255029446E+002
7067500000.000 -9.5068258986E+000 -1.0329690646E+002 -4.2160866495E+001 +6.4035095992E+001 -8.4080319429E+001 -1.4373478200E+002 -3.8982780659E+001 +1.1463019226E+002
7200000000.000 -9.3304146205E+000 -1.0392760659E+002 -4.2055359377E+001 +2.9769568499E+001 -8.8237972581E+001 -6.8398124957E+001 -3.2869169267E+001 +1.3138495836E+002
7332500000.000 -9.1732864019E+000 -1.0491295838E+002 -4.2048776592E+001 -8.3829963416E+000 -8.8413399111E+001 +1.6374373125E+002 -2.9084939577E+001 +1.1901110209E+002
7465000000.000 -9.0703468114E+000 -1.0541241776E+002 -4.1949718013E+001 -4.4813810530E+001 -8.3524416898E+001 -1.7650057830E+002 -2.8639785957E+001 +1.2256025795E+002
7597500000.000 -8.9595196503E+000 -1.0570081717E+002 -4.1802527105E+001 -7.7587524667E+001 -8.8823280133E+001 -1.1765403633E+001 -2.6132186204E+001 +1.3756040897E+002
7730000000.000 -8.7457398864E+000 -1.0635429469E+002 -4.1854808263E+001 -1.1696137747E+002 -8.1390825764E+001 +5.0565532809E+001 -2.3731232955E+001 +1.3790207442E+002
7862500000.000 -8.5801239102E+000 -1.0711481159E+002 -4.1998950711E+001 -1.5719111846E+002 -8.4561345855E+001 +1.5503771783E+002 -2.3276553718E+001 +1.4153182903E+002
7995000000.000 -8.5264156888E+000 -1.0734066233E+002 -4.1750234181E+001 +1.7082722277E+002 -8.7407375021E+001 +2.6830442309E+001 -2.1841085946E+001 +1.5426624480E+002
8127500000.000 -8.3633337074E+000 -1.0762463369E+002 -4.1752715917E+001 +1.3522574494E+002 -8.6970240988E+001 +4.3769162866E+001 -2.0024707367E+001 +1.5644567551E+002
8260000000.000 -8.2017053477E+000 -1.0850815796E+002 -4.2031104066E+001 +9.4159642294E+001 -8.3183420898E+001 +1.2049427235E+002 -1.9871204857E+001 +1.6023767615E+002
8392500000.000 -8.1335173054E+000 -1.0876992556E+002 -4.1913016839E+001 +6.0746122855E+001 -8.7264026053E+001 +1.3177897738E+000 -1.9065117904E+001 +1.7044088139E+002
8525000000.000 -8.0433045661E+000 -1.0889279163E+002 -4.1897281827E+001 +2.6407720755E+001 -8.6325971090E+001 -1.7013493406E+001 -1.8210417354E+001 +1.7295639284E+002
8657500000.000 -7.9045965197E+000 -1.0949003586E+002 -4.2278009713E+001 -1.4193866757E+001 -1.0152339713E+002 -6.8436531862E+001 -1.8571414231E+001 +1.7795068696E+002
8790000000.000 -7.8026925171E+000 -1.1002639069E+002 -4.2355742982E+001 -4.9850333538E+001 -8.1553195813E+001 -6.1076043250E+001 -1.8354124604E+001 -1.7175430168E+002
8922500000.000 -7.7729407266E+000 -1.1030589829E+002 -4.2233782588E+001 -8.2970522910E+001 -9.6047446001E+001 -1.2211557760E+001 -1.7985046149E+001 -1.6602975142E+002
9055000000.000 -7.6797783738E+000 -1.1069179876E+002 -4.2577914502E+001 -1.2124745911E+002 -8.5906731126E+001 +1.5309578513E+002 -1.8463738076E+001 -1.5843392086E+002
9187500000.000 -7.6085190980E+000 -1.1115974417E+002 -4.2803484738E+001 -1.5801398302E+002 -8.5230592589E+001 -1.2259166628E+002 -1.8384635727E+001 -1.4636278092E+002
9320000000.000 -7.5533318325E+000 -1.1184401865E+002 -4.2650974697E+001 +1.6804117572E+002 -9.0617118119E+001 +4.3472816048E+001 -1.8211717398E+001 -1.3971245398E+002
9452500000.000 -7.5129058320E+000 -1.1227487931E+002 -4.2869707614E+001 +1.3294307795E+002 -8.9299686311E+001 +1.5353937601E+002 -1.8855685250E+001 -1.3060773662E+002
9585000000.000 -7.4485604960E+000 -1.1280646193E+002 -4.3251880936E+001 +9.5199464318E+001 -8.3181122637E+001 -1.6272457665E+002 -1.8799932250E+001 -1.1821940145E+002
9717500000.000 -7.3541919546E+000 -1.1335224694E+002 -4.3174170042E+001 +6.1392839778E+001 -8.4906497981E+001 +1.2708768702E+002 -1.8810971981E+001 -1.1113562928E+002
9850000000.000 -7.3286936192E+000 -1.1424813580E+002 -4.3458639291E+001 +2.5335919672E+001 -1.0112989995E+002 +9.5673402620E+001 -1.9655967250E+001 -1.0057861736E+002
9982500000.000 -7.2859954210E+000 -1.1452564800E+002 -4.3722057662E+001 -1.1128582185E+001 -8.3443685964E+001 -1.1687936100E+002 -1.9700243250E+001 -8.6456725565E+001
10115000000.000 -7.2091365782E+000 -1.1492847414E+002 -4.3923708113E+001 -4.4769337021E+001 -8.3610748213E+001 -1.0278878200E+002 -1.9917633095E+001 -7.9091740290E+001
10247500000.000 -7.1396502639E+000 -1.1570132538E+002 -4.3987959158E+001 -8.0453795173E+001 -9.2695616819E+001 +8.3260391217E+000 -2.1148380080E+001 -6.5931382992E+001
10380000000.000 -7.1120112881E+000 -1.1631501160E+002 -4.4526161156E+001 -1.1768536924E+002 -8.6257586709E+001 -1.6081937062E+002 -2.1067069699E+001 -4.9923567794E+001
10512500000.000 -7.0640897191E+000 -1.1667439245E+002 -4.4548682142E+001 -1.5237980414E+002 -8.5000741197E+001 -1.3735733805E+002 -2.1513564786E+001 -4.1948342208E+001
10645000000.000 -6.9997250367E+000 -1.1705608582E+002 -4.4798086883E+001 +1.7373843703E+002 -8.9540860213E+001 +1.4137243683E+002 -2.2825719448E+001 -2.3869701373E+001
10777500000.000 -6.9399655325E+000 -1.1762736312E+002 -4.5232613246E+001 +1.3786645811E+002 -8.4106010818E+001 +1.7897605271E+002 -2.2199440891E+001 -5.9372368744E+000
10910000000.000 -6.8921885228E+000 -1.1810318896E+002 -4.5484051588E+001 +1.0255973051E+002 -8.4354427628E+001 -1.0338115298E+002 -2.2783364532E+001 +4.1984673739E+000
11042500000.000 -6.8288619619E+000 -1.1856941367E+002 -4.5651593862E+001 +6.8470881386E+001 -7.8998928056E+001 +3.4637049488E+001 -2.3441949625E+001 +2.7534091231E+001
11175000000.000 -6.7640357487E+000 -1.1886052987E+002 -4.5955078996E+001 +3.3338859363E+001 -8.6600443524E+001 +1.0184917200E+002 -2.2248192352E+001 +4.2733075421E+001
11307500000.000 -6.7289955891E+000 -1.1917142730E+002 -4.6289651437E+001 -1.2541225888E+000 -8.3248902715E+001 +1.5212361697E+002 -2.2727915926E+001 +5.3196826568E+001
11440000000.000 -6.6597273774E+000 -1.1960154994E+002 -4.6588667119E+001 -3.5436467475E+001 -8.4646105033E+001 -2.1888029013E+000 -2.2583821685E+001 +7.5723934058E+001
11572500000.000 -6.6038002586E+000 -1.1966578966E+002 -4.6847127024E+001 -7.1466229406E+001 -8.5620979481E+001 +2.5704443819E+001 -2.1169409197E+001 +8.7002852824E+001
11705000000.000 -6.5644743421E+000 -1.1992359235E+002 -4.7079168480E+001 -1.0649734740E+002 -8.1040781244E+001 -1.1382543260E+002 -2.1775703795E+001 +9.6962046266E+001
11837500000.000 -6.5083717508E+000 -1.2023673362E+002 -4.7739800276E+001 -1.3996759886E+002 -8.9960736321E+001 +2.4007004783E+001 -2.1113762248E+001 +1.1923174328E+002
11970000000.000 -6.4977683248E+000 -1.2041852736E+002 -4.7707424031E+001 -1.7455746615E+002 -8.8059981483E+001 +1.5396973092E+002 -1.9816549216E+001 +1.2545608190E+002
12102500000.000 -6.4713667401E+000 -1.2033995382E+002 -4.7979875812E+001 +1.5258904775E+002 -8.0434839921E+001 -1.3001128980E+002 -2.0747791082E+001 +1.3534026023E+002
12235000000.000 -6.4192212761E+000 -1.2090661712E+002 -4.8278886306E+001 +1.1638282087E+002 -8.5614889894E+001 -6.6417044975E+001 -1.9773476932E+001 +1.5453015489E+002
12367500000.000 -6.4257959237E+000 -1.2095181729E+002 -4.8421467424E+001 +8.1906573786E+001 -8.4436533070E+001 +3.3068008847E+001 -1.8878324884E+001 +1.5787720446E+002
12500000000.000 -6.4020089739E+000 -1.2139145764E+002 -4.8980160432E+001 +4.7223737260E+001 -8.4638169295E+001 +1.4852236855E+002 -2.0061403781E+001 +1.6809649103E+002
12632500000.000 -6.3586441352E+000 -1.2147506745E+002 -4.9144791344E+001 +1.2030093965E+001 -9.0527274771E+001 -5.3832627405E+001 -1.9162586402E+001 -1.7304214110E+002
12765000000.000 -6.3436777407E+000 -1.2177050190E+002 -4.9303507591E+001 -2.1363115965E+001 -8.5502924306E+001 +4.6501749932E+001 -1.8515583034E+001 -1.7143270482E+002
12897500000.000 -6.3432371175E+000 -1.2212156733E+002 -4.9754430915E+001 -5.5471903796E+001 -8.8726136859E+001 +8.7346884190E+001 -2.0134984107E+001 -1.5950215419E+002
13030000000.000 -6.3294552542E+000 -1.2232361620E+002 -4.9937008192E+001 -9.1014301264E+001 -8.5633633725E+001 -1.4358779578E+002 -1.8833412921E+001 -1.4162102775E+002
13162500000.000 -6.2926503188E+000 -1.2252709491E+002 -5.0416993760E+001 -1.2467938813E+002 -8.9462592614E+001 -3.2247834189E+001 -1.8635049997E+001 -1.4171153431E+002
13295000000.000 -6.2608453426E+000 -1.2280758985E+002 -5.0645339611E+001 -1.5864011613E+002 -8.2333169973E+001 +8.9382919359E+001 -2.0031553090E+001 -1.2796194520E+002
13427500000.000 -6.2506582146E+000 -1.2331260288E+002 -5.0859358403E+001 +1.6787260069E+002 -9.8058816481E+001 -1.2823653867E+001 -1.8840955006E+001 -1.1422329769E+002
13560000000.000 -6.2556146434E+000 -1.2336420693E+002 -5.1425062410E+001 +1.3415776682E+002 -7.9869636841E+001 -8.2959482946E+001 -1.9040843135E+001 -1.1480111234E+002
13692500000.000 -6.2023780731E+000 -1.2347365998E+002 -5.1363894275E+001 +9.8226240320E+001 -8.4145537181E+001 +3.7713418390E+001 -2.0816784863E+001 -1.0137444677E+002
13825000000.000 -6.1505878625E+000 -1.2389632770E+002 -5.1567621862E+001 +6.3692958000E+001 -8.5073388359E+001 +1.5618267451E+002 -1.9716266112E+001 -8.7697806734E+001
13957500000.000 -6.1533459962E+000 -1.2430954772E+002 -5.2213229722E+001 +3.2031968519E+001 -8.2636416702E+001 +4.2229635985E+001 -2.0376924587E+001 -9.0200868808E+001
14090000000.000 -6.1393657671E+000 -1.2432821784E+002 -5.2190904120E+001 -6.2665231533E+000 -1.0052686754E+002 -6.8318089251E+001 -2.2659165747E+001 -7.2851220183E+001
14222500000.000 -6.0843385078E+000 -1.2426458408E+002 -5.2675807519E+001 -3.7697887607E+001 -8.0525312840E+001 -1.5911486754E+002 -2.1266386980E+001 -5.9381883118E+001
14355000000.000 -6.0372047679E+000 -1.2472019394E+002 -5.2828236492E+001 -6.9171231492E+001 -8.5287906430E+001 +7.1587384358E+001 -2.2486021533E+001 -6.3703030783E+001
14487500000.000 -6.0217141155E+000 -1.2494975749E+002 -5.3171930712E+001 -1.0318937985E+002 -9.5362069825E+001 -1.5762752233E+002 -2.5556999786E+001 -4.0376772160E+001
14620000000.000 -6.0052856833E+000 -1.2484859838E+002 -5.3937573063E+001 -1.3606229109E+002 -8.2010160081E+001 -1.5589847636E+002 -2.3265096490E+001 -2.7411343076E+001
14752500000.000 -5.9186310052E+000 -1.2488215931E+002 -5.3772555016E+001 -1.6782349235E+002 -7.8899727497E+001 -1.6012582130E+002 -2.5363026894E+001 -3.6774661433E+001
14885000000.000 -5.8810242757E+000 -1.2510422569E+002 -5.3577847218E+001 +1.5285016951E+002 -7.8770259996E+001 +2.8914605771E+001 -2.8947876592E+001 +2.4714667138E+000
15017500000.000 -5.8669023429E+000 -1.2512909387E+002 -5.3924045480E+001 +1.2103504705E+002 -8.6135518700E+001 +1.5543468334E+002 -2.5377707959E+001 +9.1256316663E+000
15150000000.000 -5.8066310490E+000 -1.2497147556E+002 -5.4019229259E+001 +8.7786589647E+001 -7.9981039013E+001 -1.5521920692E+002 -2.9094740349E+001 -2.5790914527E+000
15282500000.000 -5.7649772480E+000 -1.2488339021E+002 -5.4292402809E+001 +5.1198091604E+001 -8.6755571782E+001 +1.0945678553E+002 -3.1157848040E+001 +5.7884955926E+001
