!  2-Port S-parameters saved by WinCal
! VAR MeasName=S-Parameters (CALIBRATED_DATA) read from VNA (C)
! VAR MeasDate=10/16/2015 12:56:34 PM
! VAR NAME=M6082_13_15_2_2_20C_15.6mA_-17.5dBm
! VAR FILENAME=M6082_13_15_2_2_20C_15.6mA_-17.5dBm.S2P
! VAR DATE=10/16/2015 12:56:34 PM
! VAR PHYS_PORTS=2,1
! VAR ObjTypeName=DATASET
! VAR IndexType=Frequency
!
# Hz S DB R 50
45000000.000 -1.8952499244E+001 -1.7913978510E+002 -4.5552386951E+001 +1.0232383483E+002 -5.6872829273E+001 +6.1181263912E+000 -3.0668233102E+001 +7.9828426074E+000
177500000.000 -1.8969180768E+001 -1.7832655762E+002 -4.5481088119E+001 +7.3713914493E+001 -7.8381931631E+001 +6.8055151504E+001 -3.2730639853E+001 +4.6444097419E+001
310000000.000 -1.9003483528E+001 -1.7668331845E+002 -4.5648189327E+001 +4.0594481087E+001 -7.7200165584E+001 -8.1388799354E+001 -2.3377074625E+001 +6.4771761568E+001
442500000.000 -1.9043591201E+001 -1.7496793086E+002 -4.4554255298E+001 +2.2598040779E+000 -7.9686837189E+001 -1.8525446951E+001 -2.2390957399E+001 +1.7249800969E+001
575000000.000 -1.9012224441E+001 -1.7286143409E+002 -4.5014594979E+001 -3.4929227379E+001 -8.4805902183E+001 +1.0146207057E+002 -3.0664068380E+001 +2.2426600841E+001
707500000.000 -1.8984120891E+001 -1.7122560200E+002 -4.5324082725E+001 -6.8732391042E+001 -8.7768357942E+001 -9.3230505507E+001 -3.4562738622E+001 +8.3864056038E+001
840000000.000 -1.8977655543E+001 -1.6905092164E+002 -4.5477507918E+001 -1.0193558213E+002 -8.2858598344E+001 -4.7136777897E+001 -2.9686047568E+001 +1.2741220954E+002
972500000.000 -1.8960225122E+001 -1.6701962649E+002 -4.5535639010E+001 -1.3631187384E+002 -8.7716054693E+001 +9.1489416974E+001 -2.5965098873E+001 +1.3526720432E+002
1105000000.000 -1.8860871285E+001 -1.6506265549E+002 -4.5332253754E+001 -1.6976671509E+002 -8.4143824481E+001 -1.5769946536E+002 -2.4370011020E+001 +1.4083916002E+002
1237500000.000 -1.8774108691E+001 -1.6334129540E+002 -4.5532572439E+001 +1.5555497645E+002 -8.9694521898E+001 +1.3563473777E+002 -2.3404653033E+001 +1.4997127001E+002
1370000000.000 -1.8661974711E+001 -1.6170191663E+002 -4.5567656250E+001 +1.2229676223E+002 -7.9572222118E+001 +1.1754192475E+002 -2.2073076176E+001 +1.5995027685E+002
1502500000.000 -1.8578409236E+001 -1.6000627120E+002 -4.5571796632E+001 +8.8142017156E+001 -8.5376780799E+001 -1.5479296901E+002 -2.0866011179E+001 +1.6634327856E+002
1635000000.000 -1.8485633264E+001 -1.5790197998E+002 -4.5713393588E+001 +5.3851641635E+001 -8.7701240431E+001 -2.6331069228E+001 -2.0032740684E+001 +1.7331092671E+002
1767500000.000 -1.8340445589E+001 -1.5630828146E+002 -4.5582477868E+001 +2.0415884425E+001 -9.3010908033E+001 +7.6071417159E+001 -1.9024640354E+001 +1.7852494011E+002
1900000000.000 -1.8258381736E+001 -1.5488045855E+002 -4.5517813287E+001 -1.4617836692E+001 -8.2603122809E+001 -1.3323289550E+002 -1.8876003389E+001 -1.7824835791E+002
2032500000.000 -1.8127659178E+001 -1.5341052338E+002 -4.5733173467E+001 -4.9417053490E+001 -8.6809700654E+001 +2.1777102740E+001 -1.8687458232E+001 -1.6790655536E+002
2165000000.000 -1.8011301947E+001 -1.5160222743E+002 -4.5830964961E+001 -8.1965161186E+001 -8.8375023821E+001 +1.1043151340E+001 -1.7748922894E+001 -1.6095273038E+002
2297500000.000 -1.7892894961E+001 -1.5037891114E+002 -4.5875441963E+001 -1.1693874274E+002 -8.8914413613E+001 +1.3303682355E+002 -1.7249165393E+001 -1.5704353293E+002
2430000000.000 -1.7775649205E+001 -1.4898227517E+002 -4.5970713384E+001 -1.5116992681E+002 -7.9079555212E+001 -1.2115471981E+002 -1.6931308712E+001 -1.5284863708E+002
2562500000.000 -1.7606959664E+001 -1.4759587595E+002 -4.5871979144E+001 +1.7544289138E+002 -7.3532937566E+001 +9.5593177920E+000 -1.6838592094E+001 -1.5042994400E+002
2695000000.000 -1.7428893203E+001 -1.4699167084E+002 -4.5960772995E+001 +1.4185039318E+002 -8.4191859303E+001 +8.9785578454E+001 -1.7378924865E+001 -1.4716260805E+002
2827500000.000 -1.7311755953E+001 -1.4644427273E+002 -4.5868261296E+001 +1.0666633085E+002 -7.5449037310E+001 -9.7973515873E+001 -1.7852465534E+001 -1.4025278046E+002
2960000000.000 -1.7192259734E+001 -1.4526782723E+002 -4.5855132667E+001 +7.3250433262E+001 -7.9354267795E+001 +2.8170979659E+001 -1.8157245069E+001 -1.3546627657E+002
3092500000.000 -1.6975959624E+001 -1.4418159732E+002 -4.5849566850E+001 +4.0202065853E+001 -7.4080482122E+001 +1.3575738410E+002 -1.9086694778E+001 -1.2933398251E+002
3225000000.000 -1.6748406115E+001 -1.4366793818E+002 -4.6000050725E+001 +6.3308609211E+000 -8.5803458777E+001 -8.2301494999E+001 -1.9592236463E+001 -1.1960778866E+002
3357500000.000 -1.6623914665E+001 -1.4327887142E+002 -4.6155753769E+001 -2.7384127066E+001 -8.1608009321E+001 -1.1591014119E+001 -1.9959396981E+001 -1.1430442135E+002
3490000000.000 -1.6449784973E+001 -1.4211979378E+002 -4.6265254659E+001 -6.2340274237E+001 -9.3153063397E+001 +1.3481645378E+002 -2.1137599286E+001 -1.0847670672E+002
3622500000.000 -1.6225772248E+001 -1.4106830619E+002 -4.6111550210E+001 -9.4809496647E+001 -7.9668793380E+001 -1.5087974125E+002 -2.1957199808E+001 -9.8098737539E+001
3755000000.000 -1.5997934982E+001 -1.4038455032E+002 -4.6007970772E+001 -1.2784387845E+002 -7.8059621299E+001 -2.2598066350E+001 -2.2710484684E+001 -9.4546655530E+001
3887500000.000 -1.5844329151E+001 -1.3975528971E+002 -4.6038517809E+001 -1.6227670961E+002 -8.2398445541E+001 +5.2240242360E+001 -2.5057924304E+001 -8.7886651276E+001
4020000000.000 -1.5706079632E+001 -1.3900784048E+002 -4.6285959079E+001 +1.6396367753E+002 -7.9780038246E+001 -1.5537950942E+002 -2.6661126908E+001 -7.3138940000E+001
4152500000.000 -1.5523124976E+001 -1.3797077413E+002 -4.6016190633E+001 +1.3000328664E+002 -8.3173556629E+001 -1.6626475569E+001 -2.8869866193E+001 -6.4565354158E+001
4285000000.000 -1.5326366017E+001 -1.3737572600E+002 -4.6107088957E+001 +9.5358314846E+001 -8.0570452673E+001 +1.4945529225E+002 -3.3393416795E+001 -3.7272896804E+001
4417500000.000 -1.5154185698E+001 -1.3695725130E+002 -4.6185033363E+001 +6.0199517567E+001 -8.1873860406E+001 +1.6810574968E+002 -3.1728524484E+001 +8.0722573649E+000
4550000000.000 -1.5037483389E+001 -1.3625875752E+002 -4.6290368213E+001 +2.7864598321E+001 -8.6962643071E+001 -6.1535543373E+001 -3.0312077865E+001 +1.8469499493E+001
4682500000.000 -1.4857344528E+001 -1.3537275587E+002 -4.6347660081E+001 -6.6904459156E+000 -8.3933063119E+001 +5.0081270291E+000 -2.9640361473E+001 +3.8840786662E+001
4815000000.000 -1.4671319408E+001 -1.3485941357E+002 -4.6183651124E+001 -3.8657417053E+001 -8.5211559796E+001 +1.1506646908E+002 -2.7633469692E+001 +4.1478918090E+001
4947500000.000 -1.4555281284E+001 -1.3430968301E+002 -4.6361799023E+001 -7.2038603792E+001 -8.7728854574E+001 -1.5191253442E+002 -2.9373908924E+001 +3.6093331251E+001
5080000000.000 -1.4432573818E+001 -1.3349530564E+002 -4.6138412777E+001 -1.0601539031E+002 -9.8601084520E+001 +1.3312070166E+002 -3.2183086618E+001 +5.7525740629E+001
5212500000.000 -1.4270136711E+001 -1.3284365115E+002 -4.6260448946E+001 -1.3875515644E+002 -8.2064289408E+001 +1.5116441922E+002 -3.1516656555E+001 +6.9802780219E+001
5345000000.000 -1.4135878292E+001 -1.3260272284E+002 -4.6019311031E+001 -1.7387760912E+002 -8.7301785730E+001 -1.5269262788E+002 -3.5263448562E+001 +7.1693256329E+001
5477500000.000 -1.4077294725E+001 -1.3193972973E+002 -4.5979734260E+001 +1.5220295835E+002 -8.8277363114E+001 +6.3621980188E+000 -3.7141200334E+001 +1.3193899247E+002
5610000000.000 -1.3944898000E+001 -1.3118879229E+002 -4.6017424015E+001 +1.1800886890E+002 -8.1584641011E+001 +5.5390550378E+001 -3.3606063327E+001 +1.3561255791E+002
5742500000.000 -1.3816124862E+001 -1.3106102278E+002 -4.5873732036E+001 +8.3266152374E+001 -8.5116723892E+001 -1.3792414510E+002 -3.7651675095E+001 +1.5293798574E+002
5875000000.000 -1.3752839101E+001 -1.3113644713E+002 -4.5935525081E+001 +4.9059038584E+001 -8.4058368663E+001 -5.8343524630E+001 -3.3718339265E+001 -1.7049975868E+002
6007500000.000 -1.3692677776E+001 -1.3061895616E+002 -4.5988585158E+001 +1.5299285111E+001 -8.3744439281E+001 +1.1378388997E+002 -3.2624047575E+001 +1.7946707486E+002
6140000000.000 -1.3542078855E+001 -1.3012383335E+002 -4.5967045930E+001 -1.8736335565E+001 -1.0293058720E+002 -4.4686723626E+001 -3.6070444747E+001 -1.6975997160E+002
6272500000.000 -1.3380998391E+001 -1.3041917629E+002 -4.5928643202E+001 -5.3325281281E+001 -8.4822140145E+001 -8.2339007402E+001 -3.3849621655E+001 -1.4432308722E+002
6405000000.000 -1.3330999722E+001 -1.3076344627E+002 -4.5994729387E+001 -8.7315927235E+001 -8.8757117302E+001 +9.7695855154E+000 -3.3763636980E+001 -1.6183894963E+002
6537500000.000 -1.3255558260E+001 -1.3016113868E+002 -4.6079744536E+001 -1.2103263182E+002 -8.3118362967E+001 +1.6187143246E+002 -4.0017132467E+001 -1.6046991956E+002
6670000000.000 -1.3057749304E+001 -1.2970666387E+002 -4.6012918053E+001 -1.5559128692E+002 -8.7215580383E+001 -7.5715451822E+001 -3.9328650898E+001 -1.3704789758E+002
6802500000.000 -1.2885416633E+001 -1.3011324252E+002 -4.6138397355E+001 +1.7018164395E+002 -9.7505059640E+001 -3.8790494679E+001 -3.8906888578E+001 -1.7990604888E+002
6935000000.000 -1.2843942150E+001 -1.3038287550E+002 -4.6164814055E+001 +1.3648904056E+002 -9.0919436215E+001 +6.9351304704E+001 -3.8698878539E+001 +1.2314406204E+002
7067500000.000 -1.2758691912E+001 -1.2972314167E+002 -4.6115878572E+001 +1.0287784820E+002 -9.1635022846E+001 -1.1417861415E+002 -3.9051107347E+001 +1.1475957330E+002
7200000000.000 -1.2556671274E+001 -1.2947582989E+002 -4.6241130437E+001 +6.8675784110E+001 -8.6400834525E+001 +1.2737253408E+002 -3.2917195072E+001 +1.3153616592E+002
7332500000.000 -1.2410288041E+001 -1.2983920867E+002 -4.6259032061E+001 +3.4609905232E+001 -8.4029122995E+001 +1.3878406058E+002 -2.9124139232E+001 +1.1891728664E+002
7465000000.000 -1.2339609254E+001 -1.2976293807E+002 -4.6230447178E+001 +7.8651144403E-001 -8.1800068806E+001 -7.0948884127E+001 -2.8658379974E+001 +1.2240339822E+002
7597500000.000 -1.2205730325E+001 -1.2929266671E+002 -4.6238253155E+001 -3.2177910248E+001 -9.8634908850E+001 +7.6449283617E+001 -2.6155226046E+001 +1.3742109954E+002
7730000000.000 -1.2029630547E+001 -1.2910105866E+002 -4.6486043850E+001 -6.6286281791E+001 -8.9758876341E+001 -1.6647247638E+002 -2.3730829911E+001 +1.3788410664E+002
7862500000.000 -1.1918847704E+001 -1.2901307255E+002 -4.6354846840E+001 -1.0019844091E+002 -8.3374829010E+001 -7.2461002496E+001 -2.3296968877E+001 +1.4162458276E+002
7995000000.000 -1.1845964069E+001 -1.2872041834E+002 -4.6393795024E+001 -1.3378284070E+002 -9.8648255390E+001 -1.7149463981E+002 -2.1837815876E+001 +1.5440846784E+002
8127500000.000 -1.1687997842E+001 -1.2807405946E+002 -4.6351631319E+001 -1.6783506981E+002 -8.9371171111E+001 +6.2764586502E+001 -2.0033419419E+001 +1.5647326449E+002
8260000000.000 -1.1556493254E+001 -1.2811385307E+002 -4.6367779402E+001 +1.5814790032E+002 -8.7635867201E+001 +1.5964132853E+002 -1.9872087623E+001 +1.6025389106E+002
8392500000.000 -1.1489635980E+001 -1.2774718209E+002 -4.6447002181E+001 +1.2286074389E+002 -8.1155350134E+001 -7.1226583417E+001 -1.9063076010E+001 +1.7052671012E+002
8525000000.000 -1.1411925462E+001 -1.2722639173E+002 -4.6328888181E+001 +9.0274587355E+001 -8.7446608016E+001 +3.9274187168E+001 -1.8210010681E+001 +1.7297822951E+002
8657500000.000 -1.1294790057E+001 -1.2684775491E+002 -4.6302090803E+001 +5.5734637966E+001 -8.7250269745E+001 +1.6695801473E+002 -1.8575626002E+001 +1.7800166743E+002
8790000000.000 -1.1186608655E+001 -1.2671840152E+002 -4.6249953498E+001 +2.1757132264E+001 -8.3201106570E+001 -1.3031363673E+002 -1.8357190127E+001 -1.7166727718E+002
8922500000.000 -1.1156944131E+001 -1.2659446966E+002 -4.6295203987E+001 -1.1695939279E+001 -8.8286631043E+001 -4.6959948155E+000 -1.7985943250E+001 -1.6598898011E+002
9055000000.000 -1.1074635161E+001 -1.2620783393E+002 -4.6376407816E+001 -4.6255993794E+001 -8.8653126477E+001 +4.4055818001E+001 -1.8457091275E+001 -1.5832330149E+002
9187500000.000 -1.0995891039E+001 -1.2607148291E+002 -4.6254081779E+001 -7.9523956263E+001 -9.2758940101E+001 -8.2805971679E+001 -1.8381813366E+001 -1.4625961698E+002
9320000000.000 -1.0919421904E+001 -1.2640981033E+002 -4.6215504576E+001 -1.1448534661E+002 -8.3051407678E+001 +1.3923077081E+002 -1.8210008212E+001 -1.3960300638E+002
9452500000.000 -1.0880711279E+001 -1.2631700201E+002 -4.6274593997E+001 -1.4837720124E+002 -9.2955652273E+001 +4.7702383318E+001 -1.8860920793E+001 -1.3045823795E+002
9585000000.000 -1.0806913934E+001 -1.2618484699E+002 -4.6253737762E+001 +1.7699296504E+002 -8.5821151331E+001 -1.5307205646E+002 -1.8791716405E+001 -1.1817954806E+002
9717500000.000 -1.0667985184E+001 -1.2633008033E+002 -4.6349526968E+001 +1.4338264254E+002 -8.8984313834E+001 -8.7742392512E+000 -1.8820468807E+001 -1.1107395175E+002
9850000000.000 -1.0622909026E+001 -1.2686781849E+002 -4.6406450679E+001 +1.0891545833E+002 -8.7751072855E+001 -1.1339116627E+002 -1.9658390558E+001 -1.0039995029E+002
9982500000.000 -1.0567963006E+001 -1.2654405174E+002 -4.6298796240E+001 +7.5652447578E+001 -8.2792715926E+001 +1.4859750763E+002 -1.9691372974E+001 -8.6333534343E+001
10115000000.000 -1.0458672629E+001 -1.2649741140E+002 -4.6419602650E+001 +4.1099276940E+001 -8.6894241125E+001 -7.6227658613E+001 -1.9926130267E+001 -7.8948476506E+001
10247500000.000 -1.0342587603E+001 -1.2692137606E+002 -4.6398893326E+001 +7.0722767229E+000 -8.0197411512E+001 +7.0623189211E+001 -2.1152268026E+001 -6.5690094589E+001
10380000000.000 -1.0290749335E+001 -1.2701569539E+002 -4.6357826698E+001 -2.6566321368E+001 -8.3663704592E+001 +1.2082310985E+002 -2.1055566444E+001 -4.9593057359E+001
10512500000.000 -1.0211284401E+001 -1.2701606726E+002 -4.6404253007E+001 -6.1091002888E+001 -1.0108636062E+002 -7.8703705566E+001 -2.1530117417E+001 -4.1689605962E+001
10645000000.000 -1.0125039001E+001 -1.2704940214E+002 -4.6370626240E+001 -9.4952615150E+001 -8.1665831844E+001 +6.2723775248E+001 -2.2834255250E+001 -2.3583589957E+001
10777500000.000 -1.0027019242E+001 -1.2719659176E+002 -4.6461163634E+001 -1.2797884326E+002 -8.2167594802E+001 +1.4235591180E+002 -2.2189364169E+001 -5.7013588334E+000
10910000000.000 -9.9362905560E+000 -1.2725467412E+002 -4.6520638602E+001 -1.6267428833E+002 -8.3528406319E+001 -2.4212989887E+001 -2.2784916292E+001 +4.5768033957E+000
11042500000.000 -9.8329287968E+000 -1.2742423840E+002 -4.6473247204E+001 +1.6392216008E+002 -8.4884219901E+001 -1.2036030696E+001 -2.3452854508E+001 +2.8045988130E+001
11175000000.000 -9.7287387667E+000 -1.2727613746E+002 -4.6306973700E+001 +1.3010130541E+002 -9.2434652822E+001 +1.2121348320E+002 -2.2252113099E+001 +4.3114869806E+001
11307500000.000 -9.6677504399E+000 -1.2721847904E+002 -4.6546439606E+001 +9.4526933421E+001 -8.9847682647E+001 -1.3806035989E+002 -2.2734565225E+001 +5.3481348610E+001
11440000000.000 -9.5605808703E+000 -1.2733510844E+002 -4.6327460949E+001 +6.1349784703E+001 -9.6984265701E+001 -6.7329228946E+001 -2.2573387222E+001 +7.6089939642E+001
11572500000.000 -9.4788334957E+000 -1.2699851859E+002 -4.6524301625E+001 +2.7398912836E+001 -8.6851645511E+001 +7.9856913602E+001 -2.1145354528E+001 +8.7333233704E+001
11705000000.000 -9.4063712303E+000 -1.2691792341E+002 -4.6495306488E+001 -7.3494252221E+000 -8.5846080280E+001 -1.7317027062E+002 -2.1762297941E+001 +9.7385698973E+001
11837500000.000 -9.3139338457E+000 -1.2695113704E+002 -4.6601247729E+001 -4.0516544667E+001 -8.3932462141E+001 -1.4169666393E+002 -2.1106636253E+001 +1.1955303797E+002
11970000000.000 -9.2915862154E+000 -1.2687550354E+002 -4.6678338460E+001 -7.5164638236E+001 -9.4264762964E+001 -5.4192770152E+001 -1.9813201781E+001 +1.2577714965E+002
12102500000.000 -9.2426782419E+000 -1.2639809410E+002 -4.6541132434E+001 -1.0901378557E+002 -8.4631502387E+001 +9.3091947191E+001 -2.0732523155E+001 +1.3568606365E+002
12235000000.000 -9.1539249879E+000 -1.2682675891E+002 -4.6633003484E+001 -1.4362614462E+002 -9.4589932541E+001 -1.1458182370E+002 -1.9753731682E+001 +1.5483178234E+002
12367500000.000 -9.1536298073E+000 -1.2664066760E+002 -4.6704185950E+001 -1.7779740184E+002 -8.5103765865E+001 +5.5161389583E+001 -1.8880569263E+001 +1.5816540908E+002
12500000000.000 -9.1062273891E+000 -1.2686291352E+002 -4.6570416099E+001 +1.4854256323E+002 -8.5020369344E+001 +1.7101303374E+002 -2.0058788343E+001 +1.6845745912E+002
12632500000.000 -9.0299833364E+000 -1.2668544646E+002 -4.6698296470E+001 +1.1378464176E+002 -8.2128854116E+001 +7.4515013393E+001 -1.9159315976E+001 -1.7274086514E+002
12765000000.000 -9.0041193816E+000 -1.2678608149E+002 -4.6776800336E+001 +7.9730610321E+001 -9.5940109813E+001 -4.6339530892E+001 -1.8525419276E+001 -1.7123448646E+002
12897500000.000 -8.9888698726E+000 -1.2700622920E+002 -4.6729526714E+001 +4.5728434613E+001 -8.1811945766E+001 +8.8077444349E+001 -2.0142430756E+001 -1.5919171362E+002
13030000000.000 -8.9545463506E+000 -1.2699245528E+002 -4.6690496638E+001 +1.2079710646E+001 -8.5100226486E+001 -1.4048055269E+002 -1.8839672425E+001 -1.4132914139E+002
13162500000.000 -8.8904908063E+000 -1.2701345310E+002 -4.6893770291E+001 -2.1828336829E+001 -8.9352739371E+001 -1.0088548196E+001 -1.8663428094E+001 -1.4146281605E+002
13295000000.000 -8.8317586554E+000 -1.2712800677E+002 -4.6959607457E+001 -5.6594446126E+001 -8.0635686988E+001 +1.0982143460E+002 -2.0069655112E+001 -1.2758377189E+002
13427500000.000 -8.8030234569E+000 -1.2757520095E+002 -4.6778179968E+001 -9.0551505898E+001 -8.1785940113E+001 -1.5538745787E+002 -1.8854686169E+001 -1.1397863290E+002
13560000000.000 -8.7957437392E+000 -1.2743212206E+002 -4.6766207879E+001 -1.2421230495E+002 -8.0692848163E+001 +4.3566310584E+001 -1.9056426057E+001 -1.1456808838E+002
13692500000.000 -8.7151687209E+000 -1.2727956183E+002 -4.6679112686E+001 -1.5751117485E+002 -8.1286433553E+001 +6.1097575249E+001 -2.0863414920E+001 -1.0112386944E+002
13825000000.000 -8.6242655833E+000 -1.2760614293E+002 -4.6979890024E+001 +1.6749204144E+002 -8.3845983958E+001 +1.7767963613E+002 -1.9738298740E+001 -8.7426616732E+001
13957500000.000 -8.6122763966E+000 -1.2797749377E+002 -4.6864341666E+001 +1.3286204129E+002 -7.8063415010E+001 -1.3848602346E+001 -2.0396722764E+001 -8.9963395131E+001
14090000000.000 -8.5837527493E+000 -1.2778640536E+002 -4.6868817804E+001 +9.7491927910E+001 -9.3187059681E+001 +1.0999392631E+002 -2.2692384355E+001 -7.2396213304E+001
14222500000.000 -8.4976530759E+000 -1.2746664412E+002 -4.6982703706E+001 +6.5008920247E+001 -8.4530068123E+001 -1.4142835631E+002 -2.1310927642E+001 -5.9216271610E+001
14355000000.000 -8.4190115981E+000 -1.2784709030E+002 -4.6887742219E+001 +3.0968675047E+001 -8.7051390624E+001 -3.7231848953E+001 -2.2529030647E+001 -6.3480722661E+001
14487500000.000 -8.3888695797E+000 -1.2797509219E+002 -4.6911042913E+001 -4.5301089432E+000 -7.8582182734E+001 -4.7727774441E+001 -2.5594625030E+001 -4.0067227905E+001
14620000000.000 -8.3531692742E+000 -1.2766174607E+002 -4.7001028383E+001 -3.8061284780E+001 -7.9054187949E+001 +1.0390903424E+002 -2.3310844712E+001 -2.7198997565E+001
14752500000.000 -8.2243377808E+000 -1.2757436279E+002 -4.7190403535E+001 -7.3909472449E+001 -8.5237994697E+001 -1.4586578385E+002 -2.5393821137E+001 -3.6576665939E+001
14885000000.000 -8.1653442960E+000 -1.2768554598E+002 -4.7072190793E+001 -1.0770649073E+002 -8.5090120744E+001 -1.6614886154E+002 -2.8952579247E+001 +2.6015885391E+000
15017500000.000 -8.1461013018E+000 -1.2754258415E+002 -4.7201455512E+001 -1.4006819341E+002 -7.8478210027E+001 +1.4919384909E+002 -2.5418631333E+001 +9.2785987030E+000
15150000000.000 -8.0578741989E+000 -1.2714049244E+002 -4.7202000961E+001 -1.7445728397E+002 -8.9172394386E+001 +7.0839165599E+000 -2.9170616327E+001 -2.4445273145E+000
15282500000.000 -7.9935825731E+000 -1.2696381931E+002 -4.7184620889E+001 +1.5125154577E+002 -8.2619670660E+001 +1.5828165189E+002 -3.1151422748E+001 +5.8044178613E+001
