!  2-Port S-parameters saved by WinCal
! VAR MeasName=S-Parameters (CALIBRATED_DATA) read from VNA (C)
! VAR MeasDate=10/16/2015 2:46:59 PM
! VAR NAME=M6082_10_13_2_2_20C_15.6mA_-17.5dBm
! VAR FILENAME=M6082_10_13_2_2_20C_15.6mA_-17.5dBm.S2P
! VAR DATE=10/16/2015 2:46:59 PM
! VAR PHYS_PORTS=2,1
! VAR ObjTypeName=DATASET
! VAR IndexType=Frequency
!
# Hz S DB R 50
45000000.000 -1.7202867528E+001 -1.7914783366E+002 -4.3784347099E+001 +1.0175062869E+002 -6.3365048218E+001 -4.0630761885E+001 -3.1230493804E+001 +4.9415418666E+000
177500000.000 -1.7281592813E+001 -1.7830873723E+002 -4.4940186245E+001 +6.9698648701E+001 -7.4739367040E+001 +1.3217872527E+002 -3.2885922468E+001 +4.6405404515E+001
310000000.000 -1.7326678188E+001 -1.7656617719E+002 -4.4532054163E+001 +4.1199999880E+001 -7.6349712425E+001 -1.3463020143E+002 -2.3354834051E+001 +6.4698568510E+001
442500000.000 -1.7355893654E+001 -1.7465962316E+002 -4.3431731390E+001 +1.3263734997E+000 -8.8410930620E+001 -5.2391736877E+001 -2.2377420292E+001 +1.7333452385E+001
575000000.000 -1.7333768964E+001 -1.7240110639E+002 -4.4113531296E+001 -3.4649511472E+001 -7.9522043166E+001 +1.0784849317E+002 -3.0633870780E+001 +2.2595987419E+001
707500000.000 -1.7301695852E+001 -1.7065408750E+002 -4.4262390673E+001 -6.8371795426E+001 -9.0814809872E+001 -1.7379343581E+001 -3.4501367106E+001 +8.3749838958E+001
840000000.000 -1.7279556007E+001 -1.6838671248E+002 -4.4185340394E+001 -1.0242301418E+002 -8.7339971321E+001 +2.5175997979E+001 -2.9700036293E+001 +1.2739038073E+002
972500000.000 -1.7236063918E+001 -1.6628151043E+002 -4.4468731602E+001 -1.3671945624E+002 -8.8425010661E+001 +8.2010037411E+001 -2.5951360032E+001 +1.3528671416E+002
1105000000.000 -1.7135851241E+001 -1.6416039143E+002 -4.4618711401E+001 -1.7046123658E+002 -8.1542135879E+001 -1.7468256201E+002 -2.4361915685E+001 +1.4077081459E+002
1237500000.000 -1.7041684230E+001 -1.6234583510E+002 -4.4510284944E+001 +1.5592164722E+002 -9.4037764122E+001 +3.3779464067E+001 -2.3391449277E+001 +1.4999173083E+002
1370000000.000 -1.6913392911E+001 -1.6054279945E+002 -4.4574591995E+001 +1.2203210858E+002 -8.9590162661E+001 +3.8983844953E+001 -2.2074186216E+001 +1.5992987771E+002
1502500000.000 -1.6812461824E+001 -1.5872330676E+002 -4.4626605094E+001 +8.7348621578E+001 -8.9981762625E+001 -8.8575566133E-001 -2.0856902014E+001 +1.6631070158E+002
1635000000.000 -1.6686807236E+001 -1.5664854585E+002 -4.4710483761E+001 +5.3850497054E+001 -8.4613079976E+001 -1.4341766408E+001 -2.0028544392E+001 +1.7326338863E+002
1767500000.000 -1.6521603588E+001 -1.5496629755E+002 -4.4634460556E+001 +1.9535380424E+001 -8.7650851095E+001 +7.4369061137E+001 -1.9013109733E+001 +1.7852884896E+002
1900000000.000 -1.6414566257E+001 -1.5348411197E+002 -4.4629318478E+001 -1.3604921427E+001 -8.3329693884E+001 +2.3566617337E+001 -1.8873384912E+001 -1.7824888605E+002
2032500000.000 -1.6268169891E+001 -1.5196800678E+002 -4.4660042415E+001 -4.9070082516E+001 -8.3850043545E+001 -1.6783957900E+001 -1.8699201638E+001 -1.6785530281E+002
2165000000.000 -1.6113185966E+001 -1.5018788034E+002 -4.4645271760E+001 -8.2405818938E+001 -7.9061221773E+001 +4.5778169885E+000 -1.7748869693E+001 -1.6092073018E+002
2297500000.000 -1.5970732015E+001 -1.4893347342E+002 -4.4749584888E+001 -1.1773040012E+002 -7.7558884081E+001 -1.7609395220E+002 -1.7245933727E+001 -1.5704218879E+002
2430000000.000 -1.5813655782E+001 -1.4755965786E+002 -4.4873857701E+001 -1.5065215830E+002 -8.1128287998E+001 -9.8361430457E+001 -1.6948827302E+001 -1.5285846063E+002
2562500000.000 -1.5627809051E+001 -1.4618461029E+002 -4.4861925783E+001 +1.7586975318E+002 -9.0526101890E+001 +4.6705294001E+001 -1.6842132209E+001 -1.5043416154E+002
2695000000.000 -1.5438926213E+001 -1.4555765977E+002 -4.4743556757E+001 +1.4259706792E+002 -7.9792027607E+001 +8.5209706858E+001 -1.7366493531E+001 -1.4716362695E+002
2827500000.000 -1.5288534323E+001 -1.4487973866E+002 -4.5059112065E+001 +1.0865924271E+002 -7.8311361543E+001 +1.7338481919E+002 -1.7855538144E+001 -1.4029586976E+002
2960000000.000 -1.5147056586E+001 -1.4379965695E+002 -4.4957947536E+001 +7.3959301605E+001 -8.0032016298E+001 +9.3823740053E+000 -1.8166820717E+001 -1.3538169089E+002
3092500000.000 -1.4914373073E+001 -1.4272896591E+002 -4.5099706264E+001 +3.8776086652E+001 -9.1280683919E+001 -1.1822513084E+002 -1.9079690843E+001 -1.2929106673E+002
3225000000.000 -1.4674798622E+001 -1.4224733610E+002 -4.4922602220E+001 +5.4204728154E+000 -8.5095554477E+001 +4.0440415006E+001 -1.9593672640E+001 -1.1972599562E+002
3357500000.000 -1.4538887534E+001 -1.4183531060E+002 -4.5064625110E+001 -2.7543566457E+001 -8.4503629555E+001 +1.2377554404E+001 -1.9956042872E+001 -1.1431113426E+002
3490000000.000 -1.4331118847E+001 -1.4077288663E+002 -4.5224332797E+001 -6.1294047457E+001 -8.2894763605E+001 +1.7307264370E+002 -2.1121724909E+001 -1.0849943742E+002
3622500000.000 -1.4116268395E+001 -1.3987772851E+002 -4.4989902984E+001 -9.5772400077E+001 -7.9568178017E+001 +1.5453036820E+002 -2.1946463387E+001 -9.8091428192E+001
3755000000.000 -1.3883984455E+001 -1.3929483146E+002 -4.4953456265E+001 -1.2918961430E+002 -8.6933418454E+001 -9.5180611762E+000 -2.2713061862E+001 -9.4706836587E+001
3887500000.000 -1.3715695874E+001 -1.3867425244E+002 -4.5207621289E+001 -1.6345755971E+002 -8.2183277009E+001 +8.8699045032E+001 -2.5048408336E+001 -8.7935898765E+001
4020000000.000 -1.3559108440E+001 -1.3812175620E+002 -4.4941959971E+001 +1.6322494665E+002 -9.4992046581E+001 +1.4140901744E+002 -2.6673912911E+001 -7.3337319468E+001
4152500000.000 -1.3362029694E+001 -1.3725045247E+002 -4.4964168398E+001 +1.2834093073E+002 -8.6021623543E+001 +5.4827852832E+001 -2.8883043874E+001 -6.4756015239E+001
4285000000.000 -1.3166273802E+001 -1.3674823731E+002 -4.5062281157E+001 +9.4163014252E+001 -8.3757143791E+001 +5.0148730106E+001 -3.3364861067E+001 -3.7225754828E+001
4417500000.000 -1.2974666477E+001 -1.3643188975E+002 -4.5194531679E+001 +6.0728718433E+001 -9.7928065268E+001 +1.6945884602E+002 -3.1703927081E+001 +8.1660789005E+000
4550000000.000 -1.2846079231E+001 -1.3585594761E+002 -4.5360179763E+001 +2.6368019153E+001 -8.0056047850E+001 -7.4056964780E+001 -3.0332251578E+001 +1.8285070191E+001
4682500000.000 -1.2664480322E+001 -1.3514080823E+002 -4.5585295625E+001 -7.8250863337E+000 -8.7821209414E+001 +6.0595181873E+001 -2.9667009610E+001 +3.8916398219E+001
4815000000.000 -1.2473233311E+001 -1.3477129630E+002 -4.5478978673E+001 -4.0337350476E+001 -9.1591426681E+001 -1.7347404234E+002 -2.7627911901E+001 +4.1253837950E+001
4947500000.000 -1.2343489236E+001 -1.3434581210E+002 -4.5430896046E+001 -7.3932579000E+001 -8.8705370823E+001 +1.0369352643E+002 -2.9356017287E+001 +3.5645295513E+001
5080000000.000 -1.2204357246E+001 -1.3370603380E+002 -4.5227995181E+001 -1.0705395835E+002 -9.5629681754E+001 +4.0415299581E+001 -3.2225508327E+001 +5.7009638635E+001
5212500000.000 -1.2039163127E+001 -1.3324198082E+002 -4.5266618274E+001 -1.4083748998E+002 -9.3238293013E+001 +1.3713815104E+002 -3.1548290769E+001 +6.9719251618E+001
5345000000.000 -1.1900441469E+001 -1.3309457616E+002 -4.5099559512E+001 -1.7497842630E+002 -8.9656392414E+001 -1.5702205201E+002 -3.5310724478E+001 +7.1294148784E+001
5477500000.000 -1.1817329390E+001 -1.3259544581E+002 -4.5075899084E+001 +1.5101227820E+002 -9.2945117874E+001 +4.6830870946E+001 -3.7219644771E+001 +1.3181145550E+002
5610000000.000 -1.1675351868E+001 -1.3206247490E+002 -4.5133452356E+001 +1.1680444412E+002 -8.5745624685E+001 +1.1804304947E+002 -3.3667589673E+001 +1.3600554370E+002
5742500000.000 -1.1539047257E+001 -1.3198439117E+002 -4.5186316314E+001 +8.2533281732E+001 -8.7548441172E+001 -1.6048175864E+002 -3.7787422456E+001 +1.5260245120E+002
5875000000.000 -1.1460838389E+001 -1.3208556017E+002 -4.5078920231E+001 +4.8067814583E+001 -9.0155739887E+001 +8.3218905065E+001 -3.3781078744E+001 -1.7075235487E+002
6007500000.000 -1.1372279944E+001 -1.3176435385E+002 -4.5040126095E+001 +1.3706556209E+001 -8.1039175999E+001 +8.3594720272E+001 -3.2713384957E+001 +1.7975203943E+002
6140000000.000 -1.1229198745E+001 -1.3144164734E+002 -4.5078247086E+001 -2.0356083293E+001 -8.6140215911E+001 +1.1896779588E+002 -3.6191468834E+001 -1.6946597353E+002
6272500000.000 -1.1071775273E+001 -1.3168509876E+002 -4.5128264908E+001 -5.4104942917E+001 -9.7901187376E+001 -8.4230194844E+001 -3.3875778774E+001 -1.4464371681E+002
6405000000.000 -1.0995295274E+001 -1.3201498118E+002 -4.5203057546E+001 -8.9390757946E+001 -9.2475009896E+001 +4.8886895266E+001 -3.3831887182E+001 -1.6196767456E+002
6537500000.000 -1.0909767335E+001 -1.3165074815E+002 -4.5305328180E+001 -1.2238917720E+002 -9.1617988337E+001 +1.4683994307E+002 -4.0178828821E+001 -1.6020322288E+002
6670000000.000 -1.0732389706E+001 -1.3133391270E+002 -4.5239572634E+001 -1.5624693987E+002 -8.5534706965E+001 -4.1278200439E+001 -3.9377359235E+001 -1.3732755215E+002
6802500000.000 -1.0566621693E+001 -1.3171269691E+002 -4.5285565400E+001 +1.6905094616E+002 -8.8137956078E+001 +9.8091584189E+001 -3.8814579755E+001 +1.7923486221E+002
6935000000.000 -1.0504840040E+001 -1.3202859331E+002 -4.5328740119E+001 +1.3461733807E+002 -8.8494202729E+001 +1.5484373354E+002 -3.8641392415E+001 +1.2246456189E+002
7067500000.000 -1.0424314393E+001 -1.3156157474E+002 -4.5421527930E+001 +1.0177702631E+002 -8.3649268462E+001 -1.0074219925E+002 -3.8983476946E+001 +1.1491602668E+002
7200000000.000 -1.0242522137E+001 -1.3134184404E+002 -4.5427262706E+001 +6.7413895716E+001 -8.1536911559E+001 -1.0728122809E+002 -3.2889372075E+001 +1.3161212567E+002
7332500000.000 -1.0103203672E+001 -1.3175586500E+002 -4.5569375001E+001 +3.3945449120E+001 -8.2061459793E+001 +1.1980295042E+002 -2.9064623593E+001 +1.1913387008E+002
7465000000.000 -1.0028817717E+001 -1.3180123877E+002 -4.5619205605E+001 -3.4695831760E-001 -9.3807688098E+001 +6.5643543021E+000 -2.8664712281E+001 +1.2237902965E+002
7597500000.000 -9.9073173845E+000 -1.3149213447E+002 -4.5584799045E+001 -3.5112077608E+001 -9.0363416028E+001 -1.0928572831E+002 -2.6165085728E+001 +1.3758743506E+002
7730000000.000 -9.7472044231E+000 -1.3133749594E+002 -4.5628587464E+001 -6.9275233300E+001 -8.2718650119E+001 +3.9027454964E+001 -2.3731333907E+001 +1.3786525148E+002
7862500000.000 -9.6359180925E+000 -1.3138794095E+002 -4.5672565069E+001 -1.0214902033E+002 -8.8422097140E+001 -1.6807467225E+002 -2.3297493516E+001 +1.4150559711E+002
7995000000.000 -9.5596074653E+000 -1.3125292184E+002 -4.5734406262E+001 -1.3594868915E+002 -8.5339159522E+001 -6.0559366348E+001 -2.1848645478E+001 +1.5424519923E+002
8127500000.000 -9.4204887866E+000 -1.3081027955E+002 -4.5611788870E+001 -1.6920277804E+002 -8.6832666043E+001 +7.2159436694E+001 -2.0030674004E+001 +1.5653615448E+002
8260000000.000 -9.2989736847E+000 -1.3090474705E+002 -4.5569226521E+001 +1.5665666586E+002 -9.0942657502E+001 +1.5996808651E+001 -1.9868663534E+001 +1.6019107667E+002
8392500000.000 -9.2291263740E+000 -1.3068828057E+002 -4.5799554341E+001 +1.2212678196E+002 -8.3574959376E+001 -7.6623170734E+001 -1.9076396143E+001 +1.7036257155E+002
8525000000.000 -9.1565849899E+000 -1.3032917235E+002 -4.5664112858E+001 +8.8756972373E+001 -8.0377946259E+001 +6.7452160525E+001 -1.8212756852E+001 +1.7296524200E+002
8657500000.000 -9.0488720175E+000 -1.3008444763E+002 -4.5669175626E+001 +5.4812164062E+001 -8.9164881972E+001 +1.3257588490E+002 -1.8566478261E+001 +1.7792218234E+002
8790000000.000 -8.9462799107E+000 -1.3006236052E+002 -4.5647607379E+001 +2.1251725146E+001 -8.2460304512E+001 -1.1110952230E+002 -1.8354855633E+001 -1.7173715568E+002
8922500000.000 -8.9124954307E+000 -1.3007291968E+002 -4.5684202795E+001 -1.3413439282E+001 -8.4249583044E+001 +3.8992697548E-001 -1.7992446600E+001 -1.6598184697E+002
9055000000.000 -8.8362697775E+000 -1.2982600424E+002 -4.5622414603E+001 -4.7943635653E+001 -8.4110899902E+001 +8.9297587084E+001 -1.8459650966E+001 -1.5836582736E+002
9187500000.000 -8.7551264263E+000 -1.2978410109E+002 -4.5679645529E+001 -8.1332327793E+001 -9.1554763018E+001 -7.4340418064E+001 -1.8383113435E+001 -1.4630188079E+002
9320000000.000 -8.6738634469E+000 -1.3017476136E+002 -4.5722133112E+001 -1.1565480885E+002 -8.3383900013E+001 +1.9131417537E+000 -1.8207267330E+001 -1.3963939227E+002
9452500000.000 -8.6301196947E+000 -1.3021916453E+002 -4.5662122148E+001 -1.4890585843E+002 -8.4837638063E+001 +9.1045012779E+001 -1.8853164003E+001 -1.3056826312E+002
9585000000.000 -8.5585662539E+000 -1.3020197782E+002 -4.5821592665E+001 +1.7665502080E+002 -8.7605737748E+001 -1.6276976145E+002 -1.8797862873E+001 -1.1816025634E+002
9717500000.000 -8.4346879643E+000 -1.3033559891E+002 -4.5832726065E+001 +1.4298305331E+002 -7.9890768203E+001 -1.7605753766E+001 -1.8804367690E+001 -1.1107388426E+002
9850000000.000 -8.3779045404E+000 -1.3089959214E+002 -4.5764894723E+001 +1.0832337575E+002 -8.3563296418E+001 +5.7971940386E+001 -1.9662034434E+001 -1.0058181719E+002
9982500000.000 -8.3276136382E+000 -1.3070988186E+002 -4.5781280486E+001 +7.4899431340E+001 -1.0053167923E+002 +1.3907597111E+002 -1.9703120463E+001 -8.6421689277E+001
10115000000.000 -8.2346015073E+000 -1.3067886981E+002 -4.5971420301E+001 +3.9921051206E+001 -9.1034869724E+001 -1.3092644992E+002 -1.9911891183E+001 -7.8964601779E+001
10247500000.000 -8.1266856926E+000 -1.3107985615E+002 -4.5850595324E+001 +6.0984737902E+000 -8.5285925405E+001 +2.7188703010E+001 -2.1149697314E+001 -6.5987605574E+001
10380000000.000 -8.0797768034E+000 -1.3130518348E+002 -4.5991022715E+001 -2.7283494072E+001 -9.2291124403E+001 +1.6538300755E+002 -2.1075949011E+001 -4.9812743548E+001
10512500000.000 -8.0195339317E+000 -1.3135570835E+002 -4.5953456714E+001 -6.1584485004E+001 -8.2793705702E+001 -1.7158468065E+002 -2.1500987307E+001 -4.1811100755E+001
10645000000.000 -7.9350624441E+000 -1.3142808817E+002 -4.6077159763E+001 -9.4875999198E+001 -8.6405754884E+001 -1.9415034241E+001 -2.2821847568E+001 -2.3845174152E+001
10777500000.000 -7.8431024393E+000 -1.3163228558E+002 -4.5946916581E+001 -1.2876599996E+002 -8.5510880772E+001 +1.3066919121E+002 -2.2222002098E+001 -5.7569384826E+000
10910000000.000 -7.7657662921E+000 -1.3183324961E+002 -4.5976078145E+001 -1.6272121238E+002 -8.9439033653E+001 -4.4001074941E+001 -2.2787724660E+001 +4.4181152764E+000
11042500000.000 -7.6824711444E+000 -1.3200892981E+002 -4.5964216749E+001 +1.6295574403E+002 -9.2396610960E+001 -4.4205957784E+001 -2.3448418244E+001 +2.7627874079E+001
11175000000.000 -7.5891642031E+000 -1.3193116397E+002 -4.5975762884E+001 +1.2981044317E+002 -8.5283246056E+001 -9.0643128898E+001 -2.2278524645E+001 +4.2873921562E+001
11307500000.000 -7.5325398621E+000 -1.3194080889E+002 -4.5981008593E+001 +9.4942293058E+001 -8.4752475793E+001 +1.7056527195E+002 -2.2745194972E+001 +5.3427512706E+001
11440000000.000 -7.4371461005E+000 -1.3209812972E+002 -4.6152324640E+001 +6.0281266547E+001 -8.1411018464E+001 -1.5289032994E+001 -2.2580419112E+001 +7.5851027294E+001
11572500000.000 -7.3688791023E+000 -1.3187215448E+002 -4.5998167951E+001 +2.7747244965E+001 -8.4322298455E+001 +1.2554237111E+002 -2.1168543500E+001 +8.7135846676E+001
11705000000.000 -7.3075818635E+000 -1.3185683609E+002 -4.6110114762E+001 -6.6703273768E+000 -8.5692944088E+001 -9.3712625343E+001 -2.1772853070E+001 +9.7221768779E+001
11837500000.000 -7.2308187976E+000 -1.3190444606E+002 -4.6103980450E+001 -4.1310999993E+001 -8.7135783176E+001 -4.8210671249E+001 -2.1116875488E+001 +1.1942856660E+002
11970000000.000 -7.2113437485E+000 -1.3192132652E+002 -4.6162088494E+001 -7.5362302935E+001 -8.9180149742E+001 +1.0002523515E+002 -1.9817498923E+001 +1.2557624103E+002
12102500000.000 -7.1771585700E+000 -1.3161794580E+002 -4.6186067164E+001 -1.0862691441E+002 -8.6604664241E+001 +1.2456766327E+002 -2.0747877349E+001 +1.3549355388E+002
12235000000.000 -7.0965468292E+000 -1.3200663050E+002 -4.6120122683E+001 -1.4312512795E+002 -9.0708059794E+001 -4.9022807352E+001 -1.9767923382E+001 +1.5469127558E+002
12367500000.000 -7.0918653075E+000 -1.3197883196E+002 -4.6138299252E+001 -1.7787265121E+002 -8.6432258866E+001 +5.1953263983E+001 -1.8880679415E+001 +1.5799735822E+002
12500000000.000 -7.0502250330E+000 -1.3226786247E+002 -4.6198498995E+001 +1.4799313883E+002 -8.6132654377E+001 -1.0299315825E+002 -2.0055026780E+001 +1.6816379183E+002
12632500000.000 -6.9878087329E+000 -1.3219611984E+002 -4.6084418910E+001 +1.1408907809E+002 -8.3711167119E+001 -9.9413906888E+001 -1.9181302411E+001 -1.7290680957E+002
12765000000.000 -6.9510730982E+000 -1.3235538203E+002 -4.6437729521E+001 +8.1507078548E+001 -9.0609103180E+001 -5.8078267488E+001 -1.8521059864E+001 -1.7120534365E+002
12897500000.000 -6.9323173576E+000 -1.3260851064E+002 -4.6404451959E+001 +4.6408504644E+001 -8.6909615755E+001 +9.6095268063E+001 -2.0124004181E+001 -1.5940373375E+002
13030000000.000 -6.8970063394E+000 -1.3268118402E+002 -4.6433817219E+001 +1.1822401408E+001 -8.9650624339E+001 -2.3989266202E-001 -1.8850435607E+001 -1.4146099934E+002
13162500000.000 -6.8406584632E+000 -1.3270026601E+002 -4.6456006335E+001 -2.0769198428E+001 -8.5450783744E+001 -4.3901690946E+001 -1.8648693068E+001 -1.4150906229E+002
13295000000.000 -6.7972992693E+000 -1.3280914559E+002 -4.6467401328E+001 -5.4854699100E+001 -8.9567657115E+001 -2.0174590112E+001 -2.0026926356E+001 -1.2785479317E+002
13427500000.000 -6.7662001965E+000 -1.3315803642E+002 -4.6410473420E+001 -8.8282384615E+001 -8.3929875545E+001 -1.3926549176E+002 -1.8861240404E+001 -1.1416375955E+002
13560000000.000 -6.7625871640E+000 -1.3308873898E+002 -4.6578172018E+001 -1.2320608282E+002 -8.5746952944E+001 -3.4879853087E+001 -1.9067335137E+001 -1.1461828530E+002
13692500000.000 -6.7009683160E+000 -1.3305944227E+002 -4.6569653029E+001 -1.5591517336E+002 -8.1475503471E+001 +1.1682751076E+002 -2.0821630731E+001 -1.0120203449E+002
13825000000.000 -6.6352492376E+000 -1.3334492751E+002 -4.6606131141E+001 +1.6946616194E+002 -7.8962271283E+001 -1.3611169759E+002 -1.9740900190E+001 -8.7576609947E+001
13957500000.000 -6.6232038587E+000 -1.3371177788E+002 -4.6697420684E+001 +1.3583748802E+002 -7.9260792610E+001 -1.1463711187E+001 -2.0407469942E+001 -8.9901502575E+001
14090000000.000 -6.6012342598E+000 -1.3368462178E+002 -4.6679771508E+001 +1.0066655045E+002 -7.4427851773E+001 +2.3815983123E+001 -2.2687468090E+001 -7.2540797364E+001
14222500000.000 -6.5360071536E+000 -1.3349104563E+002 -4.6484019237E+001 +6.7048504636E+001 -8.6327442892E+001 -1.7775949955E+002 -2.1296575830E+001 -5.9260798534E+001
14355000000.000 -6.4602760514E+000 -1.3386971113E+002 -4.6599067193E+001 +3.3149840036E+001 -9.6611230427E+001 -1.1684049012E+002 -2.2527976784E+001 -6.3657252455E+001
14487500000.000 -6.4254557189E+000 -1.3401545526E+002 -4.6816121038E+001 -1.1887497670E+000 -7.4663742123E+001 +5.0664283746E+001 -2.5585441649E+001 -4.0222930088E+001
14620000000.000 -6.3993989046E+000 -1.3381947667E+002 -4.6691190846E+001 -3.5998622428E+001 -8.5339900484E+001 +4.3387973907E+001 -2.3276728382E+001 -2.7207203436E+001
14752500000.000 -6.3024225406E+000 -1.3364735094E+002 -4.6957854857E+001 -6.8322921533E+001 -7.8692329056E+001 -7.8850668421E+001 -2.5362952043E+001 -3.6731299684E+001
14885000000.000 -6.2421768478E+000 -1.3369349400E+002 -4.6881474246E+001 -1.0355041242E+002 -8.1481106424E+001 -2.7509196353E+001 -2.9004861740E+001 +2.5926268499E+000
15017500000.000 -6.2198522571E+000 -1.3357536550E+002 -4.6753640815E+001 -1.3768521869E+002 -8.5555615003E+001 +6.0841836047E+001 -2.5398925366E+001 +9.5027968977E+000
15150000000.000 -6.1574560917E+000 -1.3328149134E+002 -4.6783924535E+001 -1.7250313057E+002 -8.5782503053E+001 -1.7293371313E+002 -2.9064597155E+001 -2.7720654269E+000
15282500000.000 -6.1175169353E+000 -1.3311675543E+002 -4.6913037050E+001 +1.5380324861E+002 -8.1700949067E+001 +3.6572896465E+001 -3.1252393136E+001 +5.8190739533E+001
