!  2-Port S-parameters saved by WinCal
! VAR MeasName=S-Parameters (CALIBRATED_DATA) read from VNA (C)
! VAR MeasDate=10/16/2015 3:46:30 PM
! VAR NAME=M6082_10_17_2_2_20C_2.5mA_-17.5dBm
! VAR FILENAME=M6082_10_17_2_2_20C_2.5mA_-17.5dBm.S2P
! VAR DATE=10/16/2015 3:46:30 PM
! VAR PHYS_PORTS=2,1
! VAR ObjTypeName=DATASET
! VAR IndexType=Frequency
!
# Hz S DB R 50
45000000.000 -3.0802741809E+001 -8.7980350180E+000 -4.2181534198E+001 +1.0620590731E+002 -6.3531961641E+001 -5.9089016576E+001 -3.0789745310E+001 +4.7040802394E+000
177500000.000 -2.9440266952E+001 -3.3615029572E+001 -4.2882569428E+001 +6.6888396939E+001 -7.6332267696E+001 +3.4883120451E+001 -3.2761960423E+001 +4.6128503982E+001
310000000.000 -2.7309535982E+001 -5.0423930219E+001 -4.3274307145E+001 +3.7861709095E+001 -7.0019653246E+001 -1.6880734951E+002 -2.3326491028E+001 +6.4772601480E+001
442500000.000 -2.5206746392E+001 -6.1439096176E+001 -4.2156494065E+001 -2.3978259643E+000 -8.0884804064E+001 +1.0221139177E+001 -2.2390892058E+001 +1.7318997523E+001
575000000.000 -2.3359283169E+001 -6.9255652220E+001 -4.2694194926E+001 -3.9359790415E+001 -8.3514349465E+001 -1.6841152069E+002 -3.0641111940E+001 +2.2660218717E+001
707500000.000 -2.1868720937E+001 -7.4858031234E+001 -4.2928979532E+001 -7.3810378716E+001 -8.0358287886E+001 -1.3240236568E+002 -3.4492743473E+001 +8.4035900130E+001
840000000.000 -2.0503697016E+001 -7.8891748418E+001 -4.3140787076E+001 -1.0796858515E+002 -9.6959425440E+001 +7.7546641801E+001 -2.9673457055E+001 +1.2726297577E+002
972500000.000 -1.9329481707E+001 -8.1875620357E+001 -4.3268620213E+001 -1.4225558053E+002 -7.8695383651E+001 +1.1497539346E+002 -2.5950661604E+001 +1.3528822422E+002
1105000000.000 -1.8291320835E+001 -8.4917888524E+001 -4.3231077940E+001 -1.7726831646E+002 -8.2028206049E+001 -1.3764108051E+002 -2.4352320198E+001 +1.4081313581E+002
1237500000.000 -1.7402485461E+001 -8.7409212667E+001 -4.3400082062E+001 +1.4824927349E+002 -8.9079713925E+001 -3.8556697011E+001 -2.3395536106E+001 +1.4993509657E+002
1370000000.000 -1.6589915779E+001 -8.9592627939E+001 -4.3465714121E+001 +1.1347981422E+002 -9.5212225200E+001 +1.2889607817E+002 -2.2078222612E+001 +1.6000289807E+002
1502500000.000 -1.5862202605E+001 -9.1645338089E+001 -4.3559973900E+001 +7.8628716982E+001 -8.5717716597E+001 +1.6536282284E+002 -2.0870279951E+001 +1.6641847074E+002
1635000000.000 -1.5167553641E+001 -9.3076405989E+001 -4.3386571248E+001 +4.4623397372E+001 -8.6914697142E+001 +1.1589635391E+002 -2.0015329811E+001 +1.7329131441E+002
1767500000.000 -1.4536975008E+001 -9.4862735753E+001 -4.3493865918E+001 +1.0105354906E+001 -8.2215054233E+001 +1.0248817601E+002 -1.9023759871E+001 +1.7852704361E+002
1900000000.000 -1.3999038649E+001 -9.6443004472E+001 -4.3601404853E+001 -2.4789150235E+001 -8.6151900019E+001 +1.4508680004E+002 -1.8870413968E+001 -1.7823604489E+002
2032500000.000 -1.3497340751E+001 -9.7861082604E+001 -4.3521450729E+001 -5.9138850917E+001 -8.2811275581E+001 -8.3893401330E+001 -1.8691338610E+001 -1.6789145617E+002
2165000000.000 -1.2982057445E+001 -9.9000383153E+001 -4.3651007969E+001 -9.4428055247E+001 -8.3788122902E+001 +1.2096601676E+001 -1.7745938332E+001 -1.6100946152E+002
2297500000.000 -1.2550295009E+001 -1.0041976921E+002 -4.3620784337E+001 -1.2869735463E+002 -8.5731498187E+001 +1.2309397379E+002 -1.7241524140E+001 -1.5709596418E+002
2430000000.000 -1.2162538149E+001 -1.0157734445E+002 -4.3880826883E+001 -1.6190541012E+002 -7.9463098485E+001 -1.7759350724E+002 -1.6944231686E+001 -1.5285326483E+002
2562500000.000 -1.1761828930E+001 -1.0266287349E+002 -4.3909006026E+001 +1.6222969929E+002 -7.7630456188E+001 +1.8721270722E+000 -1.6843669451E+001 -1.5044588024E+002
2695000000.000 -1.1410087564E+001 -1.0409934105E+002 -4.3656448168E+001 +1.2882231216E+002 -7.9870265846E+001 -1.1744905904E+002 -1.7364928948E+001 -1.4710304547E+002
2827500000.000 -1.1106140659E+001 -1.0542477087E+002 -4.4007430212E+001 +9.4129307339E+001 -7.2222957531E+001 -9.9488694484E+001 -1.7844673658E+001 -1.4029770810E+002
2960000000.000 -1.0804002202E+001 -1.0628616542E+002 -4.3969240511E+001 +5.9152049166E+001 -8.6183337497E+001 -1.0514715826E+002 -1.8151654613E+001 -1.3538352357E+002
3092500000.000 -1.0462607334E+001 -1.0741229729E+002 -4.3905702713E+001 +2.5836165809E+001 -8.1507412967E+001 +7.3630519005E+001 -1.9071747086E+001 -1.2928374084E+002
3225000000.000 -1.0165792282E+001 -1.0874505733E+002 -4.4029441000E+001 -9.1651835287E+000 -7.8695746977E+001 -1.0259535145E+002 -1.9572241580E+001 -1.1968371861E+002
3357500000.000 -9.9402685432E+000 -1.0985385138E+002 -4.4154991688E+001 -4.3246452083E+001 -8.3653134387E+001 -5.4270750054E+001 -1.9951702013E+001 -1.1430058746E+002
3490000000.000 -9.6428462096E+000 -1.1062622825E+002 -4.4141652702E+001 -7.7198367537E+001 -8.6280677633E+001 -5.2275858327E+001 -2.1119820104E+001 -1.0848212525E+002
3622500000.000 -9.3668360593E+000 -1.1155846637E+002 -4.3972921184E+001 -1.1078617186E+002 -8.0239626200E+001 -1.3963003008E+002 -2.1919532116E+001 -9.8195644904E+001
3755000000.000 -9.1112655124E+000 -1.1258837975E+002 -4.3956164400E+001 -1.4668453431E+002 -8.1558487367E+001 -6.7939648665E+001 -2.2725507093E+001 -9.4656575688E+001
3887500000.000 -8.8915803763E+000 -1.1341618900E+002 -4.3968170281E+001 +1.7922557580E+002 -7.8482915641E+001 +7.2399407757E+001 -2.5037801891E+001 -8.7690355282E+001
4020000000.000 -8.6796672057E+000 -1.1417901872E+002 -4.3911824048E+001 +1.4523815825E+002 -8.0579188563E+001 +1.7928583631E+002 -2.6646174390E+001 -7.3333153206E+001
4152500000.000 -8.4589195873E+000 -1.1486262065E+002 -4.3966479432E+001 +1.1001535168E+002 -8.7507157747E+001 +5.3190001509E-002 -2.8876646770E+001 -6.5074279543E+001
4285000000.000 -8.2504470104E+000 -1.1562291098E+002 -4.3876972081E+001 +7.4916370103E+001 -7.8190874557E+001 -6.3973631094E+001 -3.3390675081E+001 -3.7603148814E+001
4417500000.000 -8.0531275640E+000 -1.1648896515E+002 -4.3934977080E+001 +3.9950292531E+001 -8.1532520009E+001 +1.3893719608E+002 -3.1691757598E+001 +8.0442951796E+000
4550000000.000 -7.8864243770E+000 -1.1710789318E+002 -4.3974911540E+001 +5.5589395019E+000 -8.9198915183E+001 -4.0123952131E+001 -3.0331796032E+001 +1.8231147084E+001
4682500000.000 -7.7014624392E+000 -1.1764973458E+002 -4.4077511344E+001 -2.8521199312E+001 -8.5284559697E+001 +1.3221868166E+002 -2.9660786116E+001 +3.8975126111E+001
4815000000.000 -7.5182205661E+000 -1.1832692786E+002 -4.4100422630E+001 -6.3001031753E+001 -9.1281890180E+001 +4.2198437138E+001 -2.7633062583E+001 +4.1288906897E+001
4947500000.000 -7.3716966378E+000 -1.1897027767E+002 -4.4068934329E+001 -9.6486474012E+001 -8.9768786707E+001 -1.1985146906E+002 -2.9350347575E+001 +3.5796202569E+001
5080000000.000 -7.2243061409E+000 -1.1942700786E+002 -4.3886810482E+001 -1.3032708660E+002 -9.0729913056E+001 +3.4304792309E+000 -3.2202777158E+001 +5.7032514701E+001
5212500000.000 -7.0646819270E+000 -1.1994005615E+002 -4.3747333970E+001 -1.6576637033E+002 -8.8379532859E+001 +7.7339971073E+001 -3.1535439674E+001 +6.9585622798E+001
5345000000.000 -6.9326030253E+000 -1.2062102713E+002 -4.3658199031E+001 +1.5967758610E+002 -8.4003256718E+001 -1.3765710828E+002 -3.5304793472E+001 +7.1149412213E+001
5477500000.000 -6.8333452442E+000 -1.2103982114E+002 -4.3589115514E+001 +1.2500859894E+002 -9.3882538935E+001 -1.7518442881E+002 -3.7226208513E+001 +1.3096088912E+002
5610000000.000 -6.6992538252E+000 -1.2144363662E+002 -4.3501037176E+001 +8.9918233629E+001 -8.7165589979E+001 +1.0172925093E+002 -3.3667440706E+001 +1.3551905203E+002
5742500000.000 -6.5740654357E+000 -1.2207155850E+002 -4.3391615208E+001 +5.4722554189E+001 -8.7975550726E+001 -6.0193446900E+001 -3.7705969474E+001 +1.5267402739E+002
5875000000.000 -6.4945807980E+000 -1.2280656789E+002 -4.3316707213E+001 +2.0426283440E+001 -8.1804000829E+001 -8.4057274195E+001 -3.3754782698E+001 -1.7106903418E+002
6007500000.000 -6.4053309284E+000 -1.2322369797E+002 -4.3295264009E+001 -1.4922801446E+001 -8.8882647535E+001 -6.5346311844E+001 -3.2722503036E+001 +1.7930733049E+002
6140000000.000 -6.2785160041E+000 -1.2362812077E+002 -4.3178777078E+001 -5.0712949135E+001 -8.3773077864E+001 -1.6404826647E+002 -3.6136047737E+001 -1.6987009548E+002
6272500000.000 -6.1673446443E+000 -1.2442004881E+002 -4.3100595322E+001 -8.5352915127E+001 -8.8075317896E+001 -1.4566193998E+002 -3.3861554209E+001 -1.4473992255E+002
6405000000.000 -6.0969567253E+000 -1.2519953677E+002 -4.3109755397E+001 -1.2007160908E+002 -8.6266054979E+001 -1.9773012246E+001 -3.3813454965E+001 -1.6238725995E+002
6537500000.000 -6.0026518688E+000 -1.2550035473E+002 -4.3042696051E+001 -1.5607039075E+002 -8.4237258014E+001 -1.5921832995E+002 -4.0160016797E+001 -1.6050192351E+002
6670000000.000 -5.8786772045E+000 -1.2589622292E+002 -4.2943071529E+001 +1.6909572054E+002 -8.8397707186E+001 -1.3026585628E+002 -3.9302683415E+001 -1.3768950738E+002
6802500000.000 -5.7661935199E+000 -1.2669567668E+002 -4.2871886233E+001 +1.3414221402E+002 -9.9673829931E+001 -1.4888876060E+001 -3.8820197181E+001 +1.7900775796E+002
6935000000.000 -5.6946557027E+000 -1.2735223804E+002 -4.2729301028E+001 +9.6357335225E+001 -8.9767606120E+001 -1.4235037242E+002 -3.8584808174E+001 +1.2274554735E+002
7067500000.000 -5.6203932767E+000 -1.2753682762E+002 -4.2681348376E+001 +6.1374843780E+001 -8.3152996095E+001 -1.1780570302E+002 -3.9029035307E+001 +1.1506146692E+002
7200000000.000 -5.5122906109E+000 -1.2795641546E+002 -4.2652742053E+001 +2.7574965671E+001 -8.8270901986E+001 -2.7656008302E+001 -3.2837910174E+001 +1.3180522960E+002
7332500000.000 -5.4047967283E+000 -1.2865573810E+002 -4.2645675991E+001 -9.1285434642E+000 -9.3264969702E+001 +5.8754722985E+001 -2.9055928891E+001 +1.1932212347E+002
7465000000.000 -5.3294852519E+000 -1.2912182234E+002 -4.2573254131E+001 -4.6054850711E+001 -8.5637968157E+001 -1.7003165602E+002 -2.8631640553E+001 +1.2247696594E+002
7597500000.000 -5.2634304058E+000 -1.2939314217E+002 -4.2513527673E+001 -7.8745528080E+001 -8.4159027518E+001 -2.8623245741E+001 -2.6149152252E+001 +1.3754814730E+002
7730000000.000 -5.1413286798E+000 -1.2971857238E+002 -4.2511777873E+001 -1.1573375451E+002 -8.7803284306E+001 +4.6852509501E+001 -2.3724099557E+001 +1.3800779891E+002
7862500000.000 -5.0385897971E+000 -1.3020206220E+002 -4.2502368490E+001 -1.5503803613E+002 -8.6091119035E+001 +1.5997663173E+002 -2.3271524047E+001 +1.4147475753E+002
7995000000.000 -4.9899879078E+000 -1.3052634100E+002 -4.2446969527E+001 +1.7122437983E+002 -8.3693070529E+001 -6.1278260978E+001 -2.1840579124E+001 +1.5432781975E+002
8127500000.000 -4.9038358981E+000 -1.3063164728E+002 -4.2426373798E+001 +1.3780334361E+002 -8.6272801738E+001 +2.0700064255E+001 -2.0027777576E+001 +1.5658029363E+002
8260000000.000 -4.7903233206E+000 -1.3112096739E+002 -4.2468038594E+001 +9.7509969037E+001 -8.7616557769E+001 -1.0117964757E+002 -1.9857018360E+001 +1.6028268641E+002
8392500000.000 -4.7471701416E+000 -1.3141094369E+002 -4.2391195642E+001 +6.3286916752E+001 -8.8479258778E+001 -7.2399079339E+001 -1.9067380539E+001 +1.7052993207E+002
8525000000.000 -4.6977209623E+000 -1.3151857161E+002 -4.2375284175E+001 +2.8911412476E+001 -8.0152707928E+001 +1.9981436199E+001 -1.8217484133E+001 +1.7310307127E+002
8657500000.000 -4.6112288742E+000 -1.3176897317E+002 -4.2432166685E+001 -9.2638281406E+000 -8.4989883804E+001 -1.6878040475E+002 -1.8568941878E+001 +1.7801433393E+002
8790000000.000 -4.5299571774E+000 -1.3221414762E+002 -4.2624364417E+001 -4.7279433884E+001 -8.2769463408E+001 -8.3184161979E+001 -1.8356719975E+001 -1.7165859023E+002
8922500000.000 -4.5121791182E+000 -1.3251739923E+002 -4.2545769444E+001 -8.0135761912E+001 -8.7022600084E+001 +3.3345920947E+001 -1.7991551936E+001 -1.6592253141E+002
9055000000.000 -4.4518056684E+000 -1.3276392333E+002 -4.2658427757E+001 -1.1806026463E+002 -9.0470722839E+001 +1.0927827656E+002 -1.8463136148E+001 -1.5826013926E+002
9187500000.000 -4.3916682487E+000 -1.3312396987E+002 -4.2796546956E+001 -1.5499039429E+002 -8.5159292356E+001 +1.4323177482E+002 -1.8387071502E+001 -1.4622333739E+002
9320000000.000 -4.3410946035E+000 -1.3374956399E+002 -4.2769507555E+001 +1.7052593907E+002 -9.2099022657E+001 -1.1294861642E+002 -1.8210343828E+001 -1.3957542572E+002
9452500000.000 -4.3119744818E+000 -1.3414990430E+002 -4.2953296102E+001 +1.3481950512E+002 -8.4900467864E+001 +6.0785943218E+001 -1.8853625035E+001 -1.3050281804E+002
9585000000.000 -4.2592664238E+000 -1.3457097360E+002 -4.3241627440E+001 +9.6160312506E+001 -8.6531773289E+001 -1.4803181124E+002 -1.8806752436E+001 -1.1810308078E+002
9717500000.000 -4.1922781115E+000 -1.3494791112E+002 -4.3202276812E+001 +6.2329030987E+001 -8.8459243222E+001 +1.9463707659E+001 -1.8815356144E+001 -1.1096494629E+002
9850000000.000 -4.1562941461E+000 -1.3571527467E+002 -4.3248090120E+001 +2.5939931014E+001 -9.1489727902E+001 +1.0660714896E+002 -1.9664285520E+001 -1.0049048148E+002
9982500000.000 -4.1299512189E+000 -1.3595083047E+002 -4.3723453472E+001 -1.0406701023E+001 -9.2590320414E+001 -1.3206292675E+002 -1.9718550509E+001 -8.6290222802E+001
10115000000.000 -4.0831299214E+000 -1.3622868083E+002 -4.3900037079E+001 -4.5637148450E+001 -8.1723533588E+001 -4.3790677729E+001 -1.9912255334E+001 -7.8897992108E+001
10247500000.000 -4.0224353513E+000 -1.3675861469E+002 -4.4175361765E+001 -8.0398213956E+001 -9.0866712432E+001 -4.3353106070E+001 -2.1151851197E+001 -6.5866472548E+001
10380000000.000 -3.9995917022E+000 -1.3729906816E+002 -4.4462370231E+001 -1.1824817439E+002 -9.7732780677E+001 -1.0127285305E+002 -2.1082992230E+001 -4.9676117121E+001
10512500000.000 -3.9767123812E+000 -1.3759914569E+002 -4.4600809513E+001 -1.5348475228E+002 -8.3436719423E+001 -7.6919597273E+001 -2.1518348201E+001 -4.1624027403E+001
10645000000.000 -3.9384805766E+000 -1.3785264015E+002 -4.4605582229E+001 +1.7357495606E+002 -8.4517783178E+001 +6.5299592251E+001 -2.2816064627E+001 -2.3811799795E+001
10777500000.000 -3.8868170977E+000 -1.3826764654E+002 -4.5011586799E+001 +1.3711091082E+002 -8.4181136143E+001 +1.0710933175E+002 -2.2233466737E+001 -5.7105931375E+000
10910000000.000 -3.8551170680E+000 -1.3872972478E+002 -4.5427184796E+001 +1.0071291974E+002 -8.9107112058E+001 +1.3902233418E+002 -2.2790082648E+001 +4.7518791618E+000
11042500000.000 -3.8210794467E+000 -1.3906817910E+002 -4.5510077307E+001 +6.7006396405E+001 -8.5723931711E+001 +1.8329275685E+001 -2.3426739660E+001 +2.7805813650E+001
11175000000.000 -3.7774946952E+000 -1.3920768204E+002 -4.5963677608E+001 +3.1654089809E+001 -8.8930702660E+001 +8.9594182818E+001 -2.2276235129E+001 +4.3042301445E+001
11307500000.000 -3.7516393595E+000 -1.3945201529E+002 -4.6302011120E+001 -3.6400587203E+000 -8.6024032120E+001 -3.7398172833E+001 -2.2743575966E+001 +5.3627396501E+001
11440000000.000 -3.7113566245E+000 -1.3975750257E+002 -4.6493472719E+001 -3.9416982081E+001 -8.2721681291E+001 -2.0331858266E+001 -2.2563039263E+001 +7.5973725226E+001
11572500000.000 -3.6864312444E+000 -1.3977039107E+002 -4.6758226887E+001 -7.2674008908E+001 -9.9518254381E+001 +4.8067758536E+001 -2.1160313504E+001 +8.7306126696E+001
11705000000.000 -3.6609268614E+000 -1.3992280448E+002 -4.7218880208E+001 -1.1021246848E+002 -8.2809225163E+001 -1.6900184752E+002 -2.1772627541E+001 +9.7381022016E+001
11837500000.000 -3.6265329184E+000 -1.4014072677E+002 -4.7462732192E+001 -1.4295237608E+002 -9.0760059079E+001 -6.2709297096E+001 -2.1110817107E+001 +1.1951443504E+002
11970000000.000 -3.6266029412E+000 -1.4036131496E+002 -4.7805517156E+001 -1.7836907682E+002 -8.4923643919E+001 +9.1042242240E+001 -1.9813822850E+001 +1.2566152541E+002
12102500000.000 -3.6245038593E+000 -1.4032797338E+002 -4.8065497343E+001 +1.4805105372E+002 -8.2434415135E+001 +1.4751580810E+002 -2.0740020561E+001 +1.3562774933E+002
12235000000.000 -3.5866765928E+000 -1.4072899942E+002 -4.8400389888E+001 +1.1248401396E+002 -8.1524558487E+001 -2.1466002188E+001 -1.9766444746E+001 +1.5478528700E+002
12367500000.000 -3.5905469332E+000 -1.4090255054E+002 -4.8536350043E+001 +7.8623497826E+001 -8.5264103559E+001 +2.0654048472E+001 -1.8867059133E+001 +1.5820108416E+002
12500000000.000 -3.5797873474E+000 -1.4128576102E+002 -4.8813102982E+001 +4.3643682944E+001 -9.0528321737E+001 -1.0093327657E+002 -2.0053385982E+001 +1.6826265916E+002
12632500000.000 -3.5643015987E+000 -1.4136077272E+002 -4.9015176768E+001 +9.6214679356E+000 -8.0426753205E+001 -1.0882842352E+002 -1.9175159097E+001 -1.7277562876E+002
12765000000.000 -3.5476809317E+000 -1.4161627227E+002 -4.9568308978E+001 -2.4759638309E+001 -8.8756502921E+001 -6.6954253170E+001 -1.8511761785E+001 -1.7107504933E+002
12897500000.000 -3.5440213744E+000 -1.4192990915E+002 -4.9827577246E+001 -6.0955062118E+001 -9.2076117547E+001 +1.0754578884E+002 -2.0112131324E+001 -1.5926515061E+002
13030000000.000 -3.5409244617E+000 -1.4215590878E+002 -5.0081811088E+001 -9.5441572325E+001 -8.7790248248E+001 -1.4148445257E+002 -1.8859651598E+001 -1.4142969622E+002
13162500000.000 -3.5207944898E+000 -1.4225888045E+002 -5.0277593701E+001 -1.2839720908E+002 -8.3466529307E+001 -5.5929198581E+001 -1.8658879311E+001 -1.4135013695E+002
13295000000.000 -3.5015118002E+000 -1.4241992102E+002 -5.0503307142E+001 -1.6312713139E+002 -8.4146750678E+001 +1.0746116124E+002 -2.0027042888E+001 -1.2772499504E+002
13427500000.000 -3.4948338484E+000 -1.4281895688E+002 -5.0843286190E+001 +1.6308258489E+002 -8.9744386038E+001 -1.5934480965E+002 -1.8865887577E+001 -1.1413757504E+002
13560000000.000 -3.5096472840E+000 -1.4289595256E+002 -5.1011727550E+001 +1.2624379223E+002 -8.1768042755E+001 +3.8986547210E+000 -1.9062006939E+001 -1.1442106057E+002
13692500000.000 -3.4829519300E+000 -1.4294053755E+002 -5.1730232688E+001 +9.0941092063E+001 -7.8330793224E+001 +4.5392302761E+001 -2.0821959971E+001 -1.0112899606E+002
13825000000.000 -3.4509819565E+000 -1.4323260103E+002 -5.2204010380E+001 +5.8255172414E+001 -8.2255274949E+001 -1.3743099133E+002 -1.9743163284E+001 -8.7578101954E+001
13957500000.000 -3.4561566104E+000 -1.4359292757E+002 -5.2621453952E+001 +2.5966785900E+001 -9.5661583265E+001 -2.6585325435E+001 -2.0419274865E+001 -8.9869256025E+001
14090000000.000 -3.4549308090E+000 -1.4368291821E+002 -5.2824996369E+001 -9.2647123516E+000 -8.4840887947E+001 +1.0717150152E+002 -2.2665757109E+001 -7.2373938714E+001
14222500000.000 -3.4307627343E+000 -1.4360663046E+002 -5.2579519358E+001 -4.4104842346E+001 -8.6128535127E+001 -5.2887191385E+001 -2.1277445130E+001 -5.9291569015E+001
14355000000.000 -3.3911352759E+000 -1.4392019989E+002 -5.3468270895E+001 -7.5992651589E+001 -7.6770932201E+001 -1.0712891435E+002 -2.2542763500E+001 -6.3782072641E+001
14487500000.000 -3.3783580396E+000 -1.4403256319E+002 -5.3519983443E+001 -1.1070541653E+002 -8.4810339184E+001 -7.1852182383E+001 -2.5596144009E+001 -4.0029430520E+001
14620000000.000 -3.3776426633E+000 -1.4400410968E+002 -5.3840798529E+001 -1.4360233271E+002 -8.9292723179E+001 -1.5967589075E+002 -2.3279405201E+001 -2.7221660597E+001
14752500000.000 -3.3258560653E+000 -1.4385837758E+002 -5.4052681980E+001 -1.7250162634E+002 -7.9761715335E+001 -1.3374439106E+002 -2.5351922506E+001 -3.6818495338E+001
14885000000.000 -3.2895313374E+000 -1.4390334949E+002 -5.3886719474E+001 +1.5036450245E+002 -8.1943392253E+001 +1.7237766766E+001 -2.9032478767E+001 +2.6627853093E+000
15017500000.000 -3.2833033151E+000 -1.4392065911E+002 -5.4513248826E+001 +1.1398756266E+002 -8.0149287280E+001 +1.3239346372E+002 -2.5366064638E+001 +9.5672923734E+000
15150000000.000 -3.2655391219E+000 -1.4374739439E+002 -5.4403144631E+001 +8.3369349135E+001 -8.1016399543E+001 -1.7424858073E+002 -2.9047142389E+001 -2.7137906105E+000
15282500000.000 -3.2387608180E+000 -1.4360585950E+002 -5.4334218244E+001 +4.6810221419E+001 -8.5030911420E+001 -1.7504956342E+002 -3.1283714225E+001 +5.8133056746E+001
