!  2-Port S-parameters saved by WinCal
! VAR MeasName=S-Parameters (CALIBRATED_DATA) read from VNA (C)
! VAR MeasDate=10/16/2015 2:26:51 PM
! VAR NAME=M6082_10_13_2_2_20C_1.4mA_-17.5dBm
! VAR FILENAME=M6082_10_13_2_2_20C_1.4mA_-17.5dBm.S2P
! VAR DATE=10/16/2015 2:26:51 PM
! VAR PHYS_PORTS=2,1
! VAR ObjTypeName=DATASET
! VAR IndexType=Frequency
!
# Hz S DB R 50
45000000.000 -1.4526522881E+001 -9.0786574631E-001 -4.4978840280E+001 +1.0861426576E+002 -6.1690568109E+001 +5.0177695793E+001 -3.0581140848E+001 +7.3081088687E+000
177500000.000 -1.4919862626E+001 -8.9950384931E+000 -4.6754732114E+001 +6.6796724950E+001 -7.0804435476E+001 +1.0449240470E+002 -3.2757802207E+001 +4.6237083639E+001
310000000.000 -1.4802147899E+001 -1.5723600506E+001 -4.8531824025E+001 +3.4133227669E+001 -7.7050833296E+001 -1.0620804060E+002 -2.3376104819E+001 +6.4491122098E+001
442500000.000 -1.5262714590E+001 -2.0403918717E+001 -4.6094846473E+001 -5.3036985471E+000 -7.9823311641E+001 -2.5046838278E+001 -2.2406173960E+001 +1.7256842396E+001
575000000.000 -1.5531597000E+001 -2.4859648365E+001 -4.6416616689E+001 -4.3739188757E+001 -8.1689405365E+001 +1.0933849971E+002 -3.0660334328E+001 +2.2364010851E+001
707500000.000 -1.5501316450E+001 -2.9620197650E+001 -4.6793820726E+001 -7.9081310839E+001 -9.6466062094E+001 -8.5093424128E+001 -3.4515782135E+001 +8.3818345899E+001
840000000.000 -1.5558585483E+001 -3.3442139263E+001 -4.6659255423E+001 -1.1550506473E+002 -8.3686952432E+001 -3.7592367118E+001 -2.9682929389E+001 +1.2736503239E+002
972500000.000 -1.5370387030E+001 -3.7519949476E+001 -4.6705648921E+001 -1.5206645824E+002 -8.9557998891E+001 +1.2499740678E+002 -2.5955238794E+001 +1.3537120863E+002
1105000000.000 -1.5258505841E+001 -4.1339108059E+001 -4.6962848657E+001 +1.7289273561E+002 -8.5731655921E+001 -8.1846247404E+001 -2.4357880692E+001 +1.4081815411E+002
1237500000.000 -1.5020259941E+001 -4.4885011361E+001 -4.7086437718E+001 +1.3698900923E+002 -8.4488716417E+001 -1.1679097585E+001 -2.3392346163E+001 +1.4993421249E+002
1370000000.000 -1.4797635647E+001 -4.8469770216E+001 -4.7205235987E+001 +1.0010375444E+002 -7.8707504143E+001 +1.3122814423E+002 -2.2072686724E+001 +1.6001618230E+002
1502500000.000 -1.4763938344E+001 -5.1198220061E+001 -4.6854993027E+001 +6.5497303314E+001 -9.1436108699E+001 -1.5970189309E+002 -2.0866806396E+001 +1.6642648944E+002
1635000000.000 -1.4390190716E+001 -5.4284644513E+001 -4.7004574239E+001 +2.8744035943E+001 -8.4485825532E+001 -2.7412221663E+001 -2.0026118028E+001 +1.7329618258E+002
1767500000.000 -1.4137863378E+001 -5.7135980614E+001 -4.7114023539E+001 -7.9548194455E+000 -8.9143432929E+001 +3.5182911898E+001 -1.9022613800E+001 +1.7853700645E+002
1900000000.000 -1.4122930878E+001 -5.8849893460E+001 -4.6474483942E+001 -4.3796928825E+001 -8.9295970376E+001 -1.1498380409E+002 -1.8873534694E+001 -1.7828150767E+002
2032500000.000 -1.3920861602E+001 -6.1208133616E+001 -4.6224964251E+001 -7.9380172898E+001 -8.3756565552E+001 -4.5084896357E+001 -1.8698328102E+001 -1.6789118225E+002
2165000000.000 -1.3683678392E+001 -6.3275287806E+001 -4.6220862509E+001 -1.1564352630E+002 -7.8400535347E+001 +9.3094345551E+001 -1.7742448401E+001 -1.6094785662E+002
2297500000.000 -1.3627222006E+001 -6.4963199872E+001 -4.5468130358E+001 -1.4887268489E+002 -9.9898300314E+001 -8.8283065330E+001 -1.7239587877E+001 -1.5713934135E+002
2430000000.000 -1.3499324935E+001 -6.6628425840E+001 -4.5073607328E+001 +1.7651413434E+002 -9.0846236114E+001 +1.2756224097E+002 -1.6943391543E+001 -1.5284919593E+002
2562500000.000 -1.3238742124E+001 -6.8536251998E+001 -4.5239410619E+001 +1.4164866670E+002 -7.4417868842E+001 +3.9625060938E+001 -1.6838860482E+001 -1.5046386067E+002
2695000000.000 -1.3157616334E+001 -7.0387906291E+001 -4.4536298022E+001 +1.0808174767E+002 -8.9901247648E+001 -1.3981291982E+002 -1.7374793323E+001 -1.4709364006E+002
2827500000.000 -1.3018531985E+001 -7.1951175520E+001 -4.4323128522E+001 +7.3991019999E+001 -8.0987952784E+001 -1.4097528158E+002 -1.7857857047E+001 -1.4030092652E+002
2960000000.000 -1.2681849191E+001 -7.3271908018E+001 -4.4343370029E+001 +3.5615702431E+001 -7.4242131145E+001 -9.6529252646E+000 -1.8166190546E+001 -1.3543797519E+002
3092500000.000 -1.2349262036E+001 -7.4753143721E+001 -4.3976788318E+001 -1.4144498606E+000 -8.7649286410E+001 -3.4294902476E+001 -1.9074680091E+001 -1.2930972848E+002
3225000000.000 -1.2087367201E+001 -7.6389674629E+001 -4.3901558075E+001 -3.9261242069E+001 -8.1446345749E+001 -8.6475720515E+001 -1.9587477950E+001 -1.1972187271E+002
3357500000.000 -1.1696664258E+001 -7.7832471512E+001 -4.4021569619E+001 -8.0017794503E+001 -7.8332202161E+001 -4.2909422895E+001 -1.9956138917E+001 -1.1427801720E+002
3490000000.000 -1.1242209233E+001 -7.9433249399E+001 -4.4093841746E+001 -1.2069501798E+002 -8.5704594643E+001 +9.7044346167E+001 -2.1140816797E+001 -1.0852322464E+002
3622500000.000 -1.0908795160E+001 -8.1124079610E+001 -4.3828397503E+001 -1.5872047885E+002 -8.8246312766E+001 -1.6295444939E+002 -2.1948326618E+001 -9.8236865994E+001
3755000000.000 -1.0539715593E+001 -8.3537653681E+001 -4.4208798830E+001 +1.6015880728E+002 -7.9137110370E+001 +7.9619442789E+001 -2.2732241157E+001 -9.4627157131E+001
3887500000.000 -1.0249264514E+001 -8.5802487837E+001 -4.4812667558E+001 +1.1828980671E+002 -8.3375953115E+001 +8.6613572688E+001 -2.5050413897E+001 -8.7767201963E+001
4020000000.000 -1.0008201139E+001 -8.7497585371E+001 -4.4798745847E+001 +7.8164518328E+001 -8.7000826284E+001 +1.6824535642E+002 -2.6668331281E+001 -7.3222938627E+001
4152500000.000 -9.7675022379E+000 -8.9313614055E+001 -4.5023522365E+001 +4.0054132450E+001 -8.4120817477E+001 -3.8268199440E+001 -2.8869594195E+001 -6.4831335804E+001
4285000000.000 -9.5768846933E+000 -9.1327260945E+001 -4.5699597259E+001 -1.3428056639E-001 -8.3447394734E+001 +3.3225210391E+001 -3.3350857447E+001 -3.7497625259E+001
4417500000.000 -9.4090966981E+000 -9.3230261236E+001 -4.6108444234E+001 -3.9327466562E+001 -8.3048249927E+001 +1.0329502977E+002 -3.1757811167E+001 +8.2279332970E+000
4550000000.000 -9.2645042641E+000 -9.4567033920E+001 -4.6264610766E+001 -7.7719587247E+001 -8.2568240203E+001 -6.0430185532E+001 -3.0377928896E+001 +1.8411549514E+001
4682500000.000 -9.1268261782E+000 -9.6152438794E+001 -4.7278598442E+001 -1.1383840432E+002 -7.9794513911E+001 +1.2075248018E+001 -2.9667355613E+001 +3.9061592075E+001
4815000000.000 -8.9979390500E+000 -9.7604736214E+001 -4.7720649706E+001 -1.5159797449E+002 -9.4439925854E+001 +1.6181771252E+002 -2.7632338286E+001 +4.1403877144E+001
4947500000.000 -8.8852347977E+000 -9.8719540065E+001 -4.7830940103E+001 +1.7264708233E+002 -8.5174123211E+001 -8.7451069051E+001 -2.9373945623E+001 +3.5692616240E+001
5080000000.000 -8.7829687010E+000 -9.9721893782E+001 -4.8178999915E+001 +1.3577651270E+002 -8.4928566870E+001 -3.2414601889E+001 -3.2217916009E+001 +5.7100595593E+001
5212500000.000 -8.6801777105E+000 -1.0079851799E+002 -4.8650754176E+001 +9.8851884288E+001 -8.4365512407E+001 +1.5026890388E+002 -3.1542074568E+001 +6.9644180762E+001
5345000000.000 -8.5820830848E+000 -1.0177231201E+002 -4.8585016867E+001 +6.3379960124E+001 -9.1625531247E+001 -1.2996943588E+002 -3.5352138697E+001 +7.1525587796E+001
5477500000.000 -8.5197997714E+000 -1.0241652666E+002 -4.8844021391E+001 +2.8460315814E+001 -8.2007577163E+001 -6.0911959565E+001 -3.7194368774E+001 +1.3213305497E+002
5610000000.000 -8.4263611148E+000 -1.0318254029E+002 -4.9327128318E+001 -7.9975225491E+000 -8.2652572506E+001 +3.8271196489E+001 -3.3619707413E+001 +1.3599630761E+002
5742500000.000 -8.3408211915E+000 -1.0404953792E+002 -4.9528408840E+001 -4.2958463772E+001 -9.8025569925E+001 -3.6146766442E+001 -3.7730288073E+001 +1.5252698694E+002
5875000000.000 -8.2920618823E+000 -1.0484159040E+002 -4.9441722415E+001 -7.8528398372E+001 -9.0941281262E+001 -4.7189310430E+001 -3.3751269591E+001 -1.7036617466E+002
6007500000.000 -8.2442599258E+000 -1.0546015243E+002 -4.9950000740E+001 -1.1296313630E+002 -9.1423926951E+001 +1.3470760541E+002 -3.2689332244E+001 +1.7963026378E+002
6140000000.000 -8.1498969782E+000 -1.0611756814E+002 -5.0397003861E+001 -1.4761308196E+002 -8.1425285664E+001 -1.6723385932E+002 -3.6125224237E+001 -1.6981888374E+002
6272500000.000 -8.0505221269E+000 -1.0712514001E+002 -5.0195022326E+001 +1.7723775556E+002 -8.9191522143E+001 -2.0800409951E+001 -3.3886759334E+001 -1.4455910447E+002
6405000000.000 -8.0219176081E+000 -1.0803462636E+002 -5.0538993942E+001 +1.4304277180E+002 -8.5058548314E+001 +4.1394422209E+001 -3.3812608414E+001 -1.6206255532E+002
6537500000.000 -7.9751832981E+000 -1.0843702624E+002 -5.1287368154E+001 +1.0973099799E+002 -9.0049755357E+001 +1.1188838976E+002 -4.0134652335E+001 -1.6081392734E+002
6670000000.000 -7.8349491894E+000 -1.0904070801E+002 -5.0980512022E+001 +7.4269830937E+001 -9.3746104851E+001 -6.9070646164E+001 -3.9315292532E+001 -1.3738423448E+002
6802500000.000 -7.7458076542E+000 -1.1010573411E+002 -5.1054678946E+001 +3.9058961391E+001 -9.9974096097E+001 -4.5607565682E+001 -3.8854695156E+001 +1.7938458376E+002
6935000000.000 -7.7630243963E+000 -1.1082716637E+002 -5.2500659390E+001 +1.0210550750E+001 -8.9709770631E+001 +2.8544034639E+001 -3.8581659030E+001 +1.2295314563E+002
7067500000.000 -7.6814481341E+000 -1.1111973750E+002 -5.2119259236E+001 -2.6396150307E+001 -8.4166622940E+001 -1.5264996579E+002 -3.9088758928E+001 +1.1498835987E+002
7200000000.000 -7.5302845930E+000 -1.1175852690E+002 -5.1523263104E+001 -6.5675549273E+001 -7.9983994754E+001 -8.1724068840E+001 -3.2885388530E+001 +1.3154372314E+002
7332500000.000 -7.4713893395E+000 -1.1269282441E+002 -5.2070383055E+001 -9.7380706788E+001 -1.0570165103E+002 +1.3187232287E+002 -2.9083131032E+001 +1.1901337641E+002
7465000000.000 -7.4333101448E+000 -1.1322236313E+002 -5.2927813332E+001 -1.3227755607E+002 -8.3997643344E+001 +1.5710892908E+002 -2.8640634323E+001 +1.2234494690E+002
7597500000.000 -7.3226735053E+000 -1.1362135217E+002 -5.1516631345E+001 -1.6896244615E+002 -8.7135288699E+001 +1.6705752450E+001 -2.6153702167E+001 +1.3750864015E+002
7730000000.000 -7.2234629358E+000 -1.1412683743E+002 -5.2610606058E+001 +1.5825330288E+002 -8.3245603613E+001 +4.1785500096E+001 -2.3732140999E+001 +1.3790118903E+002
7862500000.000 -7.1821776708E+000 -1.1462591170E+002 -5.3919036561E+001 +1.2903109863E+002 -8.7596414123E+001 +1.5151881925E+002 -2.3282891304E+001 +1.4144355203E+002
7995000000.000 -7.1042751369E+000 -1.1503053573E+002 -5.3100324417E+001 +8.9820989851E+001 -8.7209862907E+001 +2.2428196274E+001 -2.1849357869E+001 +1.5425494178E+002
8127500000.000 -7.0001363983E+000 -1.1524758556E+002 -5.3163545129E+001 +5.2486852639E+001 -8.6430852889E+001 +7.1026550253E+001 -2.0030581813E+001 +1.5647423570E+002
8260000000.000 -6.9350812321E+000 -1.1576661294E+002 -5.4097285266E+001 +2.2474470859E+001 -8.5434239992E+001 +6.0096990444E+001 -1.9864316327E+001 +1.6018768040E+002
8392500000.000 -6.8836911652E+000 -1.1604339399E+002 -5.4220567561E+001 -1.4037520871E+001 -8.8795750612E+001 -1.3427703702E+002 -1.9071822294E+001 +1.7044338988E+002
8525000000.000 -6.8196407085E+000 -1.1614925041E+002 -5.4004918009E+001 -4.7440844199E+001 -8.0901923911E+001 +7.0662682628E+001 -1.8208598068E+001 +1.7300446118E+002
8657500000.000 -6.7546934184E+000 -1.1637869781E+002 -5.4955402146E+001 -8.0795243059E+001 -9.6276345225E+001 +1.1005689801E+002 -1.8564945658E+001 +1.7795035922E+002
8790000000.000 -6.6859451184E+000 -1.1676428719E+002 -5.5296732738E+001 -1.1351092625E+002 -9.1987010752E+001 -1.1820162822E+002 -1.8348573504E+001 -1.7172856192E+002
8922500000.000 -6.6632794170E+000 -1.1707953144E+002 -5.5031121416E+001 -1.4861017807E+002 -9.9687385829E+001 -1.0837309369E+002 -1.7985113613E+001 -1.6600284934E+002
9055000000.000 -6.6106167986E+000 -1.1722623964E+002 -5.5259854018E+001 +1.7679668072E+002 -8.8016325599E+001 +1.2702835836E+002 -1.8464606355E+001 -1.5834891745E+002
9187500000.000 -6.5601068782E+000 -1.1753280169E+002 -5.5846144019E+001 +1.4466337820E+002 -9.1555635679E+001 +1.7904929587E+002 -1.8384028192E+001 -1.4628476831E+002
9320000000.000 -6.5087935341E+000 -1.1818901304E+002 -5.6096109656E+001 +1.1031965595E+002 -8.9046983379E+001 -6.7061900812E+001 -1.8210379082E+001 -1.3961960691E+002
9452500000.000 -6.4829187458E+000 -1.1852082907E+002 -5.6502835740E+001 +7.5691306538E+001 -8.0948726006E+001 +1.0928195659E+002 -1.8855779243E+001 -1.3058051385E+002
9585000000.000 -6.4355637584E+000 -1.1882373057E+002 -5.6572432635E+001 +4.1775935106E+001 -8.7376067667E+001 -1.2684494847E+002 -1.8802550316E+001 -1.1815089477E+002
9717500000.000 -6.3509731911E+000 -1.1930917349E+002 -5.6751256963E+001 +6.3352621393E+000 -7.7583201224E+001 -1.5106298831E+001 -1.8812102738E+001 -1.1107925433E+002
9850000000.000 -6.3273988427E+000 -1.2004729610E+002 -5.7412357804E+001 -2.2811764157E+001 -8.8584808134E+001 +7.4903823462E+001 -1.9659783269E+001 -1.0058118146E+002
9982500000.000 -6.2934392562E+000 -1.2018487430E+002 -5.7547626227E+001 -6.0753060924E+001 -9.0500454937E+001 +1.4033907214E+002 -1.9702780897E+001 -8.6419713083E+001
10115000000.000 -6.2269106763E+000 -1.2047580361E+002 -5.7511529895E+001 -9.3433169606E+001 -8.2327239968E+001 -4.9925771224E+001 -1.9919784276E+001 -7.8994156247E+001
10247500000.000 -6.1622633830E+000 -1.2111463321E+002 -5.7374841961E+001 -1.2830184242E+002 -8.2943924234E+001 +8.7818700699E+001 -2.1150658444E+001 -6.5995707419E+001
10380000000.000 -6.1378859551E+000 -1.2155281576E+002 -5.8230614126E+001 -1.6076779841E+002 -8.5616375527E+001 +9.9232550818E+001 -2.1069830963E+001 -4.9791804567E+001
10512500000.000 -6.0992858998E+000 -1.2186735471E+002 -5.8034508963E+001 +1.6461875932E+002 -8.7905358457E+001 -6.6207399849E+001 -2.1514199986E+001 -4.1756487291E+001
10645000000.000 -6.0440055019E+000 -1.2220144875E+002 -5.8162816829E+001 +1.2714187974E+002 -9.3498059729E+001 -8.5084380471E+001 -2.2819106438E+001 -2.3863631787E+001
10777500000.000 -5.9826121058E+000 -1.2264997690E+002 -5.9166961876E+001 +1.0117241021E+002 -8.9291694155E+001 -1.5007146974E+002 -2.2209280972E+001 -5.7456518621E+000
10910000000.000 -5.9366016498E+000 -1.2307816987E+002 -5.9864450503E+001 +6.4782323243E+001 -8.1232295098E+001 -1.5071460277E+002 -2.2787578427E+001 +4.4694117521E+000
11042500000.000 -5.8805080579E+000 -1.2349393975E+002 -5.9788139121E+001 +2.5939784512E+001 -8.3165903841E+001 -7.3734632469E+001 -2.3444728923E+001 +2.7824375784E+001
11175000000.000 -5.8168425827E+000 -1.2370475256E+002 -5.9908507965E+001 -3.4015845390E+000 -7.9706991118E+001 +4.8814268964E+001 -2.2263700493E+001 +4.2918691972E+001
11307500000.000 -5.7764800266E+000 -1.2396118936E+002 -6.0430905139E+001 -3.7082713356E+001 -8.5471905602E+001 -1.7820833695E+002 -2.2728585154E+001 +5.3415573448E+001
11440000000.000 -5.7131514686E+000 -1.2432668190E+002 -6.0533830995E+001 -7.0297685213E+001 -8.8647939324E+001 +8.8065514863E+000 -2.2569624980E+001 +7.5929552228E+001
11572500000.000 -5.6658495769E+000 -1.2434184734E+002 -6.1037098580E+001 -1.0348510617E+002 -9.1840477266E+001 -1.8568837256E+001 -2.1156153509E+001 +8.7152432425E+001
11705000000.000 -5.6253399191E+000 -1.2453020700E+002 -6.0987835847E+001 -1.3769722547E+002 -8.7754534431E+001 -1.4052943349E+002 -2.1765344270E+001 +9.7228993478E+001
11837500000.000 -5.5720097207E+000 -1.2478715134E+002 -6.1985682690E+001 -1.6920777117E+002 -7.8787903760E+001 -6.4699475804E+001 -2.1112399569E+001 +1.1944043899E+002
11970000000.000 -5.5645200611E+000 -1.2497122481E+002 -6.2419848894E+001 +1.6046698025E+002 -7.8908274050E+001 +6.3471988242E+001 -1.9808261878E+001 +1.2558788099E+002
12102500000.000 -5.5426934835E+000 -1.2489088012E+002 -6.2504923607E+001 +1.2247293970E+002 -9.0094560578E+001 -1.6467650660E+002 -2.0744809269E+001 +1.3549674743E+002
12235000000.000 -5.4894961075E+000 -1.2542065960E+002 -6.2697963655E+001 +8.7156789534E+001 -8.1772484774E+001 -1.2077610825E+002 -1.9763337318E+001 +1.5468204962E+002
12367500000.000 -5.4905573120E+000 -1.2551855485E+002 -6.2074788668E+001 +6.0010920390E+001 -1.1439545676E+002 +3.6135152355E+001 -1.8876869319E+001 +1.5806342472E+002
12500000000.000 -5.4697251413E+000 -1.2596825273E+002 -6.2356412739E+001 +1.5034716653E+001 -9.3595352149E+001 -1.6385794928E+001 -2.0052484651E+001 +1.6816955221E+002
12632500000.000 -5.4277226570E+000 -1.2607648298E+002 -6.2104402221E+001 -9.3621723721E+000 -9.0247944153E+001 -4.4093893101E+001 -1.9164262855E+001 -1.7292078225E+002
12765000000.000 -5.4087970644E+000 -1.2637938032E+002 -6.2258334995E+001 -4.8276160786E+001 -9.5184666407E+001 +1.1264839471E+002 -1.8519914872E+001 -1.7122889320E+002
12897500000.000 -5.4035561010E+000 -1.2672690442E+002 -6.3067252733E+001 -8.3104421212E+001 -9.4590672073E+001 +4.0094569192E+001 -2.0125848766E+001 -1.5937309881E+002
13030000000.000 -5.3851771565E+000 -1.2694303078E+002 -6.2744154845E+001 -1.1883736802E+002 -8.7854640299E+001 -9.5658654646E+001 -1.8847316929E+001 -1.4154584993E+002
13162500000.000 -5.3497514881E+000 -1.2711009347E+002 -6.3211124066E+001 -1.4877135012E+002 -8.6057428035E+001 -1.8786069688E+001 -1.8647240400E+001 -1.4148800174E+002
13295000000.000 -5.3201466026E+000 -1.2733510874E+002 -6.3168921014E+001 +1.7179964135E+002 -7.8212500235E+001 +1.1442468680E+002 -2.0039080232E+001 -1.2778371039E+002
13427500000.000 -5.3090981970E+000 -1.2778950031E+002 -6.4137322396E+001 +1.3553075332E+002 -8.3705840317E+001 +1.4507133947E+002 -1.8852283528E+001 -1.1414566248E+002
13560000000.000 -5.3159855092E+000 -1.2784924761E+002 -6.4244705841E+001 +1.0836452848E+002 -9.0162223124E+001 +6.9285392727E+001 -1.9052601294E+001 -1.1452424113E+002
13692500000.000 -5.2726105856E+000 -1.2796278199E+002 -6.5060127180E+001 +8.7794934072E+001 -8.1195599357E+001 +1.0517455815E+002 -2.0830720184E+001 -1.0127031276E+002
13825000000.000 -5.2298310348E+000 -1.2836586870E+002 -6.5311495839E+001 +3.7099970869E+001 -8.6583434744E+001 +1.1098224727E+002 -1.9726316897E+001 -8.7559480012E+001
13957500000.000 -5.2342746438E+000 -1.2877729415E+002 -6.4278067135E+001 +3.4649775884E-001 -7.9484791278E+001 -6.3765994218E+001 -2.0401234185E+001 -8.9986266043E+001
14090000000.000 -5.2230006989E+000 -1.2888750045E+002 -6.5040954748E+001 -1.5785731505E+001 -8.1593675850E+001 +6.5674040658E+001 -2.2673375607E+001 -7.2582474235E+001
14222500000.000 -5.1758633168E+000 -1.2885752693E+002 -6.7085322064E+001 -5.3176041811E+001 -7.7665563822E+001 +1.2572751440E+002 -2.1267455974E+001 -5.9274793783E+001
14355000000.000 -5.1251202370E+000 -1.2929484461E+002 -6.6075770490E+001 -8.6030694560E+001 -7.6898659688E+001 -3.8509127832E+001 -2.2514728506E+001 -6.3612520517E+001
14487500000.000 -5.1078774764E+000 -1.2953993406E+002 -6.7816630204E+001 -1.2082475406E+002 -7.9940665083E+001 +5.3609630031E+001 -2.5556804139E+001 -4.0253392518E+001
14620000000.000 -5.0949768435E+000 -1.2947995378E+002 -6.6892620219E+001 -1.4915636159E+002 -8.0115207986E+001 +5.2319840484E+001 -2.3260346414E+001 -2.7253657246E+001
14752500000.000 -5.0153528554E+000 -1.2945081967E+002 -6.7013367301E+001 -1.6749237111E+002 -8.3644347468E+001 -1.6425531714E+002 -2.5357200997E+001 -3.6819274069E+001
14885000000.000 -4.9770913091E+000 -1.2959314047E+002 -6.5943780545E+001 +1.3691282054E+002 -8.8560985663E+001 +6.6083095387E+001 -2.8981357882E+001 +2.4041126133E+000
15017500000.000 -4.9640372945E+000 -1.2959028772E+002 -6.5800642264E+001 +1.2104655714E+002 -8.5687124459E+001 -2.1054175306E+001 -2.5381267985E+001 +9.3104329162E+000
15150000000.000 -4.9161800823E+000 -1.2941009415E+002 -6.6090290180E+001 +7.8560100949E+001 -8.3391731869E+001 -1.4268506063E+002 -2.9048842969E+001 -2.6057970352E+000
15282500000.000 -4.8842470983E+000 -1.2932276009E+002 -6.7932794119E+001 +5.1613048885E+001 -7.6879136867E+001 +2.4386755974E+000 -3.1224615874E+001 +5.7964459345E+001
