!  2-Port S-parameters saved by WinCal
! VAR MeasName=S-Parameters (CALIBRATED_DATA) read from VNA (C)
! VAR MeasDate=10/16/2015 11:01:16 AM
! VAR NAME=M6082_13_13_2_2_20C_8.3mA_-17.5dBm
! VAR FILENAME=M6082_13_13_2_2_20C_8.3mA_-17.5dBm_1_1.S2P
! VAR DATE=10/16/2015 11:01:16 AM
! VAR PHYS_PORTS=2,1
! VAR ObjTypeName=DATASET
! VAR IndexType=Frequency
!
# Hz S DB R 50
45000000.000 -1.7259405502E+001 +4.8784253019E-001 -4.1634291019E+001 +1.0505844542E+002 -6.3152797806E+001 +4.3868190138E+001 -3.0934121274E+001 +7.9178564214E+000
177500000.000 -1.7162421076E+001 -1.5231127114E+000 -4.3017835709E+001 +6.9395751928E+001 -7.9733670022E+001 +1.3093336293E+002 -3.2518337921E+001 +4.6159344756E+001
310000000.000 -1.7077768432E+001 -3.5588045701E+000 -4.3420491580E+001 +3.9453423362E+001 -7.7410510865E+001 -1.5952368362E+002 -2.3316283307E+001 +6.4458809891E+001
442500000.000 -1.7026014226E+001 -5.9079510067E+000 -4.2197512503E+001 +1.5219680497E+000 -8.6523693364E+001 -5.2843315993E+001 -2.2299997905E+001 +1.7781022748E+001
575000000.000 -1.6990132071E+001 -8.2852921606E+000 -4.2702744654E+001 -3.4762728317E+001 -8.2785770586E+001 -7.2114801417E+001 -3.0435186397E+001 +2.2875600566E+001
707500000.000 -1.6968016594E+001 -1.0338767080E+001 -4.2809530601E+001 -6.8158628704E+001 -8.7459734538E+001 -8.7321257446E+001 -3.4408973609E+001 +8.2460178214E+001
840000000.000 -1.6897930534E+001 -1.2601459111E+001 -4.2960604492E+001 -1.0201439651E+002 -9.8266613427E+001 +1.4433301411E+002 -2.9705793067E+001 +1.2698949614E+002
972500000.000 -1.6826205346E+001 -1.4727814688E+001 -4.2879497812E+001 -1.3526239693E+002 -8.7485568164E+001 +1.6185827492E+002 -2.5914123025E+001 +1.3505495996E+002
1105000000.000 -1.6790212592E+001 -1.6992348019E+001 -4.3021377168E+001 -1.6985172971E+002 -8.0556985986E+001 -5.8014397913E+001 -2.4339981737E+001 +1.4056295365E+002
1237500000.000 -1.6737203995E+001 -1.8921073959E+001 -4.3057355685E+001 +1.5664455672E+002 -8.4525914814E+001 -1.2822346775E+001 -2.3384484437E+001 +1.4976458497E+002
1370000000.000 -1.6668369069E+001 -2.0986612253E+001 -4.3178002403E+001 +1.2253357849E+002 -1.0274035967E+002 -4.1258700133E+001 -2.2053112771E+001 +1.5976830434E+002
1502500000.000 -1.6600970023E+001 -2.2960682576E+001 -4.3220436265E+001 +8.8804490605E+001 -8.5116441987E+001 -6.6816562957E+001 -2.0848665976E+001 +1.6618002555E+002
1635000000.000 -1.6488449656E+001 -2.4754966502E+001 -4.3108714759E+001 +5.4522967061E+001 -8.5882286314E+001 +1.9737761849E+001 -2.0015010622E+001 +1.7314383570E+002
1767500000.000 -1.6388129396E+001 -2.6952004633E+001 -4.3215170851E+001 +2.1490671202E+001 -8.9110365109E+001 +1.5742301742E+002 -1.9004990116E+001 +1.7835279083E+002
1900000000.000 -1.6300749168E+001 -2.8594508281E+001 -4.3090951190E+001 -1.3651285335E+001 -8.4408934695E+001 -1.2592309270E+002 -1.8860135368E+001 -1.7841072262E+002
2032500000.000 -1.6234396528E+001 -3.0245015170E+001 -4.3119796046E+001 -4.7342693683E+001 -8.1830577793E+001 -6.6657466193E+001 -1.8671646821E+001 -1.6798450102E+002
2165000000.000 -1.6069545782E+001 -3.1965597344E+001 -4.3309038591E+001 -8.1106685307E+001 -8.0888874348E+001 +2.0893387872E+001 -1.7734294606E+001 -1.6112309436E+002
2297500000.000 -1.5971731427E+001 -3.3585607914E+001 -4.3257622960E+001 -1.1499948196E+002 -8.2582995735E+001 +1.2587757973E+002 -1.7233320777E+001 -1.5713951503E+002
2430000000.000 -1.5898573552E+001 -3.5092742355E+001 -4.3261398213E+001 -1.4807176376E+002 -9.0475111338E+001 +5.4701209493E+001 -1.6920988801E+001 -1.5290419355E+002
2562500000.000 -1.5780943267E+001 -3.6713910648E+001 -4.3276673949E+001 +1.7783813178E+002 -8.1510168880E+001 -4.4694141559E+000 -1.6817555404E+001 -1.5064076080E+002
2695000000.000 -1.5744186331E+001 -3.8338176651E+001 -4.3337164137E+001 +1.4409621550E+002 -8.1024506576E+001 +9.6005486144E+001 -1.7350026166E+001 -1.4729874809E+002
2827500000.000 -1.5712034447E+001 -3.9565749716E+001 -4.3381452056E+001 +1.0930336732E+002 -7.7083317404E+001 -1.1535459368E+002 -1.7840626576E+001 -1.4040176441E+002
2960000000.000 -1.5605949285E+001 -4.0797130462E+001 -4.3488558585E+001 +7.6537056612E+001 -8.2035651370E+001 +7.5404893196E+001 -1.8128759950E+001 -1.3566286796E+002
3092500000.000 -1.5495211711E+001 -4.2608923278E+001 -4.3549608431E+001 +4.3419797465E+001 -8.0944520870E+001 +1.3831330162E+002 -1.9080824752E+001 -1.2953897329E+002
3225000000.000 -1.5473642276E+001 -4.4347427427E+001 -4.3538542776E+001 +9.0087015645E+000 -8.2475539079E+001 -1.1807065038E+002 -1.9580370875E+001 -1.1985828034E+002
3357500000.000 -1.5429376363E+001 -4.5458400287E+001 -4.3484647828E+001 -2.5076674269E+001 -7.6355178257E+001 +3.5393832766E+001 -1.9934265820E+001 -1.1441774445E+002
3490000000.000 -1.5272918698E+001 -4.7039838837E+001 -4.3523813397E+001 -5.8140608482E+001 -8.1800115176E+001 +2.5159193878E+001 -2.1113661056E+001 -1.0882781005E+002
3622500000.000 -1.5157919532E+001 -4.8741073420E+001 -4.3419171809E+001 -9.1630331072E+001 -8.1212953858E+001 -1.5617780965E+002 -2.1946465653E+001 -9.8340103562E+001
3755000000.000 -1.5065517558E+001 -5.0417999092E+001 -4.3412783857E+001 -1.2617703641E+002 -8.5180506036E+001 -1.1570193586E+002 -2.2675611195E+001 -9.4582103779E+001
3887500000.000 -1.4955122015E+001 -5.1749235757E+001 -4.3542406457E+001 -1.5925933272E+002 -8.0076769717E+001 +5.5477946620E+001 -2.5000714380E+001 -8.7972488226E+001
4020000000.000 -1.4857204916E+001 -5.3062879361E+001 -4.3383714284E+001 +1.6715291606E+002 -7.9558424033E+001 -5.5345518255E+001 -2.6649813315E+001 -7.3595607268E+001
4152500000.000 -1.4722041897E+001 -5.4345807343E+001 -4.3298134261E+001 +1.3188627808E+002 -8.2071835988E+001 +5.3549522598E+001 -2.8787821360E+001 -6.4392052473E+001
4285000000.000 -1.4589990988E+001 -5.5747379190E+001 -4.3435646376E+001 +9.8300532780E+001 -8.2072682908E+001 -1.8401843798E+000 -3.3168265835E+001 -3.8211316641E+001
4417500000.000 -1.4494513515E+001 -5.7169320797E+001 -4.3513612116E+001 +6.4094123338E+001 -8.3444108505E+001 +1.2635235273E+002 -3.1719655944E+001 +7.2754939367E+000
4550000000.000 -1.4367910283E+001 -5.8174629326E+001 -4.3543224121E+001 +3.1004620685E+001 -9.5226281971E+001 -1.6140532310E+002 -3.0186305004E+001 +1.7617625720E+001
4682500000.000 -1.4204991122E+001 -5.9402865591E+001 -4.3728078044E+001 -1.8909073960E+000 -8.6743195612E+001 +9.7972642690E+001 -2.9599736105E+001 +3.7606521323E+001
4815000000.000 -1.4094269789E+001 -6.0675423981E+001 -4.3610932655E+001 -3.5844272745E+001 -9.0457691255E+001 +1.0006588740E+002 -2.7588854536E+001 +4.0446525990E+001
4947500000.000 -1.3976130095E+001 -6.1448128343E+001 -4.3595861237E+001 -6.8255770379E+001 -9.1452535069E+001 -9.5301151738E+001 -2.9259385025E+001 +3.4627015145E+001
5080000000.000 -1.3815993155E+001 -6.2268432177E+001 -4.3496317567E+001 -1.0169578514E+002 -8.4518823160E+001 +2.5594192542E+001 -3.2135042521E+001 +5.5329439809E+001
5212500000.000 -1.3688720650E+001 -6.3369723998E+001 -4.3397863921E+001 -1.3533424063E+002 -9.0801625558E+001 -1.7080022989E+002 -3.1531861659E+001 +6.7942528966E+001
5345000000.000 -1.3608348597E+001 -6.4202967872E+001 -4.3322191410E+001 -1.7035858791E+002 -8.3611655306E+001 +1.7206524576E+002 -3.5224120859E+001 +6.8584440474E+001
5477500000.000 -1.3475195023E+001 -6.4539049012E+001 -4.3186348759E+001 +1.5561755514E+002 -1.0680748190E+002 -1.7741985352E+002 -3.7613671101E+001 +1.2991480399E+002
5610000000.000 -1.3328945085E+001 -6.5431511265E+001 -4.3220122861E+001 +1.2202720082E+002 -8.4826876004E+001 +1.4232342442E+002 -3.3811716307E+001 +1.3397573492E+002
5742500000.000 -1.3278131637E+001 -6.6310591655E+001 -4.3213548075E+001 +8.7380735269E+001 -9.2410991083E+001 -1.2714652530E+002 -3.8160806614E+001 +1.4917879828E+002
5875000000.000 -1.3245242479E+001 -6.6786376831E+001 -4.3152350026E+001 +5.3532276129E+001 -8.2621522474E+001 -6.0233279738E+001 -3.4060978707E+001 -1.7079611029E+002
6007500000.000 -1.3122707493E+001 -6.7276241321E+001 -4.3154133403E+001 +1.9328142983E+001 -8.2481669165E+001 +6.5899948816E+001 -3.2803296701E+001 +1.7858012873E+002
6140000000.000 -1.3012918723E+001 -6.8218925678E+001 -4.3097593652E+001 -1.5203432130E+001 -9.1098767958E+001 -1.4818988973E+002 -3.6500441389E+001 -1.7204756962E+002
6272500000.000 -1.2977918285E+001 -6.9455124526E+001 -4.3094987858E+001 -4.9172299546E+001 -8.3109195815E+001 -1.1589599360E+002 -3.4236944011E+001 -1.4467759095E+002
6405000000.000 -1.2973006771E+001 -7.0093725961E+001 -4.3166442421E+001 -8.2536113787E+001 -8.2320345501E+001 +3.5617407361E+001 -3.3905565245E+001 -1.6322031993E+002
6537500000.000 -1.2861959101E+001 -7.0434600073E+001 -4.3118474916E+001 -1.1740050073E+002 -8.2674725025E+001 -1.5362327157E+002 -4.0237495549E+001 -1.6536719535E+002
6670000000.000 -1.2695998843E+001 -7.1516756672E+001 -4.3211419960E+001 -1.5163885186E+002 -8.3298759745E+001 -1.4324212749E+002 -3.9890863787E+001 -1.4071363039E+002
6802500000.000 -1.2645207777E+001 -7.2909536305E+001 -4.3233578210E+001 +1.7505627408E+002 -9.1741203680E+001 +1.3644944138E+002 -3.8775712324E+001 +1.7700641884E+002
6935000000.000 -1.2652828427E+001 -7.3530948270E+001 -4.3256703050E+001 +1.4061913968E+002 -9.1750945865E+001 -1.3236436395E+002 -3.8203114293E+001 +1.2362475707E+002
7067500000.000 -1.2534155961E+001 -7.3768369080E+001 -4.3146736266E+001 +1.0669022172E+002 -8.4034273824E+001 -1.0465609397E+002 -3.8549804421E+001 +1.1544107957E+002
7200000000.000 -1.2385500862E+001 -7.5004481550E+001 -4.3228790838E+001 +7.3316315525E+001 -8.5336386205E+001 -8.6138750127E+000 -3.2673922757E+001 +1.3155701122E+002
7332500000.000 -1.2334334178E+001 -7.6229571319E+001 -4.3253316337E+001 +3.9144452237E+001 -8.1675803911E+001 -1.7653427635E+002 -2.9038788187E+001 +1.1954456936E+002
7465000000.000 -1.2281115443E+001 -7.6744144341E+001 -4.3134682160E+001 +5.1827188009E+000 -8.1117138895E+001 +1.7834428906E+002 -2.8580865775E+001 +1.2332254407E+002
7597500000.000 -1.2128057676E+001 -7.7508546605E+001 -4.3288142469E+001 -2.9082308769E+001 -8.1540231465E+001 -3.0312939507E+001 -2.6067485396E+001 +1.3767516554E+002
7730000000.000 -1.2002675414E+001 -7.8457234076E+001 -4.3208924488E+001 -6.2691532433E+001 -8.7800239492E+001 +8.4397848892E+001 -2.3717402976E+001 +1.3794374867E+002
7862500000.000 -1.1920877662E+001 -7.9185532494E+001 -4.3217311654E+001 -9.6095269451E+001 -8.2407945844E+001 +1.4921688305E+002 -2.3298977167E+001 +1.4194354821E+002
7995000000.000 -1.1822037730E+001 -7.9569496398E+001 -4.3299343756E+001 -1.3001833077E+002 -8.2434721144E+001 -2.7780513372E+001 -2.1806362745E+001 +1.5460595429E+002
8127500000.000 -1.1647209791E+001 -8.0217365838E+001 -4.3276998033E+001 -1.6412164516E+002 -8.7715081832E+001 +1.4250021298E+002 -2.0019863272E+001 +1.5639984911E+002
8260000000.000 -1.1553260059E+001 -8.0950202885E+001 -4.3207790274E+001 +1.6217002373E+002 -8.7584847262E+001 +1.5762055998E+002 -1.9894718011E+001 +1.6019104649E+002
8392500000.000 -1.1452456438E+001 -8.1207625663E+001 -4.3215925602E+001 +1.2794923959E+002 -8.1957233203E+001 -8.8783286149E+001 -1.9052758996E+001 +1.7047646059E+002
8525000000.000 -1.1349056734E+001 -8.1475781019E+001 -4.3199124990E+001 +9.4720028621E+001 -8.1868348750E+001 +7.4395095079E+000 -1.8192613714E+001 +1.7281884048E+002
8657500000.000 -1.1243351708E+001 -8.1785982880E+001 -4.3052441486E+001 +6.0479289437E+001 -8.9147590546E+001 -1.7681355145E+002 -1.8564595595E+001 +1.7769457995E+002
8790000000.000 -1.1138032925E+001 -8.2219787784E+001 -4.3133750872E+001 +2.6131266090E+001 -8.8792861994E+001 -1.5041394640E+002 -1.8352119496E+001 -1.7194251194E+002
8922500000.000 -1.1090164449E+001 -8.2537916952E+001 -4.3001394923E+001 -7.5094528317E+000 -9.2242802968E+001 -9.3151716988E+001 -1.7978965908E+001 -1.6623595344E+002
9055000000.000 -1.1010701874E+001 -8.2891163349E+001 -4.3001686996E+001 -4.1844620672E+001 -8.7786592425E+001 +1.4839027010E+002 -1.8461270307E+001 -1.5865280213E+002
9187500000.000 -1.0954170590E+001 -8.3183084239E+001 -4.2978304757E+001 -7.5550146562E+001 -8.2762306696E+001 -1.7715912969E+002 -1.8384795028E+001 -1.4672316805E+002
9320000000.000 -1.0909100061E+001 -8.3808626365E+001 -4.3010034701E+001 -1.0984380782E+002 -8.8701838366E+001 -2.7598408086E+001 -1.8220815375E+001 -1.4007381023E+002
9452500000.000 -1.0851926054E+001 -8.4171367127E+001 -4.3119261123E+001 -1.4429767700E+002 -8.8751356773E+001 +8.2336593926E+001 -1.8846873683E+001 -1.3090396959E+002
9585000000.000 -1.0785946122E+001 -8.4620068698E+001 -4.2996049254E+001 -1.7818478753E+002 -1.0134684206E+002 +1.0033427345E+001 -1.8776201793E+001 -1.1870757800E+002
9717500000.000 -1.0695857228E+001 -8.5469431516E+001 -4.3024502959E+001 +1.4778704213E+002 -8.7620626924E+001 -1.8325522428E+000 -1.8823413051E+001 -1.1170464473E+002
9850000000.000 -1.0681948305E+001 -8.6097404213E+001 -4.2974222175E+001 +1.1388572090E+002 -1.0274650178E+002 -9.9882348336E+001 -1.9656738257E+001 -1.0093456691E+002
9982500000.000 -1.0604452402E+001 -8.6307373661E+001 -4.2964395041E+001 +7.9973429709E+001 -8.1096245352E+001 -1.5656515989E+002 -1.9654252313E+001 -8.7100254872E+001
10115000000.000 -1.0518209394E+001 -8.6984744645E+001 -4.2955371320E+001 +4.5418091046E+001 -7.9709188715E+001 -7.9526038081E+001 -1.9921433803E+001 -7.9904189876E+001
10247500000.000 -1.0482395510E+001 -8.7781227347E+001 -4.3019586645E+001 +1.1536360848E+001 -8.5351117188E+001 +8.4259715858E+001 -2.1148900031E+001 -6.6483330356E+001
10380000000.000 -1.0412896399E+001 -8.8071626468E+001 -4.2984277849E+001 -2.2458813964E+001 -8.2677712020E+001 +1.3971365700E+002 -2.0985508013E+001 -5.0588461272E+001
10512500000.000 -1.0337597094E+001 -8.8815730085E+001 -4.2930988717E+001 -5.6239318242E+001 -7.9709861381E+001 -5.7134415326E+001 -2.1460008510E+001 -4.3015803463E+001
10645000000.000 -1.0308734482E+001 -8.9553101983E+001 -4.2939367055E+001 -9.0726242934E+001 -8.5306172149E+001 +5.9081640079E+000 -2.2834197367E+001 -2.4535452275E+001
10777500000.000 -1.0248396911E+001 -8.9903274347E+001 -4.2922593522E+001 -1.2488360114E+002 -7.9308875563E+001 +1.7221752236E+002 -2.2132312799E+001 -6.7712062913E+000
10910000000.000 -1.0136373650E+001 -9.0384755836E+001 -4.2909276918E+001 -1.5846701680E+002 -8.5656153883E+001 -1.3265189302E+002 -2.2756035480E+001 +2.6245074004E+000
11042500000.000 -1.0040706700E+001 -9.1427861586E+001 -4.2980234299E+001 +1.6738850090E+002 -8.6988329335E+001 -6.4582348496E+000 -2.3469834013E+001 +2.6368296968E+001
11175000000.000 -9.9729017869E+000 -9.1951663933E+001 -4.2946027811E+001 +1.3264944990E+002 -8.6064569403E+001 +4.2402121661E+001 -2.2187618250E+001 +4.1845204028E+001
11307500000.000 -9.9170628356E+000 -9.2106298933E+001 -4.2879399696E+001 +9.8888238548E+001 -8.6435900214E+001 -1.2373601989E+002 -2.2711462222E+001 +5.1730809585E+001
11440000000.000 -9.7956243048E+000 -9.2709484870E+001 -4.2765997352E+001 +6.4392589677E+001 -8.6888602719E+001 +1.6128981157E+002 -2.2636643754E+001 +7.4617896293E+001
11572500000.000 -9.6963734195E+000 -9.3007455498E+001 -4.2770164038E+001 +2.9742550447E+001 -9.2788663344E+001 -1.1524371555E+002 -2.1156444019E+001 +8.6084276346E+001
11705000000.000 -9.6352532606E+000 -9.3358054456E+001 -4.2939613029E+001 -3.6470961364E+000 -9.0793478485E+001 -1.2098880518E+002 -2.1757530101E+001 +9.5711658159E+001
11837500000.000 -9.5586305790E+000 -9.3747129721E+001 -4.2768964247E+001 -3.8007477495E+001 -8.1489543245E+001 -5.2324350430E+001 -2.1178722316E+001 +1.1815274091E+002
11970000000.000 -9.5234067756E+000 -9.3881445352E+001 -4.2924480316E+001 -7.2427677440E+001 -8.6523376944E+001 +1.6110017239E+002 -1.9829684601E+001 +1.2442717180E+002
12102500000.000 -9.4461685831E+000 -9.3808035835E+001 -4.2944475261E+001 -1.0648107639E+002 -8.4500779214E+001 +1.3269470450E+002 -2.0743793605E+001 +1.3433998613E+002
12235000000.000 -9.4244765724E+000 -9.4717014171E+001 -4.2800829049E+001 -1.4025865640E+002 -8.3335310522E+001 -7.8219312179E+001 -1.9778527734E+001 +1.5347592133E+002
12367500000.000 -9.4072691670E+000 -9.4549622011E+001 -4.2849876770E+001 -1.7460021445E+002 -8.7318440233E+001 +1.3427619534E+002 -1.8888003278E+001 +1.5675898875E+002
12500000000.000 -9.3624190906E+000 -9.5113954094E+001 -4.2901832204E+001 +1.5095039930E+002 -8.3977645834E+001 -1.6986868512E+002 -2.0056212635E+001 +1.6711041554E+002
12632500000.000 -9.2703009848E+000 -9.5547454299E+001 -4.2915685382E+001 +1.1689492792E+002 -9.1726496214E+001 +4.9696554183E+001 -1.9099732074E+001 -1.7396314651E+002
12765000000.000 -9.2794901519E+000 -9.5911377829E+001 -4.2993776336E+001 +8.2246210238E+001 -8.1444836513E+001 +3.5263988852E+001 -1.8489566927E+001 -1.7249359915E+002
12897500000.000 -9.2787838988E+000 -9.6243534677E+001 -4.2952286641E+001 +4.8206776686E+001 -8.3416172211E+001 +1.3572689449E+002 -2.0166323235E+001 -1.6023407620E+002
13030000000.000 -9.2131402325E+000 -9.6422456718E+001 -4.2964867895E+001 +1.3929505877E+001 -9.1311885613E+001 -8.7836774361E+001 -1.8755850803E+001 -1.4244976897E+002
13162500000.000 -9.1458418422E+000 -9.6821676154E+001 -4.3016361434E+001 -2.0231351719E+001 -8.5118002946E+001 +7.0062256476E+001 -1.8547467193E+001 -1.4300436471E+002
13295000000.000 -9.1038282103E+000 -9.7250900830E+001 -4.3015392626E+001 -5.4446592722E+001 -8.1282877054E+001 +1.1154963625E+002 -2.0015510370E+001 -1.2881197748E+002
13427500000.000 -9.1094226298E+000 -9.7882378803E+001 -4.3045330780E+001 -8.8448069174E+001 -9.4636814009E+001 -1.0740381076E+002 -1.8711701958E+001 -1.1472170666E+002
13560000000.000 -9.1061516326E+000 -9.7801338868E+001 -4.3039081580E+001 -1.2271484577E+002 -8.8446556740E+001 +5.3414576572E+001 -1.8902971451E+001 -1.1577160076E+002
13692500000.000 -9.0157594362E+000 -9.7946826305E+001 -4.2796031282E+001 -1.5706102298E+002 -8.2227847878E+001 +1.1845657228E+002 -2.0770809400E+001 -1.0234098310E+002
13825000000.000 -8.9645481246E+000 -9.8740565095E+001 -4.3029141716E+001 +1.6847250264E+002 -8.3400111969E+001 -1.3561392364E+002 -1.9613669273E+001 -8.8061665381E+001
13957500000.000 -8.9814229393E+000 -9.9292955658E+001 -4.2942387723E+001 +1.3455678015E+002 -7.8576102157E+001 -4.5371512906E+001 -2.0206348274E+001 -9.0872934249E+001
14090000000.000 -8.9478201671E+000 -9.9415614250E+001 -4.2950620202E+001 +1.0030484647E+002 -8.4329374776E+001 +8.2058470448E+001 -2.2557026931E+001 -7.3832152111E+001
14222500000.000 -8.8423219116E+000 -9.9664004046E+001 -4.3142841029E+001 +6.6000864166E+001 -8.1371655527E+001 +1.7514502391E+002 -2.1154987930E+001 -5.9827483805E+001
14355000000.000 -8.8080503046E+000 -1.0037447590E+002 -4.3189427990E+001 +3.0537938158E+001 -8.3189469840E+001 -1.1826652853E+002 -2.2306570626E+001 -6.3719220037E+001
14487500000.000 -8.7830964748E+000 -1.0074528850E+002 -4.3036087916E+001 -2.9910958610E+000 -8.3841065025E+001 +1.1073584412E+002 -2.5294701341E+001 -4.1124648708E+001
14620000000.000 -8.6983627925E+000 -1.0071482944E+002 -4.3203035410E+001 -3.7568351167E+001 -8.3938694584E+001 +1.0896182102E+002 -2.3177206254E+001 -2.8054693274E+001
14752500000.000 -8.5712676135E+000 -1.0125243755E+002 -4.3158717714E+001 -7.1369918905E+001 -8.5702855452E+001 -1.0046000249E+002 -2.5278208220E+001 -3.6364626520E+001
14885000000.000 -8.5353511763E+000 -1.0156278312E+002 -4.3243796921E+001 -1.0597919743E+002 -8.0642393894E+001 -5.9331464116E+001 -2.8523303321E+001 +1.8195981042E+000
15017500000.000 -8.5211944579E+000 -1.0142471870E+002 -4.3118086389E+001 -1.4000209132E+002 -8.3060048505E+001 +8.0481279905E+001 -2.5272505507E+001 +7.9159903826E+000
15150000000.000 -8.3961461766E+000 -1.0127567329E+002 -4.3281770292E+001 -1.7542472768E+002 -9.3945319965E+001 -1.2215158799E+002 -2.9086898954E+001 -1.6085896130E+000
15282500000.000 -8.3191220593E+000 -1.0140018590E+002 -4.3448138585E+001 +1.5153466570E+002 -8.5659894857E+001 -2.4203657654E+001 -3.0576294011E+001 +5.7704553698E+001
