!  2-Port S-parameters saved by WinCal
! VAR MeasName=S-Parameters (CALIBRATED_DATA) read from VNA (C)
! VAR MeasDate=10/16/2015 2:35:02 PM
! VAR NAME=M6082_10_13_2_2_20C_4.8mA_-17.5dBm
! VAR FILENAME=M6082_10_13_2_2_20C_4.8mA_-17.5dBm.S2P
! VAR DATE=10/16/2015 2:35:02 PM
! VAR PHYS_PORTS=2,1
! VAR ObjTypeName=DATASET
! VAR IndexType=Frequency
!
# Hz S DB R 50
45000000.000 -3.2343566311E+001 +1.7918752494E+002 -4.0214568984E+001 +1.0503947090E+002 -5.9907430335E+001 +2.9733146499E+001 -3.0417044971E+001 +6.6465020039E+000
177500000.000 -3.2242092098E+001 -1.6327140397E+002 -4.2382734855E+001 +6.7861517215E+001 -7.5026685064E+001 +3.8118276369E+001 -3.2763289529E+001 +4.6605783332E+001
310000000.000 -3.1388312315E+001 -1.4825529554E+002 -4.2856797582E+001 +3.9116599653E+001 -8.4262511995E+001 -9.7873203285E+001 -2.3351425383E+001 +6.4606038912E+001
442500000.000 -3.0124578057E+001 -1.3680620945E+002 -4.1596444802E+001 -4.3012069451E-001 -9.1966628401E+001 +1.0678113265E+002 -2.2380873551E+001 +1.7202072273E+001
575000000.000 -2.8597919802E+001 -1.2824509461E+002 -4.2026176426E+001 -3.5621294275E+001 -8.3769025172E+001 +7.6179468550E+001 -3.0645548431E+001 +2.2517210877E+001
707500000.000 -2.7312173006E+001 -1.2330390927E+002 -4.2237602913E+001 -7.0320257837E+001 -8.7016655520E+001 +1.4838512711E+002 -3.4557707081E+001 +8.3993898167E+001
840000000.000 -2.6050757650E+001 -1.1863216480E+002 -4.2419476991E+001 -1.0393118680E+002 -8.8123213711E+001 +8.2215975327E+001 -2.9702195105E+001 +1.2747065845E+002
972500000.000 -2.4967678024E+001 -1.1524708408E+002 -4.2590892922E+001 -1.3854012169E+002 -8.4654572493E+001 +1.2339668138E+002 -2.5959470440E+001 +1.3532227961E+002
1105000000.000 -2.3905835259E+001 -1.1330297806E+002 -4.2532030582E+001 -1.7146471403E+002 -7.9133822065E+001 +1.7182372597E+002 -2.4368390391E+001 +1.4084320466E+002
1237500000.000 -2.3014865436E+001 -1.1182265801E+002 -4.2695109771E+001 +1.5381071083E+002 -8.9899074244E+001 +1.8989828736E+001 -2.3400997203E+001 +1.5000387316E+002
1370000000.000 -2.2186847004E+001 -1.1076400611E+002 -4.2653516933E+001 +1.1936633859E+002 -8.3516105353E+001 +8.3574655579E+001 -2.2073331745E+001 +1.5997919827E+002
1502500000.000 -2.1444086257E+001 -1.0982830887E+002 -4.2654768242E+001 +8.5403601167E+001 -8.9945889675E+001 -7.4458184108E-001 -2.0868953938E+001 +1.6641312828E+002
1635000000.000 -2.0721180327E+001 -1.0860467577E+002 -4.2693651401E+001 +5.1366955141E+001 -8.0687771094E+001 -4.9000766968E+001 -2.0029380475E+001 +1.7329144440E+002
1767500000.000 -2.0034006061E+001 -1.0828160164E+002 -4.2728925366E+001 +1.7554854933E+001 -9.0106156297E+001 +5.7751264103E+001 -1.9021460106E+001 +1.7854501450E+002
1900000000.000 -1.9489741712E+001 -1.0789204700E+002 -4.2646457916E+001 -1.7379775298E+001 -8.6702494241E+001 +6.4120548985E+001 -1.8876418016E+001 -1.7827517298E+002
2032500000.000 -1.8955927836E+001 -1.0766943249E+002 -4.2862095108E+001 -5.1240829688E+001 -8.7011891934E+001 +3.5432826669E+001 -1.8691336670E+001 -1.6786453918E+002
2165000000.000 -1.8391377169E+001 -1.0702141163E+002 -4.2867027642E+001 -8.5560340675E+001 -8.6744383807E+001 +4.2533676405E+001 -1.7746581063E+001 -1.6095449522E+002
2297500000.000 -1.7937743694E+001 -1.0704101079E+002 -4.2879001774E+001 -1.1950909267E+002 -8.8509993408E+001 +1.4742567668E+002 -1.7247558709E+001 -1.5707568191E+002
2430000000.000 -1.7508108501E+001 -1.0697077575E+002 -4.3194263108E+001 -1.5406767946E+002 -7.8634195615E+001 +3.5669342281E+001 -1.6945730302E+001 -1.5287929745E+002
2562500000.000 -1.7054205605E+001 -1.0684241404E+002 -4.2988785073E+001 +1.7293474018E+002 -9.1344715372E+001 -1.7860118583E+002 -1.6837055257E+001 -1.5041823497E+002
2695000000.000 -1.6669049538E+001 -1.0753244583E+002 -4.2985777655E+001 +1.3908047304E+002 -7.7635071900E+001 +6.6176164319E+001 -1.7389209793E+001 -1.4712456695E+002
2827500000.000 -1.6360323390E+001 -1.0795310104E+002 -4.3010606129E+001 +1.0277523695E+002 -8.2492280253E+001 -1.3763716810E+002 -1.7864422370E+001 -1.4030494628E+002
2960000000.000 -1.6025228278E+001 -1.0787861167E+002 -4.3175565433E+001 +7.0206310890E+001 -7.5566438256E+001 +7.9300748942E+000 -1.8154451656E+001 -1.3542488675E+002
3092500000.000 -1.5610481757E+001 -1.0819477230E+002 -4.3167933277E+001 +3.6803798056E+001 -8.1036146907E+001 +1.2469393676E+002 -1.9091987532E+001 -1.2929134612E+002
3225000000.000 -1.5257740346E+001 -1.0905474537E+002 -4.3160004904E+001 +2.4851134800E+000 -8.9198570971E+001 -1.7123996805E+001 -1.9600929116E+001 -1.1978941625E+002
3357500000.000 -1.5010001659E+001 -1.0948562987E+002 -4.3120945853E+001 -3.2243689933E+001 -7.9517238868E+001 -5.9675110693E+001 -1.9960321949E+001 -1.1423796326E+002
3490000000.000 -1.4653362767E+001 -1.0945680545E+002 -4.3210023896E+001 -6.5185648662E+001 -8.6334787641E+001 -1.6039485518E+002 -2.1125651182E+001 -1.0853959350E+002
3622500000.000 -1.4314817684E+001 -1.0978203343E+002 -4.3106526572E+001 -9.9115814989E+001 -8.6227383718E+001 -1.2459644598E+002 -2.1937663120E+001 -9.8226689888E+001
3755000000.000 -1.3984468169E+001 -1.1036202601E+002 -4.3116088631E+001 -1.3247284701E+002 -7.9573214860E+001 -2.1712732172E+001 -2.2738788263E+001 -9.4759909796E+001
3887500000.000 -1.3722087452E+001 -1.1064842965E+002 -4.3250740792E+001 -1.6650519372E+002 -7.7309977123E+001 +1.0104888748E+002 -2.5063050855E+001 -8.7848184417E+001
4020000000.000 -1.3469765108E+001 -1.1087399401E+002 -4.3214345314E+001 +1.5914140547E+002 -8.3561041355E+001 -1.6270928877E+002 -2.6666316273E+001 -7.3367054114E+001
4152500000.000 -1.3180997878E+001 -1.1097467245E+002 -4.3134543502E+001 +1.2415587219E+002 -7.9039873501E+001 -8.5510126622E+001 -2.8862714713E+001 -6.4855998490E+001
4285000000.000 -1.2921239491E+001 -1.1133716907E+002 -4.3199240833E+001 +9.0082922848E+001 -8.5847110729E+001 -7.2530399695E+001 -3.3412233523E+001 -3.7674080548E+001
4417500000.000 -1.2676293062E+001 -1.1184262972E+002 -4.3257105867E+001 +5.6139045609E+001 -8.4454054768E+001 +1.2390014221E+002 -3.1728528683E+001 +8.1169828678E+000
4550000000.000 -1.2469759541E+001 -1.1198185998E+002 -4.3303892861E+001 +2.2421112075E+001 -8.0942590568E+001 -5.1463547318E+001 -3.0334639794E+001 +1.8237327040E+001
4682500000.000 -1.2221556683E+001 -1.1205998513E+002 -4.3389730077E+001 -1.2010890403E+001 -9.0925218353E+001 -1.0808413728E+002 -2.9660549536E+001 +3.8860671334E+001
4815000000.000 -1.1985249286E+001 -1.1245148011E+002 -4.3378486005E+001 -4.4789071761E+001 -8.6444223893E+001 +2.7447071874E+001 -2.7627034882E+001 +4.1222537463E+001
4947500000.000 -1.1803330014E+001 -1.1266043425E+002 -4.3361722323E+001 -7.8196919220E+001 -1.0153188985E+002 +8.9992652696E+000 -2.9358969178E+001 +3.5596076028E+001
5080000000.000 -1.1608353473E+001 -1.1263240540E+002 -4.3278089842E+001 -1.1212069651E+002 -9.1312692994E+001 +7.4600282232E+001 -3.2231580409E+001 +5.6858310400E+001
5212500000.000 -1.1399552621E+001 -1.1285697198E+002 -4.3102873426E+001 -1.4591243510E+002 -8.8636374003E+001 +7.8550339936E+001 -3.1562944992E+001 +6.9504723816E+001
5345000000.000 -1.1229211474E+001 -1.1323873820E+002 -4.3045836139E+001 +1.7983899729E+002 -8.7405118144E+001 -9.2586762366E+001 -3.5365259303E+001 +7.1141441451E+001
5477500000.000 -1.1100958353E+001 -1.1320600787E+002 -4.2945675714E+001 +1.4557917487E+002 -8.8323554635E+001 -6.0005939164E+001 -3.7269322648E+001 +1.3187792076E+002
5610000000.000 -1.0918655893E+001 -1.1326759188E+002 -4.2957641689E+001 +1.1137031128E+002 -8.7220688292E+001 +1.1117475122E+002 -3.3662773224E+001 +1.3569853538E+002
5742500000.000 -1.0761873223E+001 -1.1369159186E+002 -4.2892588871E+001 +7.6836962069E+001 -1.0569900130E+002 -1.7530254804E+002 -3.7810119982E+001 +1.5273511971E+002
5875000000.000 -1.0662613888E+001 -1.1414638696E+002 -4.2880139630E+001 +4.2838260817E+001 -8.3236799788E+001 -1.0224450210E+002 -3.3774418786E+001 -1.7050258380E+002
6007500000.000 -1.0542633488E+001 -1.1425203268E+002 -4.2873996441E+001 +8.1903479974E+000 -9.0752683650E+001 -2.6313228540E+001 -3.2698974364E+001 +1.7962749545E+002
6140000000.000 -1.0374368716E+001 -1.1445661556E+002 -4.2864788605E+001 -2.6455452041E+001 -8.5190292241E+001 +1.3983079007E+001 -3.6142750844E+001 -1.6978919658E+002
6272500000.000 -1.0221437782E+001 -1.1516595277E+002 -4.2833950378E+001 -6.1189206257E+001 -8.4956932074E+001 -4.4125333421E+001 -3.3888419984E+001 -1.4434194980E+002
6405000000.000 -1.0138297790E+001 -1.1581128548E+002 -4.2855849963E+001 -9.5009034123E+001 -8.2135403805E+001 +6.6722566736E+001 -3.3849738476E+001 -1.6190381361E+002
6537500000.000 -1.0020272277E+001 -1.1581898032E+002 -4.2865466646E+001 -1.2904317098E+002 -8.9551302819E+001 +1.3334996060E+002 -4.0166587857E+001 -1.6046588504E+002
6670000000.000 -9.8327575990E+000 -1.1605566097E+002 -4.2861271594E+001 -1.6283765427E+002 -8.4620707749E+001 -8.3511346897E+001 -3.9366321307E+001 -1.3716642964E+002
6802500000.000 -9.6766400263E+000 -1.1686404719E+002 -4.2935982811E+001 +1.6223073704E+002 -8.4280564346E+001 +1.9307276966E+001 -3.8918805451E+001 +1.7937278705E+002
6935000000.000 -9.6099867788E+000 -1.1740201318E+002 -4.2931918170E+001 +1.2774065231E+002 -8.2295100285E+001 +1.1732841924E+002 -3.8584392709E+001 +1.2232253889E+002
7067500000.000 -9.5069929235E+000 -1.1732555445E+002 -4.2967093538E+001 +9.4431435350E+001 -8.9197760048E+001 -1.7793482280E+002 -3.9055759836E+001 +1.1429691232E+002
7200000000.000 -9.3235992866E+000 -1.1764597536E+002 -4.2924899497E+001 +5.9769174749E+001 -8.1796960696E+001 -6.0270747133E+001 -3.2895188074E+001 +1.3153981677E+002
7332500000.000 -9.1909890788E+000 -1.1838229975E+002 -4.2968969330E+001 +2.5672483590E+001 -8.9093111707E+001 +1.6959698761E+002 -2.9073523093E+001 +1.1906350426E+002
7465000000.000 -9.1070961567E+000 -1.1871756971E+002 -4.2980304608E+001 -8.5118217101E+000 -8.2571169888E+001 -1.0919998457E+002 -2.8651861681E+001 +1.2226932396E+002
7597500000.000 -8.9797094438E+000 -1.1878193057E+002 -4.2955094504E+001 -4.2858908479E+001 -9.1568197870E+001 -7.8593343133E+001 -2.6144447852E+001 +1.3750439787E+002
7730000000.000 -8.8159786652E+000 -1.1904499744E+002 -4.3023650035E+001 -7.6209184350E+001 -8.1713171153E+001 +1.6887055980E+002 -2.3726233356E+001 +1.3796575842E+002
7862500000.000 -8.7030657509E+000 -1.1943830489E+002 -4.2930202092E+001 -1.1102047008E+002 -9.7266576539E+001 +8.4285724602E+001 -2.3276335662E+001 +1.4151465190E+002
7995000000.000 -8.6179141797E+000 -1.1956969133E+002 -4.2910028078E+001 -1.4481507862E+002 -8.5464365855E+001 +1.7518947306E+002 -2.1835364929E+001 +1.5420048926E+002
8127500000.000 -8.4704208494E+000 -1.1949414054E+002 -4.2847939088E+001 -1.7897795156E+002 -8.3943827813E+001 +5.4434972270E+001 -2.0023041958E+001 +1.5648631767E+002
8260000000.000 -8.3518972673E+000 -1.1987535984E+002 -4.2948166273E+001 +1.4690842645E+002 -8.3168346277E+001 +1.3905611509E+002 -1.9862188368E+001 +1.6014242503E+002
8392500000.000 -8.2750198270E+000 -1.1994871497E+002 -4.2991457055E+001 +1.1264121774E+002 -1.0441010659E+002 +1.6618631549E+002 -1.9067439763E+001 +1.7036662493E+002
8525000000.000 -8.1880831517E+000 -1.1983757166E+002 -4.2907041406E+001 +7.8573256720E+001 -8.6074377630E+001 -4.5169746292E+000 -1.8211142827E+001 +1.7299523224E+002
8657500000.000 -8.0797402049E+000 -1.1991311968E+002 -4.2794260073E+001 +4.4015248720E+001 -8.5356836127E+001 +1.1511461108E+002 -1.8564384274E+001 +1.7795049175E+002
8790000000.000 -7.9766473224E+000 -1.2015617115E+002 -4.2794090455E+001 +9.7783088778E+000 -9.4914869892E+001 -8.5586025434E+001 -1.8353731014E+001 -1.7173640567E+002
8922500000.000 -7.9360017368E+000 -1.2032108611E+002 -4.2797073287E+001 -2.4099336510E+001 -9.2788011668E+001 -1.0777586457E+002 -1.7991936794E+001 -1.6596838405E+002
9055000000.000 -7.8522446470E+000 -1.2032466175E+002 -4.2765816770E+001 -5.8307594398E+001 -8.9173865867E+001 +1.5649397069E+002 -1.8463102916E+001 -1.5836861423E+002
9187500000.000 -7.7702141652E+000 -1.2050783546E+002 -4.2780048561E+001 -9.2704476463E+001 -8.6634068266E+001 -1.7154206360E+002 -1.8380289272E+001 -1.4634917167E+002
9320000000.000 -7.6957351251E+000 -1.2104557902E+002 -4.2648838067E+001 -1.2775276116E+002 -8.3890520868E+001 +4.5530293550E+001 -1.8199897005E+001 -1.3972493799E+002
9452500000.000 -7.6453653737E+000 -1.2128445538E+002 -4.2682338664E+001 -1.6187389653E+002 -8.3791193086E+001 +1.5738292947E+002 -1.8857290162E+001 -1.3063953797E+002
9585000000.000 -7.5701173080E+000 -1.2147345630E+002 -4.2716204381E+001 +1.6339377296E+002 -8.3312548573E+001 -1.4871785348E+002 -1.8798548582E+001 -1.1824042653E+002
9717500000.000 -7.4563146675E+000 -1.2185210445E+002 -4.2660145827E+001 +1.2903508440E+002 -9.0383211536E+001 -3.8473904224E+000 -1.8812276469E+001 -1.1114508779E+002
9850000000.000 -7.4068541103E+000 -1.2253631934E+002 -4.2666038401E+001 +9.4712293525E+001 -8.2167349189E+001 +6.6383798148E+001 -1.9655128111E+001 -1.0063101058E+002
9982500000.000 -7.3490231221E+000 -1.2254510696E+002 -4.2516616025E+001 +6.0011307384E+001 -9.0560442465E+001 -1.7818521727E+001 -1.9701856016E+001 -8.6492037330E+001
10115000000.000 -7.2581465726E+000 -1.2272202133E+002 -4.2655667070E+001 +2.5433683746E+001 -1.0516368651E+002 -2.8364281642E+001 -1.9921563478E+001 -7.9088948490E+001
10247500000.000 -7.1640907846E+000 -1.2332329900E+002 -4.2655419741E+001 -8.1240701428E+000 -8.1853100892E+001 -5.0112565769E+001 -2.1142213965E+001 -6.6066871668E+001
10380000000.000 -7.1144289979E+000 -1.2368841741E+002 -4.2520751528E+001 -4.3790078552E+001 -9.6414490864E+001 -1.5223775874E+002 -2.1067847032E+001 -4.9822276768E+001
10512500000.000 -7.0584321003E+000 -1.2390265772E+002 -4.2602199665E+001 -7.7212890610E+001 -8.3466999136E+001 -6.1016160389E+001 -2.1499394923E+001 -4.1853994575E+001
10645000000.000 -6.9797619548E+000 -1.2416286843E+002 -4.2555567784E+001 -1.1164787032E+002 -8.1803084960E+001 +5.4767384608E+001 -2.2818789312E+001 -2.3905694236E+001
10777500000.000 -6.8923458705E+000 -1.2453829173E+002 -4.2548147030E+001 -1.4654617201E+002 -1.0204170696E+002 -1.0167728870E+002 -2.2208068257E+001 -5.9346577762E+000
10910000000.000 -6.8220890866E+000 -1.2488943908E+002 -4.2576305054E+001 +1.7911234851E+002 -8.6707311561E+001 -1.5675712443E+002 -2.2789507819E+001 +4.3434681610E+000
11042500000.000 -6.7439176935E+000 -1.2525512797E+002 -4.2548356100E+001 +1.4465141650E+002 -8.9536537011E+001 +9.7466306653E+001 -2.3446245617E+001 +2.7490233381E+001
11175000000.000 -6.6559210783E+000 -1.2537453710E+002 -4.2556170864E+001 +1.1033759189E+002 -9.5528402450E+001 +1.4638997484E+002 -2.2262246740E+001 +4.2770542920E+001
11307500000.000 -6.5966169689E+000 -1.2555852889E+002 -4.2464157010E+001 +7.5675559669E+001 -7.9285774392E+001 -9.2283066844E+001 -2.2738176862E+001 +5.3320027123E+001
11440000000.000 -6.5104018119E+000 -1.2586864729E+002 -4.2597862734E+001 +4.0633066571E+001 -8.5947383458E+001 +1.6031450854E+001 -2.2587933899E+001 +7.5723106390E+001
11572500000.000 -6.4447689695E+000 -1.2581962634E+002 -4.2480659682E+001 +6.0565744440E+000 -8.3150186403E+001 +7.1637804604E+001 -2.1170963247E+001 +8.7007325087E+001
11705000000.000 -6.3808181594E+000 -1.2595019062E+002 -4.2475491957E+001 -2.8191628579E+001 -8.8006986129E+001 +1.0300808987E+002 -2.1789729779E+001 +9.6957119062E+001
11837500000.000 -6.3090237804E+000 -1.2616890650E+002 -4.2456430128E+001 -6.2965614136E+001 -8.3226421236E+001 -3.1585505644E+001 -2.1130183515E+001 +1.1927245772E+002
11970000000.000 -6.2889616416E+000 -1.2628234136E+002 -4.2521902905E+001 -9.7641709097E+001 -8.8710316197E+001 +3.3648917785E+001 -1.9830936547E+001 +1.2550005157E+002
12102500000.000 -6.2501350292E+000 -1.2616610222E+002 -4.2567245943E+001 -1.3275110368E+002 -8.6091667493E+001 +1.4783744996E+002 -2.0749274446E+001 +1.3539086140E+002
12235000000.000 -6.1817707018E+000 -1.2667787572E+002 -4.2474385496E+001 -1.6730039055E+002 -8.4313237660E+001 -4.8508734699E+001 -1.9771352730E+001 +1.5456512000E+002
12367500000.000 -6.1695992731E+000 -1.2673791192E+002 -4.2546380523E+001 +1.5777008408E+002 -8.8943071391E+001 -1.5078476189E+001 -1.8888049465E+001 +1.5792790999E+002
12500000000.000 -6.1348023331E+000 -1.2714946827E+002 -4.2508470825E+001 +1.2325311672E+002 -8.6695597985E+001 -1.3790321679E+002 -2.0058070430E+001 +1.6809887650E+002
12632500000.000 -6.0730033219E+000 -1.2724564612E+002 -4.2536833574E+001 +8.8183119172E+001 -1.0187805603E+002 +1.6078998188E+002 -1.9172899870E+001 -1.7302582588E+002
12765000000.000 -6.0392538377E+000 -1.2751965982E+002 -4.2619483879E+001 +5.3397161089E+001 -8.9346444664E+001 +6.8676397883E+001 -1.8516882796E+001 -1.7136618913E+002
12897500000.000 -6.0222184559E+000 -1.2783985856E+002 -4.2778192092E+001 +1.8754953898E+001 -9.6017661986E+001 -9.0188927282E+001 -2.0134789307E+001 -1.5948604448E+002
13030000000.000 -5.9887887478E+000 -1.2803755824E+002 -4.2828927143E+001 -1.5957870092E+001 -8.6210021882E+001 +1.2792798196E+002 -1.8857280043E+001 -1.4156703461E+002
13162500000.000 -5.9403470957E+000 -1.2818875307E+002 -4.2794652048E+001 -5.1296928333E+001 -8.1676852321E+001 -9.3146310609E+000 -1.8649148690E+001 -1.4163324803E+002
13295000000.000 -5.9006654030E+000 -1.2842252822E+002 -4.2843675990E+001 -8.5840254606E+001 -8.5918074585E+001 +9.3721467285E+001 -2.0033765727E+001 -1.2797890226E+002
13427500000.000 -5.8734116641E+000 -1.2886520035E+002 -4.2873376083E+001 -1.1993475793E+002 -9.3705280949E+001 -1.6503827535E+002 -1.8850570922E+001 -1.1420356185E+002
13560000000.000 -5.8719193398E+000 -1.2891026329E+002 -4.2915076285E+001 -1.5505536948E+002 -7.9644547830E+001 -4.4788481192E+001 -1.9049194282E+001 -1.1471439025E+002
13692500000.000 -5.8168312441E+000 -1.2901084368E+002 -4.2856565136E+001 +1.6970703675E+002 -8.1867539186E+001 +3.9536869911E+001 -2.0815432403E+001 -1.0134571585E+002
13825000000.000 -5.7590660637E+000 -1.2940520254E+002 -4.3001303475E+001 +1.3528111361E+002 -8.2009098053E+001 -1.6898707086E+002 -1.9738195434E+001 -8.7658023691E+001
13957500000.000 -5.7535155810E+000 -1.2983509627E+002 -4.3174372044E+001 +1.0034657900E+002 -8.6389537654E+001 -2.2721848165E+000 -2.0395323946E+001 -9.0100647226E+001
14090000000.000 -5.7308793655E+000 -1.2993982095E+002 -4.3117937383E+001 +6.5559282745E+001 -8.6438663967E+001 +1.0361743087E+002 -2.2676660454E+001 -7.2681641713E+001
14222500000.000 -5.6720419917E+000 -1.2988106069E+002 -4.3279160504E+001 +3.1212877448E+001 -8.7016000550E+001 +1.3949320820E+002 -2.1275559789E+001 -5.9419584392E+001
14355000000.000 -5.6108947699E+000 -1.3033136635E+002 -4.3261804668E+001 -4.5487857954E+000 -8.0966112514E+001 -4.4321875283E+001 -2.2507370889E+001 -6.3678903513E+001
14487500000.000 -5.5837715549E+000 -1.3059245738E+002 -4.3397639604E+001 -3.8514378198E+001 -8.2917565711E+001 -4.3509980292E+001 -2.5574767799E+001 -4.0280373172E+001
14620000000.000 -5.5611508732E+000 -1.3050631623E+002 -4.3673174158E+001 -7.4738846486E+001 -9.0658814495E+001 -1.5310442183E+002 -2.3260463285E+001 -2.7248686618E+001
14752500000.000 -5.4725299062E+000 -1.3046935408E+002 -4.3623963248E+001 -1.0842839249E+002 -8.8646221496E+001 -1.7566419568E+002 -2.5358646324E+001 -3.6715166081E+001
14885000000.000 -5.4244752204E+000 -1.3063334520E+002 -4.3676747730E+001 -1.4373169615E+002 -7.8637542793E+001 -2.0493475217E+001 -2.9005331624E+001 +2.2256953751E+000
15017500000.000 -5.4038311430E+000 -1.3060677094E+002 -4.3839829218E+001 -1.7853539434E+002 -8.4609357035E+001 +1.3607259868E+002 -2.5365358415E+001 +9.3610259078E+000
15150000000.000 -5.3472553929E+000 -1.3042877038E+002 -4.3924371058E+001 +1.4724156166E+002 -8.1052357105E+001 -1.7319444909E+002 -2.9070117897E+001 -2.5220569917E+000
15282500000.000 -5.3123702051E+000 -1.3034538051E+002 -4.4085330903E+001 +1.1255578665E+002 -7.8988714264E+001 +3.6191636676E+001 -3.1274100814E+001 +5.7872873518E+001
