!  2-Port S-parameters saved by WinCal
! VAR MeasName=S-Parameters (CALIBRATED_DATA) read from VNA (C)
! VAR MeasDate=10/16/2015 12:47:12 PM
! VAR NAME=M6082_13_15_2_2_20C_6.4mA_-17.5dBm
! VAR FILENAME=M6082_13_15_2_2_20C_6.4mA_-17.5dBm.S2P
! VAR DATE=10/16/2015 12:47:12 PM
! VAR PHYS_PORTS=2,1
! VAR ObjTypeName=DATASET
! VAR IndexType=Frequency
!
# Hz S DB R 50
45000000.000 -5.6235636167E+001 -1.5014135967E+001 -4.4335009906E+001 +9.8366540893E+001 -6.2049166406E+001 +1.0368656666E+001 -3.1150440406E+001 +6.9011389460E+000
177500000.000 -4.4404801084E+001 -8.9085831495E+001 -4.3521347175E+001 +6.9044426825E+001 -7.6906777697E+001 -1.6542931407E+002 -3.2748633975E+001 +4.6386715373E+001
310000000.000 -3.9196093096E+001 -8.9424670482E+001 -4.3654646130E+001 +4.0207035384E+001 -7.7522808137E+001 -9.2292277710E+001 -2.3352850791E+001 +6.4603354662E+001
442500000.000 -3.5710016346E+001 -8.9959986659E+001 -4.2553817258E+001 +3.4459903603E-001 -7.7747104558E+001 -7.1843138342E+001 -2.2389690638E+001 +1.7198999414E+001
575000000.000 -3.3169244281E+001 -9.1276845194E+001 -4.2981100361E+001 -3.4443571596E+001 -8.4010158198E+001 +1.3352804357E+001 -3.0612461006E+001 +2.2611592569E+001
707500000.000 -3.1486704316E+001 -9.2397724134E+001 -4.3141070382E+001 -6.9035143923E+001 -9.9293442256E+001 +1.6039283306E+002 -3.4547630051E+001 +8.3443353264E+001
840000000.000 -2.9865514232E+001 -9.2348546366E+001 -4.3251438018E+001 -1.0282072938E+002 -8.4865199280E+001 -1.0389031346E+002 -2.9674171160E+001 +1.2748436851E+002
972500000.000 -2.8592914501E+001 -9.2095968913E+001 -4.3323766865E+001 -1.3710641955E+002 -8.9603325462E+001 +1.0269087438E+001 -2.5940912704E+001 +1.3527871250E+002
1105000000.000 -2.7420945005E+001 -9.3077979294E+001 -4.3294244898E+001 -1.7091177292E+002 -8.8935952464E+001 -8.8581633879E+001 -2.4373903004E+001 +1.4077624121E+002
1237500000.000 -2.6500654417E+001 -9.3670566030E+001 -4.3362005270E+001 +1.5522556195E+002 -8.1864189162E+001 -1.7431036743E+001 -2.3391758790E+001 +1.5005020994E+002
1370000000.000 -2.5633411588E+001 -9.4222188232E+001 -4.3446131557E+001 +1.2107453548E+002 -8.2793375526E+001 +9.2482647228E+001 -2.2091105489E+001 +1.5999266211E+002
1502500000.000 -2.4876552865E+001 -9.4443670642E+001 -4.3508041648E+001 +8.6772053933E+001 -8.6544671309E+001 -9.5119303366E+001 -2.0870336593E+001 +1.6636866489E+002
1635000000.000 -2.4101080091E+001 -9.4242672874E+001 -4.3457932228E+001 +5.3259874172E+001 -9.7848767800E+001 -4.9069563104E+001 -2.0019440495E+001 +1.7325944949E+002
1767500000.000 -2.3386152808E+001 -9.4766322132E+001 -4.3334231665E+001 +1.9485751489E+001 -8.5124358319E+001 +9.2362861933E+001 -1.9028989912E+001 +1.7850073939E+002
1900000000.000 -2.2843230505E+001 -9.4875442122E+001 -4.3615609231E+001 -1.5819924661E+001 -8.6144474213E+001 -1.3087511593E+002 -1.8878706346E+001 -1.7820360932E+002
2032500000.000 -2.2312229318E+001 -9.5198302425E+001 -4.3591368089E+001 -4.8858765805E+001 -8.9911090640E+001 -1.2871931161E+001 -1.8693847145E+001 -1.6791483077E+002
2165000000.000 -2.1712690537E+001 -9.4976313196E+001 -4.3610752227E+001 -8.2540924466E+001 -9.0469313097E+001 +1.5839637465E+002 -1.7744947847E+001 -1.6099566292E+002
2297500000.000 -2.1270932474E+001 -9.5280097412E+001 -4.3730570990E+001 -1.1750750390E+002 -1.2068038760E+002 -1.4369962558E+002 -1.7246293581E+001 -1.5707229764E+002
2430000000.000 -2.0823638249E+001 -9.5501846667E+001 -4.3783125472E+001 -1.5250188760E+002 -9.1294664795E+001 +9.5142471944E+001 -1.6942449826E+001 -1.5278326356E+002
2562500000.000 -2.0367053880E+001 -9.5801113815E+001 -4.3756436716E+001 +1.7406548181E+002 -8.6125855597E+001 +4.0802293645E+000 -1.6828075991E+001 -1.5045532252E+002
2695000000.000 -2.0013995225E+001 -9.6820081121E+001 -4.3791091243E+001 +1.4137683115E+002 -7.8573950775E+001 -1.7982793024E+002 -1.7379017823E+001 -1.4718144761E+002
2827500000.000 -1.9746984963E+001 -9.7521834934E+001 -4.3743566751E+001 +1.0717320155E+002 -7.7652280949E+001 -7.3523866614E+001 -1.7839793519E+001 -1.4034435068E+002
2960000000.000 -1.9395534502E+001 -9.7425431054E+001 -4.3778546732E+001 +7.3302575129E+001 -8.1197649117E+001 +6.1778063196E+001 -1.8157617873E+001 -1.3547129719E+002
3092500000.000 -1.8965790556E+001 -9.8024183131E+001 -4.3859135166E+001 +3.9454275134E+001 -8.4071388379E+001 +1.6100741676E+002 -1.9105315467E+001 -1.2940164013E+002
3225000000.000 -1.8624402010E+001 -9.9289961242E+001 -4.3725344059E+001 +6.3478360322E+000 -7.7191628022E+001 +1.5980519915E+002 -1.9588574396E+001 -1.1970920056E+002
3357500000.000 -1.8400205264E+001 -9.9864015832E+001 -4.3860763305E+001 -2.8379544737E+001 -7.7140260157E+001 +1.2533773820E+002 -1.9959290270E+001 -1.1431126463E+002
3490000000.000 -1.8030626281E+001 -9.9961856314E+001 -4.3886127338E+001 -6.1454515042E+001 -7.4925523369E+001 +8.9226455197E+001 -2.1131507485E+001 -1.0849478609E+002
3622500000.000 -1.7642376080E+001 -1.0034597618E+002 -4.3719904140E+001 -9.5494491512E+001 -7.8346055208E+001 -1.5013650676E+002 -2.1934920232E+001 -9.8083368765E+001
3755000000.000 -1.7288848275E+001 -1.0111354507E+002 -4.3759431896E+001 -1.2988565145E+002 -7.8460529846E+001 -1.2876296221E+001 -2.2717923125E+001 -9.4532570542E+001
3887500000.000 -1.7030021099E+001 -1.0151760661E+002 -4.3712901592E+001 -1.6323514994E+002 -8.2936724715E+001 +1.5390210729E+002 -2.5062585521E+001 -8.7767987138E+001
4020000000.000 -1.6764489704E+001 -1.0168560613E+002 -4.3893471829E+001 +1.6163944367E+002 -9.2551534042E+001 -1.3384268310E+002 -2.6677951855E+001 -7.3270271844E+001
4152500000.000 -1.6445459747E+001 -1.0182750213E+002 -4.3759606780E+001 +1.2914953196E+002 -7.9973356046E+001 -2.2679446068E+001 -2.8882691514E+001 -6.4545277426E+001
4285000000.000 -1.6164217276E+001 -1.0224100961E+002 -4.3922029647E+001 +9.4116802896E+001 -8.4553927955E+001 -1.4349174777E+002 -3.3350187977E+001 -3.7686654333E+001
4417500000.000 -1.5915306446E+001 -1.0278477458E+002 -4.3805783682E+001 +6.0862524596E+001 -9.3104645716E+001 +1.4046871561E+002 -3.1712942123E+001 +8.0619437939E+000
4550000000.000 -1.5693108574E+001 -1.0279765765E+002 -4.4062565936E+001 +2.5881400347E+001 -8.1834444439E+001 -1.0011034208E+001 -3.0307099818E+001 +1.8409475228E+001
4682500000.000 -1.5409644085E+001 -1.0289244269E+002 -4.3957205758E+001 -7.5731461520E+000 -8.0496589415E+001 +5.1646911782E+001 -2.9636676110E+001 +3.8683100272E+001
4815000000.000 -1.5163115377E+001 -1.0331208797E+002 -4.3987936964E+001 -4.0727692362E+001 -8.1055147773E+001 +1.6583398811E+002 -2.7619614387E+001 +4.1186666673E+001
4947500000.000 -1.4964842379E+001 -1.0338603323E+002 -4.4032063344E+001 -7.3879390933E+001 -8.4634423252E+001 -1.0089205593E+002 -2.9355091327E+001 +3.5840543061E+001
5080000000.000 -1.4751611680E+001 -1.0324941104E+002 -4.3720521015E+001 -1.0756776113E+002 -9.2686351312E+001 -6.3305441967E+000 -3.2218113798E+001 +5.7139593498E+001
5212500000.000 -1.4522061975E+001 -1.0343302161E+002 -4.3841991865E+001 -1.4151583309E+002 -8.9802983417E+001 +7.3101990636E+001 -3.1547840970E+001 +6.9462564682E+001
5345000000.000 -1.4345083899E+001 -1.0382061402E+002 -4.3755714943E+001 -1.7546745680E+002 -8.7100747489E+001 -1.3332310394E+002 -3.5353987591E+001 +7.1231057305E+001
5477500000.000 -1.4209684764E+001 -1.0354959515E+002 -4.3749275370E+001 +1.5015206416E+002 -8.8531212954E+001 -6.6182476883E+001 -3.7176081707E+001 +1.3154502640E+002
5610000000.000 -1.4001957203E+001 -1.0346223655E+002 -4.3654437585E+001 +1.1603467909E+002 -8.9482991873E+001 +1.4253610159E+002 -3.3592571431E+001 +1.3554416189E+002
5742500000.000 -1.3843814470E+001 -1.0393656243E+002 -4.3525887068E+001 +8.1214093493E+001 -1.0013555558E+002 +1.6844771363E+002 -3.7779271381E+001 +1.5276125698E+002
5875000000.000 -1.3764896248E+001 -1.0430258681E+002 -4.3588014926E+001 +4.7352697378E+001 -8.4563602746E+001 -1.7110159760E+001 -3.3767772712E+001 -1.7053154104E+002
6007500000.000 -1.3640557101E+001 -1.0421213133E+002 -4.3506069888E+001 +1.2925476236E+001 -8.0900916351E+001 +7.8346449277E+001 -3.2664974968E+001 +1.7952796692E+002
6140000000.000 -1.3442676644E+001 -1.0439405089E+002 -4.3455568639E+001 -2.0585795411E+001 -8.1850116275E+001 +8.4367984543E+001 -3.6132854017E+001 -1.7000185576E+002
6272500000.000 -1.3296067289E+001 -1.0525299240E+002 -4.3620600534E+001 -5.5439068283E+001 -8.2486985478E+001 -8.9965895373E+001 -3.3889868279E+001 -1.4427183154E+002
6405000000.000 -1.3238195625E+001 -1.0585111779E+002 -4.3548456432E+001 -8.9683474663E+001 -9.2218051202E+001 +5.0603208982E+000 -3.3784202429E+001 -1.6187592402E+002
6537500000.000 -1.3107844842E+001 -1.0564178955E+002 -4.3567778116E+001 -1.2387917502E+002 -8.3951659334E+001 +1.3323706029E+002 -4.0125690353E+001 -1.6085502661E+002
6670000000.000 -1.2877382427E+001 -1.0594169360E+002 -4.3614693818E+001 -1.5754438806E+002 -9.0181167879E+001 -6.7475164271E+001 -3.9430676548E+001 -1.3746503248E+002
6802500000.000 -1.2718763682E+001 -1.0691996461E+002 -4.3648423858E+001 +1.6782886060E+002 -9.0961096414E+001 +1.4132243775E+001 -3.8940145070E+001 +1.7980170366E+002
6935000000.000 -1.2667616446E+001 -1.0740559477E+002 -4.3607349570E+001 +1.3419958234E+002 -8.7568542986E+001 -1.7954594919E+002 -3.8643788135E+001 +1.2315594123E+002
7067500000.000 -1.2536017961E+001 -1.0718220583E+002 -4.3549048885E+001 +1.0011823988E+002 -9.1433135047E+001 +1.6066318180E+002 -3.9023256879E+001 +1.1441465616E+002
7200000000.000 -1.2317180182E+001 -1.0763182958E+002 -4.3543880581E+001 +6.5915283552E+001 -8.3162260025E+001 +8.1431349825E+000 -3.2871474219E+001 +1.3152030040E+002
7332500000.000 -1.2177343533E+001 -1.0844056551E+002 -4.3634297829E+001 +3.1902188912E+001 -8.7983147923E+001 -6.6879539322E+000 -2.9106697701E+001 +1.1901235583E+002
7465000000.000 -1.2092278951E+001 -1.0867911893E+002 -4.3773560826E+001 -1.8565191752E+000 -8.7853761718E+001 +1.1680199923E+002 -2.8654358637E+001 +1.2246721960E+002
7597500000.000 -1.1922179006E+001 -1.0870765395E+002 -4.3734504346E+001 -3.5955584841E+001 -8.5958504234E+001 -1.1115008626E+001 -2.6137856871E+001 +1.3756521836E+002
7730000000.000 -1.1736988033E+001 -1.0904200754E+002 -4.3719535816E+001 -6.9435367688E+001 -8.4397019426E+001 +6.4709069506E+001 -2.3735649810E+001 +1.3786667673E+002
7862500000.000 -1.1612365791E+001 -1.0934863935E+002 -4.3669313729E+001 -1.0343420574E+002 -9.5493784726E+001 +1.4018507539E+002 -2.3307582466E+001 +1.4159970345E+002
7995000000.000 -1.1511662124E+001 -1.0939221748E+002 -4.3778701767E+001 -1.3803694652E+002 -8.4038116254E+001 -2.9817789788E+001 -2.1836030333E+001 +1.5431527546E+002
8127500000.000 -1.1321825572E+001 -1.0930432656E+002 -4.3755892678E+001 -1.7094015360E+002 -8.1924382366E+001 -7.0153221798E+000 -2.0032052065E+001 +1.5645804911E+002
8260000000.000 -1.1189782968E+001 -1.0968730791E+002 -4.3753751145E+001 +1.5396200807E+002 -8.5779215678E+001 -1.5751586933E+002 -1.9877555836E+001 +1.6013786020E+002
8392500000.000 -1.1096492898E+001 -1.0963821046E+002 -4.3757727976E+001 +1.2015959343E+002 -9.1069811090E+001 -1.5059317370E+002 -1.9063752493E+001 +1.7045831723E+002
8525000000.000 -1.0985421575E+001 -1.0944759314E+002 -4.3595129818E+001 +8.6292316489E+001 -8.4393543296E+001 +1.2036413229E+001 -1.8204223900E+001 +1.7298830210E+002
8657500000.000 -1.0850948603E+001 -1.0943107036E+002 -4.3675940664E+001 +5.2193981476E+001 -8.6120401348E+001 +1.0664444108E+002 -1.8572156012E+001 +1.7793195644E+002
8790000000.000 -1.0731960038E+001 -1.0960587358E+002 -4.3708179849E+001 +1.8067524688E+001 -9.3977436823E+001 -1.1957018950E+002 -1.8354026363E+001 -1.7169957441E+002
8922500000.000 -1.0685588661E+001 -1.0966871622E+002 -4.3604414984E+001 -1.6212212414E+001 -9.5547606494E+001 +1.6920090150E+002 -1.7987791712E+001 -1.6598772403E+002
9055000000.000 -1.0580536032E+001 -1.0956693702E+002 -4.3624736613E+001 -5.1103476493E+001 -9.4056213033E+001 -1.7801578963E+002 -1.8459588159E+001 -1.5838961993E+002
9187500000.000 -1.0495061417E+001 -1.0970304384E+002 -4.3538853612E+001 -8.4398497189E+001 -8.6485280868E+001 -1.1231865103E+002 -1.8378461090E+001 -1.4631797985E+002
9320000000.000 -1.0423492200E+001 -1.1025095080E+002 -4.3567851897E+001 -1.1870926495E+002 -9.1270479219E+001 +7.1695376723E+001 -1.8211960613E+001 -1.3966209910E+002
9452500000.000 -1.0369941839E+001 -1.1033015075E+002 -4.3473693780E+001 -1.5275510144E+002 -8.1140032953E+001 +4.5631603116E+001 -1.8858642687E+001 -1.3054371285E+002
9585000000.000 -1.0282092856E+001 -1.1046378910E+002 -4.3449982910E+001 +1.7267232640E+002 -8.0956137885E+001 -1.2359556265E+002 -1.8794096131E+001 -1.1825488782E+002
9717500000.000 -1.0152532511E+001 -1.1095286966E+002 -4.3521213573E+001 +1.3805116571E+002 -8.7925151302E+001 -1.5690889435E+002 -1.8821330049E+001 -1.1119685242E+002
9850000000.000 -1.0111720062E+001 -1.1162823871E+002 -4.3405307148E+001 +1.0440253526E+002 -8.4555287253E+001 +4.5989430810E+001 -1.9656937734E+001 -1.0053279486E+002
9982500000.000 -1.0040691788E+001 -1.1153886821E+002 -4.3421968757E+001 +6.9395589918E+001 -9.5454869907E+001 -1.6527735978E+002 -1.9685976539E+001 -8.6473108404E+001
10115000000.000 -9.9262045384E+000 -1.1177341216E+002 -4.3436288315E+001 +3.5379648848E+001 -8.2352828156E+001 -1.2161648568E+002 -1.9921314770E+001 -7.9080441312E+001
10247500000.000 -9.8277836106E+000 -1.1246578948E+002 -4.3370422182E+001 +1.6433631472E+000 -9.0168694899E+001 +7.0819649569E+001 -2.1155923478E+001 -6.5865378300E+001
10380000000.000 -9.7677999846E+000 -1.1271366169E+002 -4.3361732741E+001 -3.2852588681E+001 -8.1394889077E+001 +1.2594003204E+002 -2.1054166314E+001 -4.9853194802E+001
10512500000.000 -9.6862320801E+000 -1.1296959909E+002 -4.3357734902E+001 -6.7087343444E+001 -8.5532256236E+001 -8.5263001038E+001 -2.1516578350E+001 -4.1906736601E+001
10645000000.000 -9.5988265808E+000 -1.1330604684E+002 -4.3414654177E+001 -1.0127301842E+002 -9.7647434209E+001 +2.2558345312E+001 -2.2835160901E+001 -2.3811160555E+001
10777500000.000 -9.5003926526E+000 -1.1364791023E+002 -4.3431178079E+001 -1.3514481998E+002 -8.7623789539E+001 +9.0292650301E+001 -2.2190232864E+001 -5.8404461469E+000
10910000000.000 -9.4107498238E+000 -1.1392078365E+002 -4.3447186480E+001 -1.6994318173E+002 -9.2872455884E+001 -1.0580021128E+002 -2.2796481605E+001 +4.3348655573E+000
11042500000.000 -9.3100802767E+000 -1.1436618368E+002 -4.3397756876E+001 +1.5675578846E+002 -8.7807896903E+001 +4.6770017739E+001 -2.3474013758E+001 +2.7744038320E+001
11175000000.000 -9.2024676062E+000 -1.1448695364E+002 -4.3281751245E+001 +1.2204024416E+002 -8.3237149973E+001 +1.2335749836E+002 -2.2247856166E+001 +4.2939514747E+001
11307500000.000 -9.1370599664E+000 -1.1459104307E+002 -4.3391202259E+001 +8.7657919692E+001 -8.3329231240E+001 -1.3251814160E+002 -2.2734153227E+001 +5.3281911815E+001
11440000000.000 -9.0303678731E+000 -1.1497581460E+002 -4.3321478627E+001 +5.3271867791E+001 -8.3864347863E+001 -5.6101177001E+001 -2.2581081982E+001 +7.5916663535E+001
11572500000.000 -8.9348289802E+000 -1.1486737672E+002 -4.3332206988E+001 +1.8840063105E+001 -8.7582796675E+001 +1.1629767358E+002 -2.1150597037E+001 +8.7169244803E+001
11705000000.000 -8.8601264337E+000 -1.1500883716E+002 -4.3276345248E+001 -1.5285692289E+001 -8.3208254169E+001 +1.4005841310E+002 -2.1759770272E+001 +9.7135307791E+001
11837500000.000 -8.7717066299E+000 -1.1524685602E+002 -4.3364562506E+001 -5.0695302030E+001 -7.7478321927E+001 -3.0532491694E+001 -2.1125378866E+001 +1.1942023307E+002
11970000000.000 -8.7373112968E+000 -1.1530660500E+002 -4.3312836777E+001 -8.3718347024E+001 -8.3473104060E+001 +5.7075967632E+001 -1.9825386191E+001 +1.2556606620E+002
12102500000.000 -8.6732035230E+000 -1.1500800517E+002 -4.3340848054E+001 -1.1890900011E+002 -9.3211940066E+001 -1.6355505057E+002 -2.0745993621E+001 +1.3556249781E+002
12235000000.000 -8.5985282940E+000 -1.1564015741E+002 -4.3253473299E+001 -1.5299958569E+002 -8.4421596461E+001 -5.8363883018E+001 -1.9755396284E+001 +1.5468566251E+002
12367500000.000 -8.5888321663E+000 -1.1552871680E+002 -4.3336389272E+001 +1.7243836042E+002 -7.9664005864E+001 +8.1296927006E+001 -1.8879426985E+001 +1.5798204720E+002
12500000000.000 -8.5397897123E+000 -1.1590873014E+002 -4.3300925504E+001 +1.3716166540E+002 -9.3567492740E+001 +1.5269072707E+002 -2.0047683316E+001 +1.6830862713E+002
12632500000.000 -8.4581413896E+000 -1.1593143677E+002 -4.3341527084E+001 +1.0316685727E+002 -8.4200602237E+001 -8.3258006142E+001 -1.9158886310E+001 -1.7294117828E+002
12765000000.000 -8.4321225063E+000 -1.1615629654E+002 -4.3457805877E+001 +6.8825217460E+001 -7.9702662197E+001 +1.2884078647E+001 -1.8516444824E+001 -1.7133494516E+002
12897500000.000 -8.4198209819E+000 -1.1646610017E+002 -4.3437767487E+001 +3.5274643946E+001 -8.7332908297E+001 +2.5431431833E+001 -2.0142026249E+001 -1.5933526239E+002
13030000000.000 -8.3799224889E+000 -1.1659685765E+002 -4.3489124448E+001 -3.4090862095E-001 -7.9071412562E+001 -8.7096791893E+001 -1.8833271043E+001 -1.4146314836E+002
13162500000.000 -8.3163321618E+000 -1.1676468368E+002 -4.3389073546E+001 -3.3810400184E+001 -7.9493076561E+001 -5.8210601558E+001 -1.8653383230E+001 -1.4165648462E+002
13295000000.000 -8.2631447940E+000 -1.1702970807E+002 -4.3374651864E+001 -6.8894073286E+001 -8.1031402020E+001 +1.1912954261E+002 -2.0050566302E+001 -1.2771456190E+002
13427500000.000 -8.2352567249E+000 -1.1757820849E+002 -4.3531163854E+001 -1.0358948047E+002 -8.5196426493E+001 -9.9074252167E+001 -1.8835658265E+001 -1.1398771932E+002
13560000000.000 -8.2316038395E+000 -1.1751221099E+002 -4.3505130794E+001 -1.3777184661E+002 -8.2002185687E+001 -1.1858965245E+002 -1.9040826792E+001 -1.1466100162E+002
13692500000.000 -8.1442558286E+000 -1.1757364033E+002 -4.3565849955E+001 -1.7147116924E+002 -8.4037015922E+001 +8.5950448286E+001 -2.0848027868E+001 -1.0120217869E+002
13825000000.000 -8.0670364367E+000 -1.1808146938E+002 -4.3575612933E+001 +1.5343679294E+002 -7.7962771475E+001 -1.5824530038E+002 -1.9725723980E+001 -8.7421862640E+001
13957500000.000 -8.0604842589E+000 -1.1849785976E+002 -4.3507961458E+001 +1.1944088872E+002 -8.3247456799E+001 +8.9953468516E+001 -2.0390476846E+001 -9.0073157128E+001
14090000000.000 -8.0277559605E+000 -1.1845608511E+002 -4.3493490981E+001 +8.4245103863E+001 -7.6329573658E+001 +8.7995500798E+000 -2.2695755296E+001 -7.2645441859E+001
14222500000.000 -7.9370759884E+000 -1.1836425037E+002 -4.3562790257E+001 +4.9571541431E+001 -8.8849636378E+001 +1.5089974190E+002 -2.1300368933E+001 -5.9198637891E+001
14355000000.000 -7.8732181968E+000 -1.1888664711E+002 -4.3611065769E+001 +1.4620699799E+001 -8.4158673936E+001 -8.2057480420E+001 -2.2517133101E+001 -6.3532901394E+001
14487500000.000 -7.8468376532E+000 -1.1913361248E+002 -4.3577670092E+001 -1.8982109394E+001 -8.5250513072E+001 -2.8061215949E+000 -2.5558144520E+001 -4.0307061202E+001
14620000000.000 -7.8029392081E+000 -1.1894575935E+002 -4.3654825733E+001 -5.4912695163E+001 -8.3367546137E+001 +8.0489072103E+001 -2.3300532003E+001 -2.7324033273E+001
14752500000.000 -7.6832844152E+000 -1.1905912866E+002 -4.3710648812E+001 -8.8936141578E+001 -7.8962148296E+001 -7.1975934020E+001 -2.5374075294E+001 -3.6530666835E+001
14885000000.000 -7.6294152538E+000 -1.1932726195E+002 -4.3786013435E+001 -1.2357113844E+002 -8.1740209957E+001 -6.5628131472E+000 -2.8935405641E+001 +2.4617985525E+000
15017500000.000 -7.6088051790E+000 -1.1927747393E+002 -4.3829683217E+001 -1.5741720564E+002 -7.7686265040E+001 +1.4212630717E+002 -2.5420638217E+001 +9.1588392045E+000
15150000000.000 -7.5171467478E+000 -1.1904532288E+002 -4.3858805720E+001 +1.6730091306E+002 -8.3693168290E+001 +1.4108877306E+002 -2.9142807787E+001 -2.2486871942E+000
15282500000.000 -7.4519927075E+000 -1.1900093501E+002 -4.4036695858E+001 +1.3230089185E+002 -7.8209889074E+001 -6.7672204341E+001 -3.1197757910E+001 +5.8236183414E+001
