!  2-Port S-parameters saved by WinCal
! VAR MeasName=S-Parameters (CALIBRATED_DATA) read from VNA (C)
! VAR MeasDate=10/16/2015 3:17:06 PM
! VAR NAME=M6082_10_15_2_2_20C_10.4mA_-17.5dBm
! VAR FILENAME=M6082_10_15_2_2_20C_10.4mA_-17.5dBm.S2P
! VAR DATE=10/16/2015 3:17:06 PM
! VAR PHYS_PORTS=2,1
! VAR ObjTypeName=DATASET
! VAR IndexType=Frequency
!
# Hz S DB R 50
45000000.000 -1.8862488362E+001 -1.7970280550E+002 -4.3116756181E+001 +1.0736930799E+002 -6.6502130175E+001 +1.8801375633E+001 -3.0700928152E+001 +8.1001685035E+000
177500000.000 -1.8923172605E+001 -1.7666165796E+002 -4.2758627336E+001 +6.9040233385E+001 -7.3020790157E+001 +5.7852790830E+001 -3.2688472501E+001 +4.6930176086E+001
310000000.000 -1.8945516970E+001 -1.7300800215E+002 -4.2967040709E+001 +3.8375209524E+001 -7.8151228911E+001 +1.5424663746E+002 -2.3370737923E+001 +6.4860869067E+001
442500000.000 -1.8905377477E+001 -1.6950747040E+002 -4.2047629340E+001 +2.6283869725E-001 -8.6331460232E+001 +9.9139732266E+001 -2.2378824200E+001 +1.7342365143E+001
575000000.000 -1.8756569035E+001 -1.6574003037E+002 -4.2717120612E+001 -3.5500332885E+001 -8.4281099063E+001 +1.3101894580E+002 -3.0615293749E+001 +2.2605312226E+001
707500000.000 -1.8584033615E+001 -1.6260033717E+002 -4.2578436384E+001 -6.9541198544E+001 -8.5072844832E+001 -1.0239055929E+002 -3.4507922169E+001 +8.3879444260E+001
840000000.000 -1.8407267983E+001 -1.5912878209E+002 -4.2915261279E+001 -1.0345924053E+002 -1.1247511327E+002 -3.9274803782E+001 -2.9695271713E+001 +1.2743147213E+002
972500000.000 -1.8190281298E+001 -1.5591498731E+002 -4.2841091545E+001 -1.3766156916E+002 -8.1644953496E+001 +1.3816252917E+002 -2.5962430126E+001 +1.3539147387E+002
1105000000.000 -1.7902604767E+001 -1.5303954704E+002 -4.3038874572E+001 -1.7198447480E+002 -8.6031921659E+001 +4.5098230739E+001 -2.4366321484E+001 +1.4080071694E+002
1237500000.000 -1.7620415303E+001 -1.5051505287E+002 -4.2979006217E+001 +1.5513021197E+002 -8.8411599802E+001 -9.8664593049E-001 -2.3395773625E+001 +1.5000883372E+002
1370000000.000 -1.7311574113E+001 -1.4825285807E+002 -4.3056527250E+001 +1.2059070337E+002 -8.2573083654E+001 +8.9773240672E+001 -2.2080163951E+001 +1.5998937093E+002
1502500000.000 -1.7026140982E+001 -1.4607490862E+002 -4.3024770755E+001 +8.6266504101E+001 -8.4732511963E+001 -8.4398541897E+001 -2.0872232269E+001 +1.6642033131E+002
1635000000.000 -1.6716059124E+001 -1.4372973831E+002 -4.3082107225E+001 +5.1950756532E+001 -9.3774197083E+001 +7.3668397745E+001 -2.0032449533E+001 +1.7327580865E+002
1767500000.000 -1.6376509641E+001 -1.4197041316E+002 -4.3032487657E+001 +1.7675459777E+001 -8.8127734108E+001 +1.4817542274E+002 -1.9026596954E+001 +1.7857151749E+002
1900000000.000 -1.6107296228E+001 -1.4043611997E+002 -4.3128982863E+001 -1.6888330481E+001 -9.4417836084E+001 +1.2651774206E+001 -1.8875756777E+001 -1.7825801366E+002
2032500000.000 -1.5806579758E+001 -1.3898763867E+002 -4.3118039879E+001 -5.0839820654E+001 -9.0786058766E+001 -3.0836719315E+001 -1.8697371840E+001 -1.6788868732E+002
2165000000.000 -1.5490576565E+001 -1.3730604689E+002 -4.3297786138E+001 -8.4989433870E+001 -8.5262620800E+001 +1.7840755619E+002 -1.7746839791E+001 -1.6096460921E+002
2297500000.000 -1.5211040872E+001 -1.3624675772E+002 -4.3324533526E+001 -1.1877191839E+002 -7.9309074771E+001 -1.6399936726E+002 -1.7241524140E+001 -1.5709596418E+002
2430000000.000 -1.4932995554E+001 -1.3515868500E+002 -4.3262478598E+001 -1.5349720748E+002 -8.4190975342E+001 -3.6898945284E+001 -1.6942764134E+001 -1.5284786328E+002
2562500000.000 -1.4630271355E+001 -1.3409712311E+002 -4.3221280391E+001 +1.7332034418E+002 -7.4519869986E+001 -2.8950910628E+001 -1.6839302184E+001 -1.5036439335E+002
2695000000.000 -1.4338458037E+001 -1.3374836940E+002 -4.3508152632E+001 +1.3849286432E+002 -8.0227587636E+001 +8.7240338609E+001 -1.7367585768E+001 -1.4713015299E+002
2827500000.000 -1.4108698577E+001 -1.3335894286E+002 -4.3397849157E+001 +1.0547285781E+002 -7.6373364311E+001 -9.3060669444E+001 -1.7855520062E+001 -1.4034921345E+002
2960000000.000 -1.3866610957E+001 -1.3251561582E+002 -4.3300272654E+001 +7.1088150074E+001 -7.5701018406E+001 +3.1433266494E+001 -1.8162555746E+001 -1.3546406002E+002
3092500000.000 -1.3552320114E+001 -1.3194993845E+002 -4.3482401529E+001 +3.7975525685E+001 -8.2551403021E+001 +1.2554583240E+002 -1.9078578643E+001 -1.2931554639E+002
3225000000.000 -1.3261219463E+001 -1.3186247392E+002 -4.3508521311E+001 +2.3166133603E+000 -7.8808018206E+001 -1.2267541299E+002 -1.9584342065E+001 -1.1970766736E+002
3357500000.000 -1.3064094002E+001 -1.3169055037E+002 -4.3578891505E+001 -3.0223032185E+001 -7.7014897493E+001 -1.4013482283E+001 -1.9968038248E+001 -1.1434212921E+002
3490000000.000 -1.2785736792E+001 -1.3108646400E+002 -4.3600247337E+001 -6.4696310244E+001 -8.8923807948E+001 +3.9601143914E+001 -2.1126260893E+001 -1.0846484939E+002
3622500000.000 -1.2519890404E+001 -1.3063616425E+002 -4.3640310514E+001 -9.9269380260E+001 -8.2220147257E+001 +1.3745628469E+002 -2.1941243035E+001 -9.8196968465E+001
3755000000.000 -1.2247875799E+001 -1.3050301858E+002 -4.3698965461E+001 -1.3191975013E+002 -8.0629486343E+001 +1.8088787859E+001 -2.2718997645E+001 -9.4668074345E+001
3887500000.000 -1.2031396844E+001 -1.3026579341E+002 -4.3577351761E+001 -1.6616682047E+002 -7.7670240271E+001 +1.3518813437E+002 -2.5041936250E+001 -8.7640395416E+001
4020000000.000 -1.1825165631E+001 -1.3005277415E+002 -4.3713694634E+001 +1.5899723128E+002 -8.1095718517E+001 -1.3524826931E+002 -2.6664472901E+001 -7.3351032612E+001
4152500000.000 -1.1596740986E+001 -1.2965667498E+002 -4.3677553973E+001 +1.2519283053E+002 -7.9083824569E+001 +7.2529521081E+000 -2.8882084785E+001 -6.4735481245E+001
4285000000.000 -1.1371714380E+001 -1.2951663744E+002 -4.3849666349E+001 +9.0561767914E+001 -9.0619198258E+001 +3.1186892078E+001 -3.3372589915E+001 -3.7293333070E+001
4417500000.000 -1.1159946399E+001 -1.2954362231E+002 -4.3928760850E+001 +5.7005569367E+001 -9.0215754780E+001 -8.8615978858E+001 -3.1749026288E+001 +8.0807880364E+000
4550000000.000 -1.0991611320E+001 -1.2932723780E+002 -4.3784077359E+001 +2.2583800753E+001 -9.0116818226E+001 +1.6580364335E+002 -3.0351755324E+001 +1.8181744037E+001
4682500000.000 -1.0789404036E+001 -1.2901491890E+002 -4.3923276929E+001 -1.1084349763E+001 -8.8426248265E+001 +2.7781489020E+001 -2.9630304467E+001 +3.8981004074E+001
4815000000.000 -1.0581871923E+001 -1.2897283124E+002 -4.4031738019E+001 -4.3841394529E+001 -8.0723175086E+001 +1.7188859721E+002 -2.7637404250E+001 +4.1328091264E+001
4947500000.000 -1.0426174410E+001 -1.2888518910E+002 -4.4027727999E+001 -7.7901602235E+001 -7.8927418523E+001 -1.1148122290E+002 -2.9352022490E+001 +3.5736968277E+001
5080000000.000 -1.0263533392E+001 -1.2859972391E+002 -4.3880484772E+001 -1.1082547519E+002 -8.6548637763E+001 -5.8322806282E+001 -3.2222691890E+001 +5.7058935164E+001
5212500000.000 -1.0086023337E+001 -1.2849628339E+002 -4.3865641762E+001 -1.4412058222E+002 -7.9928825816E+001 +1.4043160364E+002 -3.1566424527E+001 +6.9637476681E+001
5345000000.000 -9.9324009175E+000 -1.2860004350E+002 -4.3806456438E+001 -1.7825294411E+002 -9.1471828207E+001 -1.5275818810E+002 -3.5297657383E+001 +7.1051205970E+001
5477500000.000 -9.8254412872E+000 -1.2842705984E+002 -4.3681708041E+001 +1.4652700695E+002 -8.7531904019E+001 -3.0667097515E+001 -3.7224160667E+001 +1.3150332937E+002
5610000000.000 -9.6716499675E+000 -1.2823781720E+002 -4.3715400463E+001 +1.1315979890E+002 -8.5906988962E+001 +9.2598448813E+001 -3.3673760881E+001 +1.3571620657E+002
5742500000.000 -9.5275969835E+000 -1.2840546371E+002 -4.3762817576E+001 +7.7893471833E+001 -8.8179316374E+001 +5.4317891670E+001 -3.7711532616E+001 +1.5306317177E+002
5875000000.000 -9.4295456880E+000 -1.2871560479E+002 -4.3701530789E+001 +4.4489672341E+001 -8.7883159931E+001 +1.4219066914E+001 -3.3756115183E+001 -1.7070358583E+002
6007500000.000 -9.3269385574E+000 -1.2867139591E+002 -4.3755341019E+001 +9.7142416556E+000 -8.5989340090E+001 +1.0240862324E+002 -3.2728647377E+001 +1.7958600327E+002
6140000000.000 -9.1811544901E+000 -1.2864291252E+002 -4.3767405816E+001 -2.5172627941E+001 -9.0466348838E+001 -1.1832825033E+002 -3.6117244059E+001 -1.6948198883E+002
6272500000.000 -9.0301270726E+000 -1.2906063623E+002 -4.3902476017E+001 -5.8667252162E+001 -9.3433030624E+001 -9.0240748624E+000 -3.3895441697E+001 -1.4451831073E+002
6405000000.000 -8.9446104123E+000 -1.2954005352E+002 -4.3848536861E+001 -9.3075856291E+001 -9.0182777773E+001 +5.9424886849E+001 -3.3846571614E+001 -1.6231211571E+002
6537500000.000 -8.8444283735E+000 -1.2946531642E+002 -4.3894557342E+001 -1.2728142565E+002 -8.7324663565E+001 +1.1513406382E+002 -4.0166085977E+001 -1.6043159719E+002
6670000000.000 -8.6801185166E+000 -1.2942425560E+002 -4.3950895412E+001 -1.6095165568E+002 -1.0037139169E+002 -1.5301029435E+002 -3.9348661695E+001 -1.3755308062E+002
6802500000.000 -8.5294352798E+000 -1.2993646639E+002 -4.3939441985E+001 +1.6468454020E+002 -9.5710216555E+001 +6.2014189974E+001 -3.8847019335E+001 +1.7961720443E+002
6935000000.000 -8.4595112845E+000 -1.3039285139E+002 -4.4039970532E+001 +1.3041350760E+002 -8.5176501903E+001 +9.9587136237E+001 -3.8654458123E+001 +1.2277234386E+002
7067500000.000 -8.3728711158E+000 -1.3020122429E+002 -4.4113523563E+001 +9.5990406191E+001 -9.5695120670E+001 +6.7466654095E+001 -3.9096071525E+001 +1.1410672930E+002
7200000000.000 -8.2118526184E+000 -1.3025763295E+002 -4.4199343099E+001 +6.2526433167E+001 -8.5071450731E+001 +7.5766982609E+001 -3.2867704734E+001 +1.3158822352E+002
7332500000.000 -8.0833860681E+000 -1.3076458965E+002 -4.4146084873E+001 +2.8209642814E+001 -8.5127381121E+001 +1.7818362191E+002 -2.9056433220E+001 +1.1908426318E+002
7465000000.000 -8.0048377989E+000 -1.3097880898E+002 -4.4212670751E+001 -5.8430538893E+000 -8.2037850069E+001 -1.5916787987E+002 -2.8648078145E+001 +1.2223958134E+002
7597500000.000 -7.8992607922E+000 -1.3089513590E+002 -4.4401052577E+001 -3.8991245796E+001 -8.3517306916E+001 -5.3074102587E+001 -2.6159429225E+001 +1.3747099881E+002
7730000000.000 -7.7510368930E+000 -1.3098437186E+002 -4.4339854303E+001 -7.2909354522E+001 -9.0342584222E+001 +9.5541348197E+001 -2.3730385944E+001 +1.3791843472E+002
7862500000.000 -7.6474167250E+000 -1.3119048766E+002 -4.4222679268E+001 -1.0716135701E+002 -9.1335601757E+001 -1.6466065433E+002 -2.3277566435E+001 +1.4145319612E+002
7995000000.000 -7.5720793755E+000 -1.3123528586E+002 -4.4362768090E+001 -1.4102396118E+002 -9.1885335532E+001 -1.3566920686E+001 -2.1841099185E+001 +1.5426020425E+002
8127500000.000 -7.4508463453E+000 -1.3102748386E+002 -4.4478575306E+001 -1.7451726578E+002 -7.6196886116E+001 +4.7114318289E+001 -2.0032974198E+001 +1.5658217789E+002
8260000000.000 -7.3394316742E+000 -1.3125848803E+002 -4.4385234058E+001 +1.5110740506E+002 -1.0200530268E+002 +1.1458664667E+002 -1.9863124734E+001 +1.6022938299E+002
8392500000.000 -7.2747448725E+000 -1.3125908986E+002 -4.4563162594E+001 +1.1775111692E+002 -8.9257959059E+001 +3.9890469535E+001 -1.9071426508E+001 +1.7042789548E+002
8525000000.000 -7.2025608484E+000 -1.3110978514E+002 -4.4481306445E+001 +8.3092972179E+001 -9.0186620069E+001 +1.5827460149E+001 -1.8217925341E+001 +1.7302381098E+002
8657500000.000 -7.1088254218E+000 -1.3105187294E+002 -4.4577265409E+001 +5.0099924523E+001 -9.0944726801E+001 -1.2876998722E+002 -1.8573279384E+001 +1.7798365023E+002
8790000000.000 -7.0144805748E+000 -1.3118629402E+002 -4.4477617796E+001 +1.5218004196E+001 -8.8538548410E+001 -1.6547260061E+002 -1.8357513966E+001 -1.7169438913E+002
8922500000.000 -6.9745616955E+000 -1.3133517800E+002 -4.4546129150E+001 -1.8231537886E+001 -8.6659894262E+001 -2.7139407691E+001 -1.7990402042E+001 -1.6602095934E+002
9055000000.000 -6.9051412302E+000 -1.3128208521E+002 -4.4540852214E+001 -5.2511203338E+001 -9.2244894370E+001 +1.6262577096E+002 -1.8458201019E+001 -1.5838143286E+002
9187500000.000 -6.8349614742E+000 -1.3137055556E+002 -4.4522094187E+001 -8.7032769436E+001 -8.8319255372E+001 +1.3495949625E+001 -1.8385627846E+001 -1.4625808475E+002
9320000000.000 -6.7565520426E+000 -1.3185211889E+002 -4.4544234220E+001 -1.2077361331E+002 -8.3576069601E+001 +4.9389619828E+001 -1.8206845566E+001 -1.3961141738E+002
9452500000.000 -6.7129362612E+000 -1.3202746717E+002 -4.4451881998E+001 -1.5503849350E+002 -8.9414557531E+001 +1.1769807615E+002 -1.8859213399E+001 -1.3057468470E+002
9585000000.000 -6.6499283351E+000 -1.3215545160E+002 -4.4578420532E+001 +1.7120193589E+002 -8.6626092994E+001 -1.2235131029E+002 -1.8803368584E+001 -1.1820131202E+002
9717500000.000 -6.5433271151E+000 -1.3238736129E+002 -4.4523730931E+001 +1.3729009012E+002 -8.4910362096E+001 -6.1108314240E+001 -1.8803848505E+001 -1.1108276975E+002
9850000000.000 -6.4910482252E+000 -1.3299870743E+002 -4.4640425961E+001 +1.0207831607E+002 -9.4714875357E+001 -4.4119101370E+001 -1.9656336451E+001 -1.0067953705E+002
9982500000.000 -6.4468481974E+000 -1.3296858875E+002 -4.4575166642E+001 +6.8235532525E+001 -9.2835428348E+001 -1.7567143155E+002 -1.9716493072E+001 -8.6409809873E+001
10115000000.000 -6.3654010113E+000 -1.3306478969E+002 -4.4631953184E+001 +3.5974818516E+001 -8.1187328633E+001 -1.6643225420E+001 -1.9903676188E+001 -7.9025810948E+001
10247500000.000 -6.2740587665E+000 -1.3350914109E+002 -4.4823492263E+001 +1.2259639783E+000 -8.8408031127E+001 +8.3928197484E+001 -2.1148317157E+001 -6.6065372584E+001
10380000000.000 -6.2334415095E+000 -1.3384435601E+002 -4.4695638514E+001 -3.3187194840E+001 -8.5466480054E+001 -1.7821747008E+002 -2.1090190164E+001 -4.9781975967E+001
10512500000.000 -6.1813687662E+000 -1.3398731401E+002 -4.4758369262E+001 -6.6868726839E+001 -8.2680757137E+001 -1.0587833150E+002 -2.1508243613E+001 -4.1745822467E+001
10645000000.000 -6.1140282003E+000 -1.3414012791E+002 -4.4816115308E+001 -1.0053331107E+002 -9.6225597667E+001 +1.2890453945E+002 -2.2820236427E+001 -2.3966173571E+001
10777500000.000 -6.0345943799E+000 -1.3442290052E+002 -4.4749678147E+001 -1.3473798099E+002 -9.6944284785E+001 -1.1774184547E+002 -2.2230596439E+001 -5.8137785120E+000
10910000000.000 -5.9711397739E+000 -1.3471355422E+002 -4.4723798067E+001 -1.6890143221E+002 -9.2121023818E+001 -1.3178434513E+002 -2.2788346560E+001 +4.4818967163E+000
11042500000.000 -5.9058887170E+000 -1.3495241317E+002 -4.4782583631E+001 +1.5802437422E+002 -9.0232575020E+001 +8.5419444405E+001 -2.3437002738E+001 +2.7652617479E+001
11175000000.000 -5.8296472796E+000 -1.3498669537E+002 -4.4913411841E+001 +1.2287756730E+002 -9.3999639455E+001 +9.6620159411E+001 -2.2280032425E+001 +4.2925832172E+001
11307500000.000 -5.7789934095E+000 -1.3509379338E+002 -4.4856096399E+001 +8.9201953757E+001 -9.6827814297E+001 -8.2706626564E+001 -2.2738521370E+001 +5.3420993080E+001
11440000000.000 -5.7039124635E+000 -1.3531353155E+002 -4.4800171605E+001 +5.4643908085E+001 -8.1451092980E+001 -4.3091085262E+001 -2.2576287367E+001 +7.5791177257E+001
11572500000.000 -5.6504677011E+000 -1.3522037641E+002 -4.4846746705E+001 +2.1017805090E+001 -7.9917523846E+001 +7.3629430711E+001 -2.1173201122E+001 +8.7149338298E+001
11705000000.000 -5.6004796930E+000 -1.3525091850E+002 -4.4933625759E+001 -1.2487232761E+001 -8.3304634693E+001 +1.1522572103E+002 -2.1777402858E+001 +9.7133665421E+001
11837500000.000 -5.5364890430E+000 -1.3538589520E+002 -4.4921202599E+001 -4.7864275298E+001 -9.9357269029E+001 +8.4107456627E+001 -2.1121824947E+001 +1.1942129131E+002
11970000000.000 -5.5196826670E+000 -1.3551820396E+002 -4.4905030598E+001 -8.0623396041E+001 -1.1518607514E+002 +2.1004597986E+000 -1.9820140053E+001 +1.2557027986E+002
12102500000.000 -5.4954998322E+000 -1.3534217841E+002 -4.4945654797E+001 -1.1683710989E+002 -8.6699177189E+001 +1.7109504242E+002 -2.0751204113E+001 +1.3548868745E+002
12235000000.000 -5.4304107257E+000 -1.3574279912E+002 -4.5112720118E+001 -1.4890583130E+002 -8.4801154613E+001 -5.6304273581E+001 -1.9784620838E+001 +1.5466508113E+002
12367500000.000 -5.4260518025E+000 -1.3581863688E+002 -4.5002518563E+001 +1.7614082910E+002 -8.8509106821E+001 +1.0176539018E+002 -1.8880065265E+001 +1.5807978639E+002
12500000000.000 -5.3918176310E+000 -1.3615013217E+002 -4.5154457269E+001 +1.4230762727E+002 -9.4126062689E+001 +9.6862494569E+001 -2.0061317865E+001 +1.6812585264E+002
12632500000.000 -5.3471176337E+000 -1.3614994960E+002 -4.5056805949E+001 +1.0798956967E+002 -8.0870580195E+001 -1.2044580611E+002 -1.9182013803E+001 -1.7289620266E+002
12765000000.000 -5.3130926877E+000 -1.3638256413E+002 -4.5160244745E+001 +7.4648740610E+001 -8.9259222428E+001 -8.0055210219E+001 -1.8520608380E+001 -1.7117409292E+002
12897500000.000 -5.2957368598E+000 -1.3666197952E+002 -4.5155215398E+001 +4.0150388420E+001 -8.0576388229E+001 +1.4407944745E+002 -2.0121410292E+001 -1.5945277482E+002
13030000000.000 -5.2740700769E+000 -1.3680312898E+002 -4.5319487270E+001 +5.8773557395E+000 -8.9965278073E+001 -1.6848043529E+002 -1.8868689318E+001 -1.4154156205E+002
13162500000.000 -5.2277888910E+000 -1.3689629421E+002 -4.5161157241E+001 -2.7749319981E+001 -8.0170227295E+001 +4.0680150012E+001 -1.8660144651E+001 -1.4146569519E+002
13295000000.000 -5.1927715414E+000 -1.3702699466E+002 -4.5427429850E+001 -6.2079115849E+001 -8.5606415618E+001 +7.9565737373E+001 -2.0033662637E+001 -1.2789769151E+002
13427500000.000 -5.1713111370E+000 -1.3740461493E+002 -4.5273552295E+001 -9.6068054135E+001 -8.0498072302E+001 -1.7502311191E+002 -1.8881169944E+001 -1.1418490255E+002
13560000000.000 -5.1675951680E+000 -1.3742714243E+002 -4.5178754464E+001 -1.2900641276E+002 -1.0354101516E+002 +1.2232276394E+002 -1.9066060936E+001 -1.1460363952E+002
13692500000.000 -5.1222249499E+000 -1.3744015585E+002 -4.5360671075E+001 -1.6378608373E+002 -7.9217598910E+001 +5.1016369748E+001 -2.0829647556E+001 -1.0126890283E+002
13825000000.000 -5.0692585796E+000 -1.3773590392E+002 -4.5458894328E+001 +1.6262764228E+002 -8.4139445877E+001 +1.3668961518E+002 -1.9748133025E+001 -8.7651091239E+001
13957500000.000 -5.0581054253E+000 -1.3811248626E+002 -4.5413443114E+001 +1.2806736686E+002 -8.3560939261E+001 +1.5480211734E+001 -2.0415117710E+001 -9.0077950274E+001
14090000000.000 -5.0440500823E+000 -1.3814728521E+002 -4.5515639376E+001 +9.3115484999E+001 -8.2622845239E+001 +3.2740429902E+001 -2.2667935346E+001 -7.2537665556E+001
14222500000.000 -4.9980114608E+000 -1.3802826885E+002 -4.5289651791E+001 +6.0683153830E+001 -8.0202663951E+001 -1.4198168330E+002 -2.1295812650E+001 -5.9316913042E+001
14355000000.000 -4.9354183458E+000 -1.3837043341E+002 -4.5459788249E+001 +2.5398926731E+001 -8.4045965304E+001 -5.3493310166E+001 -2.2532926199E+001 -6.3670463375E+001
14487500000.000 -4.9089824409E+000 -1.3852910420E+002 -4.5409838445E+001 -8.5705561757E+000 -9.0366106331E+001 +3.6164798829E+001 -2.5617077316E+001 -4.0389018619E+001
14620000000.000 -4.8961995769E+000 -1.3842922802E+002 -4.5597852398E+001 -4.2851184872E+001 -8.9504626197E+001 +1.3728511449E+002 -2.3269929604E+001 -2.7203852245E+001
14752500000.000 -4.8122937301E+000 -1.3826474930E+002 -4.5552890008E+001 -7.8263074708E+001 -8.4139175145E+001 -1.1688404102E+002 -2.5349516992E+001 -3.6981171089E+001
14885000000.000 -4.7688389127E+000 -1.3833314515E+002 -4.5516686240E+001 -1.1089942955E+002 -8.5522323865E+001 -2.2549944815E+001 -2.9049410146E+001 +2.5222486931E+000
15017500000.000 -4.7494515326E+000 -1.3828505097E+002 -4.5621836200E+001 -1.4518733917E+002 -7.9413266435E+001 +6.5372279053E+001 -2.5395320076E+001 +9.3854187581E+000
15150000000.000 -4.7056930169E+000 -1.3806417364E+002 -4.5678058995E+001 -1.7903605506E+002 -8.6827058068E+001 -1.7105671756E+002 -2.9057045250E+001 -2.9000269850E+000
15282500000.000 -4.6709941046E+000 -1.3795337273E+002 -4.5500398384E+001 +1.4720493893E+002 -7.8889502381E+001 -4.3970638453E+001 -3.1328592566E+001 +5.8057578927E+001
