!  2-Port S-parameters saved by WinCal
! VAR MeasName=S-Parameters (CALIBRATED_DATA) read from VNA (C)
! VAR MeasDate=10/16/2015 12:36:04 PM
! VAR NAME=M6082_13_15_2_2_20C_1.4mA_-17.5dBm
! VAR FILENAME=M6082_13_15_2_2_20C_1.4mA_-17.5dBm.S2P
! VAR DATE=10/16/2015 12:36:04 PM
! VAR PHYS_PORTS=2,1
! VAR ObjTypeName=DATASET
! VAR IndexType=Frequency
!
# Hz S DB R 50
45000000.000 -1.1336392689E+001 -2.0060486195E+000 -4.6489285619E+001 +1.1005553580E+002 -5.8880898264E+001 +3.3836202298E+001 -3.0678986866E+001 +5.0606249297E+000
177500000.000 -1.1619807948E+001 -5.1138976303E+000 -4.7666191110E+001 +6.2400476165E+001 -7.6912458055E+001 +6.2293573692E+001 -3.2657122681E+001 +4.6304139060E+001
310000000.000 -1.1532210254E+001 -8.6538885128E+000 -4.9439223941E+001 +3.6428879872E+001 -7.3062560070E+001 +1.6560973258E+002 -2.3308424420E+001 +6.4435706040E+001
442500000.000 -1.1964359023E+001 -1.0897637033E+001 -4.7214284500E+001 -6.7770430026E+000 -8.5594180746E+001 -2.1396869747E+001 -2.2349540999E+001 +1.7450233525E+001
575000000.000 -1.2165454447E+001 -1.3044604512E+001 -4.7588474552E+001 -4.3634585291E+001 -9.2168141942E+001 -1.2156550279E+002 -3.0543837173E+001 +2.2698824661E+001
707500000.000 -1.2203379425E+001 -1.5620425246E+001 -4.8045468400E+001 -8.0736152055E+001 -8.1533975566E+001 -1.1513212953E+002 -3.4475241894E+001 +8.3235918643E+001
840000000.000 -1.2325829024E+001 -1.7445317029E+001 -4.8058636914E+001 -1.1712355320E+002 -8.6132576236E+001 -1.9381267487E+001 -2.9683020975E+001 +1.2718543875E+002
972500000.000 -1.2345799939E+001 -1.9570623273E+001 -4.7891759267E+001 -1.5326293545E+002 -9.0036605777E+001 +2.4140049972E+001 -2.5927029520E+001 +1.3522628306E+002
1105000000.000 -1.2346570378E+001 -2.1822260824E+001 -4.8312770059E+001 +1.7091077682E+002 -9.8115524039E+001 -1.7992268360E+002 -2.4348736638E+001 +1.4073000223E+002
1237500000.000 -1.2339159490E+001 -2.3882198062E+001 -4.8417444183E+001 +1.3440173211E+002 -8.8728850345E+001 -7.7525897916E+001 -2.3388829892E+001 +1.4987487180E+002
1370000000.000 -1.2369979890E+001 -2.5895026890E+001 -4.8365273047E+001 +9.9556456031E+001 -8.6825027659E+001 +8.0736311912E+001 -2.2066965275E+001 +1.5983210876E+002
1502500000.000 -1.2385789530E+001 -2.7456805593E+001 -4.8214146112E+001 +6.2806585944E+001 -8.8611290594E+001 -1.3226150018E+002 -2.0854284458E+001 +1.6626029591E+002
1635000000.000 -1.2253672458E+001 -2.9712655202E+001 -4.8582212229E+001 +2.6332039396E+001 -9.0849846866E+001 -2.8204718003E+001 -2.0012825968E+001 +1.7324476709E+002
1767500000.000 -1.2239916725E+001 -3.1689074032E+001 -4.8331384790E+001 -1.0924370595E+001 -8.7225273061E+001 +5.1541998639E+001 -1.9010712765E+001 +1.7844731065E+002
1900000000.000 -1.2290933530E+001 -3.2790152943E+001 -4.7852162483E+001 -4.6624655054E+001 -9.2166279381E+001 +1.4627149587E+002 -1.8867540252E+001 -1.7830764504E+002
2032500000.000 -1.2296906669E+001 -3.4492199986E+001 -4.7660497597E+001 -8.1264625541E+001 -8.1133015997E+001 -2.8696049558E+001 -1.8672362796E+001 -1.6797965996E+002
2165000000.000 -1.2245655232E+001 -3.5716230976E+001 -4.7304409702E+001 -1.1751410944E+002 -9.6602296328E+001 -1.4370784745E+002 -1.7743263837E+001 -1.6106187105E+002
2297500000.000 -1.2245591667E+001 -3.6542654287E+001 -4.6530489601E+001 -1.5174771233E+002 -8.2112367904E+001 -1.5079601428E+002 -1.7232473217E+001 -1.5709357052E+002
2430000000.000 -1.2183610056E+001 -3.7642393378E+001 -4.5792795682E+001 +1.7244650955E+002 -7.5283235810E+001 -1.3920744036E+002 -1.6934936832E+001 -1.5290883535E+002
2562500000.000 -1.2025546379E+001 -3.9056691663E+001 -4.5743621704E+001 +1.3560348512E+002 -7.6052524007E+001 +2.9010123281E+001 -1.6825260888E+001 -1.5049024452E+002
2695000000.000 -1.1971045107E+001 -4.0014322233E+001 -4.5064416738E+001 +9.8530886620E+001 -8.0481604109E+001 +1.6866130747E+002 -1.7378134490E+001 -1.4718135897E+002
2827500000.000 -1.1820047008E+001 -4.1553134989E+001 -4.5058783891E+001 +6.0351280974E+001 -7.7475800121E+001 -1.0392088092E+002 -1.7844786193E+001 -1.4035469946E+002
2960000000.000 -1.1594126864E+001 -4.3749199185E+001 -4.5307300863E+001 +1.8171523637E+001 -8.4251056577E+001 -4.0840179110E+001 -1.8139231356E+001 -1.3548901324E+002
3092500000.000 -1.1396240109E+001 -4.5717465597E+001 -4.4960373985E+001 -2.0198586278E+001 -7.6180331965E+001 +1.0788621043E+002 -1.9077206138E+001 -1.2937929055E+002
3225000000.000 -1.1273198176E+001 -4.7969958708E+001 -4.5020079985E+001 -5.8996574499E+001 -7.6511773703E+001 +1.6173038173E+002 -1.9576706488E+001 -1.1977483285E+002
3357500000.000 -1.1170303424E+001 -5.0375277503E+001 -4.5765958550E+001 -1.0068501078E+002 -8.6337012129E+001 +1.3062866616E+002 -1.9949322969E+001 -1.1437220089E+002
3490000000.000 -1.1007666883E+001 -5.2516592864E+001 -4.5564100004E+001 -1.4031955403E+002 -8.0816420819E+001 +1.5442384807E+002 -2.1117272004E+001 -1.0862595763E+002
3622500000.000 -1.0879925176E+001 -5.4780275151E+001 -4.5628126082E+001 +1.7949338689E+002 -7.5914270041E+001 -1.2801252470E+002 -2.1929646504E+001 -9.8210775030E+001
3755000000.000 -1.0843462693E+001 -5.7479037320E+001 -4.6176316061E+001 +1.3938437481E+002 -9.2047854656E+001 -1.3527338880E+002 -2.2701535759E+001 -9.4610793192E+001
3887500000.000 -1.0812701879E+001 -5.9495974374E+001 -4.6763660667E+001 +9.8690726649E+001 -7.9240039814E+001 +8.5791631419E+001 -2.5013560067E+001 -8.7790295269E+001
4020000000.000 -1.0742476124E+001 -6.1237888891E+001 -4.6739103689E+001 +6.1494226814E+001 -8.0771407385E+001 +1.5050018364E+002 -2.6663242879E+001 -7.3348545820E+001
4152500000.000 -1.0699018447E+001 -6.3114684336E+001 -4.7364710179E+001 +2.2932665295E+001 -8.0187212015E+001 -1.9832365278E+001 -2.8858522085E+001 -6.4506950930E+001
4285000000.000 -1.0674035874E+001 -6.4780588827E+001 -4.8187356535E+001 -1.5083528011E+001 -8.8414494312E+001 +9.9148915367E+001 -3.3324012214E+001 -3.7694331591E+001
4417500000.000 -1.0646710875E+001 -6.6434575087E+001 -4.8342788052E+001 -5.3763336882E+001 -8.6081754254E+001 -1.2903411400E+002 -3.1698355122E+001 +7.9761856500E+000
4550000000.000 -1.0611335588E+001 -6.7643905111E+001 -4.9002208843E+001 -9.0542998692E+001 -8.2499489920E+001 -9.6073660738E+001 -3.0285204523E+001 +1.8259905594E+001
4682500000.000 -1.0575323427E+001 -6.8952308940E+001 -4.9673341881E+001 -1.2560296797E+002 -9.0448398840E+001 +3.3075040849E+001 -2.9589985891E+001 +3.8568169269E+001
4815000000.000 -1.0529740631E+001 -7.0239831176E+001 -5.0168397191E+001 -1.6079621343E+002 -8.3204876264E+001 +1.6420555619E+002 -2.7610535647E+001 +4.1294812941E+001
4947500000.000 -1.0484814756E+001 -7.1203588819E+001 -5.0225889019E+001 +1.6282066917E+002 -8.7125478938E+001 -1.0259926925E+002 -2.9339490389E+001 +3.5722905186E+001
5080000000.000 -1.0435217949E+001 -7.2040276005E+001 -5.1100069233E+001 +1.2786036277E+002 -9.3405588310E+001 -8.9360631617E+001 -3.2161087446E+001 +5.6660267030E+001
5212500000.000 -1.0372990432E+001 -7.3022670064E+001 -5.1300971201E+001 +9.4158368406E+001 -8.4365354451E+001 +1.3885987746E+002 -3.1504203135E+001 +6.9155142077E+001
5345000000.000 -1.0328404031E+001 -7.3944569456E+001 -5.1387716842E+001 +5.8300028789E+001 -8.6118804941E+001 -1.5756561783E+002 -3.5204882868E+001 +7.0600975485E+001
5477500000.000 -1.0293073636E+001 -7.4382976844E+001 -5.2018290963E+001 +2.4674654815E+001 -9.8147346501E+001 +1.1042712533E+002 -3.7230386653E+001 +1.3105326774E+002
5610000000.000 -1.0219145976E+001 -7.5050501646E+001 -5.2733444539E+001 -1.0199256395E+001 -8.5881741248E+001 +1.0663184244E+002 -3.3629292042E+001 +1.3535162866E+002
5742500000.000 -1.0179681806E+001 -7.5941851075E+001 -5.2748821553E+001 -4.2846013650E+001 -9.3657373649E+001 +1.3750408261E+002 -3.7725136631E+001 +1.5193876797E+002
5875000000.000 -1.0181258070E+001 -7.6578601774E+001 -5.3218309005E+001 -7.6017630893E+001 -8.9356526450E+001 -1.0562727821E+002 -3.3771389647E+001 -1.7070870161E+002
6007500000.000 -1.0142545184E+001 -7.6956933870E+001 -5.4023336427E+001 -1.0753400950E+002 -9.0822133214E+001 +8.7637994816E+001 -3.2659923803E+001 +1.7909870275E+002
6140000000.000 -1.0057976740E+001 -7.7767034462E+001 -5.4150113344E+001 -1.3996499372E+002 -8.7064457816E+001 -1.6088227498E+002 -3.6153990154E+001 -1.7037613783E+002
6272500000.000 -1.0025545376E+001 -7.8973928427E+001 -5.3777994181E+001 -1.7731955800E+002 -8.7581108698E+001 -1.9551410242E+001 -3.3932699801E+001 -1.4458299394E+002
6405000000.000 -1.0047755321E+001 -7.9598928817E+001 -5.4861446181E+001 +1.5204858802E+002 -8.9486023774E+001 +1.1684857857E+001 -3.3771595446E+001 -1.6222555278E+002
6537500000.000 -9.9839787565E+000 -7.9902979435E+001 -5.5405357856E+001 +1.2218753533E+002 -9.6208730582E+001 -1.6781009931E+002 -4.0050091660E+001 -1.6214813007E+002
6670000000.000 -9.8594247051E+000 -8.0980421697E+001 -5.5257903895E+001 +8.1749593193E+001 -9.2265194216E+001 -2.6107627158E+001 -3.9419427592E+001 -1.3850588735E+002
6802500000.000 -9.8258958953E+000 -8.2075689279E+001 -5.5585030392E+001 +5.3893485928E+001 -9.0144874842E+001 -5.7575392629E+001 -3.8843051640E+001 +1.7936388467E+002
6935000000.000 -9.8430057324E+000 -8.2588726040E+001 -5.6245186047E+001 +2.6958574936E+001 -8.5910741166E+001 +6.1575912270E+001 -3.8458972130E+001 +1.2345337763E+002
7067500000.000 -9.7584913196E+000 -8.3026731483E+001 -5.6010006869E+001 -1.2618191168E+001 -8.1187124851E+001 -1.5765966209E+002 -3.8933441757E+001 +1.1527790432E+002
7200000000.000 -9.6428011329E+000 -8.4179314195E+001 -5.6166307162E+001 -5.3054545014E+001 -8.4955314704E+001 +2.1301438812E+001 -3.2835320107E+001 +1.3156870241E+002
7332500000.000 -9.6066148872E+000 -8.5092633679E+001 -5.6587433276E+001 -8.1605466995E+001 -8.9548084369E+001 +2.1188631039E+001 -2.9092740556E+001 +1.1915544411E+002
7465000000.000 -9.5694429283E+000 -8.5799852172E+001 -5.6606000475E+001 -1.2148641034E+002 -8.3398326143E+001 -1.1402049750E+002 -2.8634344866E+001 +1.2254785855E+002
7597500000.000 -9.4626969903E+000 -8.6601338954E+001 -5.5666590644E+001 -1.6788279444E+002 -7.8644547602E+001 -7.1611824174E+001 -2.6142064277E+001 +1.3757587510E+002
7730000000.000 -9.3700900360E+000 -8.7227091670E+001 -5.6611758122E+001 +1.6513158021E+002 -7.7150333198E+001 +8.0317275499E+001 -2.3745430823E+001 +1.3788539041E+002
7862500000.000 -9.3117945195E+000 -8.7825966632E+001 -5.7287253270E+001 +1.3778951683E+002 -8.5917003245E+001 -1.3643187255E+002 -2.3300520341E+001 +1.4171604204E+002
7995000000.000 -9.2515044883E+000 -8.8437383240E+001 -5.6710313344E+001 +9.0919029765E+001 -8.2444368915E+001 -1.2042682894E+002 -2.1836916077E+001 +1.5440232784E+002
8127500000.000 -9.1283037794E+000 -8.8917141670E+001 -5.6309481478E+001 +5.6025669954E+001 -9.6928458498E+001 +1.5587279027E+002 -2.0026128150E+001 +1.5647267626E+002
8260000000.000 -9.0589870715E+000 -8.9563374670E+001 -5.7784504018E+001 +2.6201735431E+001 -8.7778060263E+001 +1.5794577955E+002 -1.9873490089E+001 +1.6024141495E+002
8392500000.000 -9.0044969635E+000 -8.9935902515E+001 -5.7397509820E+001 -1.2785756199E+001 -7.9426117441E+001 -3.5252926945E+001 -1.9065521493E+001 +1.7052799771E+002
8525000000.000 -8.9289446041E+000 -9.0122196922E+001 -5.7237366563E+001 -4.6500595322E+001 -8.5740243158E+001 +7.7780532696E+001 -1.8205231763E+001 +1.7296957363E+002
8657500000.000 -8.8434981671E+000 -9.0476747965E+001 -5.8474374765E+001 -8.0441122812E+001 -8.7045283552E+001 +1.4485765949E+002 -1.8575598677E+001 +1.7794413023E+002
8790000000.000 -8.7720706100E+000 -9.0955321226E+001 -5.8849838965E+001 -1.1497279645E+002 -8.8038161258E+001 -1.3047542269E+002 -1.8348494660E+001 -1.7172498511E+002
8922500000.000 -8.7525903358E+000 -9.1274147325E+001 -5.8190983673E+001 -1.4707366688E+002 -9.5059517187E+001 -6.5702823154E+001 -1.7985299814E+001 -1.6603647914E+002
9055000000.000 -8.6830782803E+000 -9.1489748964E+001 -5.8728517472E+001 +1.7733514888E+002 -8.5026906874E+001 +1.3975861119E+002 -1.8455230327E+001 -1.5834196046E+002
9187500000.000 -8.6379160817E+000 -9.1867422084E+001 -5.9163743351E+001 +1.4481639153E+002 -8.8038143160E+001 -1.5571136143E+002 -1.8379450902E+001 -1.4634413770E+002
9320000000.000 -8.6099732295E+000 -9.2545118179E+001 -5.9478476185E+001 +1.0929232286E+002 -8.8094418975E+001 +3.8950572083E+001 -1.8214503823E+001 -1.3970386870E+002
9452500000.000 -8.5769592404E+000 -9.2822089271E+001 -5.9283134657E+001 +8.1618192384E+001 -9.7267551948E+001 +9.1238971529E+001 -1.8857258956E+001 -1.3056616911E+002
9585000000.000 -8.5229068988E+000 -9.3187592548E+001 -5.9674693814E+001 +4.2123771936E+001 -8.8939359840E+001 +1.3896538487E+002 -1.8787845849E+001 -1.1823921332E+002
9717500000.000 -8.4502485168E+000 -9.3967464671E+001 -5.9583500235E+001 +8.0932739617E+000 -8.8185816725E+001 -1.0694084108E+002 -1.8819164934E+001 -1.1115448743E+002
9850000000.000 -8.4492410597E+000 -9.4669727806E+001 -6.0251973791E+001 -2.4407439995E+001 -8.3606318388E+001 +6.2608635109E+001 -1.9665887554E+001 -1.0047960503E+002
9982500000.000 -8.3987919760E+000 -9.4831807504E+001 -5.9735677351E+001 -6.1043854876E+001 -8.3537029474E+001 -1.7386240116E+002 -1.9687634293E+001 -8.6411171050E+001
10115000000.000 -8.3244702498E+000 -9.5330645698E+001 -6.0441115860E+001 -9.1972952838E+001 -9.1024731908E+001 -8.9844305330E+001 -1.9934209180E+001 -7.9075065410E+001
10247500000.000 -8.2805136522E+000 -9.6167615373E+001 -6.1079114688E+001 -1.2392011383E+002 -8.7188976904E+001 +1.5398204153E+002 -2.1157673789E+001 -6.5830098593E+001
10380000000.000 -8.2457058389E+000 -9.6551993595E+001 -6.1723728731E+001 -1.6327741948E+002 -8.6674062016E+001 +7.4391879643E+001 -2.1045416191E+001 -4.9769576932E+001
10512500000.000 -8.1961501361E+000 -9.7048399135E+001 -6.1564682328E+001 +1.6650180143E+002 -8.2893821022E+001 -1.6985951672E+002 -2.1523407823E+001 -4.1973466628E+001
10645000000.000 -8.1490357360E+000 -9.7586671310E+001 -6.1488413861E+001 +1.3608205965E+002 -8.3336868423E+001 -1.0374368581E+001 -2.2835266739E+001 -2.3741952510E+001
10777500000.000 -8.0917535672E+000 -9.8078628192E+001 -6.2126025117E+001 +9.7707209455E+001 -8.6151724073E+001 +1.1973843079E+002 -2.2175866621E+001 -5.8279382346E+000
10910000000.000 -8.0310955725E+000 -9.8567708899E+001 -6.2264406110E+001 +6.4297219645E+001 -8.5298241167E+001 -1.3531943309E+002 -2.2774905767E+001 +4.2185051470E+000
11042500000.000 -7.9695811103E+000 -9.9242144480E+001 -6.2968395694E+001 +3.3760053378E+001 -8.8652360750E+001 +1.1089393680E+002 -2.3457256701E+001 +2.7803630794E+001
11175000000.000 -7.8976376669E+000 -9.9638224430E+001 -6.2787830702E+001 -4.6207529194E+000 -9.5125581413E+001 -8.8127360100E+001 -2.2240539289E+001 +4.2906222278E+001
11307500000.000 -7.8520782495E+000 -9.9878661679E+001 -6.2815190440E+001 -3.4219216698E+001 -8.9424615635E+001 -1.3767436329E+002 -2.2723243976E+001 +5.3203070759E+001
11440000000.000 -7.7814302702E+000 -1.0047876495E+002 -6.2755540153E+001 -6.7920764358E+001 -8.6389321126E+001 +4.3133040477E+000 -2.2577166626E+001 +7.5826107137E+001
11572500000.000 -7.7066154331E+000 -1.0063621886E+002 -6.4509098962E+001 -1.0257798622E+002 -9.0046749272E+001 +1.3163311667E+002 -2.1149313744E+001 +8.7149679810E+001
11705000000.000 -7.6569120202E+000 -1.0092076833E+002 -6.4786353931E+001 -1.3032830511E+002 -8.1584807750E+001 +1.7281620248E+002 -2.1754283702E+001 +9.7079563529E+001
11837500000.000 -7.5967554343E+000 -1.0133583454E+002 -6.3835822278E+001 -1.7127988311E+002 -8.4452552879E+001 -2.6822445748E+001 -2.1119297236E+001 +1.1928353485E+002
11970000000.000 -7.5762956860E+000 -1.0148589848E+002 -6.4186580019E+001 +1.5471984693E+002 -8.6200582426E+001 +3.8908244050E+001 -1.9802801089E+001 +1.2558313032E+002
12102500000.000 -7.5235055370E+000 -1.0140900148E+002 -6.3920055526E+001 +1.2601554458E+002 -8.1361703905E+001 +1.5464539236E+002 -2.0741061742E+001 +1.3543088846E+002
12235000000.000 -7.4874648326E+000 -1.0213292891E+002 -6.4237507069E+001 +9.4736386695E+001 -9.1251657019E+001 -1.5792570555E+002 -1.9755451170E+001 +1.5457731019E+002
12367500000.000 -7.4840471725E+000 -1.0211961682E+002 -6.5311741760E+001 +4.9363030133E+001 -9.8579419704E+001 -1.1481200799E+002 -1.8876453473E+001 +1.5790295075E+002
12500000000.000 -7.4599652616E+000 -1.0260312155E+002 -6.4033432122E+001 +2.3877805823E+001 -8.9061327685E+001 +1.2742120937E+002 -2.0054203216E+001 +1.6823458189E+002
12632500000.000 -7.3991897982E+000 -1.0282888179E+002 -6.6199912100E+001 -9.3623076695E+000 -8.3824146410E+001 -1.1999323560E+002 -1.9142738414E+001 -1.7298428442E+002
12765000000.000 -7.3901003660E+000 -1.0313455393E+002 -6.5698711714E+001 -4.0622175811E+001 -7.9347213240E+001 +3.3720269439E+001 -1.8514866664E+001 -1.7146322254E+002
12897500000.000 -7.3950905995E+000 -1.0350218658E+002 -6.6155939708E+001 -7.9514586514E+001 -8.2011796018E+001 +8.1182646120E+001 -2.0148181488E+001 -1.5934845627E+002
13030000000.000 -7.3687994800E+000 -1.0373163963E+002 -6.6026339037E+001 -1.0927303173E+002 -8.8084066553E+001 +1.7141168205E+002 -1.8816136080E+001 -1.4147750072E+002
13162500000.000 -7.3232397656E+000 -1.0401407209E+002 -6.6255918960E+001 -1.4376031016E+002 -7.5843760472E+001 -3.2506496427E+001 -1.8626673447E+001 -1.4177412537E+002
13295000000.000 -7.2882727280E+000 -1.0438023876E+002 -6.7632507354E+001 +1.7782244753E+002 -8.7394453492E+001 +1.7003909090E+002 -2.0056381265E+001 -1.2779433325E+002
13427500000.000 -7.2856709560E+000 -1.0495708470E+002 -6.7686574497E+001 +1.4073606343E+002 -8.6190940584E+001 -1.4754884120E+002 -1.8822062359E+001 -1.1406693429E+002
13560000000.000 -7.2868762799E+000 -1.0495083338E+002 -6.6715264892E+001 +1.0587501612E+002 -7.8793246953E+001 -9.6792312322E+001 -1.9020890380E+001 -1.1478768752E+002
13692500000.000 -7.2201047122E+000 -1.0514542933E+002 -6.8817555084E+001 +8.2069498869E+001 -8.6732821699E+001 +1.2616602751E+002 -2.0840736460E+001 -1.0127121146E+002
13825000000.000 -7.1741634477E+000 -1.0575339123E+002 -6.9297478398E+001 +5.1578580884E+001 -7.9987388576E+001 -1.6022976002E+002 -1.9721521273E+001 -8.7465486722E+001
13957500000.000 -7.1888222437E+000 -1.0619267632E+002 -6.7970826661E+001 +8.8951775593E+000 -8.1630850148E+001 -7.3042493971E+001 -2.0365562264E+001 -9.0054710682E+001
14090000000.000 -7.1624870283E+000 -1.0626068331E+002 -6.8451109841E+001 -1.9872329390E+001 -8.1878530239E+001 +4.8272278377E+001 -2.2655946801E+001 -7.2652702194E+001
14222500000.000 -7.0896920754E+000 -1.0636018965E+002 -6.7769190204E+001 -7.1677318006E+001 -8.6924390341E+001 -1.0166713519E+002 -2.1281949861E+001 -5.9247387105E+001
14355000000.000 -7.0552198504E+000 -1.0696167763E+002 -7.0610183807E+001 -9.0086890712E+001 -8.3946158284E+001 +3.7285101548E+001 -2.2501880885E+001 -6.3592701839E+001
14487500000.000 -7.0444321152E+000 -1.0727961991E+002 -6.8722695162E+001 -9.3748030894E+001 -8.7315066538E+001 -8.4287434733E+001 -2.5539351992E+001 -4.0193979692E+001
14620000000.000 -7.0045109821E+000 -1.0721430846E+002 -6.7735395259E+001 -1.5718491257E+002 -8.2710700712E+001 -1.5932449417E+002 -2.3295508435E+001 -2.7395025107E+001
14752500000.000 -6.9028632157E+000 -1.0751255184E+002 -6.9702592211E+001 -1.7192192198E+002 -8.2007213158E+001 -4.8223078578E+001 -2.5390794880E+001 -3.6569449946E+001
14885000000.000 -6.8660428910E+000 -1.0779805054E+002 -6.7938409980E+001 +1.4057095505E+002 -7.7971988747E+001 +3.9442915660E+001 -2.8883721250E+001 +2.5141064442E+000
15017500000.000 -6.8503022009E+000 -1.0782536459E+002 -6.8690845715E+001 +1.1757035578E+002 -8.2835414346E+001 +9.4047466391E+001 -2.5416089629E+001 +9.0755409323E+000
15150000000.000 -6.7657243391E+000 -1.0769691372E+002 -7.0251924831E+001 +8.1640745622E+001 -8.0829896213E+001 +5.9441818493E+001 -2.9183574365E+001 -2.3568705838E+000
15282500000.000 -6.7098033413E+000 -1.0773457558E+002 -6.8365427090E+001 +4.9591578866E+001 -8.0284240715E+001 -4.1187377457E+001 -3.1093881018E+001 +5.7926685540E+001
