!  2-Port S-parameters saved by WinCal
! VAR MeasName=S-Parameters (CALIBRATED_DATA) read from VNA (C)
! VAR MeasDate=10/16/2015 10:50:19 AM
! VAR NAME=M6082_13_13_2_2_20C_1.8mA_-17.5dBm
! VAR FILENAME=M6082_13_13_2_2_20C_1.8mA_-17.5dBm_1_1.S2P
! VAR DATE=10/16/2015 10:50:19 AM
! VAR PHYS_PORTS=2,1
! VAR ObjTypeName=DATASET
! VAR IndexType=Frequency
!
# Hz S DB R 50
45000000.000 -7.3637843179E+000 -5.1228474750E-001 -4.6173609670E+001 +8.8100481734E+001 -7.2709656152E+001 -3.4096693068E+001 -3.0261849398E+001 +5.4449750223E+000
177500000.000 -7.4173378613E+000 -1.7868958984E+000 -4.5641939557E+001 +6.6031402988E+001 -7.6799454184E+001 +3.4295361429E+001 -3.2457779674E+001 +4.5828576750E+001
310000000.000 -7.3894366441E+000 -2.8792717777E+000 -4.6134400073E+001 +3.6321250633E+001 -7.6452928462E+001 -1.0089978155E+002 -2.3288254909E+001 +6.4401979770E+001
442500000.000 -7.4677895605E+000 -4.3790613782E+000 -4.4914212585E+001 -8.1543193589E-001 -9.7202335372E+001 -2.0740464560E+001 -2.2291055467E+001 +1.7741202852E+001
575000000.000 -7.4969473964E+000 -5.6858468164E+000 -4.5124256726E+001 -3.6266158014E+001 -9.2556882724E+001 -3.6261509045E+001 -3.0427910947E+001 +2.2825817828E+001
707500000.000 -7.5107699790E+000 -6.8330455242E+000 -4.5435123936E+001 -7.0385002712E+001 -8.7017306358E+001 -7.2670396229E+001 -3.4403352187E+001 +8.2164031654E+001
840000000.000 -7.5349674974E+000 -8.0950713116E+000 -4.5424097861E+001 -1.0508800304E+002 -8.4455335998E+001 +3.7657056319E+001 -2.9726753423E+001 +1.2686119074E+002
972500000.000 -7.5532101190E+000 -9.2284449861E+000 -4.5592880256E+001 -1.3959701940E+002 -8.3936373261E+001 -1.5639860013E+002 -2.5902790972E+001 +1.3495273507E+002
1105000000.000 -7.5652836222E+000 -1.0420122053E+001 -4.5506223408E+001 -1.7347895563E+002 -9.8090621094E+001 +4.0944376263E+001 -2.4343597989E+001 +1.4040783678E+002
1237500000.000 -7.5803358945E+000 -1.1491315155E+001 -4.5566786069E+001 +1.5308010175E+002 -8.8868974691E+001 -6.7879486158E+001 -2.3367192872E+001 +1.4970983203E+002
1370000000.000 -7.6065471747E+000 -1.2666306207E+001 -4.5454332492E+001 +1.1833161400E+002 -8.4559599184E+001 -2.6490828662E+001 -2.2044365758E+001 +1.5971586184E+002
1502500000.000 -7.6312217844E+000 -1.3810099929E+001 -4.5538510523E+001 +8.4969134483E+001 -8.9388399067E+001 -1.0763323029E+002 -2.0851441513E+001 +1.6612337882E+002
1635000000.000 -7.6010985930E+000 -1.4752530582E+001 -4.5475567466E+001 +4.8893006228E+001 -9.0664753775E+001 -7.4837067255E+001 -2.0012538666E+001 +1.7308185907E+002
1767500000.000 -7.6273770409E+000 -1.6053186952E+001 -4.5516682398E+001 +1.5804807382E+001 -8.6400283326E+001 +6.9955741325E+001 -1.9000432518E+001 +1.7832442183E+002
1900000000.000 -7.6602688321E+000 -1.7140613345E+001 -4.5187470532E+001 -1.7773230007E+001 -8.6191456401E+001 +1.5569602671E+002 -1.8858683097E+001 -1.7841098839E+002
2032500000.000 -7.6691195650E+000 -1.8094682463E+001 -4.5408593948E+001 -5.3411203905E+001 -7.5617736643E+001 -1.7639406381E+001 -1.8662785810E+001 -1.6801609115E+002
2165000000.000 -7.6692536696E+000 -1.9177011358E+001 -4.5178770579E+001 -8.5576760749E+001 -7.9248781549E+001 +2.0805327074E+001 -1.7731638084E+001 -1.6112908509E+002
2297500000.000 -7.6877873555E+000 -2.0241390359E+001 -4.5424747668E+001 -1.2100269247E+002 -1.0203294867E+002 -1.7001330936E+002 -1.7227105734E+001 -1.5715679226E+002
2430000000.000 -7.7105756527E+000 -2.1116658692E+001 -4.5186687102E+001 -1.5451168518E+002 -7.4661877510E+001 -1.4329172613E+002 -1.6903829995E+001 -1.5296546765E+002
2562500000.000 -7.7017116367E+000 -2.2077625584E+001 -4.5222084762E+001 +1.7157878312E+002 -7.6246434172E+001 +1.4247943800E+001 -1.6800305571E+001 -1.5064224646E+002
2695000000.000 -7.7433352516E+000 -2.3106483744E+001 -4.5081663582E+001 +1.3677929548E+002 -8.5843696541E+001 +1.4126800823E+002 -1.7343051088E+001 -1.4734930297E+002
2827500000.000 -7.7652142313E+000 -2.3830101235E+001 -4.4807278308E+001 +1.0237702127E+002 -7.5631351332E+001 -1.0506062630E+002 -1.7817427966E+001 -1.4045976385E+002
2960000000.000 -7.7537195294E+000 -2.4618147434E+001 -4.4836633220E+001 +6.8631983844E+001 -7.9496697746E+001 +3.6691433053E+001 -1.8105653137E+001 -1.3571330206E+002
3092500000.000 -7.7584685842E+000 -2.5765547104E+001 -4.4847836611E+001 +3.3895299728E+001 -8.6069241524E+001 +8.6266880192E+001 -1.9069491459E+001 -1.2958935309E+002
3225000000.000 -7.7974189181E+000 -2.6787647365E+001 -4.4661736001E+001 -7.2664377777E-001 -7.9646079824E+001 -7.3604793125E+001 -1.9570791231E+001 -1.1982203147E+002
3357500000.000 -7.8032712224E+000 -2.7516564510E+001 -4.4672967004E+001 -3.6197996367E+001 -8.0195415718E+001 +9.1689872099E-001 -1.9926456120E+001 -1.1449435535E+002
3490000000.000 -7.7881322566E+000 -2.8535030691E+001 -4.4263902893E+001 -6.9363239629E+001 -7.8648339749E+001 +1.3375205281E+002 -2.1103235943E+001 -1.0877554267E+002
3622500000.000 -7.7930046704E+000 -2.9671738920E+001 -4.4272063286E+001 -1.0309725678E+002 -7.8412557586E+001 -1.4056798633E+002 -2.1949015003E+001 -9.8281749776E+001
3755000000.000 -7.7948919118E+000 -3.0691193040E+001 -4.4110924446E+001 -1.3889184468E+002 -8.3674425951E+001 +6.0214299099E+001 -2.2655074404E+001 -9.4672471191E+001
3887500000.000 -7.7795717488E+000 -3.1604135933E+001 -4.4113963132E+001 -1.7463755458E+002 -7.9234935218E+001 +6.2176191700E+001 -2.4969706328E+001 -8.7952587034E+001
4020000000.000 -7.7849990360E+000 -3.2475464392E+001 -4.3753732349E+001 +1.5176979901E+002 -7.9107646449E+001 +7.8845313646E+001 -2.6645817325E+001 -7.3498057446E+001
4152500000.000 -7.7525856356E+000 -3.3407104319E+001 -4.3640223300E+001 +1.1555988370E+002 -8.3247273491E+001 -4.8154704903E+001 -2.8753488051E+001 -6.4453891293E+001
4285000000.000 -7.7363130836E+000 -3.4362484877E+001 -4.3546166756E+001 +8.0081294071E+001 -9.4272193141E+001 -1.3156272731E+002 -3.3159731291E+001 -3.8518871450E+001
4417500000.000 -7.7323762039E+000 -3.5328010816E+001 -4.3407431468E+001 +4.4139140781E+001 -8.8882829211E+001 -1.4166576668E+002 -3.1710359072E+001 +7.4543573042E+000
4550000000.000 -7.6974090512E+000 -3.6125452864E+001 -4.3177705486E+001 +8.1395721784E+000 -8.7559315520E+001 -7.0909934670E+001 -3.0199007650E+001 +1.7616429473E+001
4682500000.000 -7.6309123525E+000 -3.7136773415E+001 -4.3108135165E+001 -3.0214528179E+001 -8.5721721991E+001 -5.2669805804E+001 -2.9567872281E+001 +3.7606783396E+001
4815000000.000 -7.6141951944E+000 -3.8065671025E+001 -4.2965413399E+001 -6.5617759942E+001 -8.8020385871E+001 -1.0574263011E+001 -2.7578493137E+001 +4.0312831259E+001
4947500000.000 -7.5633819620E+000 -3.8861370525E+001 -4.2637843905E+001 -1.0345448472E+002 -8.7322564501E+001 -1.0823891914E+002 -2.9248427215E+001 +3.4737047393E+001
5080000000.000 -7.4447941622E+000 -3.9947476914E+001 -4.2567997096E+001 -1.4774960069E+002 -8.7114120919E+001 -5.3504773434E+000 -3.2118351918E+001 +5.5139857216E+001
5212500000.000 -7.4270901134E+000 -4.0915936824E+001 -4.2389807429E+001 +1.7662012535E+002 -8.4096418588E+001 +1.0930844908E+002 -3.1481968109E+001 +6.7577505879E+001
5345000000.000 -7.4237853465E+000 -4.1657261964E+001 -4.2147677449E+001 +1.4064191710E+002 -8.4378670204E+001 -1.4896140173E+002 -3.5191182917E+001 +6.8172925851E+001
5477500000.000 -7.3280074991E+000 -4.2659528991E+001 -4.2368160338E+001 +9.5895371520E+001 -8.4341176935E+001 +2.2004273547E+001 -3.7603873167E+001 +1.2965849851E+002
5610000000.000 -7.2798794482E+000 -4.3802164082E+001 -4.2550927832E+001 +5.4767349240E+001 -8.9836766821E+001 +1.2526104498E+002 -3.3805883614E+001 +1.3371220308E+002
5742500000.000 -7.2962065097E+000 -4.4507391589E+001 -4.2192237258E+001 +2.0051454521E+001 -8.2851597971E+001 -1.4501429290E+002 -3.8195606583E+001 +1.4847552705E+002
5875000000.000 -7.2918809993E+000 -4.5259060863E+001 -4.2485105538E+001 -1.9503484161E+001 -8.9777344427E+001 -9.4478175904E+001 -3.4084772352E+001 -1.7071180231E+002
6007500000.000 -7.2629971332E+000 -4.6125595892E+001 -4.2854058520E+001 -6.0186632661E+001 -8.1736632195E+001 +1.7764732789E+001 -3.2809663348E+001 +1.7845010046E+002
6140000000.000 -7.2464335022E+000 -4.7036464583E+001 -4.2553317627E+001 -9.5470220734E+001 -8.4393639288E+001 -1.3303731446E+002 -3.6490875554E+001 -1.7270416810E+002
6272500000.000 -7.2763313304E+000 -4.8058893606E+001 -4.2526864146E+001 -1.3248608902E+002 -8.3150056628E+001 -2.7875263880E+001 -3.4263376211E+001 -1.4497884118E+002
6405000000.000 -7.3070185982E+000 -4.8774971994E+001 -4.2981892836E+001 -1.7194777990E+002 -8.9332910395E+001 -3.2032051744E+001 -3.3896088950E+001 -1.6338887952E+002
6537500000.000 -7.2850556831E+000 -4.9414939064E+001 -4.3046898468E+001 +1.5097366071E+002 -9.2155221703E+001 +1.7192831371E+002 -4.0212605688E+001 -1.6568466794E+002
6670000000.000 -7.2526520392E+000 -5.0462486133E+001 -4.2861063286E+001 +1.1688521665E+002 -9.0799107722E+001 -1.1714503861E+002 -3.9959728605E+001 -1.4080951544E+002
6802500000.000 -7.2952495127E+000 -5.1583695287E+001 -4.3690912125E+001 +7.7233240258E+001 -8.6629392692E+001 +2.0181442239E+001 -3.8801299949E+001 +1.7744552693E+002
6935000000.000 -7.3455622868E+000 -5.2154489943E+001 -4.4117692014E+001 +3.9965732483E+001 -9.8819862237E+001 -2.1635328960E+001 -3.8048954020E+001 +1.2423302735E+002
7067500000.000 -7.3146035303E+000 -5.2665764968E+001 -4.3782698867E+001 +6.8853741184E+000 -9.2724171527E+001 -1.5333168539E+002 -3.8495994722E+001 +1.1587656898E+002
7200000000.000 -7.3024726365E+000 -5.3809026577E+001 -4.3931569834E+001 -2.7712120211E+001 -8.3045566910E+001 -2.7227069508E+000 -3.2652446128E+001 +1.3149741411E+002
7332500000.000 -7.3345052959E+000 -5.4725026814E+001 -4.4481685079E+001 -6.4437970313E+001 -8.7672500093E+001 -1.6446842694E+002 -2.9026058843E+001 +1.1961421796E+002
7465000000.000 -7.3496448391E+000 -5.5358199039E+001 -4.4341542619E+001 -9.8052079636E+001 -9.6054681977E+001 -1.3172442085E+002 -2.8605023335E+001 +1.2348395968E+002
7597500000.000 -7.3164589728E+000 -5.6237307866E+001 -4.4221666691E+001 -1.3218300331E+002 -8.4038842880E+001 -4.0222590178E+001 -2.6046559403E+001 +1.3786271486E+002
7730000000.000 -7.3111565134E+000 -5.7081332105E+001 -4.5268100482E+001 -1.7062581937E+002 -8.4963249968E+001 +8.9678732752E+001 -2.3701007246E+001 +1.3799388117E+002
7862500000.000 -7.3077883413E+000 -5.7762255384E+001 -4.5694187124E+001 +1.5401863078E+002 -8.2498658628E+001 +4.0974026426E+001 -2.3295103392E+001 +1.4204055584E+002
7995000000.000 -7.2979610149E+000 -5.8463756338E+001 -4.5309843207E+001 +1.2102894826E+002 -8.3426616209E+001 +1.9922862151E+000 -2.1799262112E+001 +1.5471444366E+002
8127500000.000 -7.2416962829E+000 -5.9247120970E+001 -4.5736085336E+001 +8.5049499609E+001 -8.3582298610E+001 +4.8833940347E+001 -2.0020550652E+001 +1.5653646345E+002
8260000000.000 -7.2365747306E+000 -5.9880664643E+001 -4.6282541185E+001 +5.0913858030E+001 -8.6525700535E+001 +8.5500314374E+001 -1.9898523658E+001 +1.6024169384E+002
8392500000.000 -7.2158499922E+000 -6.0466163844E+001 -4.6336193676E+001 +1.5843045286E+001 -9.0939434842E+001 -9.4352993447E+001 -1.9052177153E+001 +1.7056055216E+002
8525000000.000 -7.1858630246E+000 -6.0924032243E+001 -4.6739249134E+001 -1.8700539714E+001 -8.0737645707E+001 -1.7242854255E+002 -1.8188641265E+001 +1.7280962326E+002
8657500000.000 -7.1525442218E+000 -6.1273331870E+001 -4.7445562511E+001 -5.3573705288E+001 -9.9614588131E+001 -1.4805792254E+002 -1.8571077963E+001 +1.7779120227E+002
8790000000.000 -7.1291937618E+000 -6.1874693846E+001 -4.7377015832E+001 -8.8463577546E+001 -9.7143192797E+001 +2.2241429912E+001 -1.8353985957E+001 -1.7190058633E+002
8922500000.000 -7.1336654613E+000 -6.2342454542E+001 -4.7670363880E+001 -1.2279715551E+002 -8.6042907174E+001 +1.8399083560E+001 -1.7985997969E+001 -1.6619959912E+002
9055000000.000 -7.1098555433E+000 -6.2677018543E+001 -4.8088530903E+001 -1.5755132631E+002 -9.1670895073E+001 +6.3251092184E+001 -1.8460393934E+001 -1.5860788283E+002
9187500000.000 -7.1089776182E+000 -6.3087496428E+001 -4.8309814587E+001 +1.6879327918E+002 -8.9337525410E+001 +1.0681994809E+002 -1.8387239206E+001 -1.4672127043E+002
9320000000.000 -7.1184527808E+000 -6.3703807812E+001 -4.8489788511E+001 +1.3459696720E+002 -9.1595964047E+001 -1.0284794765E+002 -1.8225705776E+001 -1.4002355115E+002
9452500000.000 -7.1056372590E+000 -6.4076434852E+001 -4.9034880933E+001 +1.0043847576E+002 -8.4290448221E+001 +1.0398661434E+002 -1.8846093895E+001 -1.3085142498E+002
9585000000.000 -7.0864918717E+000 -6.4525946178E+001 -4.9343251809E+001 +6.3609589580E+001 -8.9867956646E+001 +1.3889756259E+002 -1.8777631589E+001 -1.1868243906E+002
9717500000.000 -7.0847451826E+000 -6.5417010622E+001 -4.9349610829E+001 +3.1452841133E+001 -8.6431354472E+001 -1.2590216652E+001 -1.8831036550E+001 -1.1167121219E+002
9850000000.000 -7.1036550578E+000 -6.5899145324E+001 -4.9881296054E+001 -4.7951361066E+000 -9.4697330906E+001 +9.5383595938E+001 -1.9658926432E+001 -1.0082607705E+002
9982500000.000 -7.0758173312E+000 -6.6270456901E+001 -5.0468311059E+001 -3.8094106781E+001 -9.2919212716E+001 -1.3065431521E+002 -1.9643008880E+001 -8.7047298794E+001
10115000000.000 -7.0632845743E+000 -6.7019643057E+001 -5.0628559305E+001 -7.3401061142E+001 -9.2786680889E+001 -2.2810752970E+001 -1.9927621867E+001 -7.9923338172E+001
10247500000.000 -7.0745274569E+000 -6.7668506674E+001 -5.1100488857E+001 -1.0684154820E+002 -8.5789753737E+001 +3.9326551704E+001 -2.1147054635E+001 -6.6374335559E+001
10380000000.000 -7.0416727685E+000 -6.7992984095E+001 -5.1202670880E+001 -1.4144053180E+002 -8.8332346833E+001 -1.4993382764E+002 -2.0973016650E+001 -5.0542193491E+001
10512500000.000 -7.0430566373E+000 -6.8877616024E+001 -5.1603942479E+001 -1.7601674129E+002 -8.7668850120E+001 -9.9872549535E+001 -2.1466535048E+001 -4.2939244369E+001
10645000000.000 -7.0660088910E+000 -6.9542747673E+001 -5.1753741115E+001 +1.5045247930E+002 -9.9939067089E+001 +1.1030611365E+002 -2.2839597527E+001 -2.4361932081E+001
10777500000.000 -7.0373164750E+000 -6.9831154039E+001 -5.2098706573E+001 +1.1782706914E+002 -8.5309012542E+001 -1.4238200825E+002 -2.2107699295E+001 -6.5500113651E+000
10910000000.000 -6.9968825112E+000 -7.0490289642E+001 -5.2601307518E+001 +8.2265938467E+001 -8.6104987859E+001 -1.7281055744E+002 -2.2748259071E+001 +2.7572669544E+000
11042500000.000 -6.9876279777E+000 -7.1594717612E+001 -5.2931101895E+001 +4.8918716872E+001 -8.5805947064E+001 -6.5127271545E+001 -2.3470315795E+001 +2.6657603519E+001
11175000000.000 -6.9644292993E+000 -7.2092698902E+001 -5.2774986960E+001 +1.5761224821E+001 -1.0056229934E+002 -1.0521617290E+002 -2.2161352564E+001 +4.1931164072E+001
11307500000.000 -6.9377534402E+000 -7.2308631580E+001 -5.3434339210E+001 -1.7931868942E+001 -8.7673715357E+001 -1.3087406028E+002 -2.2690969311E+001 +5.1858085086E+001
11440000000.000 -6.9012340655E+000 -7.3147100939E+001 -5.3640840872E+001 -5.1397899669E+001 -8.5513168259E+001 -3.7316454860E+001 -2.2624115965E+001 +7.4741769594E+001
11572500000.000 -6.8502643930E+000 -7.3605899923E+001 -5.4202532380E+001 -8.6693929824E+001 -8.4206961870E+001 +5.4949229766E+001 -2.1143875686E+001 +8.6152422939E+001
11705000000.000 -6.8279998332E+000 -7.3988710252E+001 -5.4614149397E+001 -1.2002992577E+002 -8.5122191911E+001 -1.6578310170E+002 -2.1750386708E+001 +9.5672017830E+001
11837500000.000 -6.8057724223E+000 -7.4549654153E+001 -5.4696662497E+001 -1.5198587649E+002 -7.8879715395E+001 +3.8508908130E+000 -2.1156422558E+001 +1.1817324487E+002
11970000000.000 -6.7971117667E+000 -7.4840972015E+001 -5.4973496801E+001 +1.7541539114E+002 -8.2232339345E+001 +3.9877129381E+001 -1.9813543378E+001 +1.2452549018E+002
12102500000.000 -6.7427414326E+000 -7.4872869422E+001 -5.4953780782E+001 +1.3919378763E+002 -9.0327974642E+001 +9.4940745851E+001 -2.0736093777E+001 +1.3447347033E+002
12235000000.000 -6.7720073620E+000 -7.5697875098E+001 -5.5424935380E+001 +1.0212828059E+002 -8.9532009142E+001 -1.0852292653E+002 -1.9762217886E+001 +1.5349391465E+002
12367500000.000 -6.7643351595E+000 -7.5754011433E+001 -5.5784528877E+001 +7.1424798206E+001 -8.4842801442E+001 +3.5175854660E+001 -1.8887925991E+001 +1.5675292908E+002
12500000000.000 -6.7597181374E+000 -7.6269896296E+001 -5.5792479537E+001 +3.7456477400E+001 -8.1377560782E+001 +1.6356740742E+002 -2.0060225633E+001 +1.6724655841E+002
12632500000.000 -6.7195634528E+000 -7.6844877721E+001 -5.5957697524E+001 +4.3765031079E+000 -8.4183152102E+001 -1.5735714642E+002 -1.9077608700E+001 -1.7389356983E+002
12765000000.000 -6.7476967549E+000 -7.7193627206E+001 -5.6686094310E+001 -2.7833262096E+001 -8.3769276609E+001 +1.4235183573E+001 -1.8483885227E+001 -1.7254667076E+002
12897500000.000 -6.7667297629E+000 -7.7518518886E+001 -5.6421151567E+001 -6.4669101039E+001 -8.5321705590E+001 +1.5090637338E+002 -2.0152640679E+001 -1.6014118244E+002
13030000000.000 -6.7331552187E+000 -7.7841347366E+001 -5.6571167291E+001 -9.9725634424E+001 -8.1856893588E+001 +8.4753881712E+001 -1.8741155768E+001 -1.4238587128E+002
13162500000.000 -6.7114468591E+000 -7.8328787386E+001 -5.7135591991E+001 -1.2998039180E+002 -8.1755457866E+001 -1.0152961602E+001 -1.8540525673E+001 -1.4302959262E+002
13295000000.000 -6.7047396986E+000 -7.8797291305E+001 -5.7375866860E+001 -1.6379382218E+002 -8.3513310394E+001 +9.9413945614E+001 -2.0026768754E+001 -1.2880703888E+002
13427500000.000 -6.7353991390E+000 -7.9314102004E+001 -5.7689638536E+001 +1.5794632701E+002 -8.4875590977E+001 -1.5385328090E+002 -1.8708242001E+001 -1.1461792834E+002
13560000000.000 -6.7393660468E+000 -7.9371010503E+001 -5.7907983352E+001 +1.2779918068E+002 -8.6020003243E+001 +1.3308903757E+002 -1.8883916085E+001 -1.1583265691E+002
13692500000.000 -6.6863557361E+000 -7.9708999372E+001 -5.7931446767E+001 +9.1722742979E+001 -8.0741066010E+001 +6.7108163458E+001 -2.0787015072E+001 -1.0228846206E+002
13825000000.000 -6.6852819728E+000 -8.0469097660E+001 -5.9056055999E+001 +6.1766052971E+001 -7.7332404101E+001 -9.6681403273E+001 -1.9608176105E+001 -8.7922825235E+001
13957500000.000 -6.7215558516E+000 -8.0899466275E+001 -5.8381980531E+001 +3.1101820727E+001 -8.8850072250E+001 +1.7282988071E+002 -2.0180349374E+001 -9.0832385082E+001
14090000000.000 -6.7052036498E+000 -8.1138909458E+001 -5.9103144198E+001 -1.0115033905E+001 -8.2394112486E+001 +6.7955271190E+001 -2.2528635000E+001 -7.3785881473E+001
14222500000.000 -6.6461687473E+000 -8.1575715937E+001 -5.8855391950E+001 -3.9962138016E+001 -8.0494403500E+001 -1.1868547440E+002 -2.1165055202E+001 -5.9728090522E+001
14355000000.000 -6.6538802102E+000 -8.2240678683E+001 -5.9817369224E+001 -7.1486269067E+001 -8.6721377369E+001 -6.6921112247E+001 -2.2297955684E+001 -6.3585220799E+001
14487500000.000 -6.6592725459E+000 -8.2666766998E+001 -5.9466498885E+001 -9.7916175850E+001 -8.2888450254E+001 +5.2806257892E+001 -2.5249866613E+001 -4.1039731582E+001
14620000000.000 -6.6025073534E+000 -8.2859909782E+001 -6.0038105368E+001 -1.3676479668E+002 -8.2406431781E+001 +1.4503450808E+002 -2.3155377711E+001 -2.7986977395E+001
14752500000.000 -6.5337175861E+000 -8.3553494547E+001 -6.0880287428E+001 -1.6883904719E+002 -7.9270218997E+001 -1.1429843375E+002 -2.5277508481E+001 -3.6010703956E+001
14885000000.000 -6.5356694171E+000 -8.3908544627E+001 -6.0298787826E+001 +1.5551801673E+002 -8.2491425936E+001 -2.5293292497E+001 -2.8466786859E+001 +1.8396720402E+000
15017500000.000 -6.5215683976E+000 -8.3875616325E+001 -5.9549126283E+001 +1.2290003876E+002 -7.9382165897E+001 +1.0276620193E+002 -2.5263146140E+001 +7.8063048016E+000
15150000000.000 -6.4276590869E+000 -8.3991473609E+001 -6.0727016534E+001 +8.4382146798E+001 -8.1095763816E+001 -1.0377960050E+002 -2.9136038234E+001 -1.3861196391E+000
15282500000.000 -6.3845414295E+000 -8.4263280942E+001 -5.9361803160E+001 +6.0384607586E+001 -8.5652416410E+001 +1.6756616702E+002 -3.0481467828E+001 +5.7496869797E+001
