!  2-Port S-parameters saved by WinCal
! VAR MeasName=S-Parameters (CALIBRATED_DATA) read from VNA (C)
! VAR MeasDate=10/16/2015 3:56:28 PM
! VAR NAME=M6082_10_17_2_2_20C_8.3mA_-17.5dBm
! VAR FILENAME=M6082_10_17_2_2_20C_8.3mA_-17.5dBm.S2P
! VAR DATE=10/16/2015 3:56:28 PM
! VAR PHYS_PORTS=2,1
! VAR ObjTypeName=DATASET
! VAR IndexType=Frequency
!
# Hz S DB R 50
45000000.000 -1.9971672588E+001 -1.7928759775E+002 -4.2082918748E+001 +1.1460330928E+002 -6.3967925300E+001 +4.0262483169E+001 -3.0739601169E+001 +8.1992840540E+000
177500000.000 -1.9996319801E+001 -1.7336763679E+002 -4.2721685736E+001 +6.7956720470E+001 -6.9780010680E+001 +4.5531423335E+001 -3.2704345146E+001 +4.6618282945E+001
310000000.000 -1.9849358753E+001 -1.6775311386E+002 -4.2833031103E+001 +3.9138114350E+001 -7.5259825620E+001 +1.3941533896E+002 -2.3363710614E+001 +6.4750984379E+001
442500000.000 -1.9595278772E+001 -1.6256520755E+002 -4.1834650642E+001 +4.0495812545E-001 -7.8713181072E+001 +6.0487745910E+001 -2.2391258287E+001 +1.7214253563E+001
575000000.000 -1.9224673274E+001 -1.5749884596E+002 -4.2338865271E+001 -3.5106137266E+001 -9.1208612516E+001 +1.6836563972E+002 -3.0637624978E+001 +2.2739304291E+001
707500000.000 -1.8814787178E+001 -1.5350402403E+002 -4.2468751394E+001 -6.9185200447E+001 -7.9841900518E+001 -1.5614859788E+002 -3.4503557457E+001 +8.3590585715E+001
840000000.000 -1.8386044040E+001 -1.4943810391E+002 -4.2558395057E+001 -1.0376358428E+002 -8.6764173225E+001 -1.3247373816E+002 -2.9676881084E+001 +1.2721951160E+002
972500000.000 -1.7950994161E+001 -1.4586846780E+002 -4.2544814843E+001 -1.3761631951E+002 -8.9915831950E+001 +1.6914628457E+002 -2.5954049709E+001 +1.3539723129E+002
1105000000.000 -1.7444618897E+001 -1.4283565070E+002 -4.2564383306E+001 -1.7224466968E+002 -8.8297843326E+001 +1.7009664100E+002 -2.4362844210E+001 +1.4073549749E+002
1237500000.000 -1.6974819085E+001 -1.4040718179E+002 -4.2564280054E+001 +1.5354656597E+002 -9.2255506825E+001 -5.6683100662E+001 -2.3388821186E+001 +1.4996818266E+002
1370000000.000 -1.6497723632E+001 -1.3830218289E+002 -4.2658199471E+001 +1.1941353590E+002 -8.6052539023E+001 +3.6421296040E+001 -2.2078581739E+001 +1.5999317147E+002
1502500000.000 -1.6048070429E+001 -1.3638565697E+002 -4.2619004791E+001 +8.4983303659E+001 -9.1752203639E+001 -5.3987350378E+001 -2.0866853062E+001 +1.6638666078E+002
1635000000.000 -1.5590471110E+001 -1.3443440977E+002 -4.2685165149E+001 +5.0693833861E+001 -9.0855334520E+001 +2.3281932406E+000 -2.0025282936E+001 +1.7330565844E+002
1767500000.000 -1.5131883777E+001 -1.3313782360E+002 -4.2713582263E+001 +1.6408294469E+001 -9.6953453231E+001 +5.7605064115E+000 -1.9023309618E+001 +1.7848804259E+002
1900000000.000 -1.4741589222E+001 -1.3197674832E+002 -4.2706934848E+001 -1.8419020383E+001 -8.5694496006E+001 -7.3934026170E+001 -1.8872059783E+001 -1.7821458600E+002
2032500000.000 -1.4348036197E+001 -1.3098319984E+002 -4.2831959885E+001 -5.2700854794E+001 -8.4617422652E+001 -5.4563444459E+000 -1.8686602673E+001 -1.6789815646E+002
2165000000.000 -1.3946359757E+001 -1.2990481777E+002 -4.2921151008E+001 -8.6923796993E+001 -8.7338420971E+001 +1.1346736536E+002 -1.7747881327E+001 -1.6095867051E+002
2297500000.000 -1.3588501353E+001 -1.2926220906E+002 -4.2951747196E+001 -1.2074195139E+002 -9.0459977659E+001 -1.6753294589E+002 -1.7245216616E+001 -1.5707184607E+002
2430000000.000 -1.3248687445E+001 -1.2864882520E+002 -4.2902005606E+001 -1.5651155220E+002 -8.3277375592E+001 -9.0420232073E+001 -1.6937690432E+001 -1.5280285890E+002
2562500000.000 -1.2892375636E+001 -1.2807880411E+002 -4.2800389091E+001 +1.7037523023E+002 -7.8777190395E+001 +3.9579804854E+001 -1.6834999278E+001 -1.5041894961E+002
2695000000.000 -1.2567234456E+001 -1.2809086725E+002 -4.3027796179E+001 +1.3594040250E+002 -8.2149030044E+001 +7.6907240061E+001 -1.7372168495E+001 -1.4711445844E+002
2827500000.000 -1.2283073166E+001 -1.2807997662E+002 -4.3023789189E+001 +1.0124200919E+002 -8.0105277518E+001 +1.1403378154E+002 -1.7835768012E+001 -1.4031766984E+002
2960000000.000 -1.2006210910E+001 -1.2770131849E+002 -4.3275240102E+001 +6.8947188403E+001 -7.6142703088E+001 -2.4116507274E+001 -1.8161860876E+001 -1.3540898954E+002
3092500000.000 -1.1676751383E+001 -1.2757043215E+002 -4.3259703639E+001 +3.4574567547E+001 -7.7781318691E+001 +1.1141058527E+002 -1.9076648131E+001 -1.2924419137E+002
3225000000.000 -1.1378271933E+001 -1.2783775683E+002 -4.3257672901E+001 +3.2399349579E-001 -8.2021656371E+001 -1.3463808460E+002 -1.9583991280E+001 -1.1974953285E+002
3357500000.000 -1.1154034766E+001 -1.2799309513E+002 -4.3295225738E+001 -3.3167394177E+001 -7.5749049807E+001 +1.9308817144E+001 -1.9965948272E+001 -1.1424035231E+002
3490000000.000 -1.0867023573E+001 -1.2780625945E+002 -4.3512587788E+001 -6.9042433788E+001 -7.8556769530E+001 +9.5478379365E+001 -2.1126379703E+001 -1.0839953978E+002
3622500000.000 -1.0586793354E+001 -1.2776706307E+002 -4.3381131972E+001 -1.0184016654E+002 -7.8068844265E+001 +1.7141988563E+002 -2.1928235733E+001 -9.8237005261E+001
3755000000.000 -1.0320715401E+001 -1.2794857602E+002 -4.3414626838E+001 -1.3546941588E+002 -8.5900528392E+001 -8.4319822142E+000 -2.2710701096E+001 -9.4603688082E+001
3887500000.000 -1.0097283305E+001 -1.2805484424E+002 -4.3589824949E+001 -1.7053156660E+002 -8.6436267269E+001 +1.1493465131E+002 -2.5043583238E+001 -8.7765048818E+001
4020000000.000 -9.8831537146E+000 -1.2814221257E+002 -4.3377403719E+001 +1.5595116156E+002 -8.3201062536E+001 -1.2696308200E+002 -2.6651461876E+001 -7.3261359901E+001
4152500000.000 -9.6582460120E+000 -1.2810064636E+002 -4.3494335064E+001 +1.2090910974E+002 -8.1121645980E+001 -6.2809196236E+000 -2.8861567542E+001 -6.4939888205E+001
4285000000.000 -9.4398079146E+000 -1.2824326475E+002 -4.3497239861E+001 +8.6743325367E+001 -8.7233802720E+001 +1.0314031645E+002 -3.3366746349E+001 -3.7661731837E+001
4417500000.000 -9.2306535484E+000 -1.2852900703E+002 -4.3638296831E+001 +5.2924091465E+001 -8.3893344934E+001 +9.6849807071E+001 -3.1716169515E+001 +7.8948822142E+000
4550000000.000 -9.0612425916E+000 -1.2861214123E+002 -4.3892399520E+001 +1.8232084878E+001 -8.2936617697E+001 -7.5775016810E+001 -3.0335153936E+001 +1.8232772024E+001
4682500000.000 -8.8702471179E+000 -1.2860483756E+002 -4.3831694908E+001 -1.5119907455E+001 -8.9562133644E+001 +7.0043760854E+001 -2.9656737811E+001 +3.8748782021E+001
4815000000.000 -8.6727200055E+000 -1.2878803046E+002 -4.3840793360E+001 -4.7918776159E+001 -9.0050680297E+001 +1.7899854624E+002 -2.7623467150E+001 +4.1261345216E+001
4947500000.000 -8.5168233693E+000 -1.2897684698E+002 -4.3944069929E+001 -8.2219139109E+001 -8.6768142545E+001 -1.3596561399E+002 -2.9382298806E+001 +3.5635145271E+001
5080000000.000 -8.3642897561E+000 -1.2895344494E+002 -4.3799520035E+001 -1.1526305551E+002 -8.2929953926E+001 +2.5909659384E+001 -3.2251382058E+001 +5.6821055847E+001
5212500000.000 -8.1977033037E+000 -1.2907031993E+002 -4.3815533101E+001 -1.4896209021E+002 -7.9843125889E+001 +1.4785196425E+002 -3.1569118246E+001 +6.9679451406E+001
5345000000.000 -8.0490770612E+000 -1.2936275059E+002 -4.3814465115E+001 +1.7656260411E+002 -8.8069653712E+001 -9.5580988015E+001 -3.5352785629E+001 +7.1108653805E+001
5477500000.000 -7.9436491342E+000 -1.2942787710E+002 -4.3627261397E+001 +1.4243153443E+002 -8.6310626081E+001 +7.3448246019E+000 -3.7273510699E+001 +1.3123305575E+002
5610000000.000 -7.8024686221E+000 -1.2947986798E+002 -4.3637293502E+001 +1.0788730264E+002 -9.1433662476E+001 +1.1077244719E+002 -3.3678782405E+001 +1.3575208055E+002
5742500000.000 -7.6626965957E+000 -1.2980827575E+002 -4.3697987007E+001 +7.3825109704E+001 -8.2471845445E+001 -1.1384755132E+002 -3.7756948109E+001 +1.5256383770E+002
5875000000.000 -7.5674639596E+000 -1.3024911830E+002 -4.3732815407E+001 +3.9600203047E+001 -8.8419934595E+001 +2.9490478568E+001 -3.3802528435E+001 -1.7085674967E+002
6007500000.000 -7.4720480165E+000 -1.3041256135E+002 -4.3722098628E+001 +4.9442189817E+000 -8.8276404362E+001 -7.1232499600E+001 -3.2753708360E+001 +1.7951837470E+002
6140000000.000 -7.3367894870E+000 -1.3057017807E+002 -4.3805530864E+001 -2.8957341093E+001 -8.6015421377E+001 -1.7709338688E+002 -3.6119104758E+001 -1.6968405536E+002
6272500000.000 -7.2036419579E+000 -1.3108941885E+002 -4.3797805325E+001 -6.3850224327E+001 -8.4708674841E+001 -4.4893589225E+001 -3.3890296553E+001 -1.4448935682E+002
6405000000.000 -7.1201044062E+000 -1.3169352747E+002 -4.3836521639E+001 -9.8145726891E+001 -8.9177324588E+001 -5.1366189728E+000 -3.3843723904E+001 -1.6217406916E+002
6537500000.000 -7.0254615926E+000 -1.3177666804E+002 -4.4036286388E+001 -1.3218096966E+002 -9.4530438071E+001 -6.3690487805E+001 -4.0172629706E+001 -1.6034523860E+002
6670000000.000 -6.8849121111E+000 -1.3189274659E+002 -4.4107900306E+001 -1.6656241561E+002 -8.8756641251E+001 -4.9836805370E+001 -3.9417673833E+001 -1.3721724856E+002
6802500000.000 -6.7531911804E+000 -1.3249443676E+002 -4.4121873169E+001 +1.5970812850E+002 -8.7625870219E+001 +4.1302593898E+001 -3.8821672889E+001 +1.7916982279E+002
6935000000.000 -6.6843736771E+000 -1.3302442209E+002 -4.4201278757E+001 +1.2542150949E+002 -8.9119743627E+001 +1.6251499094E+002 -3.8585018737E+001 +1.2260579115E+002
7067500000.000 -6.6089400002E+000 -1.3301503506E+002 -4.4151097300E+001 +9.1579762412E+001 -8.6026036187E+001 -1.5241862064E+002 -3.9034506237E+001 +1.1446985191E+002
7200000000.000 -6.4737564835E+000 -1.3317733651E+002 -4.4291013816E+001 +5.7917727908E+001 -8.0871305698E+001 -3.0484208624E+001 -3.2830351849E+001 +1.3161644490E+002
7332500000.000 -6.3620212504E+000 -1.3374222632E+002 -4.4273957759E+001 +2.3470858281E+001 -8.6976270437E+001 +4.2378909080E+000 -2.9042544608E+001 +1.1908647049E+002
7465000000.000 -6.2920929101E+000 -1.3407256021E+002 -4.4395380289E+001 -1.1316598029E+001 -8.6449031255E+001 +1.6924769448E+002 -2.8634680852E+001 +1.2224673327E+002
7597500000.000 -6.2046318522E+000 -1.3411342855E+002 -4.4344810865E+001 -4.4698940680E+001 -1.0058959035E+002 +4.1118617524E-001 -2.6154358768E+001 +1.3755281825E+002
7730000000.000 -6.0787621740E+000 -1.3427556342E+002 -4.4422541597E+001 -7.7893019197E+001 -8.4959095016E+001 +1.3115980442E+002 -2.3716972955E+001 +1.3797565294E+002
7862500000.000 -5.9889250768E+000 -1.3457991978E+002 -4.4518226178E+001 -1.1289139852E+002 -9.6270673675E+001 -1.3523578377E+002 -2.3267264850E+001 +1.4147270265E+002
7995000000.000 -5.9280306955E+000 -1.3474433165E+002 -4.4635027706E+001 -1.4602051663E+002 -8.7653636604E+001 +3.5615833260E+001 -2.1839583330E+001 +1.5428301520E+002
8127500000.000 -5.8289347157E+000 -1.3464926820E+002 -4.4584401578E+001 -1.7972443031E+002 -8.9198139656E+001 +3.2133574242E+001 -2.0021405539E+001 +1.5657700336E+002
8260000000.000 -5.7302841075E+000 -1.3494977832E+002 -4.4596857030E+001 +1.4607517038E+002 -9.0949969171E+001 -1.2764285109E+002 -1.9857112516E+001 +1.6022078631E+002
8392500000.000 -5.6787697034E+000 -1.3507726444E+002 -4.4493114473E+001 +1.1182821721E+002 -8.7433384787E+001 -9.3475445907E+001 -1.9073386334E+001 +1.7043368403E+002
8525000000.000 -5.6171849985E+000 -1.3504249027E+002 -4.4529829269E+001 +7.8858854819E+001 -8.1424371532E+001 +2.1713149408E+001 -1.8220205355E+001 +1.7301479436E+002
8657500000.000 -5.5398697452E+000 -1.3507720853E+002 -4.4567685450E+001 +4.4346265482E+001 -8.6676822265E+001 +1.4973146694E+002 -1.8564985768E+001 +1.7795776574E+002
8790000000.000 -5.4597858244E+000 -1.3530716021E+002 -4.4677871095E+001 +1.0848572022E+001 -8.4353614896E+001 -1.5826630864E+002 -1.8351511727E+001 -1.7171112874E+002
8922500000.000 -5.4292071897E+000 -1.3551976440E+002 -4.4721892886E+001 -2.3315361642E+001 -8.6809910175E+001 +1.1762854103E+001 -1.7993338984E+001 -1.6599110535E+002
9055000000.000 -5.3689497844E+000 -1.3555861300E+002 -4.4768153159E+001 -5.7935699426E+001 -8.2241485675E+001 +1.3897001917E+002 -1.8463637830E+001 -1.5831795442E+002
9187500000.000 -5.3080018886E+000 -1.3573240382E+002 -4.4604601744E+001 -9.1984932786E+001 -8.5468357888E+001 -1.0870984079E+002 -1.8390438147E+001 -1.4626964009E+002
9320000000.000 -5.2409533816E+000 -1.3624224452E+002 -4.4675553595E+001 -1.2610324743E+002 -8.8954871471E+001 -2.9088317411E+001 -1.8206670915E+001 -1.3961006318E+002
9452500000.000 -5.2027626321E+000 -1.3649343366E+002 -4.4685422600E+001 -1.6050408462E+002 -9.0577191635E+001 -1.0584160515E+002 -1.8857921674E+001 -1.3062291201E+002
9585000000.000 -5.1494718872E+000 -1.3670359044E+002 -4.4674939318E+001 +1.6538089799E+002 -8.6431967392E+001 -1.5769947551E+002 -1.8800188372E+001 -1.1815983192E+002
9717500000.000 -5.0660759491E+000 -1.3694775363E+002 -4.4737574395E+001 +1.3144289794E+002 -8.6844143895E+001 -1.2009036542E+001 -1.8804760569E+001 -1.1108304800E+002
9850000000.000 -5.0207200287E+000 -1.3757944502E+002 -4.4851466311E+001 +9.7274299362E+001 -8.4376494783E+001 +1.2821456898E+002 -1.9658155416E+001 -1.0068393840E+002
9982500000.000 -4.9822698992E+000 -1.3763833021E+002 -4.4764669717E+001 +6.3500503396E+001 -9.2613631964E+001 -1.0591658517E+002 -1.9712853127E+001 -8.6432503210E+001
10115000000.000 -4.9206475939E+000 -1.3778651913E+002 -4.4877129490E+001 +2.9162311989E+001 -8.3297872597E+001 +1.4098296908E+001 -1.9910444696E+001 -7.9074437741E+001
10247500000.000 -4.8436508735E+000 -1.3821492681E+002 -4.4907293362E+001 -4.8510630739E+000 -9.2976538604E+001 +1.7469860985E+002 -2.1140971519E+001 -6.6146838529E+001
10380000000.000 -4.8094412770E+000 -1.3859659441E+002 -4.4976255881E+001 -3.9046854207E+001 -8.7231829861E+001 +9.6084656708E+001 -2.1081559332E+001 -4.9852750846E+001
10512500000.000 -4.7731177810E+000 -1.3879298753E+002 -4.4961933790E+001 -7.3573880869E+001 -8.4999440260E+001 +2.4288314311E+001 -2.1509818282E+001 -4.1734180527E+001
10645000000.000 -4.7178398516E+000 -1.3896301496E+002 -4.4922926160E+001 -1.0686552104E+002 -8.7008930233E+001 +7.6825761963E+001 -2.2803634684E+001 -2.3967085925E+001
10777500000.000 -4.6503243173E+000 -1.3925940625E+002 -4.5036232409E+001 -1.4121485493E+002 -8.6840138234E+001 +8.8479852853E+001 -2.2232030220E+001 -5.8601945384E+000
10910000000.000 -4.6009948928E+000 -1.3957538654E+002 -4.5148432836E+001 -1.7484830158E+002 -8.9638990361E+001 -9.9244106344E+001 -2.2788175962E+001 +4.4576314016E+000
11042500000.000 -4.5510666866E+000 -1.3983715958E+002 -4.5177814085E+001 +1.5124112959E+002 -9.0684066411E+001 -4.5265937673E+001 -2.3440267581E+001 +2.7456911815E+001
11175000000.000 -4.4923334094E+000 -1.3988669490E+002 -4.5022288113E+001 +1.1730787987E+002 -9.0713779112E+001 +1.7828687900E+002 -2.2280333834E+001 +4.2764887704E+001
11307500000.000 -4.4508589108E+000 -1.4004774217E+002 -4.5166089250E+001 +8.3817582686E+001 -8.5268561601E+001 -1.2997900047E+002 -2.2737709412E+001 +5.3413776617E+001
11440000000.000 -4.3930268074E+000 -1.4028074311E+002 -4.5183052160E+001 +4.8572285489E+001 -8.5485014005E+001 -2.2815450858E+001 -2.2571613855E+001 +7.5741377095E+001
11572500000.000 -4.3537836881E+000 -1.4023637513E+002 -4.5203030984E+001 +1.5212372385E+001 -9.2812507592E+001 +4.6131580601E+001 -2.1171734546E+001 +8.7057152699E+001
11705000000.000 -4.3147780024E+000 -1.4030977012E+002 -4.5280729166E+001 -1.9404545505E+001 -8.4304020714E+001 -3.6715749967E+001 -2.1767117471E+001 +9.7179175216E+001
11837500000.000 -4.2655420759E+000 -1.4045216032E+002 -4.5224529855E+001 -5.3069776335E+001 -9.0341660618E+001 -1.0383447162E+002 -2.1114047534E+001 +1.1940093138E+002
11970000000.000 -4.2558570908E+000 -1.4061942441E+002 -4.5320721273E+001 -8.8116795029E+001 -9.4338954748E+001 +2.8167034341E+001 -1.9821952549E+001 +1.2553145472E+002
12102500000.000 -4.2411948286E+000 -1.4053096868E+002 -4.5329658913E+001 -1.2158039337E+002 -8.5469783441E+001 +1.4066971752E+002 -2.0749214849E+001 +1.3544477129E+002
12235000000.000 -4.1870734924E+000 -1.4088182998E+002 -4.5344486132E+001 -1.5567694869E+002 -9.2667719964E+001 +1.2859209421E+002 -1.9776674557E+001 +1.5461917181E+002
12367500000.000 -4.1841003845E+000 -1.4102168252E+002 -4.5421676960E+001 +1.7077495902E+002 -8.5852347167E+001 +1.8521673278E+001 -1.8876164150E+001 +1.5805701672E+002
12500000000.000 -4.1598403338E+000 -1.4136620082E+002 -4.5293693984E+001 +1.3564853672E+002 -8.5142554262E+001 +1.4290783643E+001 -2.0058036196E+001 +1.6811916117E+002
12632500000.000 -4.1306824472E+000 -1.4139181588E+002 -4.5390376080E+001 +1.0246707431E+002 -8.4950979697E+001 -7.6192605228E+001 -1.9177250162E+001 -1.7298225359E+002
12765000000.000 -4.1038412301E+000 -1.4162949112E+002 -4.5468817330E+001 +6.7174429751E+001 -9.1692897467E+001 +1.4934455172E+001 -1.8520595015E+001 -1.7123379646E+002
12897500000.000 -4.0923458562E+000 -1.4190687785E+002 -4.5701064911E+001 +3.3352633570E+001 -7.9145387118E+001 +1.4317459416E+002 -2.0121289783E+001 -1.5948857321E+002
13030000000.000 -4.0768176505E+000 -1.4209166750E+002 -4.5524769334E+001 -3.8449502299E-001 -8.2347442555E+001 -1.6596579147E+002 -1.8863082184E+001 -1.4157826646E+002
13162500000.000 -4.0445725261E+000 -1.4217045680E+002 -4.5502989525E+001 -3.4251205961E+001 -9.8700192470E+001 +9.5012029761E+001 -1.8643805283E+001 -1.4142954341E+002
13295000000.000 -4.0166499990E+000 -1.4230960435E+002 -4.5575830062E+001 -6.9128908943E+001 -8.8002741512E+001 +9.8312513193E+001 -2.0005090449E+001 -1.2790087766E+002
13427500000.000 -3.9999076938E+000 -1.4268282591E+002 -4.5623411741E+001 -1.0334498251E+002 -9.3139090582E+001 -1.2151039515E+002 -1.8859297510E+001 -1.1424836999E+002
13560000000.000 -4.0025788050E+000 -1.4274256629E+002 -4.5545201418E+001 -1.3732160468E+002 -8.5530858070E+001 -1.7668353233E+002 -1.9061648341E+001 -1.1454932882E+002
13692500000.000 -3.9685462420E+000 -1.4276727646E+002 -4.5694892454E+001 -1.7030665814E+002 -8.0448972104E+001 +1.5466740169E+002 -2.0801739803E+001 -1.0133249690E+002
13825000000.000 -3.9244530000E+000 -1.4304933370E+002 -4.5735375254E+001 +1.5558733418E+002 -8.1582763123E+001 +1.6042628431E+002 -1.9737864835E+001 -8.7709050919E+001
13957500000.000 -3.9220302989E+000 -1.4340420070E+002 -4.5825688083E+001 +1.2097429398E+002 -8.0998638404E+001 -4.6278446816E+001 -2.0399151960E+001 -9.0022884442E+001
14090000000.000 -3.9132546285E+000 -1.4345056730E+002 -4.5667584171E+001 +8.7346932495E+001 -8.9453526840E+001 -9.2069839871E+001 -2.2654720829E+001 -7.2527741369E+001
14222500000.000 -3.8798569204E+000 -1.4336515504E+002 -4.5755343221E+001 +5.1844261746E+001 -8.8597293050E+001 -3.0284134855E+001 -2.1275588578E+001 -5.9390064015E+001
14355000000.000 -3.8298874241E+000 -1.4366654162E+002 -4.5820552100E+001 +1.8727073546E+001 -7.8807837882E+001 -8.0173965015E+001 -2.2515276515E+001 -6.3692183325E+001
14487500000.000 -3.8076651922E+000 -1.4377414042E+002 -4.5719963467E+001 -1.5495150763E+001 -7.8624234177E+001 +7.2695423822E+001 -2.5571644639E+001 -4.0192237389E+001
14620000000.000 -3.7998493436E+000 -1.4373131223E+002 -4.5846766784E+001 -4.9757430152E+001 -9.1124540335E+001 +9.4629979003E+001 -2.3251382950E+001 -2.7201778973E+001
14752500000.000 -3.7405054927E+000 -1.4356368027E+002 -4.5911791275E+001 -8.4815341943E+001 -8.4356680137E+001 -1.2827778700E+002 -2.5328332978E+001 -3.6911473064E+001
14885000000.000 -3.6969256603E+000 -1.4361235975E+002 -4.5757167271E+001 -1.1857576880E+002 -7.9515698412E+001 -4.5226960843E+001 -2.9008346616E+001 +2.4918294921E+000
15017500000.000 -3.6839566379E+000 -1.4360896790E+002 -4.5954314591E+001 -1.5245032382E+002 -9.1490302433E+001 +4.1924673922E+001 -2.5371883167E+001 +9.3866263712E+000
15150000000.000 -3.6568090868E+000 -1.4341620326E+002 -4.5993915849E+001 +1.7225200765E+002 -8.3478583036E+001 -6.6609404986E+001 -2.9038120302E+001 -2.7914965560E+000
15282500000.000 -3.6273784127E+000 -1.4327558884E+002 -4.6026654256E+001 +1.3764364457E+002 -8.4902648651E+001 -4.6102803237E+001 -3.1338974702E+001 +5.8102742067E+001
