!  2-Port S-parameters saved by WinCal
! VAR MeasName=S-Parameters (CALIBRATED_DATA) read from VNA (C)
! VAR MeasDate=10/16/2015 2:43:18 PM
! VAR NAME=M6082_10_13_2_2_20C_12.9mA_-17.5dBm
! VAR FILENAME=M6082_10_13_2_2_20C_12.9mA_-17.5dBm.S2P
! VAR DATE=10/16/2015 2:43:18 PM
! VAR PHYS_PORTS=2,1
! VAR ObjTypeName=DATASET
! VAR IndexType=Frequency
!
# Hz S DB R 50
45000000.000 -1.8037972313E+001 +1.7994768784E+002 -4.4295898342E+001 +9.6489852038E+001 -5.9748078345E+001 +8.6740489204E+001 -3.0606484870E+001 +6.4803539896E+000
177500000.000 -1.8066260297E+001 -1.7809102241E+002 -4.3528851841E+001 +6.9330426172E+001 -7.5642026142E+001 +7.7684821470E+001 -3.2727398566E+001 +4.6676128526E+001
310000000.000 -1.8109211215E+001 -1.7604465306E+002 -4.3644643838E+001 +4.1170480348E+001 -7.2368600919E+001 -1.3664144696E+002 -2.3329633328E+001 +6.4835486744E+001
442500000.000 -1.8137010579E+001 -1.7377589239E+002 -4.2699053338E+001 +6.9151220218E-001 -9.5021570390E+001 +6.5544842141E+001 -2.2389849346E+001 +1.7205348798E+001
575000000.000 -1.8096387605E+001 -1.7113625184E+002 -4.2898242274E+001 -3.4836877448E+001 -7.8188987994E+001 +5.9112316861E+001 -3.0622179149E+001 +2.2505635363E+001
707500000.000 -1.8039612050E+001 -1.6903450368E+002 -4.3145299382E+001 -6.8287129622E+001 -8.4293923176E+001 +1.6599685585E+002 -3.4524101848E+001 +8.4031799308E+001
840000000.000 -1.7997328929E+001 -1.6647773649E+002 -4.3210265412E+001 -1.0257469373E+002 -8.8363837413E+001 -2.3411849709E+001 -2.9701172365E+001 +1.2724286221E+002
972500000.000 -1.7929571672E+001 -1.6407636672E+002 -4.3383979521E+001 -1.3650469711E+002 -9.3829692726E+001 -2.7937353448E+001 -2.5969896097E+001 +1.3537644517E+002
1105000000.000 -1.7788103599E+001 -1.6176650552E+002 -4.3429877076E+001 -1.7122732455E+002 -8.3890518295E+001 -1.0749580982E+002 -2.4361525364E+001 +1.4085910745E+002
1237500000.000 -1.7662336715E+001 -1.5971856463E+002 -4.3578139428E+001 +1.5595186498E+002 -8.2808916131E+001 -2.7104528611E+001 -2.3404288405E+001 +1.5001561290E+002
1370000000.000 -1.7499010828E+001 -1.5777496955E+002 -4.3464578415E+001 +1.2220281569E+002 -8.8877085611E+001 -1.2379164620E+002 -2.2083726548E+001 +1.6001333307E+002
1502500000.000 -1.7362646762E+001 -1.5580932899E+002 -4.3599445088E+001 +8.7977614132E+001 -8.2114135513E+001 -1.4078444107E+002 -2.0862732845E+001 +1.6641807581E+002
1635000000.000 -1.7198176914E+001 -1.5356804476E+002 -4.3515135190E+001 +5.3607580018E+001 -9.2554160359E+001 -1.0034271840E+002 -2.0030195227E+001 +1.7326210221E+002
1767500000.000 -1.6997066123E+001 -1.5184371251E+002 -4.3578994436E+001 +1.9734989718E+001 -8.0640287196E+001 +1.0268806124E+002 -1.9022156869E+001 +1.7849605778E+002
1900000000.000 -1.6854066302E+001 -1.5021605263E+002 -4.3567416997E+001 -1.5298296437E+001 -8.0481304482E+001 -8.0455710698E+001 -1.8874575226E+001 -1.7825440881E+002
2032500000.000 -1.6671629097E+001 -1.4868669009E+002 -4.3748191028E+001 -4.8829309179E+001 -8.3273651796E+001 -7.5501910722E+001 -1.8682643956E+001 -1.6792872254E+002
2165000000.000 -1.6481872105E+001 -1.4682421004E+002 -4.3569962046E+001 -8.3541260880E+001 -8.6778577477E+001 +3.5490026082E+001 -1.7750728576E+001 -1.6092005875E+002
2297500000.000 -1.6303927474E+001 -1.4554384772E+002 -4.3659306562E+001 -1.1704172140E+002 -1.0430380819E+002 -1.1795760033E+002 -1.7237373974E+001 -1.5705573277E+002
2430000000.000 -1.6120062567E+001 -1.4416486601E+002 -4.3919796834E+001 -1.5023968664E+002 -7.6932660568E+001 -9.7143614043E+001 -1.6955075898E+001 -1.5285116122E+002
2562500000.000 -1.5908511571E+001 -1.4283643717E+002 -4.3811955548E+001 +1.7461279753E+002 -7.7058197723E+001 +8.7778459075E+001 -1.6839367725E+001 -1.5047593092E+002
2695000000.000 -1.5697269187E+001 -1.4218926104E+002 -4.3994770489E+001 +1.4129322136E+002 -8.3660007853E+001 +1.5205495396E+002 -1.7380657917E+001 -1.4714753171E+002
2827500000.000 -1.5521898987E+001 -1.4158194466E+002 -4.3929489976E+001 +1.0674984524E+002 -8.5347620331E+001 +8.5991363473E+000 -1.7868199180E+001 -1.4032426123E+002
2960000000.000 -1.5356085635E+001 -1.4048462877E+002 -4.3773144594E+001 +7.3739964029E+001 -9.7531346062E+001 +6.9057349450E+001 -1.8165395810E+001 -1.3546796560E+002
3092500000.000 -1.5092703885E+001 -1.3948628879E+002 -4.3991477077E+001 +4.0571031306E+001 -7.7805294898E+001 +9.6012477009E+001 -1.9091944564E+001 -1.2931655627E+002
3225000000.000 -1.4843654228E+001 -1.3906822343E+002 -4.4133731908E+001 +5.8762025897E+000 -8.5702602884E+001 -1.7702528148E+002 -1.9590886713E+001 -1.1970350131E+002
3357500000.000 -1.4685685840E+001 -1.3870746778E+002 -4.3948618071E+001 -2.7807758686E+001 -8.9529552378E+001 +2.9394150220E+001 -1.9960541093E+001 -1.1429828069E+002
3490000000.000 -1.4463223141E+001 -1.3767423680E+002 -4.3968668630E+001 -6.1210660005E+001 -8.4285866239E+001 -1.6041907833E+002 -2.1119465398E+001 -1.0844202500E+002
3622500000.000 -1.4222682854E+001 -1.3685037745E+002 -4.3987659102E+001 -9.4720552041E+001 -8.7889027073E+001 -1.5615360302E+002 -2.1936792217E+001 -9.8189980604E+001
3755000000.000 -1.3976947315E+001 -1.3634587017E+002 -4.4157368388E+001 -1.2851520137E+002 -8.4443300773E+001 -7.9231855439E+001 -2.2737162522E+001 -9.4707922484E+001
3887500000.000 -1.3789363325E+001 -1.3581199751E+002 -4.4017165491E+001 -1.6186483240E+002 -8.1502120390E+001 +6.9423760133E+001 -2.5062554465E+001 -8.7713145170E+001
4020000000.000 -1.3613124643E+001 -1.3529485530E+002 -4.4068827245E+001 +1.6249118878E+002 -8.8851024700E+001 -1.6867325181E+002 -2.6645014701E+001 -7.3266787985E+001
4152500000.000 -1.3405599509E+001 -1.3449509609E+002 -4.4082381543E+001 +1.2842496422E+002 -9.5115841968E+001 +2.2555302397E+001 -2.8888508736E+001 -6.4725561982E+001
4285000000.000 -1.3196701784E+001 -1.3404946572E+002 -4.4207338748E+001 +9.4278982193E+001 -8.5291449971E+001 -3.4935772219E+000 -3.3372351443E+001 -3.7362619827E+001
4417500000.000 -1.3000379024E+001 -1.3380832242E+002 -4.4136831115E+001 +5.9726148043E+001 -8.4684176224E+001 +1.1444895281E+002 -3.1731014632E+001 +8.1065401697E+000
4550000000.000 -1.2856151709E+001 -1.3329136103E+002 -4.4322352240E+001 +2.6600220452E+001 -9.0869454903E+001 -3.8362123612E+001 -3.0331750170E+001 +1.8329358670E+001
4682500000.000 -1.2662427724E+001 -1.3264866628E+002 -4.4389076929E+001 -6.0293903887E+000 -8.5995149440E+001 +1.1704664495E+002 -2.9660894512E+001 +3.8937239210E+001
4815000000.000 -1.2462406973E+001 -1.3234628528E+002 -4.4427158449E+001 -3.9268925684E+001 -9.4392134612E+001 -7.6023472130E+001 -2.7634652359E+001 +4.1306876594E+001
4947500000.000 -1.2321397153E+001 -1.3199016551E+002 -4.4271099082E+001 -7.2538443218E+001 -8.7599911237E+001 +1.0603471499E+002 -2.9363457413E+001 +3.5642960992E+001
5080000000.000 -1.2175303262E+001 -1.3138137052E+002 -4.4286789797E+001 -1.0633637610E+002 -8.4638375769E+001 +1.9983106522E+001 -3.2218939727E+001 +5.7189175946E+001
5212500000.000 -1.1999496997E+001 -1.3099030344E+002 -4.4177258611E+001 -1.4011606057E+002 -8.9737710858E+001 +9.9828918033E+001 -3.1567482088E+001 +6.9709928847E+001
5345000000.000 -1.1852371146E+001 -1.3087947416E+002 -4.4075416548E+001 -1.7419618230E+002 -9.4407537691E+001 -2.0066918784E+001 -3.5364486050E+001 +7.1017849546E+001
5477500000.000 -1.1765377986E+001 -1.3042932625E+002 -4.4031165694E+001 +1.5187127572E+002 -8.0369970291E+001 +3.1210899033E+001 -3.7182498838E+001 +1.3221947871E+002
5610000000.000 -1.1614006965E+001 -1.2996158372E+002 -4.4051343139E+001 +1.1715723453E+002 -8.7714534668E+001 +1.4293658534E+002 -3.3675134641E+001 +1.3603813393E+002
5742500000.000 -1.1473700030E+001 -1.2994020927E+002 -4.4031870448E+001 +8.2775259232E+001 -8.6531075831E+001 +1.5343393649E+002 -3.7703705823E+001 +1.5275489824E+002
5875000000.000 -1.1388878008E+001 -1.3006433947E+002 -4.3970229513E+001 +4.8413405901E+001 -8.7786789631E+001 -1.3585269595E+002 -3.3780713638E+001 -1.7039544393E+002
6007500000.000 -1.1295802690E+001 -1.2977988796E+002 -4.3892929234E+001 +1.4320471605E+001 -8.6102361659E+001 +1.0525549665E+002 -3.2689325267E+001 +1.7962319896E+002
6140000000.000 -1.1145346143E+001 -1.2952144509E+002 -4.4083367182E+001 -1.9229904401E+001 -9.0550717374E+001 -1.5090383522E+002 -3.6109057350E+001 -1.6954526710E+002
6272500000.000 -1.0988395686E+001 -1.2981013246E+002 -4.4190569744E+001 -5.3870609480E+001 -8.2883856234E+001 -8.5162983306E+001 -3.3872945800E+001 -1.4423235851E+002
6405000000.000 -1.0911181669E+001 -1.3019398712E+002 -4.4115123259E+001 -8.8690121380E+001 -9.2210809682E+001 +6.8656520182E+001 -3.3817921370E+001 -1.6227657904E+002
6537500000.000 -1.0817069264E+001 -1.2986001626E+002 -4.4126675289E+001 -1.2267371671E+002 -9.2804593117E+001 +1.3207036102E+002 -4.0131389338E+001 -1.5994390526E+002
6670000000.000 -1.0639616336E+001 -1.2959867162E+002 -4.4156360759E+001 -1.5634929096E+002 -1.0643077345E+002 -1.1466085782E+002 -3.9407061966E+001 -1.3673248004E+002
6802500000.000 -1.0473269368E+001 -1.3001751713E+002 -4.4293487729E+001 +1.7039041375E+002 -9.1240789172E+001 -3.9093009099E+001 -3.8897224849E+001 +1.7935509175E+002
6935000000.000 -1.0409389263E+001 -1.3036978098E+002 -4.4311822385E+001 +1.3607595490E+002 -9.7902344604E+001 -1.5065229210E+002 -3.8601399311E+001 +1.2269987188E+002
7067500000.000 -1.0323779303E+001 -1.2993674134E+002 -4.4223056385E+001 +1.0210282463E+002 -8.4723422628E+001 -1.0313378361E+002 -3.9063091072E+001 +1.1432683049E+002
7200000000.000 -1.0142235147E+001 -1.2979135806E+002 -4.4414066671E+001 +6.8176663958E+001 -9.4658706771E+001 -1.0059956707E+001 -3.2855431299E+001 +1.3148761698E+002
7332500000.000 -9.9998808564E+000 -1.3024220271E+002 -4.4468676658E+001 +3.4164759261E+001 -9.0046612240E+001 +4.3176292014E+001 -2.9078136299E+001 +1.1913022023E+002
7465000000.000 -9.9214575370E+000 -1.3032685637E+002 -4.4416918931E+001 -2.2714787299E-003 -8.2072989841E+001 -1.3227332445E+002 -2.8648339503E+001 +1.2236139519E+002
7597500000.000 -9.8001047258E+000 -1.3002661826E+002 -4.4369145448E+001 -3.3728286427E+001 -8.0988979085E+001 -2.3607190821E+001 -2.6157568344E+001 +1.3750032837E+002
7730000000.000 -9.6374216180E+000 -1.2996480013E+002 -4.4505546484E+001 -6.7330532608E+001 -8.0519814874E+001 +1.1939972340E+002 -2.3732437072E+001 +1.3795598771E+002
7862500000.000 -9.5251321168E+000 -1.3004821772E+002 -4.4452720751E+001 -1.0148796357E+002 -8.1650883654E+001 -1.1641844707E+002 -2.3281845497E+001 +1.4158349557E+002
7995000000.000 -9.4462369349E+000 -1.2993476428E+002 -4.4564675563E+001 -1.3551790092E+002 -8.6744756108E+001 -8.6850154933E+001 -2.1843312219E+001 +1.5433414424E+002
8127500000.000 -9.3062156616E+000 -1.2952843945E+002 -4.4570395368E+001 -1.6867873215E+002 -8.0755462982E+001 +1.9381139731E+001 -2.0033247698E+001 +1.5660291375E+002
8260000000.000 -9.1836973953E+000 -1.2966250192E+002 -4.4658926291E+001 +1.5725347048E+002 -8.2291585428E+001 +1.4805971355E+002 -1.9859590690E+001 +1.6022176319E+002
8392500000.000 -9.1132452128E+000 -1.2949297679E+002 -4.4537739959E+001 +1.2329655172E+002 -9.9283880369E+001 -1.0515836632E+002 -1.9069429335E+001 +1.7046794980E+002
8525000000.000 -9.0370551727E+000 -1.2914559316E+002 -4.4528353832E+001 +8.9652575830E+001 -8.5531942957E+001 +5.4269756912E+001 -1.8213580136E+001 +1.7300939091E+002
8657500000.000 -8.9307026943E+000 -1.2894078182E+002 -4.4572691224E+001 +5.5707651418E+001 -9.4390143737E+001 +8.7470472126E+001 -1.8570430461E+001 +1.7797689123E+002
8790000000.000 -8.8251365364E+000 -1.2895586788E+002 -4.4516968836E+001 +2.1990433371E+001 -8.2570513326E+001 -1.2470404625E+002 -1.8358373441E+001 -1.7170818870E+002
8922500000.000 -8.7891569934E+000 -1.2899633465E+002 -4.4507910196E+001 -1.2334112008E+001 -9.4670171306E+001 -1.2188779389E+002 -1.7990086878E+001 -1.6594104448E+002
9055000000.000 -8.7107836257E+000 -1.2877928828E+002 -4.4489078881E+001 -4.6428615181E+001 -9.5298561758E+001 +8.8117644694E+001 -1.8462341086E+001 -1.5834105783E+002
9187500000.000 -8.6300773478E+000 -1.2877154539E+002 -4.4578471342E+001 -8.0435339552E+001 -9.4417805956E+001 -2.7614251964E+001 -1.8387844640E+001 -1.4631597453E+002
9320000000.000 -8.5487881228E+000 -1.2916909066E+002 -4.4560034739E+001 -1.1447644383E+002 -8.7151969927E+001 -5.3606170298E+001 -1.8209054337E+001 -1.3963404062E+002
9452500000.000 -8.5037596517E+000 -1.2924896306E+002 -4.4524404456E+001 -1.4881616439E+002 -8.7055802894E+001 +6.0254522195E+001 -1.8855242975E+001 -1.3056991758E+002
9585000000.000 -8.4301263234E+000 -1.2925011626E+002 -4.4626029638E+001 +1.7712516178E+002 -9.1315532829E+001 -1.6929845180E+002 -1.8803668802E+001 -1.1816132326E+002
9717500000.000 -8.3103111305E+000 -1.2940838624E+002 -4.4723031765E+001 +1.4331316286E+002 -9.3378168310E+001 -8.7385002591E+001 -1.8813824738E+001 -1.1108158975E+002
9850000000.000 -8.2552098255E+000 -1.2998828364E+002 -4.4686650427E+001 +1.0932487856E+002 -8.4595825797E+001 +3.7792365425E+001 -1.9657728802E+001 -1.0058506285E+002
9982500000.000 -8.2005553134E+000 -1.2982197247E+002 -4.4761281468E+001 +7.5412334497E+001 -9.2237086127E+001 -1.4612889132E+002 -1.9710093493E+001 -8.6446345950E+001
10115000000.000 -8.1069273937E+000 -1.2981923470E+002 -4.4678531691E+001 +4.0760242525E+001 -8.7874668765E+001 -5.9197113690E+001 -1.9918942856E+001 -7.8999647472E+001
10247500000.000 -8.0014397701E+000 -1.3025918742E+002 -4.4656748434E+001 +7.7315127931E+000 -9.0343903035E+001 +1.5660842506E+001 -2.1148356575E+001 -6.6035231433E+001
10380000000.000 -7.9560116242E+000 -1.3049322620E+002 -4.4830092323E+001 -2.6340266910E+001 -8.8669621834E+001 +1.2253515134E+002 -2.1080400421E+001 -4.9797652707E+001
10512500000.000 -7.8935221581E+000 -1.3057329475E+002 -4.4825579619E+001 -6.0226177864E+001 -8.6598023442E+001 +4.6658412990E+001 -2.1503934666E+001 -4.1699580842E+001
10645000000.000 -7.8117556775E+000 -1.3066819109E+002 -4.4807148430E+001 -9.4454464638E+001 -8.7980993673E+001 -1.3203671903E+002 -2.2822232942E+001 -2.3899222185E+001
10777500000.000 -7.7185879850E+000 -1.3088332175E+002 -4.4783439669E+001 -1.2776650762E+002 -8.8541635265E+001 +1.1462388901E+002 -2.2211493833E+001 -5.7131180087E+000
10910000000.000 -7.6443118687E+000 -1.3110819219E+002 -4.4842299173E+001 -1.6155071837E+002 -8.4654549100E+001 -5.8513891492E+001 -2.2780598483E+001 +4.5171473867E+000
11042500000.000 -7.5598173733E+000 -1.3131160763E+002 -4.4779527737E+001 +1.6426443134E+002 -8.3484798568E+001 -2.4353192609E+001 -2.3441591806E+001 +2.7664816056E+001
11175000000.000 -7.4694713424E+000 -1.3126638470E+002 -4.4804232823E+001 +1.2981864718E+002 -1.0024340952E+002 +1.4985317982E+002 -2.2274118197E+001 +4.2876005080E+001
11307500000.000 -7.4112044867E+000 -1.3130156057E+002 -4.4799396435E+001 +9.5842390417E+001 -9.1830843864E+001 -1.7410200519E+002 -2.2742604977E+001 +5.3427124314E+001
11440000000.000 -7.3171083357E+000 -1.3145652677E+002 -4.4961674960E+001 +6.2516642113E+001 -8.5170348345E+001 +5.8926046646E+001 -2.2569406897E+001 +7.5911738788E+001
11572500000.000 -7.2481682733E+000 -1.3124484647E+002 -4.4927432101E+001 +2.8615650633E+001 -8.8635694783E+001 -4.2576358032E+001 -2.1168670280E+001 +8.7203399146E+001
11705000000.000 -7.1878333113E+000 -1.3124820153E+002 -4.5018521276E+001 -5.2852331783E+000 -8.5437188647E+001 -1.3349828145E+002 -2.1780669534E+001 +9.7220191975E+001
11837500000.000 -7.1118736965E+000 -1.3133289353E+002 -4.5072515505E+001 -3.9582576525E+001 -8.2533371106E+001 -1.5820980834E+001 -2.1118499545E+001 +1.1941463125E+002
11970000000.000 -7.0920409550E+000 -1.3134967799E+002 -4.4925329295E+001 -7.3823029735E+001 -8.2985577768E+001 +8.3163203639E+001 -1.9823490876E+001 +1.2562033479E+002
12102500000.000 -7.0567835543E+000 -1.3106990933E+002 -4.4872300338E+001 -1.0783768995E+002 -8.5664883454E+001 +1.2139664131E+002 -2.0750933233E+001 +1.3550046804E+002
12235000000.000 -6.9770080618E+000 -1.3148212867E+002 -4.4978670537E+001 -1.4257856463E+002 -8.0643238920E+001 -7.8862713898E+001 -1.9766401315E+001 +1.5471484923E+002
12367500000.000 -6.9726776185E+000 -1.3146729741E+002 -4.5113020808E+001 -1.7619247333E+002 -8.3180656549E+001 +1.1683028353E+001 -1.8864834335E+001 +1.5810777380E+002
12500000000.000 -6.9314730184E+000 -1.3176738701E+002 -4.5067900815E+001 +1.4987644015E+002 -8.2418490083E+001 -1.2838567840E+002 -2.0052241918E+001 +1.6818336664E+002
12632500000.000 -6.8684257429E+000 -1.3170750363E+002 -4.5213874721E+001 +1.1624660229E+002 -8.4731886337E+001 -1.5606348127E+002 -1.9171286070E+001 -1.7287498365E+002
12765000000.000 -6.8348681763E+000 -1.3189157640E+002 -4.5184191020E+001 +8.1239311941E+001 -8.2651109467E+001 +5.3255221082E+001 -1.8515448870E+001 -1.7118310449E+002
12897500000.000 -6.8150482680E+000 -1.3214557821E+002 -4.5244034719E+001 +4.7983446006E+001 -8.5351972517E+001 +1.3126196403E+002 -2.0122506809E+001 -1.5938376335E+002
13030000000.000 -6.7810401650E+000 -1.3223645870E+002 -4.5206179787E+001 +1.4710770085E+001 -8.3954331448E+001 -1.0125449646E+002 -1.8850985480E+001 -1.4144097078E+002
13162500000.000 -6.7261186180E+000 -1.3226463145E+002 -4.5204233454E+001 -2.0451838377E+001 -7.9977028287E+001 -3.3768003247E+001 -1.8646230351E+001 -1.4146461806E+002
13295000000.000 -6.6817337666E+000 -1.3238944098E+002 -4.5270210314E+001 -5.3969126027E+001 -8.2443304265E+001 +1.0732872082E+002 -2.0032636071E+001 -1.2780629086E+002
13427500000.000 -6.6519585620E+000 -1.3275636755E+002 -4.5341073754E+001 -8.8130070491E+001 -8.2593981587E+001 +1.0506282461E+002 -1.8858360666E+001 -1.1414053680E+002
13560000000.000 -6.6479338629E+000 -1.3269090508E+002 -4.5303431678E+001 -1.2360494929E+002 -8.3625049408E+001 -1.6996987349E+002 -1.9054963282E+001 -1.1451842236E+002
13692500000.000 -6.5882909388E+000 -1.3266444358E+002 -4.5207352954E+001 -1.5584224583E+002 -8.3181276050E+001 +6.3328937433E+001 -2.0814409184E+001 -1.0117058194E+002
13825000000.000 -6.5241929326E+000 -1.3296483261E+002 -4.5147073024E+001 +1.7058641906E+002 -8.5195260355E+001 -1.4612636352E+002 -1.9735546949E+001 -8.7646006697E+001
13957500000.000 -6.5101068783E+000 -1.3333196722E+002 -4.5309392500E+001 +1.3706167231E+002 -8.5121846700E+001 -9.2853466907E+001 -2.0406436015E+001 -8.9938160160E+001
14090000000.000 -6.4884877260E+000 -1.3332697731E+002 -4.5279748654E+001 +1.0269996365E+002 -8.6983659505E+001 +1.4602685221E+002 -2.2666874704E+001 -7.2614603048E+001
14222500000.000 -6.4259219078E+000 -1.3314587404E+002 -4.5437223648E+001 +6.8585211848E+001 -9.8295386628E+001 +1.3413638786E+002 -2.1288402702E+001 -5.9254500454E+001
14355000000.000 -6.3529102870E+000 -1.3353923373E+002 -4.5389430768E+001 +3.3660472965E+001 -8.9518156467E+001 +5.2534968989E+001 -2.2519637696E+001 -6.3684473977E+001
14487500000.000 -6.3176957917E+000 -1.3369104141E+002 -4.5219496376E+001 -4.5841624887E-001 -8.3824192246E+001 +3.4237139233E+001 -2.5595403916E+001 -4.0232203005E+001
14620000000.000 -6.2921817786E+000 -1.3349836987E+002 -4.5461250852E+001 -3.3879056305E+001 -8.0666254514E+001 -1.4366662098E+002 -2.3287021876E+001 -2.7193693228E+001
14752500000.000 -6.1938566277E+000 -1.3335376890E+002 -4.5436645372E+001 -6.8652545174E+001 -8.1285043849E+001 -1.0494321381E+002 -2.5370273871E+001 -3.6754707577E+001
14885000000.000 -6.1387652149E+000 -1.3340179506E+002 -4.5467856904E+001 -1.0191427258E+002 -1.0087374978E+002 -5.9729970892E+001 -2.9022768457E+001 +2.4341537438E+000
15017500000.000 -6.1144211616E+000 -1.3330374144E+002 -4.5758410179E+001 -1.3636002358E+002 -8.8676536837E+001 +1.5583448873E+002 -2.5382766024E+001 +9.4499686551E+000
15150000000.000 -6.0553579772E+000 -1.3300846740E+002 -4.5649013163E+001 -1.6993045555E+002 -8.3623031615E+001 -1.1763852868E+002 -2.9092499866E+001 -2.7622919646E+000
15282500000.000 -6.0141047211E+000 -1.3285101021E+002 -4.5518540975E+001 +1.5475317314E+002 -8.0740790460E+001 +1.7008051558E+001 -3.1303633531E+001 +5.8249787025E+001
