!  2-Port S-parameters saved by WinCal
! VAR MeasName=S-Parameters (CALIBRATED_DATA) read from VNA (C)
! VAR MeasDate=10/16/2015 12:53:59 PM
! VAR NAME=M6082_13_15_2_2_20C_12.9mA_-17.5dBm
! VAR FILENAME=M6082_13_15_2_2_20C_12.9mA_-17.5dBm.S2P
! VAR DATE=10/16/2015 12:53:59 PM
! VAR PHYS_PORTS=2,1
! VAR ObjTypeName=DATASET
! VAR IndexType=Frequency
!
# Hz S DB R 50
45000000.000 -2.0269332656E+001 +1.7993687412E+002 -4.3327641333E+001 +9.1452878658E+001 -5.5878124937E+001 -1.4336212630E+002 -3.0468713934E+001 +2.1908228242E+000
177500000.000 -2.0363827739E+001 -1.7777042255E+002 -4.4352681453E+001 +7.0407754112E+001 -8.5850813422E+001 +7.9766856529E+001 -3.2822460351E+001 +4.6058594860E+001
310000000.000 -2.0399771411E+001 -1.7567729836E+002 -4.4194853480E+001 +3.9253887547E+001 -7.3810320993E+001 -1.1711925852E+002 -2.3334792434E+001 +6.4730820827E+001
442500000.000 -2.0400477552E+001 -1.7331530119E+002 -4.3200591630E+001 +1.0110783492E+000 -7.9330625204E+001 -1.3354690848E+001 -2.2372768411E+001 +1.7209581801E+001
575000000.000 -2.0344101798E+001 -1.7078478746E+002 -4.3946765872E+001 -3.4133494894E+001 -1.0754464055E+002 -1.2367639796E+002 -3.0619701597E+001 +2.2326234803E+001
707500000.000 -2.0273650095E+001 -1.6878119429E+002 -4.4085835436E+001 -6.8158393783E+001 -8.6886143021E+001 -1.4358427476E+002 -3.4530422169E+001 +8.3632162059E+001
840000000.000 -2.0223095111E+001 -1.6620796497E+002 -4.4161773562E+001 -1.0306041659E+002 -8.8788581837E+001 -1.4245727065E+002 -2.9688125636E+001 +1.2740800498E+002
972500000.000 -2.0165632247E+001 -1.6379174617E+002 -4.4323058222E+001 -1.3674330863E+002 -9.1179896466E+001 +1.1492499312E+002 -2.5955435030E+001 +1.3540649854E+002
1105000000.000 -2.0014587321E+001 -1.6147227915E+002 -4.4203920709E+001 -1.6954468488E+002 -9.5008359527E+001 +1.7752727740E+002 -2.4361880336E+001 +1.4083624464E+002
1237500000.000 -1.9891239083E+001 -1.5949574374E+002 -4.4235498352E+001 +1.5636005006E+002 -8.7237944695E+001 -8.7187257766E+001 -2.3396703436E+001 +1.5003886991E+002
1370000000.000 -1.9732749840E+001 -1.5760153509E+002 -4.4419804436E+001 +1.2283106706E+002 -8.6754286059E+001 +1.1136450982E+002 -2.2077861486E+001 +1.5998012741E+002
1502500000.000 -1.9597277704E+001 -1.5567606568E+002 -4.4509225793E+001 +8.8608640600E+001 -8.3363181080E+001 -1.3610931399E+002 -2.0871445959E+001 +1.6640915479E+002
1635000000.000 -1.9453882078E+001 -1.5339639734E+002 -4.4446426982E+001 +5.4718002334E+001 -9.1844891096E+001 +1.7414696712E+002 -2.0028718084E+001 +1.7332949313E+002
1767500000.000 -1.9253267660E+001 -1.5163540087E+002 -4.4368227568E+001 +2.0282420911E+001 -8.2514413952E+001 +8.5899554857E+001 -1.9029566791E+001 +1.7849672921E+002
1900000000.000 -1.9129614151E+001 -1.5007461535E+002 -4.4430287828E+001 -1.3906579027E+001 -8.8031869689E+001 +1.4689424320E+002 -1.8881825050E+001 -1.7824718312E+002
2032500000.000 -1.8955466906E+001 -1.4853469676E+002 -4.4499927435E+001 -4.7580840430E+001 -7.8939249143E+001 -9.6337479796E+001 -1.8692114822E+001 -1.6788843471E+002
2165000000.000 -1.8781823624E+001 -1.4652752968E+002 -4.4626601576E+001 -8.2433958080E+001 -8.9422292921E+001 +4.5277986344E+001 -1.7756812339E+001 -1.6097940203E+002
2297500000.000 -1.8623254406E+001 -1.4521259307E+002 -4.4549898265E+001 -1.1529516075E+002 -8.4957854988E+001 +8.9739368987E+001 -1.7254930938E+001 -1.5705164435E+002
2430000000.000 -1.8461036418E+001 -1.4380127914E+002 -4.4673100272E+001 -1.5007143716E+002 -7.4645784127E+001 -1.1832260830E+002 -1.6943220658E+001 -1.5287395789E+002
2562500000.000 -1.8253674532E+001 -1.4247762012E+002 -4.4656597475E+001 +1.7591022412E+002 -7.4254842950E+001 +6.2584600941E+001 -1.6846431980E+001 -1.5040408061E+002
2695000000.000 -1.8038057363E+001 -1.4192298553E+002 -4.4683463266E+001 +1.4221704910E+002 -7.9746702528E+001 +1.3268618873E+002 -1.7385835274E+001 -1.4717360674E+002
2827500000.000 -1.7895802065E+001 -1.4134233499E+002 -4.4812044479E+001 +1.0953405326E+002 -7.0749671214E+001 -1.1714948024E+002 -1.7859658171E+001 -1.4025107899E+002
2960000000.000 -1.7742118978E+001 -1.4017910808E+002 -4.4891744982E+001 +7.5052510641E+001 -8.5069211242E+001 +6.1450609722E+001 -1.8147280522E+001 -1.3540206028E+002
3092500000.000 -1.7483100567E+001 -1.3912954230E+002 -4.4888760067E+001 +3.9914273543E+001 -8.0241498263E+001 +1.1588586486E+002 -1.9089277643E+001 -1.2932250235E+002
3225000000.000 -1.7234371956E+001 -1.3870520847E+002 -4.4745393921E+001 +7.7160807700E+000 -7.4296296913E+001 -6.1484238759E+001 -1.9584343346E+001 -1.1972446531E+002
3357500000.000 -1.7078969093E+001 -1.3846241820E+002 -4.4821277511E+001 -2.6617199187E+001 -7.8797942021E+001 +1.2628796724E+001 -1.9959479552E+001 -1.1424500502E+002
3490000000.000 -1.6876953782E+001 -1.3724542553E+002 -4.4819523141E+001 -5.9116218724E+001 -8.4484906829E+001 +1.5362771506E+002 -2.1136045839E+001 -1.0848378895E+002
3622500000.000 -1.6627487567E+001 -1.3621914280E+002 -4.4760983807E+001 -9.4272008747E+001 -7.9863366844E+001 +8.5237579730E+001 -2.1959665807E+001 -9.8159152096E+001
3755000000.000 -1.6368802062E+001 -1.3566541920E+002 -4.4714093923E+001 -1.2719568408E+002 -7.7222496285E+001 +4.7803782787E+000 -2.2721900620E+001 -9.4579643863E+001
3887500000.000 -1.6188642521E+001 -1.3506377932E+002 -4.4800621849E+001 -1.6325823293E+002 -8.2344526882E+001 +1.2833254958E+002 -2.5040630940E+001 -8.7869364737E+001
4020000000.000 -1.6021046918E+001 -1.3440468728E+002 -4.4688641356E+001 +1.6490870700E+002 -8.0204853845E+001 -1.2286390655E+002 -2.6666164624E+001 -7.3175602835E+001
4152500000.000 -1.5805819227E+001 -1.3345977734E+002 -4.4619771963E+001 +1.3073117679E+002 -8.2153946836E+001 -3.9290946415E+001 -2.8887675967E+001 -6.4458877259E+001
4285000000.000 -1.5596594792E+001 -1.3291900773E+002 -4.4701569005E+001 +9.6681041171E+001 -9.1696364339E+001 +7.2452502297E+001 -3.3324688251E+001 -3.7547427843E+001
4417500000.000 -1.5404216408E+001 -1.3260378385E+002 -4.4824758865E+001 +6.1934655098E+001 -8.6046177316E+001 -7.3947275167E+001 -3.1743411942E+001 +8.1011302481E+000
4550000000.000 -1.5269993253E+001 -1.3192520145E+002 -4.4990392287E+001 +2.8326557789E+001 -8.6531952173E+001 -1.4805508902E+002 -3.0286507802E+001 +1.8307882348E+001
4682500000.000 -1.5068810451E+001 -1.3112509001E+002 -4.5008396042E+001 -4.6786295830E+000 -8.1269427377E+001 +1.1712848939E+002 -2.9645821211E+001 +3.9046865990E+001
4815000000.000 -1.4863296993E+001 -1.3071152917E+002 -4.5113522546E+001 -3.8449174260E+001 -8.6932051190E+001 +1.6375079480E+002 -2.7639664173E+001 +4.1356990114E+001
4947500000.000 -1.4733852258E+001 -1.3021367944E+002 -4.4995872552E+001 -7.0844822132E+001 -8.2498449203E+001 -8.8343510445E+001 -2.9371699313E+001 +3.5878119494E+001
5080000000.000 -1.4595068569E+001 -1.2943186973E+002 -4.4912266858E+001 -1.0497122796E+002 -8.0071946941E+001 +3.1069318365E+001 -3.2248395760E+001 +5.7321933650E+001
5212500000.000 -1.4414822058E+001 -1.2886222288E+002 -4.4903429722E+001 -1.3833134807E+002 -8.6933943970E+001 +7.2620090380E+001 -3.1577611195E+001 +7.0018486734E+001
5345000000.000 -1.4270059468E+001 -1.2869722187E+002 -4.4824502849E+001 -1.7250352124E+002 -1.1358246614E+002 +9.0258073000E+001 -3.5337260323E+001 +7.1666066198E+001
5477500000.000 -1.4198371226E+001 -1.2804719602E+002 -4.4706848883E+001 +1.5377630369E+002 -8.9504786649E+001 -7.0115368020E+000 -3.7201840303E+001 +1.3225251584E+002
5610000000.000 -1.4051328287E+001 -1.2737590479E+002 -4.4681951448E+001 +1.1917060940E+002 -8.5656415114E+001 +1.0563641234E+002 -3.3612060623E+001 +1.3607044376E+002
5742500000.000 -1.3908902316E+001 -1.2732431369E+002 -4.4627064420E+001 +8.4410742080E+001 -9.5518831602E+001 -3.2763265245E+001 -3.7708586016E+001 +1.5310834699E+002
5875000000.000 -1.3845410435E+001 -1.2739590344E+002 -4.4543708265E+001 +5.0993906547E+001 -8.5993687626E+001 -5.4344333630E+001 -3.3719833847E+001 -1.7027219743E+002
6007500000.000 -1.3770854348E+001 -1.2693433867E+002 -4.4746900218E+001 +1.7069422919E+001 -8.4556111608E+001 +3.3370480035E+001 -3.2649808456E+001 +1.7964600849E+002
6140000000.000 -1.3607907657E+001 -1.2652268521E+002 -4.4748463368E+001 -1.7465520355E+001 -8.6017089929E+001 +1.1412929538E+002 -3.6126925802E+001 -1.6942386295E+002
6272500000.000 -1.3444778775E+001 -1.2689003849E+002 -4.4794015764E+001 -5.1971882862E+001 -8.4350540444E+001 -4.5291395280E+001 -3.3846623906E+001 -1.4414829018E+002
6405000000.000 -1.3390543575E+001 -1.2725141998E+002 -4.4639385131E+001 -8.5859923829E+001 -1.0190283976E+002 -9.6139919229E+001 -3.3786127014E+001 -1.6187176812E+002
6537500000.000 -1.3304307281E+001 -1.2669598659E+002 -4.4644591918E+001 -1.2001154760E+002 -8.3196610672E+001 +1.7798882403E+002 -4.0109552855E+001 -1.6016415816E+002
6670000000.000 -1.3097051899E+001 -1.2632294256E+002 -4.4826790052E+001 -1.5391203876E+002 -8.9872607272E+001 -6.8738043310E+001 -3.9374040247E+001 -1.3689675626E+002
6802500000.000 -1.2922426502E+001 -1.2683854681E+002 -4.4930794925E+001 +1.7211153551E+002 -8.9923815085E+001 +1.1519524780E+002 -3.8851189768E+001 +1.7989707499E+002
6935000000.000 -1.2876802362E+001 -1.2713864230E+002 -4.4871328324E+001 +1.3846485057E+002 -9.1005176399E+001 +1.6763002947E+002 -3.8635135302E+001 +1.2314934964E+002
7067500000.000 -1.2783772350E+001 -1.2650459496E+002 -4.4909264040E+001 +1.0398027122E+002 -9.2947387756E+001 -1.0157848850E+002 -3.9001595420E+001 +1.1466304686E+002
7200000000.000 -1.2575765884E+001 -1.2633881095E+002 -4.4676887714E+001 +6.9884718674E+001 -8.4482577349E+001 +9.1951148477E+001 -3.2901697548E+001 +1.3160047136E+002
7332500000.000 -1.2425052745E+001 -1.2679716179E+002 -4.4997302901E+001 +3.6524085296E+001 -9.2770841459E+001 +8.0178543860E+001 -2.9108967853E+001 +1.1911700854E+002
7465000000.000 -1.2349903520E+001 -1.2676735027E+002 -4.5183060661E+001 +1.8784058876E+000 -8.3490136656E+001 -1.7079884556E+002 -2.8665203872E+001 +1.2243198403E+002
7597500000.000 -1.2207633910E+001 -1.2635550285E+002 -4.4979086998E+001 -3.1546856190E+001 -8.6339772283E+001 +1.0142138355E+000 -2.6129736860E+001 +1.3753618779E+002
7730000000.000 -1.2027430842E+001 -1.2623966600E+002 -4.4874950519E+001 -6.5896500082E+001 -8.3521614644E+001 +1.5071854684E+002 -2.3742148513E+001 +1.3779383193E+002
7862500000.000 -1.1912183830E+001 -1.2621799552E+002 -4.4982061827E+001 -9.9062988294E+001 -9.3581659029E+001 +8.4125329033E+001 -2.3293975399E+001 +1.4157909734E+002
7995000000.000 -1.1833300477E+001 -1.2594491072E+002 -4.4878228802E+001 -1.3302973573E+002 -8.8827228933E+001 -3.3928863300E+001 -2.1839596835E+001 +1.5427697571E+002
8127500000.000 -1.1666949019E+001 -1.2539458028E+002 -4.5085448102E+001 -1.6659386510E+002 -7.8817765700E+001 +9.2102810812E+000 -2.0025699066E+001 +1.5643325746E+002
8260000000.000 -1.1533649683E+001 -1.2548073538E+002 -4.5115975555E+001 +1.5909876374E+002 -9.0717699351E+001 -1.1531418237E+002 -1.9874881077E+001 +1.6019690738E+002
8392500000.000 -1.1461820567E+001 -1.2515510060E+002 -4.5121469544E+001 +1.2542914529E+002 -8.1241883231E+001 -1.0718112229E+002 -1.9073394498E+001 +1.7046953277E+002
8525000000.000 -1.1376329501E+001 -1.2469187553E+002 -4.4927564459E+001 +9.1154000050E+001 -8.2286856840E+001 +1.4172310500E+001 -1.8209178525E+001 +1.7296277833E+002
8657500000.000 -1.1256078971E+001 -1.2434932869E+002 -4.4886809256E+001 +5.7417916706E+001 -8.9949441101E+001 -2.7354346068E+001 -1.8575106996E+001 +1.7795723979E+002
8790000000.000 -1.1144654091E+001 -1.2424950452E+002 -4.5033803271E+001 +2.3676994223E+001 -9.8442866726E+001 +1.1798144388E+002 -1.8352828304E+001 -1.7170803620E+002
8922500000.000 -1.1109247667E+001 -1.2415356757E+002 -4.4896423357E+001 -9.6714731706E+000 -8.4630047724E+001 -1.6305380605E+001 -1.7987345347E+001 -1.6599024556E+002
9055000000.000 -1.1024081096E+001 -1.2381257533E+002 -4.4979191579E+001 -4.4876621314E+001 -9.2167336942E+001 +1.3518529374E+002 -1.8459850988E+001 -1.5837908814E+002
9187500000.000 -1.0943258305E+001 -1.2371314550E+002 -4.4859873950E+001 -7.8289725525E+001 -9.6866171800E+001 +4.8447861359E+001 -1.8380367565E+001 -1.4630741712E+002
9320000000.000 -1.0866426131E+001 -1.2408232996E+002 -4.5119762340E+001 -1.1240009589E+002 -9.9958016516E+001 +5.8611844794E+001 -1.8211529731E+001 -1.3965050879E+002
9452500000.000 -1.0824923802E+001 -1.2400035708E+002 -4.5067017612E+001 -1.4630042708E+002 -9.9187094789E+001 -1.1048836479E+002 -1.8858442238E+001 -1.3049216194E+002
9585000000.000 -1.0747045311E+001 -1.2390984344E+002 -4.4973164819E+001 +1.7920323387E+002 -8.4338472098E+001 -1.5686214157E+002 -1.8798335553E+001 -1.1817056116E+002
9717500000.000 -1.0605864956E+001 -1.2413034658E+002 -4.4980771869E+001 +1.4590792475E+002 -8.5477072872E+001 -1.2047926843E+002 -1.8818888632E+001 -1.1109038155E+002
9850000000.000 -1.0560898850E+001 -1.2467081311E+002 -4.4992688265E+001 +1.1172794358E+002 -8.4491856640E+001 +8.9303684790E+001 -1.9653216623E+001 -1.0051541580E+002
9982500000.000 -1.0505588381E+001 -1.2438944575E+002 -4.4995627266E+001 +7.7682926809E+001 -8.2821666586E+001 -1.5136856030E+002 -1.9693973475E+001 -8.6370492002E+001
10115000000.000 -1.0394622529E+001 -1.2437896234E+002 -4.5169715797E+001 +4.4271317134E+001 -8.7525332743E+001 -7.5442340549E+001 -1.9921336939E+001 -7.9058353324E+001
10247500000.000 -1.0280523873E+001 -1.2484956001E+002 -4.5102468799E+001 +9.9084494747E+000 -9.1097409369E+001 +1.2539812281E+002 -2.1150149006E+001 -6.5841425245E+001
10380000000.000 -1.0225756895E+001 -1.2497923522E+002 -4.5195147415E+001 -2.3874200818E+001 -8.6275273679E+001 +1.4370421469E+002 -2.1050333392E+001 -4.9758282464E+001
10512500000.000 -1.0144591987E+001 -1.2502495198E+002 -4.5095059598E+001 -5.7761622685E+001 -7.8898540103E+001 -1.0359526634E+002 -2.1521681183E+001 -4.1814551996E+001
10645000000.000 -1.0057286220E+001 -1.2509575525E+002 -4.5128962570E+001 -9.2106039573E+001 -8.2203198050E+001 +3.5389308077E+001 -2.2836673475E+001 -2.3683158650E+001
10777500000.000 -9.9566564728E+000 -1.2526425959E+002 -4.5083380804E+001 -1.2620571098E+002 -8.6244362494E+001 -1.5258572752E+002 -2.2190382355E+001 -5.7189889436E+000
10910000000.000 -9.8651418401E+000 -1.2537313159E+002 -4.5149926858E+001 -1.6019172905E+002 -8.2048185579E+001 +1.1995535410E+002 -2.2790488632E+001 +4.4557979399E+000
11042500000.000 -9.7636429731E+000 -1.2555738157E+002 -4.5204056838E+001 +1.6561150192E+002 -8.1059915334E+001 +3.4445182980E+001 -2.3468426197E+001 +2.7831460669E+001
11175000000.000 -9.6592492504E+000 -1.2548638014E+002 -4.5271778776E+001 +1.3152238941E+002 -9.6015239587E+001 -1.4086875791E+002 -2.2250732525E+001 +4.2937830031E+001
11307500000.000 -9.5956150789E+000 -1.2541834563E+002 -4.5131338648E+001 +9.7548685374E+001 -8.9238963529E+001 -8.3210148269E+001 -2.2737480103E+001 +5.3416764578E+001
11440000000.000 -9.4894160464E+000 -1.2556949682E+002 -4.5196345254E+001 +6.3743865880E+001 -9.8591185887E+001 +1.0060545687E+001 -2.2575124643E+001 +7.6062869276E+001
11572500000.000 -9.4012403997E+000 -1.2526409716E+002 -4.5117151679E+001 +2.9641962721E+001 -8.3125569778E+001 +7.9130994019E+001 -2.1155200736E+001 +8.7280220226E+001
11705000000.000 -9.3305621431E+000 -1.2523358377E+002 -4.5005025150E+001 -4.0430161502E+000 -8.9397407544E+001 -1.4739067545E+002 -2.1771291706E+001 +9.7217762311E+001
11837500000.000 -9.2407667597E+000 -1.2529502031E+002 -4.5252492516E+001 -3.8688319638E+001 -9.0329029302E+001 -1.3747201755E+001 -2.1127467061E+001 +1.1945657901E+002
11970000000.000 -9.2102289957E+000 -1.2522074713E+002 -4.4972219627E+001 -7.2607262493E+001 -8.8331973190E+001 -1.2311390512E+000 -1.9811717897E+001 +1.2573583594E+002
12102500000.000 -9.1614680507E+000 -1.2478040867E+002 -4.5179813313E+001 -1.0637428523E+002 -8.0674477845E+001 -1.3481404954E+002 -2.0736931425E+001 +1.3564435056E+002
12235000000.000 -9.0740322525E+000 -1.2524243366E+002 -4.5201050232E+001 -1.4108859807E+002 -8.3742175707E+001 -1.6182570660E+002 -1.9751433126E+001 +1.5474970000E+002
12367500000.000 -9.0734002754E+000 -1.2505410989E+002 -4.5250875463E+001 -1.7462379245E+002 -8.8320092285E+001 -3.7054580341E+001 -1.8874165320E+001 +1.5806025805E+002
12500000000.000 -9.0238555910E+000 -1.2530272850E+002 -4.5213919169E+001 +1.5113281258E+002 -7.7733679182E+001 +1.2606484847E+002 -2.0059009354E+001 +1.6839875970E+002
12632500000.000 -8.9475129164E+000 -1.2514591399E+002 -4.5370570814E+001 +1.1704915589E+002 -8.8353784378E+001 -5.7006917618E+001 -1.9161946810E+001 -1.7281467362E+002
12765000000.000 -8.9212905806E+000 -1.2527227558E+002 -4.5449165807E+001 +8.2480581842E+001 -1.0110457060E+002 +5.5256940310E+001 -1.8517936997E+001 -1.7120480066E+002
12897500000.000 -8.9039711575E+000 -1.2549631800E+002 -4.5273361173E+001 +4.8972078411E+001 -8.7252255587E+001 +1.4844357728E+002 -2.0144936396E+001 -1.5916640926E+002
13030000000.000 -8.8707110584E+000 -1.2551905236E+002 -4.5259217952E+001 +1.5313508056E+001 -8.1983408576E+001 -1.1913145030E+002 -1.8834419838E+001 -1.4129810640E+002
13162500000.000 -8.8059257079E+000 -1.2555560461E+002 -4.5448226603E+001 -1.8536056538E+001 -1.1026659969E+002 -7.6362564294E+001 -1.8652536359E+001 -1.4153193595E+002
13295000000.000 -8.7486750778E+000 -1.2568682869E+002 -4.5359037972E+001 -5.3050100169E+001 -9.3583756195E+001 -7.7279574798E+001 -2.0066477445E+001 -1.2760377494E+002
13427500000.000 -8.7190887639E+000 -1.2613559069E+002 -4.5506701715E+001 -8.6707181730E+001 -9.0552999099E+001 -1.7611259560E+002 -1.8851060433E+001 -1.1396171128E+002
13560000000.000 -8.7151687435E+000 -1.2605770262E+002 -4.5344329156E+001 -1.2012326545E+002 -8.7495866898E+001 -1.4055717447E+002 -1.9054381149E+001 -1.1463522174E+002
13692500000.000 -8.6289929470E+000 -1.2591176722E+002 -4.5259310922E+001 -1.5408750997E+002 -8.0925750859E+001 +1.2407401377E+002 -2.0861054551E+001 -1.0114048604E+002
13825000000.000 -8.5433105550E+000 -1.2626439495E+002 -4.5310738202E+001 +1.7176913460E+002 -7.8160665680E+001 -1.7161441338E+002 -1.9732811899E+001 -8.7377323784E+001
13957500000.000 -8.5313289077E+000 -1.2663877339E+002 -4.5455227559E+001 +1.3669814797E+002 -8.4594367631E+001 -1.3184141140E+002 -2.0400193232E+001 -9.0013732311E+001
14090000000.000 -8.5013735605E+000 -1.2647484725E+002 -4.5305937740E+001 +1.0431514639E+002 -8.3318217534E+001 +4.7393493294E+001 -2.2683258373E+001 -7.2512080410E+001
14222500000.000 -8.4138565735E+000 -1.2618536421E+002 -4.5399872440E+001 +6.8315259280E+001 -8.6701326058E+001 +1.5759801703E+002 -2.1301582001E+001 -5.9122894870E+001
14355000000.000 -8.3412252312E+000 -1.2660723197E+002 -4.5542446352E+001 +3.5067856137E+001 -8.0503684274E+001 -7.1887637391E+001 -2.2534378883E+001 -6.3518701130E+001
14487500000.000 -8.3069321181E+000 -1.2670882450E+002 -4.5355911592E+001 +6.3018260457E-001 -7.9898735304E+001 -1.3878291609E+002 -2.5587937811E+001 -4.0190567120E+001
14620000000.000 -8.2694886476E+000 -1.2644357269E+002 -4.5376827935E+001 -3.3395253333E+001 -8.2535604921E+001 +1.7050807704E+002 -2.3307092356E+001 -2.7236631352E+001
14752500000.000 -8.1430849624E+000 -1.2639570325E+002 -4.5538998992E+001 -6.7807412298E+001 -8.8383889606E+001 -1.3693403592E+002 -2.5406380777E+001 -3.6478490712E+001
14885000000.000 -8.0870140090E+000 -1.2651809483E+002 -4.5576024283E+001 -1.0324170898E+002 -8.2503152547E+001 +3.4045827147E+000 -2.8975910916E+001 +2.5932177858E+000
15017500000.000 -8.0661038610E+000 -1.2638041387E+002 -4.5527512313E+001 -1.3683378086E+002 -8.3576495622E+001 +1.7794723194E+002 -2.5426417855E+001 +9.2931987256E+000
15150000000.000 -7.9761706426E+000 -1.2599822973E+002 -4.5697802806E+001 -1.7072506532E+002 -7.8164554909E+001 -1.7875583744E+002 -2.9156495555E+001 -2.3432529271E+000
15282500000.000 -7.9130649042E+000 -1.2584754290E+002 -4.5788949789E+001 +1.5610314530E+002 -7.6086201760E+001 +7.6203497619E+000 -3.1151137547E+001 +5.8156890027E+001
