!  2-Port S-parameters saved by WinCal
! VAR MeasName=S-Parameters (CALIBRATED_DATA) read from VNA (C)
! VAR MeasDate=10/16/2015 2:41:28 PM
! VAR NAME=M6082_10_13_2_2_20C_10.4mA_-17.5dBm
! VAR FILENAME=M6082_10_13_2_2_20C_10.4mA_-17.5dBm.S2P
! VAR DATE=10/16/2015 2:41:28 PM
! VAR PHYS_PORTS=2,1
! VAR ObjTypeName=DATASET
! VAR IndexType=Frequency
!
# Hz S DB R 50
45000000.000 -1.9419359324E+001 -1.7959521960E+002 -4.1369264523E+001 +1.0769958496E+002 -7.3183815482E+001 -1.4067496434E+002 -3.0885602346E+001 +7.6668407288E+000
177500000.000 -1.9498347128E+001 -1.7761860782E+002 -4.2682867506E+001 +6.6289875430E+001 -8.5968543962E+001 +9.8786328050E+001 -3.2740579279E+001 +4.6434021929E+001
310000000.000 -1.9546634365E+001 -1.7481496193E+002 -4.3048263216E+001 +3.9304970283E+001 -7.9600408741E+001 -8.5888967165E+001 -2.3337672251E+001 +6.4778632308E+001
442500000.000 -1.9544139766E+001 -1.7183646201E+002 -4.1972675988E+001 +5.4516780469E-001 -8.0834497038E+001 +4.8702671242E+001 -2.2374250164E+001 +1.7332945773E+001
575000000.000 -1.9454593296E+001 -1.6860472574E+002 -4.2557267403E+001 -3.4673698565E+001 -8.1775366852E+001 -6.4587314920E+001 -3.0615822716E+001 +2.2524410357E+001
707500000.000 -1.9368089301E+001 -1.6605740841E+002 -4.2585349478E+001 -6.8620141666E+001 -8.4111238884E+001 -1.1672365023E+002 -3.4531441966E+001 +8.3719286712E+001
840000000.000 -1.9259324484E+001 -1.6289417231E+002 -4.2773477185E+001 -1.0253920685E+002 -9.6082526220E+001 -5.7812793615E+000 -2.9667640777E+001 +1.2727768043E+002
972500000.000 -1.9127171725E+001 -1.6002027110E+002 -4.2841922051E+001 -1.3588029105E+002 -8.5947538463E+001 +1.0265091263E+001 -2.5952298909E+001 +1.3527447788E+002
1105000000.000 -1.8921705045E+001 -1.5726326597E+002 -4.2784042080E+001 -1.7035913575E+002 -7.7923937667E+001 +1.7779443056E+002 -2.4368469240E+001 +1.4083812003E+002
1237500000.000 -1.8726120239E+001 -1.5487432326E+002 -4.2787635297E+001 +1.5537044410E+002 -8.5696885349E+001 -1.0367013311E+001 -2.3383986291E+001 +1.4991951179E+002
1370000000.000 -1.8495461779E+001 -1.5267951071E+002 -4.2857803311E+001 +1.2188183780E+002 -8.7216365199E+001 -1.6607782039E+002 -2.2082178693E+001 +1.5999339896E+002
1502500000.000 -1.8289008141E+001 -1.5048375650E+002 -4.2922131252E+001 +8.7622256059E+001 -8.8057910004E+001 +1.3556103187E+002 -2.0859394992E+001 +1.6638863879E+002
1635000000.000 -1.8063364076E+001 -1.4801704741E+002 -4.2953513598E+001 +5.3712422025E+001 -8.2994989873E+001 -3.1007681531E+001 -2.0031536551E+001 +1.7328093624E+002
1767500000.000 -1.7784444075E+001 -1.4620236797E+002 -4.2920046634E+001 +1.9523286543E+001 -9.7862686211E+001 +1.4317599571E+002 -1.9021011826E+001 +1.7850602287E+002
1900000000.000 -1.7579838372E+001 -1.4449424250E+002 -4.2857298973E+001 -1.5916715683E+001 -8.3301807153E+001 +1.5193476612E+002 -1.8873085121E+001 -1.7824702589E+002
2032500000.000 -1.7344725906E+001 -1.4293626105E+002 -4.3002205560E+001 -4.8796826093E+001 -8.4732973558E+001 -4.3997927130E+001 -1.8696316335E+001 -1.6789210515E+002
2165000000.000 -1.7089331634E+001 -1.4099911168E+002 -4.3169205728E+001 -8.3073146953E+001 -8.2533875095E+001 +9.6834035200E+001 -1.7745789863E+001 -1.6096521499E+002
2297500000.000 -1.6855015768E+001 -1.3973987240E+002 -4.3181381060E+001 -1.1570502256E+002 -7.6098944215E+001 -1.6531356708E+002 -1.7244139784E+001 -1.5707139460E+002
2430000000.000 -1.6612629612E+001 -1.3846256371E+002 -4.3266239867E+001 -1.5215175788E+002 -8.3280709463E+001 -1.4744832107E+002 -1.6951049789E+001 -1.5281289615E+002
2562500000.000 -1.6352447715E+001 -1.3707313637E+002 -4.3074431832E+001 +1.7493331576E+002 -8.9003548042E+001 +1.2960677135E+002 -1.6835972978E+001 -1.5041181133E+002
2695000000.000 -1.6086737498E+001 -1.3655933388E+002 -4.3192735866E+001 +1.4139133822E+002 -8.2901671488E+001 -7.2395585234E+001 -1.7383626105E+001 -1.4712718343E+002
2827500000.000 -1.5889918298E+001 -1.3598312939E+002 -4.3190862704E+001 +1.0709939357E+002 -8.2862295284E+001 -4.3863656969E+001 -1.7855169836E+001 -1.4030898228E+002
2960000000.000 -1.5682619445E+001 -1.3495769310E+002 -4.3349841834E+001 +7.3722920667E+001 -8.2410668258E+001 +3.6605362548E+001 -1.8164991148E+001 -1.3548796326E+002
3092500000.000 -1.5382172976E+001 -1.3415081195E+002 -4.3290104464E+001 +3.9795608608E+001 -8.0162762024E+001 +8.7347962574E+001 -1.9090912327E+001 -1.2934660775E+002
3225000000.000 -1.5102828072E+001 -1.3381794089E+002 -4.3216499379E+001 +5.4186689770E+000 -8.2229006112E+001 -8.2866428722E+001 -1.9586850022E+001 -1.1977952094E+002
3357500000.000 -1.4925698063E+001 -1.3352289441E+002 -4.3457334070E+001 -2.5922869037E+001 -8.2694581834E+001 -5.2587230682E+001 -1.9973265235E+001 -1.1422863948E+002
3490000000.000 -1.4668239231E+001 -1.3263195605E+002 -4.3320430954E+001 -6.2127605014E+001 -8.8063104234E+001 +1.5578801429E+002 -2.1131025241E+001 -1.0851997602E+002
3622500000.000 -1.4401721130E+001 -1.3194013985E+002 -4.3236529815E+001 -9.5303755764E+001 -7.9324251093E+001 -8.6658933882E+001 -2.1933572682E+001 -9.8184165890E+001
3755000000.000 -1.4126983420E+001 -1.3162615455E+002 -4.3340432547E+001 -1.2849715589E+002 -8.5904633422E+001 -6.6749418466E+001 -2.2712556277E+001 -9.4637635876E+001
3887500000.000 -1.3918548297E+001 -1.3116959123E+002 -4.3355266622E+001 -1.6293185351E+002 -8.8440266812E+001 +1.6238285697E+002 -2.5065118843E+001 -8.7794768041E+001
4020000000.000 -1.3722908361E+001 -1.3077369221E+002 -4.3355530998E+001 +1.6296496017E+002 -7.5906264876E+001 +1.7475949459E+002 -2.6659826663E+001 -7.3257040556E+001
4152500000.000 -1.3490140656E+001 -1.3008992884E+002 -4.3400067717E+001 +1.2840326170E+002 -9.4501457456E+001 +3.8315327518E+001 -2.8906370792E+001 -6.4811363829E+001
4285000000.000 -1.3261346137E+001 -1.2976795549E+002 -4.3487799651E+001 +9.3412604584E+001 -8.8806895556E+001 +5.6822719395E+001 -3.3377445225E+001 -3.7519944226E+001
4417500000.000 -1.3052261520E+001 -1.2961794187E+002 -4.3376771193E+001 +6.1074966574E+001 -8.2453245964E+001 -1.7371952162E+002 -3.1719266085E+001 +8.0976364470E+000
4550000000.000 -1.2886365589E+001 -1.2919977613E+002 -4.3577979196E+001 +2.7135047855E+001 -8.7547649193E+001 -1.6998921941E+002 -3.0301684269E+001 +1.8341038093E+001
4682500000.000 -1.2676988171E+001 -1.2867626175E+002 -4.3671720443E+001 -6.5540660189E+000 -8.9892530344E+001 +1.1013703367E+002 -2.9678542964E+001 +3.8930782039E+001
4815000000.000 -1.2464641449E+001 -1.2846254684E+002 -4.3760854485E+001 -3.9693386260E+001 -8.8570549260E+001 -6.1183687846E+001 -2.7632102881E+001 +4.1349910539E+001
4947500000.000 -1.2309632826E+001 -1.2820381979E+002 -4.3642963725E+001 -7.2965404423E+001 -8.4303932584E+001 -8.7185705282E+001 -2.9373970576E+001 +3.5700653343E+001
5080000000.000 -1.2150685911E+001 -1.2769436784E+002 -4.3594090360E+001 -1.0592581294E+002 -8.5656830271E+001 +2.6415841371E+001 -3.2232005631E+001 +5.7096301830E+001
5212500000.000 -1.1962998223E+001 -1.2738802882E+002 -4.3472281763E+001 -1.4047563997E+002 -9.1581519055E+001 +5.9703198310E+001 -3.1554511213E+001 +6.9415171928E+001
5345000000.000 -1.1808872962E+001 -1.2737210600E+002 -4.3394971162E+001 -1.7423716436E+002 -8.5878101608E+001 +1.4410693144E+002 -3.5257438639E+001 +7.1118641188E+001
5477500000.000 -1.1710751335E+001 -1.2697055643E+002 -4.3328592566E+001 +1.5115619505E+002 -8.5358144114E+001 -5.0098459137E+001 -3.7207726895E+001 +1.3156888648E+002
5610000000.000 -1.1547668369E+001 -1.2659930771E+002 -4.3396860103E+001 +1.1689474893E+002 -9.0126851877E+001 +8.3916965518E+001 -3.3654071621E+001 +1.3567178214E+002
5742500000.000 -1.1401726948E+001 -1.2664507697E+002 -4.3421606826E+001 +8.2792326118E+001 -8.6464221316E+001 -1.0379707433E+002 -3.7743830118E+001 +1.5246148359E+002
5875000000.000 -1.1311249267E+001 -1.2685285720E+002 -4.3310242843E+001 +4.8401335340E+001 -9.4688295707E+001 -9.4105623513E+001 -3.3742913877E+001 -1.7071513526E+002
6007500000.000 -1.1209935586E+001 -1.2661534746E+002 -4.3341860948E+001 +1.3625398963E+001 -8.5168291996E+001 +6.7748371430E+001 -3.2706845339E+001 +1.7963187732E+002
6140000000.000 -1.1054366704E+001 -1.2644505986E+002 -4.3369954034E+001 -1.9971580619E+001 -9.1823147617E+001 +2.5361168367E+000 -3.6118102127E+001 -1.6954135987E+002
6272500000.000 -1.0892579372E+001 -1.2683833969E+002 -4.3336298735E+001 -5.4878990244E+001 -8.3067090620E+001 -3.8968953010E+001 -3.3883228316E+001 -1.4458230859E+002
6405000000.000 -1.0813735302E+001 -1.2725397902E+002 -4.3467982915E+001 -8.8826954933E+001 -8.6219026406E+001 +3.9121929732E+001 -3.3813607743E+001 -1.6217026577E+002
6537500000.000 -1.0713189571E+001 -1.2698484560E+002 -4.3539782703E+001 -1.2253906650E+002 -8.2065666416E+001 -1.6606291248E+002 -4.0150376838E+001 -1.6063937555E+002
6670000000.000 -1.0527432849E+001 -1.2681672442E+002 -4.3482569519E+001 -1.5684506759E+002 -9.1634537356E+001 +1.6327344308E+002 -3.9382719479E+001 -1.3742983988E+002
6802500000.000 -1.0359823732E+001 -1.2731972023E+002 -4.3508900222E+001 +1.6922575150E+002 -8.1779574242E+001 +3.5743852416E+001 -3.8861876308E+001 +1.7915398702E+002
6935000000.000 -1.0294866191E+001 -1.2771280882E+002 -4.3582041267E+001 +1.3511525962E+002 -9.4401255766E+001 -1.7656413300E+002 -3.8591253239E+001 +1.2314112112E+002
7067500000.000 -1.0202882193E+001 -1.2732581585E+002 -4.3586914627E+001 +1.0097145436E+002 -8.5327302914E+001 -1.6554792587E+002 -3.9032978480E+001 +1.1465069123E+002
7200000000.000 -1.0014763815E+001 -1.2727090561E+002 -4.3663037394E+001 +6.6903685180E+001 -8.6332163472E+001 +3.4950514921E+001 -3.2860124620E+001 +1.3143807305E+002
7332500000.000 -9.8759881700E+000 -1.2779060253E+002 -4.3694977635E+001 +3.3488314492E+001 -9.9508072382E+001 +5.8947265096E+000 -2.9068286187E+001 +1.1909048481E+002
7465000000.000 -9.7939412407E+000 -1.2792991954E+002 -4.3719702042E+001 -2.2639806755E-001 -8.7008318979E+001 -2.0798161881E+001 -2.8619137624E+001 +1.2244722654E+002
7597500000.000 -9.6706182438E+000 -1.2770572901E+002 -4.3821769937E+001 -3.4237170527E+001 -8.3403771639E+001 -8.9238595098E+000 -2.6142466204E+001 +1.3748029397E+002
7730000000.000 -9.5064770754E+000 -1.2770523211E+002 -4.3762004214E+001 -6.7950197701E+001 -8.4896456396E+001 +3.2970722092E+001 -2.3726077901E+001 +1.3793956315E+002
7862500000.000 -9.3925216852E+000 -1.2784491259E+002 -4.3749175258E+001 -1.0144482347E+002 -8.2187912666E+001 -1.4969553356E+002 -2.3286143767E+001 +1.4142440585E+002
7995000000.000 -9.3098215338E+000 -1.2778204200E+002 -4.4013844607E+001 -1.3578663084E+002 -8.3886660138E+001 -2.6531453187E+001 -2.1839050198E+001 +1.5427571464E+002
8127500000.000 -9.1672559782E+000 -1.2745066309E+002 -4.3784869726E+001 -1.6929730930E+002 -8.8853312008E+001 +1.2545224412E+002 -2.0029853479E+001 +1.5649067822E+002
8260000000.000 -9.0431995801E+000 -1.2763955381E+002 -4.3796731220E+001 +1.5654258660E+002 -8.4675039641E+001 +1.5807230631E+002 -1.9865728472E+001 +1.6020719839E+002
8392500000.000 -8.9707644818E+000 -1.2750840112E+002 -4.3859066767E+001 +1.2294858617E+002 -7.9517692490E+001 -9.8258600024E+001 -1.9068794981E+001 +1.7047860700E+002
8525000000.000 -8.8892514493E+000 -1.2721778928E+002 -4.3827552601E+001 +8.8798597271E+001 -8.5838686820E+001 -5.3531423348E+001 -1.8214857895E+001 +1.7299042753E+002
8657500000.000 -8.7802981007E+000 -1.2704960254E+002 -4.3862946318E+001 +5.5066816309E+001 -9.1293738709E+001 +1.2542794381E+002 -1.8570649607E+001 +1.7791376281E+002
8790000000.000 -8.6784397256E+000 -1.2712254091E+002 -4.3856543924E+001 +2.1011672021E+001 -8.7644180891E+001 -7.5941289803E+001 -1.8353183743E+001 -1.7172413971E+002
8922500000.000 -8.6370989297E+000 -1.2718042162E+002 -4.3876744072E+001 -1.3080530879E+001 -8.2771651659E+001 +2.6587027486E+000 -1.7988296673E+001 -1.6602977612E+002
9055000000.000 -8.5583147776E+000 -1.2700572487E+002 -4.3795629636E+001 -4.7197138591E+001 -8.8185346902E+001 +1.4030277517E+002 -1.8456556050E+001 -1.5837392280E+002
9187500000.000 -8.4780824813E+000 -1.2704160116E+002 -4.3900916465E+001 -8.1473044604E+001 -9.1872276528E+001 -1.4486238307E+002 -1.8385476127E+001 -1.4635473215E+002
9320000000.000 -8.3969112953E+000 -1.2746711893E+002 -4.3909892138E+001 -1.1512083710E+002 -1.0345211225E+002 +7.0133064810E+001 -1.8206771888E+001 -1.3967949104E+002
9452500000.000 -8.3490165215E+000 -1.2758866353E+002 -4.4013004260E+001 -1.4949883596E+002 -9.0229836671E+001 +1.0433797214E+002 -1.8852818941E+001 -1.3060918866E+002
9585000000.000 -8.2748253039E+000 -1.2761972601E+002 -4.3861034721E+001 +1.7671911923E+002 -8.4789529192E+001 -9.0916965416E+001 -1.8797042297E+001 -1.1823077052E+002
9717500000.000 -8.1546826522E+000 -1.2783478985E+002 -4.3942847838E+001 +1.4333787253E+002 -8.6620487021E+001 -4.1472288725E+001 -1.8812394618E+001 -1.1106365279E+002
9850000000.000 -8.1013762818E+000 -1.2843426281E+002 -4.3896586758E+001 +1.0820289572E+002 -8.3425970867E+001 +1.1395284365E+002 -1.9651979395E+001 -1.0061643051E+002
9982500000.000 -8.0455926565E+000 -1.2830676078E+002 -4.3860638214E+001 +7.4569977400E+001 -9.1231685754E+001 +1.0674617897E+002 -1.9703237689E+001 -8.6468199940E+001
10115000000.000 -7.9529860904E+000 -1.2835007485E+002 -4.3937897622E+001 +4.0357411862E+001 -8.7694578063E+001 +6.3860888873E+001 -1.9918549340E+001 -7.9077344475E+001
10247500000.000 -7.8468491274E+000 -1.2879965158E+002 -4.4016604233E+001 +6.7617936856E+000 -9.2835223011E+001 -7.9094156265E+001 -2.1143747259E+001 -6.5991437055E+001
10380000000.000 -7.8014499650E+000 -1.2907782490E+002 -4.4114019210E+001 -2.7328308761E+001 -8.5159872078E+001 +1.4637319649E+002 -2.1071741085E+001 -4.9829708337E+001
10512500000.000 -7.7394885732E+000 -1.2918369328E+002 -4.4133123406E+001 -6.1631495349E+001 -8.8101447562E+001 -3.6978386566E+001 -2.1512565480E+001 -4.1827108342E+001
10645000000.000 -7.6578708589E+000 -1.2931629366E+002 -4.4013391157E+001 -9.5241740707E+001 -8.6855653828E+001 +1.2713594461E+000 -2.2829037262E+001 -2.3932367599E+001
10777500000.000 -7.5664684147E+000 -1.2956001811E+002 -4.4183847167E+001 -1.2885873195E+002 -8.6929901972E+001 +1.4101558477E+002 -2.2216831550E+001 -5.8414058331E+000
10910000000.000 -7.4922533395E+000 -1.2982413582E+002 -4.4147900341E+001 -1.6322271054E+002 -9.8852247190E+001 +2.9329355065E+001 -2.2791614323E+001 +4.3989365290E+000
11042500000.000 -7.4099884748E+000 -1.3004201109E+002 -4.4099038950E+001 +1.6290306707E+002 -8.1788648390E+001 +2.2932750693E+001 -2.3447928337E+001 +2.7683067194E+001
11175000000.000 -7.3189889178E+000 -1.3003616723E+002 -4.4215918821E+001 +1.2956316469E+002 -7.7255295262E+001 +1.1673903273E+002 -2.2266904563E+001 +4.2812515673E+001
11307500000.000 -7.2608110426E+000 -1.3009944600E+002 -4.4027856385E+001 +9.4877637506E+001 -8.7289244831E+001 -1.2865903672E+002 -2.2734182775E+001 +5.3317244945E+001
11440000000.000 -7.1674681342E+000 -1.3029353737E+002 -4.4101656391E+001 +6.0987097117E+001 -8.4226112465E+001 +4.3525535477E+001 -2.2575671933E+001 +7.5895300270E+001
11572500000.000 -7.1003733069E+000 -1.3011206710E+002 -4.4114613809E+001 +2.7463765573E+001 -8.4143297533E+001 +1.2050163960E+002 -2.1179126874E+001 +8.7079712187E+001
11705000000.000 -7.0388399554E+000 -1.3014665532E+002 -4.4149519851E+001 -6.7556462448E+000 -8.1227039860E+001 +1.5254990883E+002 -2.1778301737E+001 +9.7042508940E+001
11837500000.000 -6.9627375566E+000 -1.3025546991E+002 -4.4301076463E+001 -4.0548296137E+001 -8.0035174512E+001 -5.0609866930E+001 -2.1126513507E+001 +1.1933593030E+002
11970000000.000 -6.9418705567E+000 -1.3029446887E+002 -4.4131992495E+001 -7.5248269618E+001 -8.7076088571E+001 +6.4610305547E+000 -1.9831542594E+001 +1.2552397192E+002
12102500000.000 -6.9086259345E+000 -1.3004586023E+002 -4.4258793343E+001 -1.0922425630E+002 -8.0770687395E+001 +1.7766687959E+002 -2.0758621802E+001 +1.3548404514E+002
12235000000.000 -6.8289669068E+000 -1.3047244815E+002 -4.4185370952E+001 -1.4388741930E+002 -8.9895112406E+001 -7.4541927547E+001 -1.9778073499E+001 +1.5463365766E+002
12367500000.000 -6.8247039149E+000 -1.3046106857E+002 -4.4168527358E+001 -1.7800406972E+002 -8.9153051952E+001 +8.5974144912E+001 -1.8878243654E+001 +1.5799349098E+002
12500000000.000 -6.7811436137E+000 -1.3078429141E+002 -4.4351889294E+001 +1.4797908307E+002 -7.9414286805E+001 +1.1446410039E+002 -2.0059322958E+001 +1.6814885707E+002
12632500000.000 -6.7215463691E+000 -1.3075672394E+002 -4.4208353259E+001 +1.1399063419E+002 -8.1896363114E+001 -5.0807739999E+001 -1.9178414040E+001 -1.7296327740E+002
12765000000.000 -6.6869171312E+000 -1.3095433074E+002 -4.4332765292E+001 +8.0414894705E+001 -8.9198575281E+001 +6.4218057991E+001 -1.8522953154E+001 -1.7122580036E+002
12897500000.000 -6.6665483632E+000 -1.3121746438E+002 -4.4460319953E+001 +4.6163935364E+001 -8.8193567316E+001 +8.1324070230E+001 -2.0132270248E+001 -1.5941642260E+002
13030000000.000 -6.6333058844E+000 -1.3132766266E+002 -4.4433982316E+001 +1.2633476807E+001 -8.9519484580E+001 -7.4151977925E+001 -1.8855842177E+001 -1.4154276050E+002
13162500000.000 -6.5798203668E+000 -1.3138591146E+002 -4.4425981826E+001 -2.2645926769E+001 -8.2635566878E+001 -2.4083136210E+001 -1.8659839227E+001 -1.4155345266E+002
13295000000.000 -6.5373310279E+000 -1.3152057808E+002 -4.4450420193E+001 -5.5533285369E+001 -8.5456775735E+001 +1.3943862622E+002 -2.0037018705E+001 -1.2788711202E+002
13427500000.000 -6.5084033748E+000 -1.3189895354E+002 -4.4385612560E+001 -9.0142588452E+001 -1.0149412251E+002 -5.9486496262E+001 -1.8865146561E+001 -1.1414379180E+002
13560000000.000 -6.5053520098E+000 -1.3186600208E+002 -4.4473642235E+001 -1.2351251294E+002 -8.4606887583E+001 -9.5571801527E+001 -1.9061666855E+001 -1.1462921238E+002
13692500000.000 -6.4446695203E+000 -1.3187094006E+002 -4.4555786225E+001 -1.5743180068E+002 -9.1067128096E+001 -8.4004754653E+000 -2.0826861283E+001 -1.0128730269E+002
13825000000.000 -6.3823772095E+000 -1.3219018397E+002 -4.4448206606E+001 +1.6879244917E+002 -7.9852460851E+001 -1.1979980144E+002 -1.9743841120E+001 -8.7686234666E+001
13957500000.000 -6.3699716718E+000 -1.3257172429E+002 -4.4513517311E+001 +1.3418140534E+002 -7.8673785704E+001 -7.7303662992E+001 -2.0413371430E+001 -9.0112317555E+001
14090000000.000 -6.3493477013E+000 -1.3258005711E+002 -4.4476988300E+001 +9.9686806896E+001 -8.7143831881E+001 -3.4700684190E+001 -2.2693863656E+001 -7.2705537137E+001
14222500000.000 -6.2850148702E+000 -1.3242186198E+002 -4.4639295677E+001 +6.5801368929E+001 -9.7796177605E+001 -1.3230265369E+002 -2.1295507174E+001 -5.9368249198E+001
14355000000.000 -6.2132918176E+000 -1.3280619564E+002 -4.4626467213E+001 +3.1736774211E+001 -8.0853820158E+001 +1.6474426168E+002 -2.2518609416E+001 -6.3736695271E+001
14487500000.000 -6.1793291799E+000 -1.3299746687E+002 -4.4535132527E+001 -2.2410055506E+000 -7.8682306243E+001 +4.6243757705E+001 -2.5585828359E+001 -4.0361368505E+001
14620000000.000 -6.1579482333E+000 -1.3282265016E+002 -4.4635117647E+001 -3.7343209360E+001 -8.1831247376E+001 +1.0515295516E+002 -2.3275904828E+001 -2.7245627034E+001
14752500000.000 -6.0593270978E+000 -1.3268069968E+002 -4.4647522305E+001 -7.1369578726E+001 -8.2871441023E+001 -8.8966149800E+001 -2.5375146580E+001 -3.6816734411E+001
14885000000.000 -6.0019058301E+000 -1.3275031734E+002 -4.4802296459E+001 -1.0315622149E+002 -8.2720279167E+001 -3.3455658238E+001 -2.9020169685E+001 +2.4735952244E+000
15017500000.000 -5.9784355900E+000 -1.3267142529E+002 -4.4717441279E+001 -1.4012969849E+002 -8.1427977509E+001 +9.1942594426E+001 -2.5420399757E+001 +9.5203342320E+000
15150000000.000 -5.9182865111E+000 -1.3240620434E+002 -4.4790334004E+001 -1.7312822074E+002 -7.8295053947E+001 -7.0013446782E+001 -2.9103076661E+001 -2.6720513969E+000
15282500000.000 -5.8801708311E+000 -1.3224950093E+002 -4.4851364194E+001 +1.5251861918E+002 -8.1035420557E+001 -1.0575348803E+002 -3.1273396364E+001 +5.8107018700E+001
