!  2-Port S-parameters saved by WinCal
! VAR MeasName=S-Parameters (CALIBRATED_DATA) read from VNA (C)
! VAR MeasDate=10/16/2015 3:14:30 PM
! VAR NAME=M6082_10_15_2_2_20C_8.3mA_-17.5dBm
! VAR FILENAME=M6082_10_15_2_2_20C_8.3mA_-17.5dBm.S2P
! VAR DATE=10/16/2015 3:14:30 PM
! VAR PHYS_PORTS=2,1
! VAR ObjTypeName=DATASET
! VAR IndexType=Frequency
!
# Hz S DB R 50
45000000.000 -2.0717727450E+001 -1.7939463495E+002 -4.0525116083E+001 +1.0434174673E+002 -6.3334396716E+001 -1.6730456313E+001 -3.1285392509E+001 +6.2069984699E+000
177500000.000 -2.0900828843E+001 -1.7511353796E+002 -4.2652454456E+001 +7.1040933236E+001 -6.8813990323E+001 +8.7533261486E+001 -3.2733133912E+001 +4.6754258363E+001
310000000.000 -2.0853456799E+001 -1.7029387924E+002 -4.2628798186E+001 +4.0479769507E+001 -7.4890344065E+001 -1.3886647814E+002 -2.3333191098E+001 +6.4622237559E+001
442500000.000 -2.0735675867E+001 -1.6550622625E+002 -4.1748418598E+001 -8.3535109870E-001 -7.6640432048E+001 +3.0009942833E+001 -2.2391058065E+001 +1.7237952107E+001
575000000.000 -2.0489975162E+001 -1.6067797765E+002 -4.2302023730E+001 -3.4455058937E+001 -9.0095593489E+001 +7.0670501203E+001 -3.0638216781E+001 +2.2458932618E+001
707500000.000 -2.0183737133E+001 -1.5673633532E+002 -4.2512024511E+001 -6.9898292400E+001 -8.0885974941E+001 -1.6244857078E+002 -3.4525440572E+001 +8.3948964232E+001
840000000.000 -1.9857291544E+001 -1.5254357569E+002 -4.2386400196E+001 -1.0386050615E+002 -8.3775959523E+001 -3.9691157962E+000 -2.9691572152E+001 +1.2736452470E+002
972500000.000 -1.9507313718E+001 -1.4876211663E+002 -4.2517827208E+001 -1.3814453259E+002 -9.5346334528E+001 -1.7657540940E+002 -2.5953867016E+001 +1.3534661085E+002
1105000000.000 -1.9062070144E+001 -1.4555735848E+002 -4.2545269314E+001 -1.7169224732E+002 -8.8794541817E+001 +1.5526260976E+002 -2.4370717869E+001 +1.4079338622E+002
1237500000.000 -1.8656450349E+001 -1.4286945942E+002 -4.2709083197E+001 +1.5396487064E+002 -8.0865346765E+001 +1.0720762644E+001 -2.3389794775E+001 +1.5001481067E+002
1370000000.000 -1.8222201939E+001 -1.4049454257E+002 -4.2667729142E+001 +1.1998145376E+002 -8.7162152635E+001 +6.9333696759E+001 -2.2080308752E+001 +1.6002448603E+002
1502500000.000 -1.7821084252E+001 -1.3834513366E+002 -4.2770428188E+001 +8.5703772378E+001 -9.1266953859E+001 +1.6992845803E+002 -2.0868890939E+001 +1.6639086123E+002
1635000000.000 -1.7402668649E+001 -1.3598679233E+002 -4.2747972104E+001 +5.1276376274E+001 -1.0398304818E+002 +1.4760989048E+002 -2.0024661605E+001 +1.7330834639E+002
1767500000.000 -1.6961548239E+001 -1.3438780511E+002 -4.2816990758E+001 +1.6861028809E+001 -8.9145503987E+001 +8.8617361824E+001 -1.9030236477E+001 +1.7851616757E+002
1900000000.000 -1.6605849105E+001 -1.3298996955E+002 -4.2856292336E+001 -1.6945748889E+001 -9.0221816461E+001 -1.7716335547E+002 -1.8877587658E+001 -1.7821344900E+002
2032500000.000 -1.6239824254E+001 -1.3174432404E+002 -4.2883229010E+001 -5.2097799357E+001 -8.5741688053E+001 -4.7252873028E+001 -1.8696892868E+001 -1.6787397296E+002
2165000000.000 -1.5842351755E+001 -1.3022657679E+002 -4.3051336372E+001 -8.5464930256E+001 -8.0758279949E+001 -4.1214190053E+001 -1.7753133440E+001 -1.6095563543E+002
2297500000.000 -1.5500420962E+001 -1.2938247949E+002 -4.2968863396E+001 -1.1962325717E+002 -7.5307635841E+001 +1.2621278946E+002 -1.7244480282E+001 -1.5703587922E+002
2430000000.000 -1.5177751802E+001 -1.2850699061E+002 -4.3085318516E+001 -1.5364932660E+002 -8.3260575658E+001 -6.3804531139E+001 -1.6945880215E+001 -1.5284077537E+002
2562500000.000 -1.4823035532E+001 -1.2765127135E+002 -4.2973273462E+001 +1.7139979791E+002 -8.2983372629E+001 -6.1545164522E+001 -1.6837055257E+001 -1.5041823497E+002
2695000000.000 -1.4498913312E+001 -1.2749177063E+002 -4.3111479141E+001 +1.3679280285E+002 -8.8081256073E+001 -6.1396666890E+001 -1.7380286373E+001 -1.4709906828E+002
2827500000.000 -1.4225671397E+001 -1.2731825662E+002 -4.3275536284E+001 +1.0290190791E+002 -7.7669426641E+001 -1.0593508316E+002 -1.7855496079E+001 -1.4032494597E+002
2960000000.000 -1.3946677278E+001 -1.2667958888E+002 -4.3261724927E+001 +7.0575187686E+001 -8.2306367423E+001 +4.2125421216E+000 -1.8148434494E+001 -1.3538463023E+002
3092500000.000 -1.3607875615E+001 -1.2633253249E+002 -4.3249163985E+001 +3.5562377332E+001 -9.0516290279E+001 -1.4186178286E+002 -1.9081221032E+001 -1.2926630300E+002
3225000000.000 -1.3291629222E+001 -1.2646280960E+002 -4.3354245889E+001 +2.8290824677E+000 -7.4708917501E+001 -1.3217874528E+002 -1.9576707124E+001 -1.1972448325E+002
3357500000.000 -1.3076650828E+001 -1.2651531251E+002 -4.3531951566E+001 -3.1694858876E+001 -9.1498828465E+001 +1.1394482964E+001 -1.9963411885E+001 -1.1430922026E+002
3490000000.000 -1.2777090250E+001 -1.2606599145E+002 -4.3311558972E+001 -6.5486359073E+001 -7.5357290925E+001 +8.5590743113E+001 -2.1126261434E+001 -1.0845698082E+002
3622500000.000 -1.2484456925E+001 -1.2584933802E+002 -4.3515131729E+001 -9.9922463953E+001 -8.7772440807E+001 -1.1417725964E+002 -2.1928482948E+001 -9.8168310599E+001
3755000000.000 -1.2197176014E+001 -1.2585761695E+002 -4.3312367052E+001 -1.3336616978E+002 -7.8521746215E+001 -8.0131879431E+001 -2.2718484608E+001 -9.4598828633E+001
3887500000.000 -1.1966970656E+001 -1.2581196475E+002 -4.3326714513E+001 -1.6813249543E+002 -8.7829537217E+001 -6.6310572913E+000 -2.5058310999E+001 -8.7798454532E+001
4020000000.000 -1.1744999293E+001 -1.2576496831E+002 -4.3374077586E+001 +1.5806616512E+002 -8.2856268094E+001 -7.7611754498E+001 -2.6659757098E+001 -7.3247351527E+001
4152500000.000 -1.1502637596E+001 -1.2550672900E+002 -4.3426016940E+001 +1.2390815196E+002 -8.7791407627E+001 -4.8596189382E+001 -2.8869938296E+001 -6.4793385484E+001
4285000000.000 -1.1268625359E+001 -1.2553433045E+002 -4.3370830847E+001 +8.9710019619E+001 -9.0436836850E+001 -1.1001024324E+002 -3.3393924213E+001 -3.7230523197E+001
4417500000.000 -1.1046744902E+001 -1.2573272835E+002 -4.3449397639E+001 +5.4668542753E+001 -7.8871943380E+001 -1.6257754036E+002 -3.1728697066E+001 +8.2279041039E+000
4550000000.000 -1.0867330860E+001 -1.2563711562E+002 -4.3572840186E+001 +2.1561812508E+001 -8.1350348179E+001 -9.2107437977E+001 -3.0361157755E+001 +1.8384253176E+001
4682500000.000 -1.0651695193E+001 -1.2545332281E+002 -4.3661258115E+001 -1.1812625181E+001 -8.1761622616E+001 +3.8707578543E+001 -2.9662402561E+001 +3.8853446247E+001
4815000000.000 -1.0440981480E+001 -1.2555390774E+002 -4.3754605462E+001 -4.4687464430E+001 -8.3471355164E+001 +1.5325985481E+002 -2.7626528789E+001 +4.1357844764E+001
4947500000.000 -1.0277951836E+001 -1.2558894657E+002 -4.3695048336E+001 -7.8132119867E+001 -8.7744740739E+001 -1.4907686832E+002 -2.9376561412E+001 +3.5734727773E+001
5080000000.000 -1.0108934810E+001 -1.2543581440E+002 -4.3659259166E+001 -1.1223746319E+002 -9.9742663833E+001 -7.6637929711E+000 -3.2248055850E+001 +5.6963652259E+001
5212500000.000 -9.9263943128E+000 -1.2542231775E+002 -4.3601427951E+001 -1.4581152138E+002 -8.1892970446E+001 +1.6581762863E+002 -3.1563660986E+001 +6.9761143587E+001
5345000000.000 -9.7677556625E+000 -1.2563968537E+002 -4.3567480201E+001 +1.7967866087E+002 -8.7548526881E+001 -1.0560176098E+002 -3.5340314258E+001 +7.1696416932E+001
5477500000.000 -9.6528835166E+000 -1.2555435275E+002 -4.3564328009E+001 +1.4537386808E+002 -8.8472832274E+001 +7.1226683635E+001 -3.7214710524E+001 +1.3188346877E+002
5610000000.000 -9.4965327537E+000 -1.2545882320E+002 -4.3503898290E+001 +1.1093562456E+002 -8.3281310217E+001 +3.1293821691E+001 -3.3658009837E+001 +1.3599698725E+002
5742500000.000 -9.3478402036E+000 -1.2572699643E+002 -4.3591643353E+001 +7.6519853122E+001 -8.5318896325E+001 -1.4428861247E+002 -3.7776078228E+001 +1.5291946624E+002
5875000000.000 -9.2487606703E+000 -1.2608180833E+002 -4.3526518793E+001 +4.2925047125E+001 -8.1669211667E+001 -1.4693974453E+000 -3.3764173184E+001 -1.7063275807E+002
6007500000.000 -9.1414304624E+000 -1.2613306499E+002 -4.3588519629E+001 +8.1338985365E+000 -8.6796333891E+001 +1.3828583396E+002 -3.2719998640E+001 +1.7954623769E+002
6140000000.000 -8.9943058093E+000 -1.2617745488E+002 -4.3543850903E+001 -2.6305060248E+001 -8.9981794536E+001 -1.6273608100E+002 -3.6153482013E+001 -1.6955171743E+002
6272500000.000 -8.8469052254E+000 -1.2667670452E+002 -4.3557958664E+001 -6.0180341068E+001 -8.6308727719E+001 -5.3871979819E+000 -3.3868200786E+001 -1.4436449229E+002
6405000000.000 -8.7574079263E+000 -1.2722117471E+002 -4.3577762411E+001 -9.4626630119E+001 -8.4937409832E+001 +6.6056450703E+001 -3.3838079397E+001 -1.6223402833E+002
6537500000.000 -8.6559361746E+000 -1.2721235807E+002 -4.3715848307E+001 -1.2875143482E+002 -8.5426263812E+001 +1.7016279612E+002 -4.0206828184E+001 -1.6032095607E+002
6670000000.000 -8.4912249336E+000 -1.2726169807E+002 -4.3728721871E+001 -1.6280871360E+002 -8.6160621312E+001 -1.5535408733E+002 -3.9350672067E+001 -1.3745497838E+002
6802500000.000 -8.3415590377E+000 -1.2785394886E+002 -4.3776785299E+001 +1.6259537252E+002 -8.5221550480E+001 -4.6661817956E+001 -3.8919358507E+001 +1.7949820130E+002
6935000000.000 -8.2707608480E+000 -1.2834631752E+002 -4.3762908132E+001 +1.2905594593E+002 -8.9101420716E+001 +1.3093500366E+002 -3.8611544927E+001 +1.2265156366E+002
7067500000.000 -8.1825340678E+000 -1.2822864710E+002 -4.3706547057E+001 +9.4689593270E+001 -8.9643391751E+001 -1.1862390204E+002 -3.9031786156E+001 +1.1431410506E+002
7200000000.000 -8.0206402536E+000 -1.2836209194E+002 -4.3828572277E+001 +6.0386237328E+001 -8.1730056616E+001 +1.7191016794E+001 -3.2884713428E+001 +1.3138871357E+002
7332500000.000 -7.8961116380E+000 -1.2893091977E+002 -4.3889017106E+001 +2.7216057246E+001 -8.5481474315E+001 +1.6694268536E+002 -2.9085212277E+001 +1.1911351492E+002
7465000000.000 -7.8162345664E+000 -1.2920983406E+002 -4.3869520791E+001 -7.0795164343E+000 -8.2014679632E+001 -1.4086853878E+002 -2.8636872784E+001 +1.2230127648E+002
7597500000.000 -7.7085792130E+000 -1.2917121903E+002 -4.3963143942E+001 -4.1597016364E+001 -8.2145241242E+001 -3.0615582126E+001 -2.6148430714E+001 +1.3744118252E+002
7730000000.000 -7.5635565085E+000 -1.2931703189E+002 -4.4029452637E+001 -7.5126515987E+001 -8.0597876999E+001 +7.2286687903E+001 -2.3731765357E+001 +1.3785588224E+002
7862500000.000 -7.4624085307E+000 -1.2958540812E+002 -4.4033010860E+001 -1.0899025363E+002 -8.3923134449E+001 -1.5135314643E+002 -2.3274109767E+001 +1.4158327897E+002
7995000000.000 -7.3875317422E+000 -1.2968870473E+002 -4.4095064341E+001 -1.4309376745E+002 -8.5926022724E+001 -6.5832999718E+001 -2.1844121245E+001 +1.5430159033E+002
8127500000.000 -7.2661993015E+000 -1.2954329705E+002 -4.4270940205E+001 -1.7715990313E+002 -8.5023768115E+001 +1.3902394479E+001 -2.0024463766E+001 +1.5658498282E+002
8260000000.000 -7.1551659208E+000 -1.2981373477E+002 -4.4105859542E+001 +1.4948200780E+002 -9.1820946434E+001 -1.2898383110E+002 -1.9859566460E+001 +1.6021496424E+002
8392500000.000 -7.0912748106E+000 -1.2986027210E+002 -4.4093823643E+001 +1.1567044323E+002 -8.4167833446E+001 -1.3596577327E+002 -1.9071811652E+001 +1.7040754767E+002
8525000000.000 -7.0188270054E+000 -1.2975684956E+002 -4.4086127988E+001 +8.1659310327E+001 -9.0874042813E+001 +5.0570801035E-001 -1.8217465641E+001 +1.7299907342E+002
8657500000.000 -6.9252926654E+000 -1.2975116011E+002 -4.4171309484E+001 +4.7649072190E+001 -8.9696867269E+001 +9.8976354117E+001 -1.8568382396E+001 +1.7791059799E+002
8790000000.000 -6.8333372800E+000 -1.2992381807E+002 -4.4033406105E+001 +1.2854359123E+001 -9.2254610882E+001 -9.6356860206E+001 -1.8355205752E+001 -1.7174047541E+002
8922500000.000 -6.7954245257E+000 -1.3009659772E+002 -4.4185461625E+001 -2.0598758051E+001 -8.1617775493E+001 -1.2743289002E+001 -1.7988174428E+001 -1.6598352008E+002
9055000000.000 -6.7239767744E+000 -1.3006823803E+002 -4.4184473157E+001 -5.4548701565E+001 -8.3107813228E+001 +1.0936942455E+002 -1.8462341086E+001 -1.5834105783E+002
9187500000.000 -6.6515520441E+000 -1.3020135730E+002 -4.4044192029E+001 -8.9005487291E+001 -8.6001627549E+001 -1.3378759581E+002 -1.8383570920E+001 -1.4632603669E+002
9320000000.000 -6.5770298869E+000 -1.3071715628E+002 -4.4086681178E+001 -1.2345656744E+002 -8.3551627052E+001 -1.5376561015E+001 -1.8208291650E+001 -1.3968031170E+002
9452500000.000 -6.5345011771E+000 -1.3091961691E+002 -4.4172614210E+001 -1.5757686003E+002 -8.6250203009E+001 +7.0015208303E+001 -1.8854672303E+001 -1.3066259020E+002
9585000000.000 -6.4716583005E+000 -1.3108093243E+002 -4.4162667842E+001 +1.6829334921E+002 -8.0929935156E+001 -1.1746920452E+002 -1.8802667817E+001 -1.1821395909E+002
9717500000.000 -6.3664270464E+000 -1.3135384209E+002 -4.4232135754E+001 +1.3403766483E+002 -8.3905336755E+001 -2.2633764474E+001 -1.8804866573E+001 -1.1105474144E+002
9850000000.000 -6.3170506375E+000 -1.3198452291E+002 -4.4131645530E+001 +1.0044817016E+002 -9.2506560725E+001 +6.3113446645E+000 -1.9666442135E+001 -1.0063218824E+002
9982500000.000 -6.2725180579E+000 -1.3198721250E+002 -4.4344459208E+001 +6.6456525631E+001 -8.7185775305E+001 +1.4298413922E+002 -1.9707316009E+001 -8.6424192906E+001
10115000000.000 -6.1948000854E+000 -1.3210880676E+002 -4.4248806277E+001 +3.1756232649E+001 -8.5432194712E+001 -9.4330475728E+001 -1.9914995433E+001 -7.9024550867E+001
10247500000.000 -6.1061479516E+000 -1.3258442662E+002 -4.4308385447E+001 -2.1607834177E+000 -8.9731882650E+001 -4.1068027081E+001 -2.1145206725E+001 -6.6074477673E+001
10380000000.000 -6.0651463383E+000 -1.3293658307E+002 -4.4360894719E+001 -3.5601430402E+001 -8.2882305643E+001 +1.7424678819E+002 -2.1080024980E+001 -4.9806226295E+001
10512500000.000 -6.0134746787E+000 -1.3311941022E+002 -4.4346816769E+001 -7.0265996460E+001 -8.4565380326E+001 -1.4346947916E+002 -2.1512348522E+001 -4.1801395687E+001
10645000000.000 -5.9482727514E+000 -1.3330522239E+002 -4.4280238400E+001 -1.0463225644E+002 -8.2201786391E+001 -3.1357598969E+001 -2.2816789351E+001 -2.3913073583E+001
10777500000.000 -5.8697296932E+000 -1.3360856679E+002 -4.4385583346E+001 -1.3749900719E+002 -9.4391674181E+001 +1.7817836808E+002 -2.2217213476E+001 -5.8444995798E+000
10910000000.000 -5.8068407226E+000 -1.3391302243E+002 -4.4328474265E+001 -1.7214399848E+002 -8.0837407123E+001 -1.3251448993E+002 -2.2796967043E+001 +4.4893814586E+000
11042500000.000 -5.7435608501E+000 -1.3418561591E+002 -4.4322597366E+001 +1.5364999038E+002 -7.9271818679E+001 +4.0044567045E+001 -2.3438285562E+001 +2.7587420224E+001
11175000000.000 -5.6715307137E+000 -1.3424104190E+002 -4.4375062618E+001 +1.1959122857E+002 -8.6193441439E+001 +2.0426587640E+001 -2.2269629309E+001 +4.2732492220E+001
11307500000.000 -5.6202446907E+000 -1.3437185447E+002 -4.4469783036E+001 +8.5172210080E+001 -8.3430809387E+001 +1.5874457308E+002 -2.2753721123E+001 +5.3322167939E+001
11440000000.000 -5.5487398864E+000 -1.3462409955E+002 -4.4361812499E+001 +5.1954966802E+001 -8.2064768109E+001 -2.9187129507E+001 -2.2576742422E+001 +7.5851075001E+001
11572500000.000 -5.4952154290E+000 -1.3455424971E+002 -4.4514656919E+001 +1.7533408250E+001 -1.0146319696E+002 -6.8423161425E+001 -2.1175453074E+001 +8.7095981925E+001
11705000000.000 -5.4458279428E+000 -1.3459959570E+002 -4.4410714903E+001 -1.6992752875E+001 -7.9515887594E+001 -1.5442356520E+002 -2.1784204786E+001 +9.7206914015E+001
11837500000.000 -5.3865182456E+000 -1.3475863505E+002 -4.4537371867E+001 -5.0763584300E+001 -9.7680517265E+001 -6.5280644571E+001 -2.1126698455E+001 +1.1937944170E+002
11970000000.000 -5.3686538851E+000 -1.3490021164E+002 -4.4555892236E+001 -8.5022061278E+001 -9.0105284087E+001 +4.6155881641E+001 -1.9825764586E+001 +1.2552572426E+002
12102500000.000 -5.3456573614E+000 -1.3474260829E+002 -4.4429474863E+001 -1.1960211334E+002 -8.0697947630E+001 -1.7026160884E+002 -2.0748885476E+001 +1.3550371951E+002
12235000000.000 -5.2822973867E+000 -1.3515899050E+002 -4.4485942534E+001 -1.5413226973E+002 -8.4717918795E+001 -1.0847910204E+002 -1.9779024144E+001 +1.5469669502E+002
12367500000.000 -5.2760542571E+000 -1.3524739349E+002 -4.4596356910E+001 +1.7229196139E+002 -8.2311618387E+001 +1.2637467461E+002 -1.8879287337E+001 +1.5802592958E+002
12500000000.000 -5.2450945700E+000 -1.3559706858E+002 -4.4610240870E+001 +1.3737384237E+002 -8.2882755285E+001 -1.2448868399E+002 -2.0058740651E+001 +1.6810918867E+002
12632500000.000 -5.2006007249E+000 -1.3561876946E+002 -4.4576121123E+001 +1.0304247627E+002 -8.4569537939E+001 -8.3836716077E+001 -1.9176142591E+001 -1.7290703723E+002
12765000000.000 -5.1684606470E+000 -1.3586085161E+002 -4.4714827185E+001 +6.8923671159E+001 -9.0238311848E+001 -7.5386203609E+001 -1.8525008818E+001 -1.7118078307E+002
12897500000.000 -5.1513650730E+000 -1.3615900506E+002 -4.4710179966E+001 +3.5441265862E+001 -8.1947485709E+001 +1.1286682090E+002 -2.0126129213E+001 -1.5947899457E+002
13030000000.000 -5.1287070041E+000 -1.3630218083E+002 -4.4715249270E+001 +1.5000145865E+000 -8.8955669536E+001 +8.8305990111E+001 -1.8860827433E+001 -1.4155335540E+002
13162500000.000 -5.0859486706E+000 -1.3641239520E+002 -4.4688737276E+001 -3.2947721872E+001 -8.5968094478E+001 -3.0643570077E+001 -1.8646665413E+001 -1.4148623938E+002
13295000000.000 -5.0524145732E+000 -1.3656405414E+002 -4.4637556545E+001 -6.7297333337E+001 -8.7780705326E+001 +4.5672797534E+001 -2.0033274547E+001 -1.2779012160E+002
13427500000.000 -5.0313416662E+000 -1.3695212061E+002 -4.4805225427E+001 -1.0158245025E+002 -7.9205916532E+001 -1.2381054673E+002 -1.8861359368E+001 -1.1416201041E+002
13560000000.000 -5.0279417086E+000 -1.3699439383E+002 -4.4775199709E+001 -1.3465184413E+002 -8.1224323231E+001 -7.0148959064E+001 -1.9059019561E+001 -1.1460610716E+002
13692500000.000 -4.9867363256E+000 -1.3702229414E+002 -4.4743245681E+001 -1.6788662949E+002 -7.6934878355E+001 +2.7811348400E+001 -2.0817357879E+001 -1.0125765833E+002
13825000000.000 -4.9333494012E+000 -1.3732758468E+002 -4.4869869819E+001 +1.5691421672E+002 -8.6696228833E+001 -1.7218475127E+002 -1.9737167063E+001 -8.7596753455E+001
13957500000.000 -4.9233857576E+000 -1.3770557877E+002 -4.4950340639E+001 +1.2150433315E+002 -9.2383925791E+001 +6.5273242874E+001 -2.0403315717E+001 -9.0027474498E+001
14090000000.000 -4.9101774695E+000 -1.3777226660E+002 -4.4992344717E+001 +8.7635375347E+001 -7.9593918182E+001 +6.9833990055E+001 -2.2673499237E+001 -7.2535467590E+001
14222500000.000 -4.8660684424E+000 -1.3765309268E+002 -4.4765180993E+001 +5.3609136287E+001 -7.8366799635E+001 +1.7057169571E+002 -2.1293277408E+001 -5.9353373132E+001
14355000000.000 -4.8057794658E+000 -1.3802759098E+002 -4.4802784910E+001 +1.9464535232E+001 -8.3506865951E+001 -1.1999899543E+002 -2.2534092709E+001 -6.3705827180E+001
14487500000.000 -4.7801382977E+000 -1.3817323055E+002 -4.4948870484E+001 -1.5103466716E+001 -9.8437085857E+001 +1.0684760501E+002 -2.5591791056E+001 -4.0212047671E+001
14620000000.000 -4.7667510976E+000 -1.3808152319E+002 -4.4896068727E+001 -4.8010646546E+001 -8.6178941098E+001 +1.5652483553E+002 -2.3289782469E+001 -2.7283834014E+001
14752500000.000 -4.6842271185E+000 -1.3794726474E+002 -4.5051309757E+001 -8.3048048276E+001 -7.8139342021E+001 -1.2158425138E+002 -2.5382341500E+001 -3.6956410284E+001
14885000000.000 -4.6407407878E+000 -1.3802653622E+002 -4.5102783696E+001 -1.1763913187E+002 -8.2220086718E+001 -7.0928828300E+000 -2.9058756353E+001 +2.5311737883E+000
15017500000.000 -4.6263636305E+000 -1.3798356445E+002 -4.5070146036E+001 -1.5288954154E+002 -8.4860732027E+001 +1.2293171447E+002 -2.5385446641E+001 +9.4179024826E+000
15150000000.000 -4.5818990266E+000 -1.3777215678E+002 -4.5060966070E+001 +1.7318812197E+002 -8.8574378693E+001 -1.4506194409E+002 -2.9061731992E+001 -3.0227327350E+000
15282500000.000 -4.5480293240E+000 -1.3767151016E+002 -4.5181486816E+001 +1.3906912138E+002 -7.8865485577E+001 -2.7332378188E+001 -3.1317224460E+001 +5.8253383918E+001
