!  2-Port S-parameters saved by WinCal
! VAR MeasName=S-Parameters (CALIBRATED_DATA) read from VNA (C)
! VAR MeasDate=10/16/2015 12:38:15 PM
! VAR NAME=M6082_13_15_2_2_20C_1.8mA_-17.5dBm
! VAR FILENAME=M6082_13_15_2_2_20C_1.8mA_-17.5dBm.S2P
! VAR DATE=10/16/2015 12:38:15 PM
! VAR PHYS_PORTS=2,1
! VAR ObjTypeName=DATASET
! VAR IndexType=Frequency
!
# Hz S DB R 50
45000000.000 -1.4214746944E+001 -4.0871928002E-001 -4.4756415121E+001 +1.0700964763E+002 -6.9170155122E+001 +4.8616706147E+001 -3.0246370831E+001 +6.5058745310E+000
177500000.000 -1.4391879202E+001 -3.6466748532E+000 -4.5420627976E+001 +6.9629574384E+001 -6.9545007489E+001 +1.0344590654E+002 -3.2580033912E+001 +4.6427493282E+001
310000000.000 -1.4271723261E+001 -6.5378968978E+000 -4.6774031624E+001 +3.5441904639E+001 -8.2877998558E+001 -9.6973830771E+001 -2.3317881984E+001 +6.4469741315E+001
442500000.000 -1.4510956319E+001 -8.4113902402E+000 -4.4515267427E+001 -3.9752970600E+000 -8.7694890598E+001 +3.2085492940E+001 -2.2363631018E+001 +1.7374221927E+001
575000000.000 -1.4628197286E+001 -1.0542253033E+001 -4.5033401095E+001 -3.9626041345E+001 -8.9043777735E+001 -1.1730052542E+002 -3.0584655618E+001 +2.2647446195E+001
707500000.000 -1.4563043882E+001 -1.2964656156E+001 -4.5256691432E+001 -7.4787014734E+001 -8.1584215282E+001 -1.0409153506E+002 -3.4504984661E+001 +8.3493133823E+001
840000000.000 -1.4626091686E+001 -1.4985412835E+001 -4.5226581766E+001 -1.0970766353E+002 -9.2149279946E+001 +1.5839120659E+001 -2.9708234069E+001 +1.2742963738E+002
972500000.000 -1.4509479704E+001 -1.7188131549E+001 -4.5418050531E+001 -1.4487182902E+002 -8.8793077260E+001 +1.5509349452E+000 -2.5946742775E+001 +1.3524365386E+002
1105000000.000 -1.4439222118E+001 -1.9621425627E+001 -4.5422014524E+001 +1.7953842027E+002 -8.7040085774E+001 -1.6303544727E+002 -2.4355877675E+001 +1.4082193815E+002
1237500000.000 -1.4365564733E+001 -2.1721637587E+001 -4.5394378493E+001 +1.4422680354E+002 -8.9798842310E+001 +2.9559395941E+000 -2.3387774825E+001 +1.4991436005E+002
1370000000.000 -1.4290893914E+001 -2.3985721313E+001 -4.5338454464E+001 +1.0939183980E+002 -9.3662470716E+001 -1.2183686750E+002 -2.2062900331E+001 +1.5990394351E+002
1502500000.000 -1.4300685342E+001 -2.5759678716E+001 -4.5330520877E+001 +7.4980807146E+001 -8.7209448158E+001 -1.2753710501E+002 -2.0863942614E+001 +1.6636895248E+002
1635000000.000 -1.4073851277E+001 -2.8040513340E+001 -4.5392979588E+001 +3.9105571150E+001 -9.4654189503E+001 -9.3720579566E-001 -2.0022370071E+001 +1.7325495853E+002
1767500000.000 -1.4014714212E+001 -3.0167343044E+001 -4.5202558967E+001 +4.3580847998E+000 -8.1027405638E+001 +9.9628600241E+001 -1.9012317650E+001 +1.7847824669E+002
1900000000.000 -1.4079041665E+001 -3.1531751198E+001 -4.4899014456E+001 -3.0096909113E+001 -8.5745205858E+001 -1.0627459675E+002 -1.8866168598E+001 -1.7826185520E+002
2032500000.000 -1.4021159205E+001 -3.3420228773E+001 -4.4916480316E+001 -6.4554032842E+001 -8.4263466199E+001 -6.8087216009E+001 -1.8688134708E+001 -1.6790944305E+002
2165000000.000 -1.3967380262E+001 -3.5361083856E+001 -4.4950623309E+001 -9.6757108913E+001 -8.4084183882E+001 +9.1366448000E+001 -1.7743513891E+001 -1.6100961658E+002
2297500000.000 -1.3961169599E+001 -3.7338398409E+001 -4.4802916746E+001 -1.2866166258E+002 -9.1078779831E+001 -9.3592304194E+001 -1.7241692013E+001 -1.5712312820E+002
2430000000.000 -1.3893405270E+001 -3.8948782406E+001 -4.4776104110E+001 -1.6163093074E+002 -8.5880740776E+001 -1.7867666756E+002 -1.6936130802E+001 -1.5287029393E+002
2562500000.000 -1.3753358034E+001 -4.0598753884E+001 -4.4525597911E+001 +1.6210329708E+002 -8.1585001868E+001 +4.9427880478E+001 -1.6820094694E+001 -1.5054086207E+002
2695000000.000 -1.3727033410E+001 -4.2453062633E+001 -4.4695162323E+001 +1.2963199719E+002 -8.0325834688E+001 +1.7382083352E+002 -1.7376339724E+001 -1.4713322111E+002
2827500000.000 -1.3653699555E+001 -4.3810510364E+001 -4.4521725823E+001 +9.3992086506E+001 -7.9105215516E+001 -1.0160523389E+002 -1.7843204635E+001 -1.4033676861E+002
2960000000.000 -1.3487435814E+001 -4.5156262157E+001 -4.4435444185E+001 +5.7502619744E+001 -8.2071412780E+001 +8.6139068372E+001 -1.8148457316E+001 -1.3552325169E+002
3092500000.000 -1.3359418486E+001 -4.7097129063E+001 -4.4630052877E+001 +2.4424110919E+001 -7.9843387184E+001 +5.5748865519E+001 -1.9084905151E+001 -1.2937009710E+002
3225000000.000 -1.3302385521E+001 -4.9067792092E+001 -4.4637237494E+001 -1.0894590698E+001 -7.7194226601E+001 -9.8024334257E+001 -1.9583088246E+001 -1.1970534719E+002
3357500000.000 -1.3218633684E+001 -5.0455165464E+001 -4.4611632642E+001 -4.6807149396E+001 -7.6609339779E+001 -2.9745239660E+001 -1.9948552519E+001 -1.1434127847E+002
3490000000.000 -1.3070819061E+001 -5.1977222544E+001 -4.4353497597E+001 -7.9335741055E+001 -7.5561114685E+001 +1.4547538695E+002 -2.1130885542E+001 -1.0858531870E+002
3622500000.000 -1.2939069840E+001 -5.3673403771E+001 -4.4246064862E+001 -1.1281723259E+002 -8.0867654678E+001 -9.5139334776E+001 -2.1947688506E+001 -9.8208621996E+001
3755000000.000 -1.2806120643E+001 -5.5417522271E+001 -4.4131903993E+001 -1.4894275235E+002 -7.6136623098E+001 -2.3488528618E+001 -2.2705459278E+001 -9.4660787971E+001
3887500000.000 -1.2669479167E+001 -5.6697806985E+001 -4.3949973881E+001 +1.7547053838E+002 -8.4156067495E+001 +7.7330915106E+001 -2.5040045119E+001 -8.7767913303E+001
4020000000.000 -1.2542089216E+001 -5.7830274925E+001 -4.3808365731E+001 +1.3986822882E+002 -9.6128721001E+001 +1.5425942906E+002 -2.6671640292E+001 -7.3189288152E+001
4152500000.000 -1.2341522502E+001 -5.9112296334E+001 -4.3656100517E+001 +1.0293893335E+002 -7.9820012587E+001 -1.7438583682E+001 -2.8879595386E+001 -6.4679397821E+001
4285000000.000 -1.2148072658E+001 -6.0356337416E+001 -4.3525227696E+001 +6.5134806468E+001 -8.3712031393E+001 +7.7155989527E+001 -3.3331627293E+001 -3.7387702042E+001
4417500000.000 -1.1958179200E+001 -6.1643175418E+001 -4.3468482584E+001 +2.5700711320E+001 -8.1360396752E+001 +1.4610707106E+002 -3.1735535605E+001 +7.9403127556E+000
4550000000.000 -1.1709795522E+001 -6.2708581285E+001 -4.3264950901E+001 -1.3816228756E+001 -9.0462626566E+001 -7.5322746032E+001 -3.0271815802E+001 +1.8418599058E+001
4682500000.000 -1.1298412871E+001 -6.4621679731E+001 -4.3510259842E+001 -6.1404728623E+001 -9.3869780271E+001 +1.4631431668E+002 -2.9644604638E+001 +3.8686748055E+001
4815000000.000 -1.1088723537E+001 -6.6316250727E+001 -4.3484307382E+001 -1.0056488604E+002 -8.5254008616E+001 +1.4171282361E+002 -2.7630107400E+001 +4.1247297215E+001
4947500000.000 -1.0912739075E+001 -6.7734955804E+001 -4.3516771561E+001 -1.3982629444E+002 -1.0083149766E+002 +2.3284562840E+001 -2.9337969112E+001 +3.5717661213E+001
5080000000.000 -1.0694978140E+001 -6.9626933852E+001 -4.3886414618E+001 +1.7708829405E+002 -7.9418885763E+001 -4.1931123247E+001 -3.2231967865E+001 +5.6968639457E+001
5212500000.000 -1.0563960756E+001 -7.1096724073E+001 -4.3961307905E+001 +1.3954505560E+002 -9.1909412258E+001 +1.4331216129E+002 -3.1561941757E+001 +6.9557974396E+001
5345000000.000 -1.0485262075E+001 -7.2132702013E+001 -4.3791201308E+001 +1.0456476557E+002 -8.9262944869E+001 -1.1741083740E+002 -3.5331038308E+001 +7.0907900220E+001
5477500000.000 -1.0381978315E+001 -7.3348626989E+001 -4.4049975727E+001 +6.3647241004E+001 -7.9938401859E+001 -7.6918332247E+001 -3.7275699513E+001 +1.3155179818E+002
5610000000.000 -1.0272348270E+001 -7.4649054402E+001 -4.4479803422E+001 +2.5444556755E+001 -8.2373157658E+001 +1.6953232485E+002 -3.3638150319E+001 +1.3566962305E+002
5742500000.000 -1.0206267977E+001 -7.5655451881E+001 -4.4388354025E+001 -9.9688967383E+000 -8.4308605142E+001 +1.5087032549E+002 -3.7811263280E+001 +1.5265714849E+002
5875000000.000 -1.0187901937E+001 -7.6579757502E+001 -4.4403572299E+001 -4.6210892604E+001 -8.9756961402E+001 -1.1226821438E+002 -3.3783749440E+001 -1.7033786577E+002
6007500000.000 -1.0132041606E+001 -7.7476672635E+001 -4.4821584809E+001 -8.4070840142E+001 -1.1716512150E+002 +1.4602762050E+002 -3.2681524789E+001 +1.7967765435E+002
6140000000.000 -1.0029232064E+001 -7.8499658963E+001 -4.4842968886E+001 -1.2000468809E+002 -8.4957898628E+001 -1.6666323291E+002 -3.6163490010E+001 -1.6991621212E+002
6272500000.000 -9.9808185370E+000 -7.9693673129E+001 -4.4794011751E+001 -1.5396222826E+002 -8.9659175448E+001 -1.0924563564E+002 -3.3869654446E+001 -1.4415153340E+002
6405000000.000 -9.9964974194E+000 -8.0748939432E+001 -4.4991831826E+001 +1.6859106844E+002 -8.6952980795E+001 +4.6122512137E+001 -3.3795749160E+001 -1.6185941967E+002
6537500000.000 -9.9342560520E+000 -8.1382132206E+001 -4.5408850770E+001 +1.3218650696E+002 -8.4651192914E+001 +1.3153528012E+002 -4.0086135655E+001 -1.6090450223E+002
6670000000.000 -9.8025816479E+000 -8.2328920633E+001 -4.5186904693E+001 +9.7532316702E+001 -9.2812140907E+001 +6.6468789703E+001 -3.9409639948E+001 -1.3708876357E+002
6802500000.000 -9.7773900094E+000 -8.3776460107E+001 -4.5683356642E+001 +6.0884899985E+001 -8.6454637181E+001 -3.0899108616E+001 -3.8921540096E+001 +1.7948842259E+002
6935000000.000 -9.8132824966E+000 -8.4697045817E+001 -4.6265626889E+001 +2.4543730566E+001 -8.6312710287E+001 +1.5410132097E+002 -3.8588240220E+001 +1.2308656279E+002
7067500000.000 -9.7245795737E+000 -8.4982345741E+001 -4.6024545677E+001 -9.1545128564E+000 -8.2227364802E+001 -1.1511421049E+002 -3.8942271833E+001 +1.1482210556E+002
7200000000.000 -9.6067869858E+000 -8.5991003454E+001 -4.5960805326E+001 -4.3178927097E+001 -9.0490903898E+001 +6.4145283133E+000 -3.2857039980E+001 +1.3138490647E+002
7332500000.000 -9.5803775737E+000 -8.7193371795E+001 -4.6499723036E+001 -7.9584117840E+001 -8.7823622506E+001 +1.0456186054E+002 -2.9080609084E+001 +1.1912329698E+002
7465000000.000 -9.5497721930E+000 -8.7815460685E+001 -4.6630146400E+001 -1.1412258001E+002 -8.1621911977E+001 -1.4218435839E+002 -2.8656271461E+001 +1.2262627489E+002
7597500000.000 -9.4383253696E+000 -8.8390438061E+001 -4.6230426005E+001 -1.4698763128E+002 -9.9693976668E+001 +9.2986064394E-001 -2.6130130227E+001 +1.3761777073E+002
7730000000.000 -9.3678858083E+000 -8.9282779759E+001 -4.7041606650E+001 +1.7581411215E+002 -9.2274564950E+001 -1.4379095387E+002 -2.3731769047E+001 +1.3792603404E+002
7862500000.000 -9.3265747743E+000 -9.0043493104E+001 -4.7617268511E+001 +1.4078278705E+002 -8.7218061057E+001 -1.3253407538E+002 -2.3300289094E+001 +1.4168059380E+002
7995000000.000 -9.2537227114E+000 -9.0428765265E+001 -4.7288111628E+001 +1.0807105674E+002 -8.0512855301E+001 -3.2599180189E+001 -2.1825337668E+001 +1.5434917200E+002
8127500000.000 -9.1397160177E+000 -9.0929012253E+001 -4.7676114322E+001 +7.2499649984E+001 -8.2931984192E+001 +3.8162015062E+001 -2.0023360182E+001 +1.5650213339E+002
8260000000.000 -9.0902371819E+000 -9.1665872922E+001 -4.8328167106E+001 +3.7632142811E+001 -8.6960700512E+001 +1.7409345099E+002 -1.9870377704E+001 +1.6026709019E+002
8392500000.000 -9.0291439510E+000 -9.2002965087E+001 -4.8205943042E+001 +2.7716026375E+000 -9.2356245230E+001 -1.6963600598E+001 -1.9060337896E+001 +1.7052574614E+002
8525000000.000 -8.9599566900E+000 -9.2217774678E+001 -4.8227950934E+001 -3.1536770741E+001 -8.6137320128E+001 +8.8769187419E+000 -1.8203656145E+001 +1.7298697200E+002
8657500000.000 -8.8946369783E+000 -9.2578796965E+001 -4.8918350139E+001 -6.6797903871E+001 -8.9150204420E+001 +1.1548926480E+002 -1.8572026220E+001 +1.7795982000E+002
8790000000.000 -8.8261210252E+000 -9.3078414890E+001 -4.9161560517E+001 -1.0055568438E+002 -8.6905137842E+001 -1.4841045707E+002 -1.8351579368E+001 -1.7168913994E+002
8922500000.000 -8.8074596030E+000 -9.3375942479E+001 -4.9271118005E+001 -1.3443965764E+002 -8.9271144735E+001 +8.2903466607E+001 -1.7983828445E+001 -1.6606210458E+002
9055000000.000 -8.7477804178E+000 -9.3597385935E+001 -4.9871691987E+001 -1.6836826658E+002 -8.7170213712E+001 +1.1039235810E+002 -1.8463346561E+001 -1.5839752395E+002
9187500000.000 -8.7058625304E+000 -9.3978700579E+001 -4.9931274172E+001 +1.5670940047E+002 -7.9692884354E+001 -1.2062808570E+002 -1.8383567209E+001 -1.4636529070E+002
9320000000.000 -8.6815060426E+000 -9.4653571817E+001 -5.0119563725E+001 +1.2259312589E+002 -9.7243325545E+001 +1.0304353701E+002 -1.8208565318E+001 -1.3970443168E+002
9452500000.000 -8.6573852111E+000 -9.4933009841E+001 -5.0503214669E+001 +8.8983753162E+001 -8.6876735077E+001 +1.4284790815E+002 -1.8856123788E+001 -1.3055723760E+002
9585000000.000 -8.6105485452E+000 -9.5284868012E+001 -5.0946376930E+001 +5.3311223911E+001 -9.0211429269E+001 -1.1410696928E+002 -1.8789369238E+001 -1.1824461097E+002
9717500000.000 -8.5351468377E+000 -9.6022942610E+001 -5.1116441476E+001 +2.0606352574E+001 -8.3194386574E+001 -7.7376716448E+000 -1.8819084341E+001 -1.1120338598E+002
9850000000.000 -8.5371763326E+000 -9.6743683748E+001 -5.1288998602E+001 -1.3171515334E+001 -8.6855102823E+001 +5.9350155579E+001 -1.9661649086E+001 -1.0045733301E+002
9982500000.000 -8.4920829379E+000 -9.6895845984E+001 -5.2007347068E+001 -4.8499690129E+001 -8.4721892662E+001 -1.4998382526E+002 -1.9688567991E+001 -8.6476280022E+001
10115000000.000 -8.4205135360E+000 -9.7387186082E+001 -5.1938983372E+001 -8.2311324784E+001 -8.7543584034E+001 +8.4984432210E+000 -1.9923696947E+001 -7.9139185378E+001
10247500000.000 -8.3752006423E+000 -9.8197876510E+001 -5.2329402410E+001 -1.1635159656E+002 -8.5721640378E+001 +2.4435079917E+001 -2.1155613929E+001 -6.5860821418E+001
10380000000.000 -8.3469792308E+000 -9.8566138812E+001 -5.2898993068E+001 -1.5196476534E+002 -8.6704619968E+001 +7.6331179340E+001 -2.1045432215E+001 -4.9830811390E+001
10512500000.000 -8.2963993535E+000 -9.9037952760E+001 -5.2889863182E+001 +1.7486284612E+002 -8.8830585971E+001 -3.7274898753E+001 -2.1513653931E+001 -4.2011869273E+001
10645000000.000 -8.2486163716E+000 -9.9574147343E+001 -5.3143628324E+001 +1.4054014583E+002 -1.0447591217E+002 -1.3500473767E+002 -2.2827786051E+001 -2.3786396234E+001
10777500000.000 -8.1937288399E+000 -1.0004193150E+002 -5.3708923180E+001 +1.0683622191E+002 -8.3289499812E+001 -1.6503003050E+002 -2.2171580000E+001 -5.8560851709E+000
10910000000.000 -8.1364991685E+000 -1.0050577565E+002 -5.4070526812E+001 +7.3045069393E+001 -8.5485201978E+001 -9.3399575316E+001 -2.2772598411E+001 +4.2203983664E+000
11042500000.000 -8.0744048989E+000 -1.0115615949E+002 -5.4293285803E+001 +3.8525435331E+001 -9.6828764583E+001 -3.5173627263E+001 -2.3459226444E+001 +2.7841767951E+001
11175000000.000 -8.0016474253E+000 -1.0153005291E+002 -5.4493868177E+001 +4.2924053294E+000 -8.1991061224E+001 +1.6812834671E+002 -2.2239900524E+001 +4.2873351436E+001
11307500000.000 -7.9604201836E+000 -1.0174251834E+002 -5.4889977953E+001 -2.8109520101E+001 -7.8113162138E+001 -5.8879527382E+001 -2.2737177638E+001 +5.3173534335E+001
11440000000.000 -7.8895216982E+000 -1.0234842064E+002 -5.5434796401E+001 -6.1964805720E+001 -8.7794317253E+001 -1.7771800259E+001 -2.2577166626E+001 +7.5826107137E+001
11572500000.000 -7.8140908920E+000 -1.0247984594E+002 -5.5696095387E+001 -9.2670492830E+001 -1.0148299845E+002 +6.4628158190E+001 -2.1150069273E+001 +8.7149431663E+001
11705000000.000 -7.7661716750E+000 -1.0273424367E+002 -5.5539634491E+001 -1.2858959561E+002 -9.1808573355E+001 -1.1533174505E+002 -2.1756238795E+001 +9.7040727166E+001
11837500000.000 -7.7063214766E+000 -1.0313974241E+002 -5.6010385587E+001 -1.6328381151E+002 -8.1033254201E+001 -4.3481786852E+001 -2.1130263072E+001 +1.1926133719E+002
11970000000.000 -7.6858031242E+000 -1.0331704652E+002 -5.6233121478E+001 +1.6471285025E+002 -8.4254740195E+001 -2.2439680118E+000 -1.9811241341E+001 +1.2551256758E+002
12102500000.000 -7.6347347255E+000 -1.0318132136E+002 -5.6430580176E+001 +1.2835498427E+002 -9.3786425652E+001 -1.6887941516E+002 -2.0739439307E+001 +1.3550485487E+002
12235000000.000 -7.5954304392E+000 -1.0389898032E+002 -5.7189716869E+001 +9.9294949150E+001 -7.9756354444E+001 -4.4134127352E+001 -1.9757196989E+001 +1.5457183565E+002
12367500000.000 -7.5942661244E+000 -1.0387764949E+002 -5.6736939692E+001 +6.6646490646E+001 -8.2784145637E+001 +6.5451628237E+001 -1.8885198860E+001 +1.5788159082E+002
12500000000.000 -7.5696198644E+000 -1.0435253388E+002 -5.6656535894E+001 +3.0526934199E+001 -8.4246865175E+001 +1.1421957271E+002 -2.0054229344E+001 +1.6820309252E+002
12632500000.000 -7.5083053402E+000 -1.0454509416E+002 -5.7347107185E+001 -7.4084092954E+000 -8.8279585208E+001 +5.2006949326E+000 -1.9156716531E+001 -1.7297092961E+002
12765000000.000 -7.4981206579E+000 -1.0483408242E+002 -5.7808688846E+001 -3.7529599795E+001 -8.7718665541E+001 +1.4423358463E+001 -1.8515265420E+001 -1.7150567154E+002
12897500000.000 -7.5079723452E+000 -1.0518432097E+002 -5.7802678829E+001 -7.5140496312E+001 -8.8731787993E+001 +8.3500066860E+001 -2.0144681605E+001 -1.5940701930E+002
13030000000.000 -7.4805979682E+000 -1.0539699444E+002 -5.8461549677E+001 -1.0548720605E+002 -9.8070246757E+001 -8.1901321067E+001 -1.8818259925E+001 -1.4147366129E+002
13162500000.000 -7.4354005903E+000 -1.0567601345E+002 -5.8028354738E+001 -1.4349479601E+002 -8.8927518909E+001 -3.4603846495E+001 -1.8634170690E+001 -1.4174941535E+002
13295000000.000 -7.4013545281E+000 -1.0604563167E+002 -5.8584711801E+001 -1.7349222381E+002 -8.3053656585E+001 +7.5668712106E+001 -2.0059630268E+001 -1.2780260276E+002
13427500000.000 -7.3981306385E+000 -1.0661387028E+002 -5.9246395362E+001 +1.5308975974E+002 -8.1936918241E+001 -1.1430729419E+002 -1.8820981842E+001 -1.1404076476E+002
13560000000.000 -7.3955666214E+000 -1.0659172440E+002 -5.9750401074E+001 +1.2467028380E+002 -7.7329048543E+001 +2.5168212418E+001 -1.9021881878E+001 -1.1474554276E+002
13692500000.000 -7.3297019578E+000 -1.0678316936E+002 -5.9821487186E+001 +7.2713035327E+001 -9.6851655062E+001 +1.0560591278E+002 -2.0837302853E+001 -1.0129860397E+002
13825000000.000 -7.2782374511E+000 -1.0736378996E+002 -5.9569450028E+001 +5.3141802135E+001 -8.1355690262E+001 -1.6690234244E+002 -1.9707832246E+001 -8.7482173087E+001
13957500000.000 -7.2922097936E+000 -1.0779610790E+002 -6.0603171303E+001 +1.8429160786E+001 -1.0075394972E+002 -5.6417274669E+001 -2.0352443148E+001 -9.0025037881E+001
14090000000.000 -7.2686506474E+000 -1.0785018803E+002 -6.0044257068E+001 -1.6651242686E+001 -8.3655973056E+001 +5.8820442226E+001 -2.2670557030E+001 -7.2672396025E+001
14222500000.000 -7.1926104116E+000 -1.0790591228E+002 -6.1773408544E+001 -4.4675679348E+001 -8.3849478016E+001 -1.4616700454E+002 -2.1285462475E+001 -5.9316144159E+001
14355000000.000 -7.1555443003E+000 -1.0850237116E+002 -6.1108252508E+001 -8.7016984903E+001 -8.1054115121E+001 -8.6368347196E+001 -2.2496961123E+001 -6.3533977180E+001
14487500000.000 -7.1452633969E+000 -1.0879054502E+002 -6.1512011938E+001 -1.1630966576E+002 -8.3954783258E+001 +6.2746394092E+001 -2.5546714363E+001 -4.0373446154E+001
14620000000.000 -7.1068700627E+000 -1.0870877143E+002 -6.1623626501E+001 -1.4068466738E+002 -9.1174586145E+001 +7.3340536914E+001 -2.3286023481E+001 -2.7376994444E+001
14752500000.000 -7.0049581503E+000 -1.0898302447E+002 -6.0991300107E+001 +1.7384813383E+002 -7.9966261284E+001 -7.5175273139E+001 -2.5356006206E+001 -3.6528132285E+001
14885000000.000 -6.9690795091E+000 -1.0928360347E+002 -6.1678462364E+001 +1.5024175759E+002 -8.4294791879E+001 +5.3942394093E+001 -2.8895957877E+001 +2.4780520193E+000
15017500000.000 -6.9532852537E+000 -1.0928637133E+002 -6.2486036452E+001 +1.1646846536E+002 -7.9124133265E+001 +1.0002765386E+002 -2.5383727144E+001 +9.0703008802E+000
15150000000.000 -6.8680976149E+000 -1.0916222555E+002 -6.1103832824E+001 +7.7449951225E+001 -7.9637134728E+001 -1.3823402854E+002 -2.9136427976E+001 -2.2031994044E+000
15282500000.000 -6.8137008140E+000 -1.0918191876E+002 -6.2280598653E+001 +4.3522506998E+001 -7.7202072135E+001 +3.2496644855E+000 -3.1033600175E+001 +5.7844220977E+001
