!  2-Port S-parameters saved by WinCal
! VAR MeasName=S-Parameters (CALIBRATED_DATA) read from VNA (C)
! VAR MeasDate=10/16/2015 3:10:14 PM
! VAR NAME=M6082_10_15_2_2_20C_4.8mA_-17.5dBm
! VAR FILENAME=M6082_10_15_2_2_20C_4.8mA_-17.5dBm.S2P
! VAR DATE=10/16/2015 3:10:14 PM
! VAR PHYS_PORTS=2,1
! VAR ObjTypeName=DATASET
! VAR IndexType=Frequency
!
# Hz S DB R 50
45000000.000 -2.9777805736E+001 -1.7653839361E+002 -4.2125348099E+001 +9.9434499396E+001 -5.9435578831E+001 -1.0560119808E+002 -3.1191388626E+001 +5.6577405421E+000
177500000.000 -2.9777150660E+001 -1.6176956016E+002 -4.2135158586E+001 +6.9120125051E+001 -7.6984690856E+001 +9.6764296104E+001 -3.2678917125E+001 +4.6104456341E+001
310000000.000 -2.8806888309E+001 -1.4750639758E+002 -4.2879183715E+001 +3.8263357471E+001 -7.4352625166E+001 -1.9656821687E+001 -2.3343126021E+001 +6.4806055966E+001
442500000.000 -2.7494152239E+001 -1.3640928148E+002 -4.1884718892E+001 -8.4516940078E-001 -7.6408818428E+001 -2.4174433070E+000 -2.2384650672E+001 +1.7218820896E+001
575000000.000 -2.6018508623E+001 -1.2852296260E+002 -4.2173632456E+001 -3.6696205488E+001 -8.1206895230E+001 +1.5864993346E+002 -3.0650681847E+001 +2.2327764269E+001
707500000.000 -2.4739246953E+001 -1.2388621174E+002 -4.2399833272E+001 -7.0746156471E+001 -9.1409522235E+001 +1.5317262173E+001 -3.4540131480E+001 +8.3841962597E+001
840000000.000 -2.3515473890E+001 -1.1984870365E+002 -4.2442041365E+001 -1.0560014745E+002 -8.5505342117E+001 +3.2560826071E+001 -2.9685932520E+001 +1.2748720113E+002
972500000.000 -2.2453759873E+001 -1.1678157376E+002 -4.2657728580E+001 -1.3951560579E+002 -8.7790007907E+001 -6.7537740821E+001 -2.5957108178E+001 +1.3536208290E+002
1105000000.000 -2.1425823809E+001 -1.1497301538E+002 -4.2626174128E+001 -1.7343528656E+002 -9.3957534748E+001 -1.6523435745E+002 -2.4366269492E+001 +1.4089185680E+002
1237500000.000 -2.0541840297E+001 -1.1367053848E+002 -4.2708367062E+001 +1.5247696494E+002 -9.0503475132E+001 -4.1252200758E+001 -2.3393446836E+001 +1.4998225415E+002
1370000000.000 -1.9724523703E+001 -1.1279349441E+002 -4.2781279708E+001 +1.1786860989E+002 -9.0466673594E+001 +1.2703228487E+002 -2.2077899206E+001 +1.6002140031E+002
1502500000.000 -1.8996527695E+001 -1.1204258722E+002 -4.2941314520E+001 +8.3644992643E+001 -8.2522886280E+001 -1.5535481596E+002 -2.0864718335E+001 +1.6639007049E+002
1635000000.000 -1.8300810883E+001 -1.1113622623E+002 -4.2905339947E+001 +4.9636990428E+001 -9.0053756823E+001 +1.0083124086E+001 -2.0024175731E+001 +1.7326237774E+002
1767500000.000 -1.7632260745E+001 -1.1098338662E+002 -4.2870884825E+001 +1.5284964855E+001 -8.4169639713E+001 +8.4014466668E+001 -1.9022302687E+001 +1.7853315162E+002
1900000000.000 -1.7099754189E+001 -1.1074803189E+002 -4.2834871013E+001 -1.9795313698E+001 -8.1547484027E+001 +1.5316574232E+002 -1.8872132001E+001 -1.7822993459E+002
2032500000.000 -1.6578224893E+001 -1.1062436207E+002 -4.3087203091E+001 -5.3889084450E+001 -9.1401423698E+001 -7.7952744845E+001 -1.8698964644E+001 -1.6787488542E+002
2165000000.000 -1.6029638172E+001 -1.1033092261E+002 -4.2943997863E+001 -8.8280032292E+001 -8.1709220812E+001 +7.5291884611E+001 -1.7748698318E+001 -1.6096394733E+002
2297500000.000 -1.5575365691E+001 -1.1040879514E+002 -4.3067711209E+001 -1.2261452578E+002 -8.9924158366E+001 -1.5467236260E+002 -1.7247540333E+001 -1.5709993118E+002
2430000000.000 -1.5165602682E+001 -1.1054930057E+002 -4.3188651763E+001 -1.5693113321E+002 -8.0228479287E+001 -6.2290244163E+001 -1.6950263976E+001 -1.5284322769E+002
2562500000.000 -1.4723724632E+001 -1.1058001345E+002 -4.3189204279E+001 +1.6897123975E+002 -8.7140011182E+001 -1.0135231206E+002 -1.6848989181E+001 -1.5043996141E+002
2695000000.000 -1.4351733347E+001 -1.1129303082E+002 -4.3205724814E+001 +1.3537862250E+002 -7.4912199494E+001 -1.7155936174E+002 -1.7383046039E+001 -1.4707958320E+002
2827500000.000 -1.4032709390E+001 -1.1186960656E+002 -4.3354959344E+001 +1.0104936094E+002 -8.0325060365E+001 -3.5872282103E+001 -1.7856573611E+001 -1.4036563093E+002
2960000000.000 -1.3693237897E+001 -1.1190194414E+002 -4.3353115235E+001 +6.7196175288E+001 -7.7597783643E+001 -4.1702683546E+000 -1.8169657883E+001 -1.3539057871E+002
3092500000.000 -1.3309459918E+001 -1.1231354907E+002 -4.3408487654E+001 +3.2686496806E+001 -8.5280252094E+001 -3.5127543846E+001 -1.9085941901E+001 -1.2928414684E+002
3225000000.000 -1.2971643727E+001 -1.1312933565E+002 -4.3474034109E+001 -1.1127161102E+000 -9.5869529927E+001 +7.4205855676E+001 -1.9581284329E+001 -1.1980171592E+002
3357500000.000 -1.2724212756E+001 -1.1366901964E+002 -4.3650192931E+001 -3.5264263780E+001 -8.5345578241E+001 +2.3068157949E+001 -1.9971201188E+001 -1.1425357051E+002
3490000000.000 -1.2398846212E+001 -1.1383594962E+002 -4.3667242198E+001 -6.9628810702E+001 -7.7618454486E+001 -3.2912855596E+001 -2.1120418870E+001 -1.0844674374E+002
3622500000.000 -1.2081811450E+001 -1.1424680904E+002 -4.3585561700E+001 -1.0342596469E+002 -8.2796962961E+001 -1.3492710730E+002 -2.1926842675E+001 -9.8186053362E+001
3755000000.000 -1.1778494645E+001 -1.1480997493E+002 -4.3381357079E+001 -1.3706052102E+002 -9.3773909233E+001 -1.3200183514E+002 -2.2706604581E+001 -9.4604507124E+001
3887500000.000 -1.1529282735E+001 -1.1521288059E+002 -4.3555654973E+001 -1.7089006089E+002 -7.8764367074E+001 +1.0905204110E+002 -2.5065412933E+001 -8.7694755460E+001
4020000000.000 -1.1291996956E+001 -1.1556789249E+002 -4.3505320034E+001 +1.5468534235E+002 -8.1747611215E+001 +1.5555172489E+002 -2.6678758419E+001 -7.3189874251E+001
4152500000.000 -1.1033456303E+001 -1.1580326930E+002 -4.3456052039E+001 +1.2121381779E+002 -7.9903225711E+001 -3.1258061123E+001 -2.8901672620E+001 -6.4852851434E+001
4285000000.000 -1.0786796175E+001 -1.1622528998E+002 -4.3511983202E+001 +8.5701917279E+001 -8.2849264499E+001 +5.6691668576E+001 -3.3356921337E+001 -3.7294604465E+001
4417500000.000 -1.0559630059E+001 -1.1679977676E+002 -4.3512772803E+001 +5.1371519953E+001 -8.2699136908E+001 -1.4415762513E+002 -3.1741541509E+001 +8.0226001057E+000
4550000000.000 -1.0370948078E+001 -1.1704119315E+002 -4.3815414281E+001 +1.7658111319E+001 -8.0965341839E+001 -6.8731462310E+001 -3.0337383805E+001 +1.8216814411E+001
4682500000.000 -1.0149483630E+001 -1.1724934261E+002 -4.3822002768E+001 -1.6098066965E+001 -9.2067993719E+001 +6.0238122741E+001 -2.9677968185E+001 +3.9006955019E+001
4815000000.000 -9.9337151099E+000 -1.1768659794E+002 -4.3891144552E+001 -4.8608115431E+001 -8.5851227204E+001 +7.2567931078E+001 -2.7652154836E+001 +4.1259237802E+001
4947500000.000 -9.7622168661E+000 -1.1800761026E+002 -4.3752513673E+001 -8.2996607285E+001 -8.5210628082E+001 -1.0029249873E+002 -2.9391686383E+001 +3.5852309612E+001
5080000000.000 -9.5867305010E+000 -1.1812970811E+002 -4.3701995078E+001 -1.1635641803E+002 -8.6827197402E+001 +1.2029656179E+002 -3.2232450166E+001 +5.7269875123E+001
5212500000.000 -9.4003753984E+000 -1.1842203684E+002 -4.3661887464E+001 -1.5055240692E+002 -8.7480781253E+001 +1.4616425784E+002 -3.1570585222E+001 +6.9735467864E+001
5345000000.000 -9.2416453380E+000 -1.1886684657E+002 -4.3549266119E+001 +1.7457555101E+002 -8.9776120326E+001 -1.4100066746E+002 -3.5365026448E+001 +7.1649162079E+001
5477500000.000 -9.1225023780E+000 -1.1902450617E+002 -4.3466113521E+001 +1.4085656440E+002 -8.1215342508E+001 -4.3128323074E+001 -3.7165753843E+001 +1.3184097049E+002
5610000000.000 -8.9611655006E+000 -1.1918016633E+002 -4.3491400698E+001 +1.0680368283E+002 -8.6061563687E+001 +6.9528791989E+001 -3.3652867451E+001 +1.3602058855E+002
5742500000.000 -8.8152497744E+000 -1.1963447975E+002 -4.3437159004E+001 +7.1810816601E+001 -9.0998317574E+001 -9.9076744104E+001 -3.7742178805E+001 +1.5283479298E+002
5875000000.000 -8.7171024312E+000 -1.2017797948E+002 -4.3460625783E+001 +3.7542168094E+001 -9.8053318199E+001 +1.6090286542E+002 -3.3723496299E+001 -1.7052633892E+002
6007500000.000 -8.6079055847E+000 -1.2042410750E+002 -4.3424508040E+001 +3.2355779790E+000 -9.0513714745E+001 +1.0866762478E+002 -3.2677685369E+001 +1.7979774171E+002
6140000000.000 -8.4607613711E+000 -1.2068099321E+002 -4.3386064834E+001 -3.1123936450E+001 -8.8759433134E+001 -1.3702262975E+002 -3.6100587018E+001 -1.6917230354E+002
6272500000.000 -8.3209595509E+000 -1.2136745317E+002 -4.3364879024E+001 -6.5943930284E+001 -8.7305420631E+001 -6.1776846904E+001 -3.3803392557E+001 -1.4421178412E+002
6405000000.000 -8.2347367856E+000 -1.2206349856E+002 -4.3319895210E+001 -1.0028318001E+002 -9.8931547325E+001 +1.0151490144E+002 -3.3854053102E+001 -1.6183500299E+002
6537500000.000 -8.1301530346E+000 -1.2218378656E+002 -4.3404220083E+001 -1.3476414564E+002 -8.9811430626E+001 +1.7251206922E+002 -4.0164385699E+001 -1.6012798192E+002
6670000000.000 -7.9715901895E+000 -1.2244483520E+002 -4.3462856137E+001 -1.6907204171E+002 -8.7267078928E+001 -1.0093159013E+002 -3.9351649318E+001 -1.3701386045E+002
6802500000.000 -7.8293620169E+000 -1.2320630825E+002 -4.3576803526E+001 +1.5695899360E+002 -8.6491836975E+001 +3.8476805865E+001 -3.8836488113E+001 +1.7934046811E+002
6935000000.000 -7.7621940695E+000 -1.2379792553E+002 -4.3486329182E+001 +1.2211245859E+002 -8.6737864431E+001 +1.5021112599E+002 -3.8602602700E+001 +1.2250615898E+002
7067500000.000 -7.6741358835E+000 -1.2383614311E+002 -4.3543269715E+001 +8.8385246435E+001 -8.7731554681E+001 +1.7197098071E+002 -3.9064980045E+001 +1.1409575211E+002
7200000000.000 -7.5189402171E+000 -1.2413955448E+002 -4.3620650499E+001 +5.4390286025E+001 -8.9068456096E+001 -1.4334032077E+001 -3.2889915847E+001 +1.3158630622E+002
7332500000.000 -7.4022716489E+000 -1.2484775660E+002 -4.3560950817E+001 +1.9602733511E+001 -8.8754290937E+001 +9.7382874992E+001 -2.9056299008E+001 +1.1918136846E+002
7465000000.000 -7.3267924338E+000 -1.2521661632E+002 -4.3509168908E+001 -1.3743953513E+001 -8.8346829178E+001 +4.7631630732E+001 -2.8635349618E+001 +1.2236133276E+002
7597500000.000 -7.2223242235E+000 -1.2534767138E+002 -4.3542620814E+001 -4.8017978293E+001 -8.6976022333E+001 -6.2006980308E+001 -2.6155914348E+001 +1.3749828074E+002
7730000000.000 -7.0830017475E+000 -1.2562450761E+002 -4.3650181054E+001 -8.3060183361E+001 -8.4020383651E+001 +1.1834863859E+002 -2.3724147881E+001 +1.3793296949E+002
7862500000.000 -6.9878464283E+000 -1.2601731456E+002 -4.3645212278E+001 -1.1690338253E+002 -8.2404117707E+001 -1.4235537248E+002 -2.3269218884E+001 +1.4148889600E+002
7995000000.000 -6.9122179995E+000 -1.2620258929E+002 -4.3619156701E+001 -1.5042552202E+002 -8.2589605719E+001 -3.5337761013E+001 -2.1844445918E+001 +1.5423755461E+002
8127500000.000 -6.7962356223E+000 -1.2618887959E+002 -4.3628056842E+001 +1.7472181418E+002 -1.0070703830E+002 -1.0683120316E+002 -2.0027785049E+001 +1.5652530195E+002
8260000000.000 -6.6915842937E+000 -1.2658428627E+002 -4.3647368279E+001 +1.4139895663E+002 -8.3010328672E+001 +1.7894948377E+002 -1.9860278004E+001 +1.6018355841E+002
8392500000.000 -6.6282088234E+000 -1.2672363002E+002 -4.3608736315E+001 +1.0705647092E+002 -8.2871919657E+001 -6.7376021586E+001 -1.9073924192E+001 +1.7043109373E+002
8525000000.000 -6.5571330464E+000 -1.2669320290E+002 -4.3534482412E+001 +7.3453082389E+001 -8.7233351676E+001 +7.1679386322E+000 -1.8217695690E+001 +1.7301144187E+002
8657500000.000 -6.4674605440E+000 -1.2679884125E+002 -4.3473976903E+001 +3.8261036653E+001 -8.2778089424E+001 +1.1575408659E+002 -1.8570099862E+001 +1.7796769292E+002
8790000000.000 -6.3781265912E+000 -1.2707068276E+002 -4.3454752818E+001 +3.1206169830E+000 -8.8410630466E+001 +3.0794575149E+001 -1.8352606540E+001 -1.7173565586E+002
8922500000.000 -6.3439706182E+000 -1.2730147355E+002 -4.3527390105E+001 -3.0217916468E+001 -9.6709502850E+001 -1.6599255417E+002 -1.7992191789E+001 -1.6595365984E+002
9055000000.000 -6.2735628726E+000 -1.2737684068E+002 -4.3454033935E+001 -6.4838049250E+001 -8.9703578965E+001 +1.1726156666E+002 -1.8460238065E+001 -1.5831110900E+002
9187500000.000 -6.2028665837E+000 -1.2756380173E+002 -4.3369480064E+001 -9.8915160970E+001 -8.6622435831E+001 +1.6454605336E+002 -1.8387763034E+001 -1.4624649150E+002
9320000000.000 -6.1364625809E+000 -1.2814478585E+002 -4.3410623448E+001 -1.3373249977E+002 -8.0929049355E+001 -3.3309269594E+001 -1.8210172610E+001 -1.3966744676E+002
9452500000.000 -6.0939685380E+000 -1.2842572555E+002 -4.3354369883E+001 -1.6800575484E+002 -9.4641900778E+001 -7.8167696745E+001 -1.8855968181E+001 -1.3057905871E+002
9585000000.000 -6.0296111010E+000 -1.2864012650E+002 -4.3288261469E+001 +1.5727364914E+002 -9.1915869896E+001 -7.8034843902E+001 -1.8801778901E+001 -1.1818056817E+002
9717500000.000 -5.9330751856E+000 -1.2899016117E+002 -4.3326194385E+001 +1.2235472137E+002 -8.7118491405E+001 -1.6109401167E+002 -1.8804928549E+001 -1.1105898082E+002
9850000000.000 -5.8860502032E+000 -1.2968455226E+002 -4.3332044603E+001 +8.8432072716E+001 -8.7223995463E+001 +7.4938747282E+000 -1.9656646484E+001 -1.0054312260E+002
9982500000.000 -5.8437268389E+000 -1.2973844588E+002 -4.3315688112E+001 +5.3867291169E+001 -8.8761537962E+001 +1.6276538322E+002 -1.9710212722E+001 -8.6391227039E+001
10115000000.000 -5.7683876297E+000 -1.2992148210E+002 -4.3250904669E+001 +1.8325036528E+001 -8.2730848728E+001 -5.8150072478E+000 -1.9917828725E+001 -7.8939312807E+001
10247500000.000 -5.6842302029E+000 -1.3046591634E+002 -4.3220247847E+001 -1.5801040790E+001 -8.7172843908E+001 +1.2766250727E+002 -2.1149969323E+001 -6.6046884423E+001
10380000000.000 -5.6455874487E+000 -1.3085541049E+002 -4.3301666684E+001 -5.0330508558E+001 -8.0958238876E+001 +1.0202650722E+002 -2.1082891226E+001 -4.9790247678E+001
10512500000.000 -5.5996780930E+000 -1.3109456516E+002 -4.3257906020E+001 -8.4954578871E+001 -9.5986995241E+001 +1.7714464576E+002 -2.1507496608E+001 -4.1724005827E+001
10645000000.000 -5.5353925101E+000 -1.3135189843E+002 -4.3316121654E+001 -1.1838830921E+002 -8.7662368953E+001 +2.3862215899E+001 -2.2815275420E+001 -2.3816109742E+001
10777500000.000 -5.4609333196E+000 -1.3169548585E+002 -4.3272776265E+001 -1.5301731734E+002 -8.5078366313E+001 +1.4263678965E+002 -2.2228429346E+001 -5.7867682159E+000
10910000000.000 -5.4030379548E+000 -1.3207727177E+002 -4.3136990964E+001 +1.7149065555E+002 -9.2530778934E+001 -1.0493723571E+002 -2.2785543395E+001 +4.4864901271E+000
11042500000.000 -5.3407515537E+000 -1.3239463438E+002 -4.3315902711E+001 +1.3709176927E+002 -8.3042685177E+001 +1.4491113958E+001 -2.3446733675E+001 +2.7677098053E+001
11175000000.000 -5.2730946457E+000 -1.3251024997E+002 -4.3325684965E+001 +1.0302314606E+002 -8.9370596763E+001 +6.7313734447E+001 -2.2274004843E+001 +4.2855938679E+001
11307500000.000 -5.2240019540E+000 -1.3269929072E+002 -4.3275277105E+001 +6.7529513636E+001 -8.3923116028E+001 -1.3925741238E+002 -2.2740267954E+001 +5.3451615037E+001
11440000000.000 -5.1545135939E+000 -1.3300879141E+002 -4.3275973132E+001 +3.2485094324E+001 -8.7162578219E+001 -8.3243658619E+001 -2.2581072822E+001 +7.5868143544E+001
11572500000.000 -5.1038085814E+000 -1.3299032915E+002 -4.3288422941E+001 -1.5560798101E+000 -8.5118832532E+001 -7.1293118142E+000 -2.1170414980E+001 +8.7182805334E+001
11705000000.000 -5.0571872100E+000 -1.3308745591E+002 -4.3298376083E+001 -3.7269304069E+001 -8.5747061598E+001 +1.6226620202E+002 -2.1777282381E+001 +9.7247099729E+001
11837500000.000 -4.9972303149E+000 -1.3331722191E+002 -4.3349441769E+001 -7.1655254667E+001 -8.5436763278E+001 -2.4585995672E+001 -2.1116104660E+001 +1.1952847524E+002
11970000000.000 -4.9829686161E+000 -1.3348901409E+002 -4.3346172885E+001 -1.0620936124E+002 -8.2295977160E+001 +2.0173369654E+001 -1.9808136148E+001 +1.2564777534E+002
12102500000.000 -4.9615138784E+000 -1.3340405808E+002 -4.3387377828E+001 -1.4086376461E+002 -8.5665000747E+001 -1.6258877543E+002 -2.0740631624E+001 +1.3556383380E+002
12235000000.000 -4.8999988866E+000 -1.3386319015E+002 -4.3356703889E+001 -1.7590722121E+002 -9.1084150143E+001 -1.5002250045E+002 -1.9759679083E+001 +1.5474048762E+002
12367500000.000 -4.8950814938E+000 -1.3398767424E+002 -4.3408661873E+001 +1.4940114446E+002 -8.0205587981E+001 +4.1167596804E+000 -1.8876018386E+001 +1.5811122282E+002
12500000000.000 -4.8671568439E+000 -1.3437963305E+002 -4.3320649309E+001 +1.1339286979E+002 -1.0577103178E+002 -9.4482576062E+000 -2.0039919978E+001 +1.6820260223E+002
12632500000.000 -4.8230705887E+000 -1.3445602476E+002 -4.3450135658E+001 +7.9315803498E+001 -8.8975514462E+001 -1.5099025973E+002 -1.9174050575E+001 -1.7289273213E+002
12765000000.000 -4.7940257394E+000 -1.3473697526E+002 -4.3466470592E+001 +4.5125253785E+001 -8.2874773022E+001 -3.1843467084E+001 -1.8518056408E+001 -1.7116178684E+002
12897500000.000 -4.7819115804E+000 -1.3507718909E+002 -4.3544027345E+001 +9.6744140035E+000 -8.3958245576E+001 +1.4373475983E+002 -2.0121331493E+001 -1.5945770355E+002
13030000000.000 -4.7569859532E+000 -1.3527900965E+002 -4.3739111883E+001 -2.5566228068E+001 -9.4409084768E+001 -8.6474808960E+000 -1.8865245819E+001 -1.4152530704E+002
13162500000.000 -4.7204715614E+000 -1.3541729309E+002 -4.3730274697E+001 -5.9439745946E+001 -8.3692817629E+001 -6.4725293170E+000 -1.8651553599E+001 -1.4143663739E+002
13295000000.000 -4.6875008057E+000 -1.3561615113E+002 -4.3749974062E+001 -9.5059399565E+001 -9.1182983361E+001 +1.3716765322E+002 -2.0022397495E+001 -1.2777888858E+002
13427500000.000 -4.6687639291E+000 -1.3603285472E+002 -4.3781622990E+001 -1.2981557295E+002 -9.4998794358E+001 +1.3441126736E+002 -1.8868184511E+001 -1.1415067353E+002
13560000000.000 -4.6693031044E+000 -1.3612500391E+002 -4.3908158684E+001 -1.6456544799E+002 -8.6064113371E+001 -1.0883339478E+001 -1.9065613534E+001 -1.1454401648E+002
13692500000.000 -4.6290096735E+000 -1.3621251167E+002 -4.3976949922E+001 +1.6089450047E+002 -8.2134492604E+001 +1.7581541580E+002 -2.0822855379E+001 -1.0124772926E+002
13825000000.000 -4.5833575253E+000 -1.3654260900E+002 -4.3946644239E+001 +1.2536908477E+002 -8.3725677234E+001 +1.2991531329E+002 -1.9738705547E+001 -8.7585713667E+001
13957500000.000 -4.5767088478E+000 -1.3694996432E+002 -4.4158734381E+001 +8.9916211735E+001 -8.2221434710E+001 -6.9206504812E+001 -2.0410952659E+001 -9.0050414223E+001
14090000000.000 -4.5663756659E+000 -1.3707217124E+002 -4.4091728344E+001 +5.5439076989E+001 -9.1190993705E+001 +1.1419712361E+002 -2.2661429010E+001 -7.2520033258E+001
14222500000.000 -4.5248100971E+000 -1.3700291137E+002 -4.4349699098E+001 +2.0196473970E+001 -9.1289806728E+001 +5.1748328879E+001 -2.1284924837E+001 -5.9330034201E+001
14355000000.000 -4.4704124054E+000 -1.3739718234E+002 -4.4351528457E+001 -1.4401496722E+001 -8.2805098452E+001 -6.3492959165E+001 -2.2526754957E+001 -6.3706905936E+001
14487500000.000 -4.4493478404E+000 -1.3759586243E+002 -4.4698425422E+001 -4.9262806374E+001 -8.3376397371E+001 +3.6425640944E+001 -2.5586869017E+001 -4.0124763592E+001
14620000000.000 -4.4403135247E+000 -1.3754363738E+002 -4.4655518776E+001 -8.3065243942E+001 -8.5782943199E+001 +1.1036353026E+002 -2.3290988376E+001 -2.7331052978E+001
14752500000.000 -4.3643584006E+000 -1.3744375061E+002 -4.4871283685E+001 -1.1841714784E+002 -7.9697381611E+001 -9.7755789324E+001 -2.5363274316E+001 -3.6958246942E+001
14885000000.000 -4.3233413507E+000 -1.3756455869E+002 -4.4921288953E+001 -1.5372562390E+002 -7.9684198694E+001 -5.1972478283E+001 -2.9026775415E+001 +2.6734076756E+000
15017500000.000 -4.3127691883E+000 -1.3755432001E+002 -4.5203027115E+001 +1.7129561917E+002 -8.3495493013E+001 +1.5986499521E+002 -2.5398825714E+001 +9.4449283273E+000
15150000000.000 -4.2718971143E+000 -1.3738548109E+002 -4.5280121319E+001 +1.3699082940E+002 -8.1852731517E+001 +1.7213143509E+002 -2.9082870702E+001 -2.6564994534E+000
15282500000.000 -4.2440710483E+000 -1.3730422326E+002 -4.5271335027E+001 +1.0252309898E+002 -8.0317355969E+001 -2.4124782974E+001 -3.1290436847E+001 +5.7973154755E+001
