!  2-Port S-parameters saved by WinCal
! VAR MeasName=S-Parameters (CALIBRATED_DATA) read from VNA (C)
! VAR MeasDate=10/16/2015 1:44:12 PM
! VAR NAME=M6082_13_17_2_2_20C_3.5mA_-17.5dBm
! VAR FILENAME=M6082_13_17_2_2_20C_3.5mA_-17.5dBm.S2P
! VAR DATE=10/16/2015 1:44:12 PM
! VAR PHYS_PORTS=2,1
! VAR ObjTypeName=DATASET
! VAR IndexType=Frequency
!
# Hz S DB R 50
45000000.000 -2.8418842275E+001 -3.3348278763E+000 -4.2615866411E+001 +1.0655831485E+002 -5.9745278471E+001 +1.0684236025E+001 -3.0962888823E+001 +8.2133711243E+000
177500000.000 -2.8072675712E+001 -1.4244368678E+001 -4.4097238716E+001 +6.8495787902E+001 -7.6300590723E+001 +8.7567856446E+001 -3.2707899330E+001 +4.6426966246E+001
310000000.000 -2.7634285038E+001 -2.4159703237E+001 -4.4251341469E+001 +3.8390418897E+001 -7.7476431595E+001 -9.7208569005E+001 -2.3324431761E+001 +6.4497041408E+001
442500000.000 -2.6963569615E+001 -3.3473164511E+001 -4.3168226609E+001 -1.1470216685E+000 -8.0143855890E+001 -1.0595135757E+002 -2.2381397107E+001 +1.7326582406E+001
575000000.000 -2.6167119129E+001 -4.2070484702E+001 -4.3550810490E+001 -3.7896260808E+001 -8.5632063211E+001 +9.9930417309E+001 -3.0609742945E+001 +2.2451617244E+001
707500000.000 -2.5446982962E+001 -4.8856995608E+001 -4.3858931106E+001 -7.1342085316E+001 -8.1808441748E+001 +1.7318405490E+002 -3.4507055664E+001 +8.3587992999E+001
840000000.000 -2.4587584782E+001 -5.4475679173E+001 -4.4021497909E+001 -1.0565144249E+002 -9.1851709185E+001 +4.8073015823E+001 -2.9684757894E+001 +1.2735747124E+002
972500000.000 -2.3785792442E+001 -5.8858014335E+001 -4.4050977949E+001 -1.3918304319E+002 -8.7812184150E+001 +8.7404585103E+001 -2.5945386485E+001 +1.3517619986E+002
1105000000.000 -2.3037482739E+001 -6.3312922129E+001 -4.4079192408E+001 -1.7372567681E+002 -8.9548725744E+001 -1.0831336645E+002 -2.4360392424E+001 +1.4078134729E+002
1237500000.000 -2.2378660560E+001 -6.6715739685E+001 -4.4244830168E+001 +1.5207540679E+002 -8.1399986432E+001 -6.8604196970E+001 -2.3390693209E+001 +1.4988640652E+002
1370000000.000 -2.1731687652E+001 -6.9767762152E+001 -4.4262327377E+001 +1.1793532081E+002 -8.5033179321E+001 +1.4901990760E+002 -2.2074900143E+001 +1.5991042672E+002
1502500000.000 -2.1125994575E+001 -7.2373155224E+001 -4.4271422418E+001 +8.3555464242E+001 -8.4288595702E+001 -1.3244965092E+002 -2.0865246334E+001 +1.6639419591E+002
1635000000.000 -2.0501801341E+001 -7.4216824548E+001 -4.4229639708E+001 +5.0330197271E+001 -8.5496008894E+001 +3.2810341009E+000 -2.0027748821E+001 +1.7327504784E+002
1767500000.000 -1.9916748129E+001 -7.6494583556E+001 -4.4260080121E+001 +1.5038330396E+001 -8.8356175004E+001 +8.5708827461E+001 -1.9023052560E+001 +1.7849785647E+002
1900000000.000 -1.9456468564E+001 -7.8145284202E+001 -4.4434288527E+001 -1.9340422591E+001 -9.1328087769E+001 -1.5413841472E+002 -1.8867410319E+001 -1.7827888066E+002
2032500000.000 -1.8993251880E+001 -7.9781505479E+001 -4.4321977073E+001 -5.2568397022E+001 -7.9664425264E+001 -5.1281181152E+001 -1.8690323659E+001 -1.6791403916E+002
2165000000.000 -1.8471894369E+001 -8.0952946863E+001 -4.4330377413E+001 -8.7147140926E+001 -7.8574281443E+001 +5.4781536564E+001 -1.7746072901E+001 -1.6099132339E+002
2297500000.000 -1.8050815721E+001 -8.2344079227E+001 -4.4389063290E+001 -1.2140487888E+002 -8.3061192377E+001 +1.4057482976E+002 -1.7241661620E+001 -1.5708176303E+002
2430000000.000 -1.7680246218E+001 -8.3658329901E+001 -4.4513888406E+001 -1.5494619487E+002 -8.3336196389E+001 -5.9432264513E+000 -1.6942198725E+001 -1.5288777248E+002
2562500000.000 -1.7262371920E+001 -8.4675335916E+001 -4.4771533422E+001 +1.6975695052E+002 -7.7419693060E+001 +2.6814698229E+001 -1.6825192444E+001 -1.5050792409E+002
2695000000.000 -1.6932556523E+001 -8.6355666641E+001 -4.4634839913E+001 +1.3658295425E+002 -8.2768915522E+001 -1.1239674252E+002 -1.7378783668E+001 -1.4713434946E+002
2827500000.000 -1.6671745135E+001 -8.7555750407E+001 -4.4429311304E+001 +1.0244714064E+002 -7.6598854748E+001 +1.6779358524E+002 -1.7845397903E+001 -1.4031147388E+002
2960000000.000 -1.6355195331E+001 -8.8362027952E+001 -4.4502454573E+001 +6.8319994135E+001 -8.2849964436E+001 +5.5831591780E+001 -1.8147587522E+001 -1.3546450970E+002
3092500000.000 -1.5966985303E+001 -8.9557623384E+001 -4.4717933132E+001 +3.3904645244E+001 -7.8993080873E+001 +1.3879708766E+002 -1.9077229884E+001 -1.2936670703E+002
3225000000.000 -1.5675172893E+001 -9.1115958644E+001 -4.4531666598E+001 +1.1440139066E+000 -8.1882550724E+001 -1.5432534381E+002 -1.9568682665E+001 -1.1968709721E+002
3357500000.000 -1.5458012784E+001 -9.2042356433E+001 -4.4726829711E+001 -3.1559232986E+001 -8.0082561731E+001 +1.2573681985E+002 -1.9955099975E+001 -1.1435127848E+002
3490000000.000 -1.5120731401E+001 -9.2752868432E+001 -4.4502442397E+001 -6.7785815517E+001 -8.9366378159E+001 +1.0889530537E+002 -2.1121216063E+001 -1.0860323867E+002
3622500000.000 -1.4785136703E+001 -9.3818222356E+001 -4.4687905745E+001 -1.0048447881E+002 -8.0431974221E+001 -1.4468398133E+002 -2.1938284414E+001 -9.8293540296E+001
3755000000.000 -1.4481143074E+001 -9.4996521157E+001 -4.4303908460E+001 -1.3451802794E+002 -8.0018623830E+001 -3.6066225608E+000 -2.2718441862E+001 -9.4712758455E+001
3887500000.000 -1.4232583586E+001 -9.5709473568E+001 -4.4380447835E+001 -1.6848157175E+002 -8.1018134008E+001 +1.2202115519E+002 -2.5042217225E+001 -8.7835754029E+001
4020000000.000 -1.3996522246E+001 -9.6355185956E+001 -4.4385631427E+001 +1.5702548931E+002 -9.3057070997E+001 +9.7091090985E+001 -2.6667373147E+001 -7.3382172836E+001
4152500000.000 -1.3703242255E+001 -9.6974538262E+001 -4.4473477475E+001 +1.2209190191E+002 -1.0122414312E+002 -4.7272639214E+001 -2.8890035257E+001 -6.4761160576E+001
4285000000.000 -1.3454413691E+001 -9.7724486623E+001 -4.4467729366E+001 +8.7110781806E+001 -9.6935961414E+001 +5.4480194853E+001 -3.3363226087E+001 -3.7524989242E+001
4417500000.000 -1.3219701464E+001 -9.8623748258E+001 -4.4410430252E+001 +5.3015705241E+001 -7.6893715459E+001 +1.6752429699E+002 -3.1749296297E+001 +8.0682333734E+000
4550000000.000 -1.3018495736E+001 -9.9030611067E+001 -4.4558409454E+001 +1.8889076669E+001 -7.9628968081E+001 -1.1987603042E+002 -3.0324769588E+001 +1.8291438820E+001
4682500000.000 -1.2765697030E+001 -9.9479820060E+001 -4.4677287422E+001 -1.4391044955E+001 -8.0014947095E+001 +4.1962738124E+001 -2.9676005057E+001 +3.8818912960E+001
4815000000.000 -1.2540851301E+001 -1.0020313525E+002 -4.4480431497E+001 -4.7406622566E+001 -8.4206517621E+001 +1.1601040830E+002 -2.7621070836E+001 +4.1247480609E+001
4947500000.000 -1.2361518986E+001 -1.0063603788E+002 -4.4409517704E+001 -8.1374968094E+001 -8.4875340557E+001 +1.7956410700E+002 -2.9344857935E+001 +3.5637892682E+001
5080000000.000 -1.2157852586E+001 -1.0087722725E+002 -4.4370821527E+001 -1.1467919373E+002 -8.0916069611E+001 -1.8725216754E+001 -3.2224083530E+001 +5.6847931362E+001
5212500000.000 -1.1950577240E+001 -1.0135099449E+002 -4.4242624358E+001 -1.4896789833E+002 -9.1598036073E+001 +1.4625761631E+002 -3.1541583007E+001 +6.9288420244E+001
5345000000.000 -1.1789416541E+001 -1.0195619325E+002 -4.4137675748E+001 +1.7729126600E+002 -8.2685564582E+001 -1.1347120369E+002 -3.5330432224E+001 +7.0828201051E+001
5477500000.000 -1.1653716286E+001 -1.0206555850E+002 -4.4089060248E+001 +1.4170468640E+002 -8.5310041297E+001 -5.1703255821E+001 -3.7276315052E+001 +1.3129975135E+002
5610000000.000 -1.1462171356E+001 -1.0233718968E+002 -4.4020328007E+001 +1.0747416094E+002 -8.3184057393E+001 +8.6675312623E+001 -3.3679831005E+001 +1.3564391347E+002
5742500000.000 -1.1314639417E+001 -1.0296978535E+002 -4.3977465572E+001 +7.2870122504E+001 -8.5324286086E+001 -1.4706887752E+002 -3.7843230770E+001 +1.5239403257E+002
5875000000.000 -1.1227537061E+001 -1.0352496342E+002 -4.3871206206E+001 +3.8251037932E+001 -8.2035779811E+001 -5.1130341187E+001 -3.3773593521E+001 -1.7038985823E+002
6007500000.000 -1.1105801716E+001 -1.0373694613E+002 -4.3883503000E+001 +3.5547476708E+000 -1.0526578179E+002 +2.0006093627E+001 -3.2719023877E+001 +1.7936668824E+002
6140000000.000 -1.0933981740E+001 -1.0412210830E+002 -4.3808267209E+001 -3.0317260524E+001 -8.3369212020E+001 +1.5235017630E+002 -3.6197995353E+001 -1.6987923458E+002
6272500000.000 -1.0793008500E+001 -1.0502877825E+002 -4.3720947394E+001 -6.4822756476E+001 -8.0513007421E+001 -9.1442508691E+001 -3.3904653299E+001 -1.4444500403E+002
6405000000.000 -1.0724831928E+001 -1.0575302778E+002 -4.3841111147E+001 -1.0017422325E+002 -8.7416010506E+001 +7.0685232190E+001 -3.3842503631E+001 -1.6203535435E+002
6537500000.000 -1.0603623877E+001 -1.0584932361E+002 -4.3648005506E+001 -1.3429286211E+002 -1.0188739206E+002 +1.3327771675E+002 -4.0205297990E+001 -1.6062731024E+002
6670000000.000 -1.0411467750E+001 -1.0628942447E+002 -4.3681068093E+001 -1.6850097593E+002 -8.5875954117E+001 -7.4284415735E+001 -3.9453470865E+001 -1.3774753734E+002
6802500000.000 -1.0265553415E+001 -1.0729008721E+002 -4.3647171152E+001 +1.5613017270E+002 -8.9260584351E+001 +7.7319238529E+001 -3.8824628793E+001 +1.7904305114E+002
6935000000.000 -1.0208068080E+001 -1.0790303805E+002 -4.3694574848E+001 +1.2188219430E+002 -1.0453439462E+002 -5.9809755365E-001 -3.8544293216E+001 +1.2263457814E+002
7067500000.000 -1.0094109356E+001 -1.0790555219E+002 -4.3581194134E+001 +8.7849734412E+001 -8.6949789658E+001 -1.7283844881E+002 -3.8997090323E+001 +1.1468690619E+002
7200000000.000 -9.9079789340E+000 -1.0843667892E+002 -4.3527763130E+001 +5.3403224398E+001 -8.4371002205E+001 +2.0562243378E+001 -3.2837888764E+001 +1.3162538259E+002
7332500000.000 -9.7809026104E+000 -1.0932668636E+002 -4.3600732796E+001 +1.8488567153E+001 -8.7071722033E+001 +9.1570872243E+001 -2.9067601236E+001 +1.1908264312E+002
7465000000.000 -9.6980832092E+000 -1.0971938477E+002 -4.3426993501E+001 -1.5399995488E+001 -8.2968886744E+001 -1.1674911287E+002 -2.8633090857E+001 +1.2239034766E+002
7597500000.000 -9.5630984600E+000 -1.0990830995E+002 -4.3413073032E+001 -4.9952696769E+001 -9.3999158917E+001 -5.4296633595E+001 -2.6148698623E+001 +1.3743654822E+002
7730000000.000 -9.3928473800E+000 -1.1031767501E+002 -4.3383148904E+001 -8.5312222093E+001 -8.0695448789E+001 +1.1500851180E+002 -2.3732591949E+001 +1.3784188552E+002
7862500000.000 -9.2764544270E+000 -1.1076831810E+002 -4.3430232534E+001 -1.1958594053E+002 -7.9458893343E+001 +1.7430497230E+002 -2.3282097819E+001 +1.4153942257E+002
7995000000.000 -9.1930804508E+000 -1.1094616547E+002 -4.3308150992E+001 -1.5390882633E+002 -9.5047171359E+001 -4.5475747140E+001 -2.1838516958E+001 +1.5426841497E+002
8127500000.000 -9.0339504214E+000 -1.1100625368E+002 -4.3203844051E+001 +1.7237219996E+002 -8.7199244435E+001 +1.1633983566E+002 -2.0017649633E+001 +1.5645401670E+002
8260000000.000 -8.9075322333E+000 -1.1150397753E+002 -4.3189457683E+001 +1.3735738142E+002 -8.2550226340E+001 +1.7745411518E+002 -1.9868161891E+001 +1.6011216442E+002
8392500000.000 -8.8279593756E+000 -1.1164350848E+002 -4.3057085553E+001 +1.0285092743E+002 -9.7307605657E+001 -1.2313577829E+001 -1.9069061447E+001 +1.7038273311E+002
8525000000.000 -8.7321787031E+000 -1.1160752864E+002 -4.3090706784E+001 +6.7936446980E+001 -1.0483515246E+002 -8.0173377595E+001 -1.8210256345E+001 +1.7291888643E+002
8657500000.000 -8.6058952727E+000 -1.1175112473E+002 -4.2955763185E+001 +3.2321007105E+001 -8.9593365800E+001 +1.2953548698E+002 -1.8568258808E+001 +1.7788837062E+002
8790000000.000 -8.4967868746E+000 -1.1206696769E+002 -4.2824046755E+001 -2.3756318985E+000 -8.6979578538E+001 -1.5372489504E+002 -1.8353588919E+001 -1.7178039304E+002
8922500000.000 -8.4507402194E+000 -1.1228376317E+002 -4.2872925633E+001 -3.6904125647E+001 -8.9086895962E+001 -1.3394193225E+002 -1.7987006809E+001 -1.6608904907E+002
9055000000.000 -8.3530376401E+000 -1.1232763633E+002 -4.2760618401E+001 -7.2329630238E+001 -1.0609208441E+002 -3.8627879007E+001 -1.8458551074E+001 -1.5840217234E+002
9187500000.000 -8.2667873964E+000 -1.1256046403E+002 -4.2755464528E+001 -1.0770286142E+002 -8.0950499624E+001 -1.2233074607E+002 -1.8384635727E+001 -1.4636278092E+002
9320000000.000 -8.1941531225E+000 -1.1316851337E+002 -4.2735609740E+001 -1.4279169159E+002 -8.2657632268E+001 -2.1151755745E+001 -1.8208522331E+001 -1.3975361677E+002
9452500000.000 -8.1393236861E+000 -1.1341981995E+002 -4.2614834839E+001 -1.7795617269E+002 -8.8187375371E+001 -4.1589965552E+000 -1.8851433255E+001 -1.3061396459E+002
9585000000.000 -8.0527413063E+000 -1.1365784281E+002 -4.2611408227E+001 +1.4649058203E+002 -8.4765629858E+001 -1.5876871992E+002 -1.8795328102E+001 -1.1826789626E+002
9717500000.000 -7.9371682636E+000 -1.1416969007E+002 -4.2576997549E+001 +1.1219149803E+002 -8.4912603182E+001 -2.8614808082E+001 -1.8804809715E+001 -1.1120366059E+002
9850000000.000 -7.8905253482E+000 -1.1490645472E+002 -4.2537444982E+001 +7.6695473249E+001 -8.9603322766E+001 +9.0496529497E+001 -1.9657669979E+001 -1.0065553822E+002
9982500000.000 -7.8205189520E+000 -1.1501312478E+002 -4.2484342129E+001 +4.0123600914E+001 -8.9372659044E+001 -1.7917109495E+002 -1.9694645838E+001 -8.6509750401E+001
10115000000.000 -7.7207272363E+000 -1.1532766540E+002 -4.2429602046E+001 +5.2456333111E+000 -8.5189851437E+001 -1.2402738878E+002 -1.9914608043E+001 -7.9148478312E+001
10247500000.000 -7.6278586453E+000 -1.1603060341E+002 -4.2449848845E+001 -2.9656595424E+001 -8.1257777345E+001 +4.8368714281E+001 -2.1141369872E+001 -6.6066615730E+001
10380000000.000 -7.5658310200E+000 -1.1648564244E+002 -4.2497668400E+001 -6.6776061817E+001 -8.7829210609E+001 -1.0243842960E+002 -2.1051469018E+001 -4.9958482661E+001
10512500000.000 -7.4977664882E+000 -1.1680512624E+002 -4.2478288502E+001 -1.0126574367E+002 -7.9416514626E+001 -1.2788898684E+002 -2.1508525750E+001 -4.1981414326E+001
10645000000.000 -7.4191478674E+000 -1.1717775304E+002 -4.2517687457E+001 -1.3547886276E+002 -7.8830855992E+001 -2.8404241729E+001 -2.2816746037E+001 -2.3965865164E+001
10777500000.000 -7.3231924707E+000 -1.1765711517E+002 -4.2563799247E+001 -1.7165397806E+002 -9.6616224622E+001 +1.3646716295E+002 -2.2196520276E+001 -6.0399432004E+000
10910000000.000 -7.2475565251E+000 -1.1810707725E+002 -4.2648863599E+001 +1.5200272837E+002 -8.9628802955E+001 -1.4853962316E+002 -2.2789982699E+001 +4.1382203086E+000
11042500000.000 -7.1694208435E+000 -1.1856028615E+002 -4.2681096216E+001 +1.1751753592E+002 -8.9685865310E+001 +7.3995527397E+000 -2.3453689101E+001 +2.7466293095E+001
11175000000.000 -7.0780217857E+000 -1.1881425461E+002 -4.2802948521E+001 +8.2162537632E+001 -8.9701171493E+001 -1.7230506072E+001 -2.2249782208E+001 +4.2719634195E+001
11307500000.000 -7.0155081889E+000 -1.1911230836E+002 -4.2819186888E+001 +4.5415595917E+001 -9.4785680849E+001 -1.2696445809E+002 -2.2734682287E+001 +5.3154057942E+001
11440000000.000 -6.9331013172E+000 -1.1956564963E+002 -4.2911406183E+001 +1.0784387214E+001 -8.0640274247E+001 -1.0803429780E+001 -2.2593503628E+001 +7.5640777621E+001
11572500000.000 -6.8563644652E+000 -1.1960734189E+002 -4.2968331306E+001 -2.4507122247E+001 -8.2774467492E+001 +3.6096380081E+001 -2.1171920379E+001 +8.6984451640E+001
11705000000.000 -6.7974491775E+000 -1.1988908039E+002 -4.3090997244E+001 -6.0096703169E+001 -8.4818708590E+001 -1.4898524363E+002 -2.1780753403E+001 +9.6976926873E+001
11837500000.000 -6.7240532195E+000 -1.2023146146E+002 -4.3183580101E+001 -9.5693140098E+001 -8.2062724890E+001 -8.4828850005E+001 -2.1125062249E+001 +1.1925638045E+002
11970000000.000 -6.7033085913E+000 -1.2042785494E+002 -4.3361467516E+001 -1.3118800673E+002 -9.7030937404E+001 +5.5083295996E+001 -1.9819188156E+001 +1.2545008485E+002
12102500000.000 -6.6593729095E+000 -1.2037375145E+002 -4.3443330066E+001 -1.6596868152E+002 -8.1352997326E+001 +1.2140177997E+002 -2.0750084979E+001 +1.3534540487E+002
12235000000.000 -6.5964048675E+000 -1.2099291501E+002 -4.3664977558E+001 +1.5838039776E+002 -9.2674314934E+001 -8.0271792200E+000 -1.9771353216E+001 +1.5451560361E+002
12367500000.000 -6.5917768822E+000 -1.2107264234E+002 -4.3719121962E+001 +1.2309706700E+002 -8.5379216815E+001 -1.5624050773E+000 -1.8882353325E+001 +1.5784565089E+002
12500000000.000 -6.5592892442E+000 -1.2152913397E+002 -4.3833084591E+001 +8.7699288669E+001 -8.2626288140E+001 +8.7541557860E+001 -2.0061895230E+001 +1.6803730986E+002
12632500000.000 -6.5038003412E+000 -1.2166756933E+002 -4.4084124486E+001 +5.2538971886E+001 -8.7500466372E+001 -4.1416632715E+001 -1.9166061703E+001 -1.7303334188E+002
12765000000.000 -6.4825895662E+000 -1.2199795540E+002 -4.4267010977E+001 +1.7301016413E+001 -8.4174190554E+001 +2.3406839862E+000 -1.8522187116E+001 -1.7143732647E+002
12897500000.000 -6.4748808053E+000 -1.2237976692E+002 -4.4501379520E+001 -1.8091143456E+001 -8.8492285218E+001 +6.6403924321E+001 -2.0132849552E+001 -1.5954058365E+002
13030000000.000 -6.4545982441E+000 -1.2262401150E+002 -4.4739703296E+001 -5.3603961100E+001 -8.1477337783E+001 -1.2453289103E+002 -1.8839472153E+001 -1.4162839145E+002
13162500000.000 -6.4108699272E+000 -1.2286577214E+002 -4.4888976425E+001 -8.7792977397E+001 -8.5677204078E+001 +2.4169557659E+001 -1.8647281703E+001 -1.4169306972E+002
13295000000.000 -6.3734339260E+000 -1.2317540476E+002 -4.5038773061E+001 -1.2307624150E+002 -8.1855945503E+001 -1.7940533779E+002 -2.0051561226E+001 -1.2792839935E+002
13427500000.000 -6.3588650361E+000 -1.2372032032E+002 -4.5250999437E+001 -1.5877435211E+002 -9.7471997317E+001 +5.1631407044E+001 -1.8844114569E+001 -1.1425156185E+002
13560000000.000 -6.3606807419E+000 -1.2381362570E+002 -4.5437182829E+001 +1.6667815081E+002 -8.4950354276E+001 +5.2323554773E+000 -1.9040305244E+001 -1.1477145007E+002
13692500000.000 -6.3021819427E+000 -1.2393001540E+002 -4.5674510449E+001 +1.3109108759E+002 -8.0720729449E+001 +1.1170752866E+002 -2.0822552047E+001 -1.0144093173E+002
13825000000.000 -6.2480049124E+000 -1.2439250741E+002 -4.5970540016E+001 +9.6921850236E+001 -8.0939387793E+001 -1.4285945984E+002 -1.9715527444E+001 -8.7630258730E+001
13957500000.000 -6.2488635999E+000 -1.2481731338E+002 -4.6138128925E+001 +6.1771454970E+001 -7.9902663250E+001 -4.4046277931E+001 -2.0385252026E+001 -9.0162219942E+001
14090000000.000 -6.2349222249E+000 -1.2488660084E+002 -4.6418537479E+001 +2.7207172968E+001 -7.8929464334E+001 +6.1461927174E+000 -2.2658613942E+001 -7.2759127143E+001
14222500000.000 -6.1756089534E+000 -1.2482957167E+002 -4.6640825445E+001 -6.4928142218E+000 -8.2214424749E+001 -1.6955596679E+002 -2.1272857057E+001 -5.9424239195E+001
14355000000.000 -6.1265280415E+000 -1.2530928764E+002 -4.6848509129E+001 -4.1328555067E+001 -8.1869813608E+001 -1.3764297679E+002 -2.2509491259E+001 -6.3753342425E+001
14487500000.000 -6.1100490338E+000 -1.2555965199E+002 -4.7160635772E+001 -7.5374407850E+001 -9.7072367761E+001 +1.4286154821E+002 -2.5531414097E+001 -4.0322979230E+001
14620000000.000 -6.0933734900E+000 -1.2547680096E+002 -4.7331213209E+001 -1.1130347489E+002 -7.7748210579E+001 +1.4274371351E+002 -2.3277517345E+001 -2.7360517369E+001
14752500000.000 -6.0046834718E+000 -1.2553564889E+002 -4.7653818915E+001 -1.4567708810E+002 -8.9568931712E+001 -1.5385360429E+002 -2.5357044409E+001 -3.6702235164E+001
14885000000.000 -5.9652242817E+000 -1.2574328426E+002 -4.7692513636E+001 +1.7955287744E+002 -8.2955394045E+001 -1.7050904542E+001 -2.8943944601E+001 +2.3600822696E+000
15017500000.000 -5.9501452410E+000 -1.2578930065E+002 -4.7960271716E+001 +1.4691434488E+002 -8.1197263214E+001 +9.4832001571E+001 -2.5388131940E+001 +9.1840273649E+000
15150000000.000 -5.8896386699E+000 -1.2561316098E+002 -4.8201447177E+001 +1.1365672564E+002 -8.1155707517E+001 -1.4948241050E+002 -2.9097655013E+001 -2.5674856983E+000
15282500000.000 -5.8485539076E+000 -1.2556079378E+002 -4.8291919412E+001 +7.7180398206E+001 -7.9907459006E+001 -4.4852165301E+001 -3.1166239127E+001 +5.8160105120E+001
