!  2-Port S-parameters saved by WinCal
! VAR MeasName=S-Parameters (CALIBRATED_DATA) read from VNA (C)
! VAR MeasDate=10/16/2015 1:38:22 PM
! VAR NAME=M6082_13_17_2_2_20C_1.4mA_-17.5dBm
! VAR FILENAME=M6082_13_17_2_2_20C_1.4mA_-17.5dBm.S2P
! VAR DATE=10/16/2015 1:38:22 PM
! VAR PHYS_PORTS=2,1
! VAR ObjTypeName=DATASET
! VAR IndexType=Frequency
!
# Hz S DB R 50
45000000.000 -1.3901706024E+001 -2.3336396388E+000 -4.8751894333E+001 +1.0840951006E+002 -5.7836888036E+001 -7.0562327964E+001 -3.1390945398E+001 +6.1995471198E+000
177500000.000 -1.3449311173E+001 -7.9835393789E+000 -4.7724027664E+001 +6.8368953339E+001 -6.9828619689E+001 -1.6875444128E+002 -3.2745844514E+001 +4.6158264045E+001
310000000.000 -1.3132038024E+001 -1.3661675446E+001 -4.9784800591E+001 +3.8756882284E+001 -7.7613742857E+001 -1.3539905950E+002 -2.3340925798E+001 +6.4430841025E+001
442500000.000 -1.3867665504E+001 -1.7670031503E+001 -4.7083015484E+001 -7.6707468843E+000 -7.9463723155E+001 +6.2814836395E+001 -2.2398266601E+001 +1.7162242617E+001
575000000.000 -1.4140361065E+001 -2.1430121295E+001 -4.7477431611E+001 -4.4836647442E+001 -8.3446486374E+001 +7.6529574859E+001 -3.0641559232E+001 +2.2464022506E+001
707500000.000 -1.4196342158E+001 -2.5427504554E+001 -4.7937850704E+001 -8.0253713234E+001 -8.4750262438E+001 -4.4834401954E+001 -3.4531423038E+001 +8.3962345317E+001
840000000.000 -1.4295822354E+001 -2.8616248672E+001 -4.7619810411E+001 -1.1739202492E+002 -7.8203406608E+001 -2.1769834196E+000 -2.9689423283E+001 +1.2757214986E+002
972500000.000 -1.4258386777E+001 -3.2022847859E+001 -4.8098574783E+001 -1.5358705017E+002 -8.5666887735E+001 -1.6252814438E+000 -2.5956417730E+001 +1.3535438339E+002
1105000000.000 -1.4219226799E+001 -3.5322978298E+001 -4.8106988516E+001 +1.6905693918E+002 -8.3554412548E+001 -1.2946487170E+002 -2.4374779963E+001 +1.4082052663E+002
1237500000.000 -1.4121484792E+001 -3.8502629528E+001 -4.8360201488E+001 +1.3423114504E+002 -8.3116165501E+001 -3.7065759519E+001 -2.3399149376E+001 +1.5006687525E+002
1370000000.000 -1.4048189163E+001 -4.1584873986E+001 -4.8272076342E+001 +9.7552529867E+001 -8.8529077626E+001 +1.2113135186E+002 -2.2083077572E+001 +1.5998532687E+002
1502500000.000 -1.4028537047E+001 -4.3913504918E+001 -4.7939768010E+001 +6.1354321814E+001 -7.9467021595E+001 -1.2903037156E+002 -2.0865624238E+001 +1.6637371627E+002
1635000000.000 -1.3762016666E+001 -4.6825644343E+001 -4.8378185294E+001 +2.4269988832E+001 -7.9769211306E+001 -4.4109326693E+001 -2.0027457025E+001 +1.7331501303E+002
1767500000.000 -1.3627545588E+001 -4.9637062655E+001 -4.8356501709E+001 -1.1439291840E+001 -8.4760559088E+001 +3.3480128168E+001 -1.9019174435E+001 +1.7849071536E+002
1900000000.000 -1.3659757857E+001 -5.1423431223E+001 -4.7946642921E+001 -4.8010886352E+001 -9.3659187573E+001 +1.1406301007E+002 -1.8870802699E+001 -1.7825708714E+002
2032500000.000 -1.3585943753E+001 -5.3703713632E+001 -4.7630847391E+001 -8.3683050503E+001 -8.0930155981E+001 +1.1038559788E+002 -1.8688651924E+001 -1.6791640018E+002
2165000000.000 -1.3431445544E+001 -5.5457340680E+001 -4.7311492304E+001 -1.1875718868E+002 -9.1582736726E+001 -4.4577651895E+001 -1.7755335715E+001 -1.6096669056E+002
2297500000.000 -1.3393152272E+001 -5.6666344287E+001 -4.6509636781E+001 -1.5390028502E+002 -9.7105004004E+001 -8.9452944007E+000 -1.7241114631E+001 -1.5704873988E+002
2430000000.000 -1.3248277783E+001 -5.7979708440E+001 -4.6029010100E+001 +1.7019194438E+002 -7.5832409124E+001 -3.7042156461E+001 -1.6941934763E+001 -1.5285066899E+002
2562500000.000 -1.2974598370E+001 -5.9618557323E+001 -4.5598472823E+001 +1.3288694057E+002 -7.3663727588E+001 -2.1895814983E+001 -1.6833505949E+001 -1.5043850253E+002
2695000000.000 -1.2810414354E+001 -6.0958199427E+001 -4.5199494033E+001 +9.6556492360E+001 -7.5490955650E+001 +1.3224002772E+002 -1.7372857977E+001 -1.4710959410E+002
2827500000.000 -1.2568217756E+001 -6.2514293558E+001 -4.5046045715E+001 +5.6304513921E+001 -7.8771154517E+001 -1.7381429137E+002 -1.7850783144E+001 -1.4034628851E+002
2960000000.000 -1.2224640487E+001 -6.4654588556E+001 -4.5428279158E+001 +1.4836565684E+001 -8.0579728316E+001 -3.6304205500E+000 -1.8168992616E+001 -1.3547441839E+002
3092500000.000 -1.1894166643E+001 -6.6785156261E+001 -4.5190553948E+001 -2.4276882208E+001 -8.6136226202E+001 +1.4785911128E+002 -1.9081114314E+001 -1.2924541322E+002
3225000000.000 -1.1650692258E+001 -6.9134235017E+001 -4.5376236208E+001 -6.4229096887E+001 -7.8684510294E+001 -1.6270561729E+002 -1.9577369945E+001 -1.1969581897E+002
3357500000.000 -1.1437480963E+001 -7.1575367306E+001 -4.5532054954E+001 -1.0230778643E+002 -8.0838909104E+001 +2.9910212639E+001 -1.9948539297E+001 -1.1424111961E+002
3490000000.000 -1.1167252250E+001 -7.3812655080E+001 -4.6013618902E+001 -1.4336869462E+002 -8.4498488553E+001 -1.3723876884E+002 -2.1139237356E+001 -1.0860122409E+002
3622500000.000 -1.0924144681E+001 -7.6024166774E+001 -4.5874210870E+001 +1.7778315370E+002 -7.7744259260E+001 -1.5791428751E+002 -2.1929299533E+001 -9.8188385060E+001
3755000000.000 -1.0758773495E+001 -7.8660482992E+001 -4.6466093346E+001 +1.3644091390E+002 -8.8071750896E+001 -4.2677153255E+001 -2.2710373138E+001 -9.4630476093E+001
3887500000.000 -1.0637206050E+001 -8.0788100372E+001 -4.6963410254E+001 +9.8410902657E+001 -8.0806425266E+001 +1.1501363919E+002 -2.5056270751E+001 -8.7804844137E+001
4020000000.000 -1.0487582841E+001 -8.2604397474E+001 -4.7011730623E+001 +5.9017336917E+001 -8.2362105345E+001 +1.5178595562E+002 -2.6694328209E+001 -7.3252568140E+001
4152500000.000 -1.0342004137E+001 -8.4368954476E+001 -4.7443755872E+001 +2.0997535351E+001 -9.7778109421E+001 -1.9958573403E+001 -2.8874589113E+001 -6.4758803846E+001
4285000000.000 -1.0241742816E+001 -8.6150942945E+001 -4.8104294144E+001 -1.6912129282E+001 -7.9622208060E+001 +6.9969927302E+001 -3.3393364551E+001 -3.7613592048E+001
4417500000.000 -1.0144098878E+001 -8.7851958119E+001 -4.8649684966E+001 -5.4546145726E+001 -7.9346941854E+001 +1.3841792309E+002 -3.1759905391E+001 +7.9349915039E+000
4550000000.000 -1.0052812614E+001 -8.9076492937E+001 -4.8903941837E+001 -9.1610858535E+001 -9.0122460578E+001 -1.1990387191E+002 -3.0320498111E+001 +1.8421908887E+001
4682500000.000 -9.9606644500E+000 -9.0341271623E+001 -4.9971985810E+001 -1.2837669907E+002 -8.7669511061E+001 +1.7554389596E+002 -2.9665915798E+001 +3.9004655910E+001
4815000000.000 -9.8629847191E+000 -9.1657562114E+001 -5.0545186705E+001 -1.6597881675E+002 -7.8256582531E+001 +1.7830586935E+002 -2.7636923407E+001 +4.1425291344E+001
4947500000.000 -9.7791484342E+000 -9.2607212844E+001 -5.0567629868E+001 +1.6173494234E+002 -9.1711248604E+001 -8.5297279655E+001 -2.9366949587E+001 +3.5869342854E+001
5080000000.000 -9.6969687267E+000 -9.3414121951E+001 -5.0924357364E+001 +1.2583343316E+002 -8.6759692030E+001 +2.0210053520E+001 -3.2260999607E+001 +5.7177899152E+001
5212500000.000 -9.6012987173E+000 -9.4324175356E+001 -5.1477972851E+001 +9.1265008978E+001 -8.7677957519E+001 +5.8337160132E+001 -3.1571438220E+001 +6.9810624539E+001
5345000000.000 -9.5232778337E+000 -9.5241341768E+001 -5.1466231537E+001 +5.6668793248E+001 -8.1372308544E+001 -1.5943576269E+002 -3.5361346294E+001 +7.1515416389E+001
5477500000.000 -9.4717692930E+000 -9.5748646045E+001 -5.2089337705E+001 +2.1465726758E+001 -8.9552873810E+001 +7.7003444668E+000 -3.7187550235E+001 +1.3191420164E+002
5610000000.000 -9.3784434250E+000 -9.6352129077E+001 -5.2636495985E+001 -1.2229221345E+001 -8.4079328997E+001 +1.3551418528E+002 -3.3619196220E+001 +1.3565055494E+002
5742500000.000 -9.3061654317E+000 -9.7173137713E+001 -5.3197178233E+001 -4.3672449235E+001 -8.1936580425E+001 +1.7268440319E+002 -3.7770246847E+001 +1.5276573763E+002
5875000000.000 -9.2742208700E+000 -9.7929062833E+001 -5.2919556239E+001 -7.8215804993E+001 -9.1409314981E+001 -1.9483740458E+001 -3.3745966419E+001 -1.7070645279E+002
6007500000.000 -9.2302724095E+000 -9.8343724689E+001 -5.3859920127E+001 -1.0936277341E+002 -8.8821060503E+001 +4.3969660170E+001 -3.2675389181E+001 +1.7960029036E+002
6140000000.000 -9.1318890548E+000 -9.8962612167E+001 -5.4362771917E+001 -1.3996296300E+002 -8.5986809820E+001 +1.7580561930E+002 -3.6100592100E+001 -1.6950236260E+002
6272500000.000 -9.0503421068E+000 -1.0004903969E+002 -5.4509193618E+001 -1.7772164915E+002 -8.5679509829E+001 -8.8417521403E+001 -3.3841958693E+001 -1.4418378436E+002
6405000000.000 -9.0378087214E+000 -1.0085225159E+002 -5.5114466587E+001 +1.5370820649E+002 -8.4219335034E+001 -7.2844505904E+000 -3.3834752611E+001 -1.6176642805E+002
6537500000.000 -8.9781966780E+000 -1.0110507316E+002 -5.5643461089E+001 +1.2465604450E+002 -9.1526274579E+001 +1.1540808151E+002 -4.0130537847E+001 -1.6053535028E+002
6670000000.000 -8.8372701160E+000 -1.0188380068E+002 -5.5473647543E+001 +8.4391518484E+001 -8.9974095657E+001 -6.1779462284E+001 -3.9341099967E+001 -1.3719956992E+002
6802500000.000 -8.7513706316E+000 -1.0297864362E+002 -5.5532583636E+001 +5.0260049601E+001 -8.7316976428E+001 -2.7683291929E+001 -3.8877469550E+001 +1.7955343617E+002
6935000000.000 -8.7472340181E+000 -1.0360436954E+002 -5.6014324260E+001 +2.5731056985E+001 -1.0607838981E+002 +1.7743146417E+002 -3.8613892176E+001 +1.2284703984E+002
7067500000.000 -8.6685316205E+000 -1.0391141751E+002 -5.5974589887E+001 -1.1992118261E+001 -8.7045491589E+001 +1.4783753782E+002 -3.9064093009E+001 +1.1466138077E+002
7200000000.000 -8.5260110585E+000 -1.0475888215E+002 -5.5823891191E+001 -5.6514318862E+001 -8.4958820502E+001 +6.4782389026E+001 -3.2898782115E+001 +1.3148027547E+002
7332500000.000 -8.4591675363E+000 -1.0564581369E+002 -5.6224889375E+001 -8.0646738386E+001 -8.4589662592E+001 +1.1895719648E+002 -2.9105868711E+001 +1.1899328181E+002
7465000000.000 -8.4086953306E+000 -1.0623976426E+002 -5.6793587332E+001 -1.2124232554E+002 -8.1068450852E+001 -1.4589016861E+002 -2.8627374447E+001 +1.2256228068E+002
7597500000.000 -8.2960827286E+000 -1.0681372160E+002 -5.6197756739E+001 -1.6797283227E+002 -8.2797015810E+001 -8.9387360274E+001 -2.6139117412E+001 +1.3755461286E+002
7730000000.000 -8.1900373360E+000 -1.0731479095E+002 -5.6556495154E+001 +1.6213971156E+002 -8.4451661526E+001 +7.8223934600E+001 -2.3737599670E+001 +1.3782330035E+002
7862500000.000 -8.1223981698E+000 -1.0783486745E+002 -5.6921421396E+001 +1.3521516100E+002 -8.3674707228E+001 -1.5921398267E+002 -2.3282927508E+001 +1.4154118505E+002
7995000000.000 -8.0575337573E+000 -1.0829513509E+002 -5.7161145427E+001 +9.0485211879E+001 -8.1245943851E+001 -5.3883509861E+001 -2.1833216877E+001 +1.5426428470E+002
8127500000.000 -7.9403805619E+000 -1.0855840565E+002 -5.7243061582E+001 +5.3732795760E+001 -8.8428294940E+001 -9.8660482108E+000 -2.0030807739E+001 +1.5648315568E+002
8260000000.000 -7.8662801698E+000 -1.0911675686E+002 -5.8020748581E+001 +2.3954482298E+001 -8.8325762957E+001 -1.6145943696E+002 -1.9870248322E+001 +1.6020104261E+002
8392500000.000 -7.8121602378E+000 -1.0942584896E+002 -5.7480515357E+001 -1.3711502070E+001 -9.5727192563E+001 -7.8646555964E+001 -1.9064148512E+001 +1.7048573621E+002
8525000000.000 -7.7449288671E+000 -1.0953691426E+002 -5.7606820770E+001 -4.9542123778E+001 -8.9384335561E+001 +6.2166635541E+001 -1.8208075254E+001 +1.7296188493E+002
8657500000.000 -7.6633983824E+000 -1.0981795825E+002 -5.8378100849E+001 -8.4198624152E+001 -8.7005341121E+001 +1.7191182105E+002 -1.8572267051E+001 +1.7795234121E+002
8790000000.000 -7.5897350933E+000 -1.1022972166E+002 -5.8560211246E+001 -1.1769735929E+002 -8.8770746630E+001 -5.6177902614E+001 -1.8347405185E+001 -1.7171324816E+002
8922500000.000 -7.5704575759E+000 -1.1052399910E+002 -5.8884016802E+001 -1.5211319007E+002 -8.1689676991E+001 +2.8658466693E+001 -1.7987913437E+001 -1.6603397810E+002
9055000000.000 -7.5038303351E+000 -1.1068130823E+002 -5.8926066458E+001 +1.7622185911E+002 -9.7270530769E+001 +6.0540558367E+001 -1.8457800756E+001 -1.5835491684E+002
9187500000.000 -7.4503404691E+000 -1.1098067939E+002 -5.8886023232E+001 +1.4215044127E+002 -8.4437487523E+001 -1.4083875292E+002 -1.8379985552E+001 -1.4633307273E+002
9320000000.000 -7.4069133673E+000 -1.1164143924E+002 -5.9534927532E+001 +1.0728122362E+002 -8.5280706053E+001 -2.3881472811E+000 -1.8202810970E+001 -1.3965970142E+002
9452500000.000 -7.3809183989E+000 -1.1194343346E+002 -5.9540756962E+001 +7.5896978265E+001 -8.5820457041E+001 +9.9481524930E+001 -1.8845042730E+001 -1.3063076693E+002
9585000000.000 -7.3274331575E+000 -1.1223807905E+002 -6.0099739417E+001 +3.9905090441E+001 -8.9537434832E+001 -1.2509595830E+002 -1.8796868198E+001 -1.1824095374E+002
9717500000.000 -7.2439207480E+000 -1.1279576842E+002 -6.0404567194E+001 +9.4582047586E+000 -8.0722741956E+001 -7.9657510438E+000 -1.8811554051E+001 -1.1113098279E+002
9850000000.000 -7.2226330704E+000 -1.1355797478E+002 -6.0445419258E+001 -2.6208152876E+001 -8.6994706222E+001 +9.7095400007E+001 -1.9660939422E+001 -1.0059757508E+002
9982500000.000 -7.1847195637E+000 -1.1368478595E+002 -6.0796172477E+001 -6.3258353375E+001 -8.2519558782E+001 +1.6271983334E+002 -1.9702779734E+001 -8.6453573187E+001
10115000000.000 -7.1138951967E+000 -1.1402249128E+002 -6.0374772629E+001 -9.9888488329E+001 -9.0079683939E+001 -5.3788825604E+001 -1.9919808577E+001 -7.9040450602E+001
10247500000.000 -7.0428329148E+000 -1.1475975458E+002 -6.0735888915E+001 -1.2957356036E+002 -8.6548097108E+001 +1.0725430696E+002 -2.1142174751E+001 -6.5998785524E+001
10380000000.000 -7.0180190374E+000 -1.1519486028E+002 -6.1657528853E+001 -1.6436316642E+002 -9.2471344944E+001 +6.5159382328E+001 -2.1061531893E+001 -4.9838042523E+001
10512500000.000 -6.9734322543E+000 -1.1552307551E+002 -6.1576385247E+001 +1.6114098145E+002 -8.5648986483E+001 -1.0351593717E+002 -2.1523009304E+001 -4.1873088233E+001
10645000000.000 -6.9125659233E+000 -1.1589087157E+002 -6.2445186659E+001 +1.2858665888E+002 -9.2608548198E+001 -1.0918487264E+001 -2.2827934723E+001 -2.3806676554E+001
10777500000.000 -6.8479262502E+000 -1.1634830293E+002 -6.2867437519E+001 +9.1810388808E+001 -9.5738951346E+001 -3.6698044801E+001 -2.2206602037E+001 -5.7523702512E+000
10910000000.000 -6.7983903516E+000 -1.1677885636E+002 -6.2997092114E+001 +5.9044100192E+001 -8.5798641645E+001 -8.5131824577E+001 -2.2785798556E+001 +4.3869233729E+000
11042500000.000 -6.7359772300E+000 -1.1723415367E+002 -6.2523708619E+001 +2.5785919086E+001 -8.6067416037E+001 +1.4719642128E+001 -2.3451423017E+001 +2.7799889703E+001
11175000000.000 -6.6679533874E+000 -1.1745136685E+002 -6.3538323337E+001 -5.6161152570E+000 -9.3254475379E+001 +5.5563150581E+001 -2.2265490589E+001 +4.2912240654E+001
11307500000.000 -6.6268031937E+000 -1.1768702243E+002 -6.3367785560E+001 -3.9684753913E+001 -8.2474410844E+001 -1.3544349110E+002 -2.2737338617E+001 +5.3357750636E+001
11440000000.000 -6.5596080377E+000 -1.1813278812E+002 -6.4206077948E+001 -6.8763126061E+001 -8.7381663797E+001 +8.3663392290E+001 -2.2570274325E+001 +7.5946653102E+001
11572500000.000 -6.5036745549E+000 -1.1815414848E+002 -6.4235240760E+001 -1.0687928421E+002 -8.2861471263E+001 +8.0018147333E+001 -2.1164072663E+001 +8.7197373926E+001
11705000000.000 -6.4610332426E+000 -1.1840067307E+002 -6.5821223847E+001 -1.4191278905E+002 -8.9331204350E+001 -1.7263662404E+002 -2.1762423058E+001 +9.7231947270E+001
11837500000.000 -6.4024556273E+000 -1.1870801297E+002 -6.4029700060E+001 -1.6687532164E+002 -8.7744269025E+001 -7.0042912550E+001 -2.1120099082E+001 +1.1942629027E+002
11970000000.000 -6.3911733842E+000 -1.1887754648E+002 -6.5334287520E+001 +1.6136746654E+002 -8.9430441072E+001 +5.4556013521E+001 -1.9818315198E+001 +1.2564591389E+002
12102500000.000 -6.3593630489E+000 -1.1878283619E+002 -6.4179198696E+001 +1.2497821415E+002 -8.2936025169E+001 -1.3749056409E+002 -2.0749295316E+001 +1.3557450543E+002
12235000000.000 -6.3048561725E+000 -1.1934397515E+002 -6.5794221341E+001 +8.6494231751E+001 -8.3093893461E+001 -7.1664320456E+001 -1.9770733401E+001 +1.5467073332E+002
12367500000.000 -6.3070480071E+000 -1.1939565369E+002 -6.4787348372E+001 +4.6007842421E+001 -8.7230916634E+001 -1.3809518036E+001 -1.8879661555E+001 +1.5801664653E+002
12500000000.000 -6.2848707924E+000 -1.1982112150E+002 -6.5676973855E+001 +2.6821224151E+001 -8.9911893856E+001 +9.7231924478E+001 -2.0048275007E+001 +1.6825170343E+002
12632500000.000 -6.2374229780E+000 -1.1990053367E+002 -6.5171785372E+001 -1.1486686377E+001 -9.1645626986E+001 -4.4753403695E+001 -1.9162846818E+001 -1.7289394019E+002
12765000000.000 -6.2213795170E+000 -1.2017657798E+002 -6.4694153527E+001 -4.7323251873E+001 -8.3464101357E+001 +2.7028027241E+001 -1.8517217678E+001 -1.7127078915E+002
12897500000.000 -6.2206996949E+000 -1.2053476427E+002 -6.5877140230E+001 -8.2033317110E+001 -8.2209409773E+001 +8.6330944086E+001 -2.0140569514E+001 -1.5934126030E+002
13030000000.000 -6.2040134526E+000 -1.2075212375E+002 -6.6753490083E+001 -1.0876572030E+002 -9.2264368749E+001 -1.4198422566E+002 -1.8846091647E+001 -1.4143732746E+002
13162500000.000 -6.1671001692E+000 -1.2095125273E+002 -6.7361137212E+001 -1.5283167942E+002 -8.6265132783E+001 -5.4963556252E+001 -1.8658603216E+001 -1.4154318487E+002
13295000000.000 -6.1356248956E+000 -1.2123024943E+002 -6.6405476761E+001 -1.7778080071E+002 -9.0505579434E+001 +1.5270545217E+002 -2.0061106691E+001 -1.2774332448E+002
13427500000.000 -6.1225087612E+000 -1.2175446589E+002 -6.4551293745E+001 +1.2802255671E+002 -8.0334736285E+001 -1.5747893461E+002 -1.8857043357E+001 -1.1411774642E+002
13560000000.000 -6.1269328999E+000 -1.2183501803E+002 -6.7557630309E+001 +1.1705542450E+002 -8.7519721581E+001 -6.0572883483E+001 -1.9053792328E+001 -1.1467657435E+002
13692500000.000 -6.0702383608E+000 -1.2196176423E+002 -6.8297727436E+001 +7.0140900684E+001 -8.5316257362E+001 +1.2561409591E+002 -2.0841518080E+001 -1.0123295571E+002
13825000000.000 -6.0207065122E+000 -1.2241500117E+002 -6.6942018535E+001 +3.7677987566E+001 -8.6539976548E+001 -6.8836081693E+001 -1.9727907221E+001 -8.7556912679E+001
13957500000.000 -6.0256616758E+000 -1.2281175375E+002 -6.9235181986E+001 +1.5107527025E+000 -8.0500863069E+001 -7.2338024980E+001 -2.0386670871E+001 -9.0034277374E+001
14090000000.000 -6.0074273127E+000 -1.2284023092E+002 -6.8735454903E+001 -3.4472099001E+001 -7.6484152494E+001 +6.0283730737E+001 -2.2667171293E+001 -7.2660687177E+001
14222500000.000 -5.9527151328E+000 -1.2278974432E+002 -6.8222496367E+001 -6.5277261094E+001 -8.9221030041E+001 +1.2802543908E+002 -2.1303557545E+001 -5.9283627016E+001
14355000000.000 -5.9058834581E+000 -1.2325550206E+002 -7.1106609281E+001 -9.8982351896E+001 -7.9843539712E+001 -1.0208245830E+002 -2.2523607936E+001 -6.3671517866E+001
14487500000.000 -5.8919510412E+000 -1.2350467123E+002 -7.0452637091E+001 -1.2773715623E+002 -8.2601969468E+001 +5.2691197442E+001 -2.5580975391E+001 -4.0312371797E+001
14620000000.000 -5.8745298047E+000 -1.2341634467E+002 -7.0220222517E+001 -1.5117052286E+002 -7.8773321334E+001 +1.6657058542E+002 -2.3305208149E+001 -2.7368778393E+001
14752500000.000 -5.7880328511E+000 -1.2347618669E+002 -7.0379211585E+001 +1.6906121132E+002 -7.9341579774E+001 -1.5420922877E+002 -2.5384800257E+001 -3.6765484282E+001
14885000000.000 -5.7479597312E+000 -1.2371450590E+002 -7.1339295423E+001 +1.2840916203E+002 -8.0657314277E+001 +4.5401403776E+000 -2.8979358677E+001 +2.4250870389E+000
15017500000.000 -5.7359974188E+000 -1.2372902125E+002 -6.9965061716E+001 +1.2694949299E+002 -8.0539835395E+001 +7.3458698061E+001 -2.5428405678E+001 +9.3015510204E+000
15150000000.000 -5.6809507438E+000 -1.2359259885E+002 -6.9242143259E+001 +9.0994712963E+001 -8.1214729412E+001 -1.4992079486E+002 -2.9116803594E+001 -2.6044049481E+000
15282500000.000 -5.6343972341E+000 -1.2353977534E+002 -6.9366418475E+001 +5.2276690552E+001 -8.6554930082E+001 -7.4449644382E+001 -3.1225320003E+001 +5.8013176725E+001
