!  2-Port S-parameters saved by WinCal
! VAR MeasName=S-Parameters (CALIBRATED_DATA) read from VNA (C)
! VAR MeasDate=10/16/2015 12:45:01 PM
! VAR NAME=M6082_13_15_2_2_20C_4.8mA_-17.5dBm
! VAR FILENAME=M6082_13_15_2_2_20C_4.8mA_-17.5dBm.S2P
! VAR DATE=10/16/2015 12:45:01 PM
! VAR PHYS_PORTS=2,1
! VAR ObjTypeName=DATASET
! VAR IndexType=Frequency
!
# Hz S DB R 50
45000000.000 -2.6979373851E+001 -1.8894747307E+000 -4.1291771314E+001 +9.7544575223E+001 -5.7639006573E+001 -1.6184530551E+001 -3.0910822964E+001 +4.6874674927E+000
177500000.000 -2.6995985886E+001 -9.1925636250E+000 -4.3434412418E+001 +6.7242506355E+001 -7.9047693260E+001 +5.0304147639E+001 -3.2841369337E+001 +4.6254130090E+001
310000000.000 -2.6860910741E+001 -1.6407747327E+001 -4.3591964015E+001 +3.8258163676E+001 -7.7336343009E+001 -1.1893438499E+002 -2.3357080432E+001 +6.4538452904E+001
442500000.000 -2.6528040266E+001 -2.3354066086E+001 -4.2507137049E+001 +4.3755319979E-002 -8.5892456212E+001 +2.8720402597E+001 -2.2391875374E+001 +1.7278810832E+001
575000000.000 -2.6140661719E+001 -2.9994190195E+001 -4.3112909528E+001 -3.5350428438E+001 -8.8252467342E+001 +1.2305857649E+002 -3.0606507366E+001 +2.2705667734E+001
707500000.000 -2.5774966762E+001 -3.5535454852E+001 -4.3262065394E+001 -6.9783783414E+001 -7.9666175684E+001 -1.5314560186E+002 -3.4526060868E+001 +8.3354244799E+001
840000000.000 -2.5216282876E+001 -4.0868612933E+001 -4.3268868180E+001 -1.0367710870E+002 -8.5342325159E+001 -1.6308262987E+000 -2.9709844404E+001 +1.2750093593E+002
972500000.000 -2.4667126033E+001 -4.5031739880E+001 -4.3459140991E+001 -1.3713664267E+002 -8.0428627020E+001 +9.8963533601E+001 -2.5967049318E+001 +1.3542547490E+002
1105000000.000 -2.4154212812E+001 -4.9511339344E+001 -4.3423809086E+001 -1.7160027311E+002 -8.7101926712E+001 +1.4541079930E+002 -2.4367124488E+001 +1.4082437069E+002
1237500000.000 -2.3687238081E+001 -5.3125758373E+001 -4.3421602728E+001 +1.5506570490E+002 -8.3859352588E+001 -1.2797774579E+001 -2.3399507310E+001 +1.4996101302E+002
1370000000.000 -2.3177982721E+001 -5.6325227430E+001 -4.3539519987E+001 +1.2045492640E+002 -8.5303766874E+001 +5.0940556596E+001 -2.2073548862E+001 +1.5999934936E+002
1502500000.000 -2.2697538861E+001 -5.9218796540E+001 -4.3659147367E+001 +8.6671556658E+001 -7.9769648038E+001 +1.7580168502E+002 -2.0870250268E+001 +1.6636631695E+002
1635000000.000 -2.2142614084E+001 -6.1503167364E+001 -4.3638122788E+001 +5.2323909900E+001 -8.1022801875E+001 -1.8496453473E+001 -2.0024176627E+001 +1.7329989450E+002
1767500000.000 -2.1644532956E+001 -6.4283083189E+001 -4.3637714800E+001 +1.7776949062E+001 -8.5355426222E+001 +8.5741405574E+001 -1.9026659302E+001 +1.7851091483E+002
1900000000.000 -2.1228127403E+001 -6.6009647907E+001 -4.3511476891E+001 -1.6043508386E+001 -8.6132323311E+001 +1.7146506501E+002 -1.8874495032E+001 -1.7823713658E+002
2032500000.000 -2.0837208829E+001 -6.7864281401E+001 -4.3854993059E+001 -5.0125730273E+001 -8.6505667126E+001 -1.1247159569E+002 -1.8689128642E+001 -1.6787728262E+002
2165000000.000 -2.0331769885E+001 -6.9370070050E+001 -4.3689466916E+001 -8.3875965485E+001 -7.8488322911E+001 +6.1900399718E+001 -1.7748664595E+001 -1.6099435246E+002
2297500000.000 -1.9960606018E+001 -7.1000850137E+001 -4.3864403559E+001 -1.1912437269E+002 -8.9927945713E+001 +1.7478829900E+002 -1.7253476145E+001 -1.5704532666E+002
2430000000.000 -1.9616940557E+001 -7.2386472952E+001 -4.3818093458E+001 -1.5360941084E+002 -8.1741162963E+001 -1.3541496572E+002 -1.6932825530E+001 -1.5288836265E+002
2562500000.000 -1.9216670882E+001 -7.3712234267E+001 -4.3620544808E+001 +1.7412876183E+002 -8.2476055704E+001 +6.1821320531E+001 -1.6845912356E+001 -1.5041651590E+002
2695000000.000 -1.8974025199E+001 -7.5543112366E+001 -4.3751207332E+001 +1.3899615911E+002 -7.7112520820E+001 +1.3898975797E+002 -1.7380107193E+001 -1.4718066013E+002
2827500000.000 -1.8749050906E+001 -7.6789063479E+001 -4.3858419879E+001 +1.0484785829E+002 -8.4816795515E+001 -1.6134469518E+002 -1.7853317583E+001 -1.4029693667E+002
2960000000.000 -1.8434314332E+001 -7.7650549101E+001 -4.4016621134E+001 +7.2376559633E+001 -7.6590590882E+001 +4.9706250787E+001 -1.8163483554E+001 -1.3548037257E+002
3092500000.000 -1.8070482361E+001 -7.9121546400E+001 -4.3874959671E+001 +3.7953221239E+001 -7.6313438905E+001 +1.4815120026E+002 -1.9087729646E+001 -1.2940321298E+002
3225000000.000 -1.7804254119E+001 -8.1058965420E+001 -4.4135527267E+001 +4.0959574794E+000 -8.2976302139E+001 -3.6611315946E+001 -1.9585351618E+001 -1.1965390328E+002
3357500000.000 -1.7627904856E+001 -8.2057141164E+001 -4.4022998234E+001 -2.9611871601E+001 -7.4875871534E+001 +8.0942922875E+000 -1.9964982377E+001 -1.1427568625E+002
3490000000.000 -1.7267540157E+001 -8.2999677185E+001 -4.4121728376E+001 -6.4136037889E+001 -8.0388536980E+001 +1.3292563655E+002 -2.1132330520E+001 -1.0854912290E+002
3622500000.000 -1.6927413525E+001 -8.4103437779E+001 -4.4141338308E+001 -9.7301338213E+001 -7.8435335597E+001 +1.7994473995E+002 -2.1945467432E+001 -9.8098779876E+001
3755000000.000 -1.6634151789E+001 -8.5524151798E+001 -4.3963729824E+001 -1.3145932707E+002 -7.9121588447E+001 -9.5746872807E+001 -2.2715956394E+001 -9.4582499293E+001
3887500000.000 -1.6392569093E+001 -8.6338525183E+001 -4.3881251737E+001 -1.6462987482E+002 -9.9140390254E+001 +4.2771131664E+001 -2.5049844788E+001 -8.7771260376E+001
4020000000.000 -1.6143535563E+001 -8.7051617072E+001 -4.3936449309E+001 +1.6045171474E+002 -8.4584378205E+001 -1.3982079679E+002 -2.6678124195E+001 -7.3306852671E+001
4152500000.000 -1.5848372911E+001 -8.7817610556E+001 -4.3755812907E+001 +1.2642573690E+002 -8.0535634883E+001 -3.3486693139E+001 -2.8842351809E+001 -6.4628071984E+001
4285000000.000 -1.5592761147E+001 -8.8691888143E+001 -4.3925880289E+001 +9.1792726682E+001 -7.8526800170E+001 +1.5549298045E+002 -3.3303753651E+001 -3.7581691483E+001
4417500000.000 -1.5365276047E+001 -8.9664146181E+001 -4.4003772043E+001 +5.7669513093E+001 -8.3429178054E+001 +1.4310856211E+002 -3.1753696010E+001 +8.1641923850E+000
4550000000.000 -1.5145514729E+001 -9.0097488471E+001 -4.4022935994E+001 +2.4072251292E+001 -8.3704906882E+001 -1.2485459931E+002 -3.0321613153E+001 +1.8479176896E+001
4682500000.000 -1.4874559393E+001 -9.0605743517E+001 -4.4091384764E+001 -9.5285056003E+000 -8.5425882371E+001 +6.2050504190E+001 -2.9638612871E+001 +3.8799591662E+001
4815000000.000 -1.4649655668E+001 -9.1435636574E+001 -4.4084681165E+001 -4.2771794482E+001 -7.8563901783E+001 +1.4664461610E+002 -2.7610706579E+001 +4.1341235373E+001
4947500000.000 -1.4461220178E+001 -9.1843960355E+001 -4.4042586695E+001 -7.5683559291E+001 -8.5913070406E+001 -9.2777551818E+001 -2.9337419638E+001 +3.5829504998E+001
5080000000.000 -1.4246928831E+001 -9.2051603114E+001 -4.3856590265E+001 -1.0959938887E+002 -9.3164494610E+001 +2.7589516647E+001 -3.2186822337E+001 +5.7148323395E+001
5212500000.000 -1.4027213931E+001 -9.2583202251E+001 -4.3717781653E+001 -1.4363394146E+002 -9.4626197461E+001 +1.7311384838E+002 -3.1558202959E+001 +6.9545100602E+001
5345000000.000 -1.3863679658E+001 -9.3221702061E+001 -4.3758699770E+001 -1.7765569527E+002 -1.0111166285E+002 +6.6501192511E+001 -3.5294552468E+001 +7.1011180077E+001
5477500000.000 -1.3718952205E+001 -9.3170535198E+001 -4.3701710119E+001 +1.4845252445E+002 -8.2029203299E+001 -3.0144845338E+001 -3.7203838586E+001 +1.3129265856E+002
5610000000.000 -1.3516171949E+001 -9.3425232534E+001 -4.3530986131E+001 +1.1383127893E+002 -8.2622603384E+001 +9.7885558889E+001 -3.3635205853E+001 +1.3566289679E+002
5742500000.000 -1.3368131919E+001 -9.4092002926E+001 -4.3616740470E+001 +7.9021990691E+001 -8.8214274352E+001 -1.7601539762E+002 -3.7757829271E+001 +1.5245613732E+002
5875000000.000 -1.3293353142E+001 -9.4587530747E+001 -4.3510513792E+001 +4.5366097612E+001 -9.4611421312E+001 +1.1073018604E+001 -3.3767239290E+001 -1.7057537267E+002
6007500000.000 -1.3167099118E+001 -9.4686940559E+001 -4.3485945574E+001 +1.0326201041E+001 -9.8871666521E+001 +1.2831803851E+002 -3.2677627636E+001 +1.7940497881E+002
6140000000.000 -1.2977621689E+001 -9.5134831049E+001 -4.3421564777E+001 -2.4430376350E+001 -8.7600181057E+001 +5.5785906817E+001 -3.6136774750E+001 -1.6999729525E+002
6272500000.000 -1.2850101743E+001 -9.6191834285E+001 -4.3342192924E+001 -5.8187372118E+001 -8.5565452063E+001 -7.8553024103E+001 -3.3894191731E+001 -1.4435790916E+002
6405000000.000 -1.2798334510E+001 -9.6853835515E+001 -4.3449183617E+001 -9.2723894694E+001 -8.1974046599E+001 +5.8996270636E+001 -3.3770304832E+001 -1.6215544756E+002
6537500000.000 -1.2663197807E+001 -9.6878058333E+001 -4.3464864157E+001 -1.2685564800E+002 -8.8453617904E+001 +1.4229544832E+002 -4.0100735302E+001 -1.6110792532E+002
6670000000.000 -1.2445248672E+001 -9.7415613176E+001 -4.3442194973E+001 -1.6101801170E+002 -9.0656742426E+001 -1.3775116291E+002 -3.9380879900E+001 -1.3719526936E+002
6802500000.000 -1.2309617118E+001 -9.8547351732E+001 -4.3520817387E+001 +1.6480040654E+002 -8.8468990972E+001 -2.4414683892E+001 -3.8895149704E+001 +1.7976664176E+002
6935000000.000 -1.2261998910E+001 -9.9093748121E+001 -4.3436819237E+001 +1.3006251393E+002 -8.5266152506E+001 -1.5723231648E+002 -3.8618060402E+001 +1.2321504262E+002
7067500000.000 -1.2128900577E+001 -9.9072347682E+001 -4.3404829153E+001 +9.6464767005E+001 -8.4091892085E+001 -8.6753794989E+001 -3.9061202666E+001 +1.1497141395E+002
7200000000.000 -1.1924258533E+001 -9.9754443947E+001 -4.3358318792E+001 +6.2067917523E+001 -8.3812866600E+001 -1.8642245443E+001 -3.2860984161E+001 +1.3155853681E+002
7332500000.000 -1.1802315331E+001 -1.0070074530E+002 -4.3435553065E+001 +2.7776399379E+001 -9.2093843432E+001 +1.4044270742E+002 -2.9094073903E+001 +1.1896977663E+002
7465000000.000 -1.1719571919E+001 -1.0106473846E+002 -4.3352100066E+001 -6.0494991543E+000 -8.8712259690E+001 +1.7518440416E+002 -2.8642777028E+001 +1.2238889721E+002
7597500000.000 -1.1554413162E+001 -1.0134235499E+002 -4.3613763786E+001 -4.0153180367E+001 -8.4658753847E+001 -4.4092913048E+001 -2.6136418045E+001 +1.3753186956E+002
7730000000.000 -1.1376750679E+001 -1.0184361026E+002 -4.3435255572E+001 -7.4199511771E+001 -8.6821329089E+001 +2.1943968442E+001 -2.3746142855E+001 +1.3786299921E+002
7862500000.000 -1.1254783832E+001 -1.0228350236E+002 -4.3472687649E+001 -1.0827709186E+002 -8.1300650203E+001 -1.4209174771E+002 -2.3296787223E+001 +1.4155622423E+002
7995000000.000 -1.1157289664E+001 -1.0245788780E+002 -4.3415225484E+001 -1.4296898674E+002 -9.2437066894E+001 +5.9321287121E+001 -2.1829845477E+001 +1.5429896021E+002
8127500000.000 -1.0967420378E+001 -1.0256400373E+002 -4.3362032831E+001 -1.7670099238E+002 -8.9489472181E+001 +8.2872615437E+001 -2.0024918127E+001 +1.5643789570E+002
8260000000.000 -1.0842116074E+001 -1.0307133137E+002 -4.3369541289E+001 +1.4904280422E+002 -8.5051803969E+001 -1.7310657712E+002 -1.9879614268E+001 +1.6022002605E+002
8392500000.000 -1.0748385250E+001 -1.0314820625E+002 -4.3224471244E+001 +1.1526941631E+002 -8.5110135987E+001 +4.7260734204E+001 -1.9065273014E+001 +1.7048250288E+002
8525000000.000 -1.0635057843E+001 -1.0308468409E+002 -4.3206938686E+001 +8.0081881223E+001 -9.2652100540E+001 +1.9114216269E+001 -1.8210541748E+001 +1.7299213518E+002
8657500000.000 -1.0500154553E+001 -1.0322224198E+002 -4.3100484959E+001 +4.6245124272E+001 -8.1194583703E+001 +1.5934792730E+002 -1.8572426797E+001 +1.7793003633E+002
8790000000.000 -1.0384383225E+001 -1.0350427558E+002 -4.3112783666E+001 +1.2314023222E+001 -8.5629579225E+001 -6.8307336911E+001 -1.8351324554E+001 -1.7172775016E+002
8922500000.000 -1.0338132685E+001 -1.0363816886E+002 -4.3115857882E+001 -2.1734594398E+001 -1.0113894402E+002 -9.5993441387E+000 -1.7983131968E+001 -1.6604360537E+002
9055000000.000 -1.0232355619E+001 -1.0364229858E+002 -4.3038023576E+001 -5.6938840031E+001 -8.4249723327E+001 +1.4726551184E+001 -1.8459738894E+001 -1.5839710142E+002
9187500000.000 -1.0145568848E+001 -1.0386577764E+002 -4.3051864668E+001 -9.1803613192E+001 -8.9601667337E+001 -5.3723893237E+001 -1.8382960824E+001 -1.4630037127E+002
9320000000.000 -1.0078525806E+001 -1.0447334393E+002 -4.2962424446E+001 -1.2540612994E+002 -8.2885988045E+001 -3.4114274268E+001 -1.8212751931E+001 -1.3966000030E+002
9452500000.000 -1.0023306891E+001 -1.0462588877E+002 -4.2809406820E+001 -1.6028509832E+002 -8.4978856576E+001 +1.0828467968E+002 -1.8853162047E+001 -1.3055060477E+002
9585000000.000 -9.9353991079E+000 -1.0483560877E+002 -4.2825071772E+001 +1.6511657871E+002 -1.0179857187E+002 -1.4456475760E+002 -1.8794829207E+001 -1.1820566190E+002
9717500000.000 -9.8135121136E+000 -1.0545922011E+002 -4.2838778406E+001 +1.3069805853E+002 -8.6792563833E+001 -1.1006148828E+001 -1.8817607660E+001 -1.1115460341E+002
9850000000.000 -9.7785122755E+000 -1.0614604192E+002 -4.2898206491E+001 +9.5997326774E+001 -8.7887710842E+001 +1.1505478233E+002 -1.9660257740E+001 -1.0050693886E+002
9982500000.000 -9.6998524422E+000 -1.0614386620E+002 -4.2821105504E+001 +6.1726257197E+001 -8.7144541519E+001 +8.1316080200E+001 -1.9692039077E+001 -8.6470642743E+001
10115000000.000 -9.5904106394E+000 -1.0649387213E+002 -4.2825306465E+001 +2.7043752395E+001 -8.0996806412E+001 -1.7528089184E+002 -1.9924446951E+001 -7.9038938008E+001
10247500000.000 -9.4983500117E+000 -1.0726638196E+002 -4.2716051339E+001 -7.0527454718E+000 -8.8417044338E+001 -6.4034941969E+001 -2.1162309216E+001 -6.5873877379E+001
10380000000.000 -9.4398056926E+000 -1.0756771694E+002 -4.2663446726E+001 -4.2373955238E+001 -7.9517368215E+001 +1.1984004652E+002 -2.1052040002E+001 -4.9832745851E+001
10512500000.000 -9.3587994673E+000 -1.0790873314E+002 -4.2685565080E+001 -7.7150448923E+001 -8.1667071761E+001 -1.1144412588E+002 -2.1521789477E+001 -4.1928851823E+001
10645000000.000 -9.2732783590E+000 -1.0833443707E+002 -4.2572959183E+001 -1.1103658780E+002 -8.6358360671E+001 +3.7791294777E+001 -2.2825871890E+001 -2.3777524772E+001
10777500000.000 -9.1808860571E+000 -1.0875159357E+002 -4.2636361083E+001 -1.4593578767E+002 -8.3640373619E+001 +8.8263312333E+001 -2.2190111893E+001 -5.8205748393E+000
10910000000.000 -9.0908909047E+000 -1.0911684050E+002 -4.2564850475E+001 +1.7956870223E+002 -9.5061824760E+001 -8.3777284495E+001 -2.2791024570E+001 +4.2505327242E+000
11042500000.000 -8.9941835956E+000 -1.0966144333E+002 -4.2608537236E+001 +1.4494949978E+002 -8.3439274499E+001 -5.1642564207E+001 -2.3464027154E+001 +2.7792213973E+001
11175000000.000 -8.8883407847E+000 -1.0988896139E+002 -4.2594391928E+001 +1.0997602650E+002 -8.3672009703E+001 +1.0957844587E+002 -2.2244422584E+001 +4.2978376243E+001
11307500000.000 -8.8244024740E+000 -1.1006315156E+002 -4.2620422910E+001 +7.5465147595E+001 -9.4004179954E+001 -8.0291785996E+001 -2.2738137703E+001 +5.3307144950E+001
11440000000.000 -8.7193212108E+000 -1.1052588940E+002 -4.2552484263E+001 +4.0017461240E+001 -8.9035045674E+001 +1.7927835252E+001 -2.2575028720E+001 +7.5938800373E+001
11572500000.000 -8.6224641017E+000 -1.1052732830E+002 -4.2530797530E+001 +5.5423318242E+000 -8.6276473936E+001 +1.4003962755E+002 -2.1148627117E+001 +8.7209850120E+001
11705000000.000 -8.5482305284E+000 -1.1073454640E+002 -4.2556462287E+001 -2.8454617075E+001 -8.6668246651E+001 +1.2065968060E+002 -2.1757857354E+001 +9.7149909517E+001
11837500000.000 -8.4609052996E+000 -1.1107508573E+002 -4.2635139675E+001 -6.3961205878E+001 -8.3444800981E+001 +7.8244786943E+000 -2.1126822340E+001 +1.1936276900E+002
11970000000.000 -8.4272488330E+000 -1.1117513868E+002 -4.2614349048E+001 -9.8493984604E+001 -7.8523200965E+001 +6.2557137279E+001 -1.9814702790E+001 +1.2561303846E+002
12102500000.000 -8.3587238562E+000 -1.1099347452E+002 -4.2536284785E+001 -1.3368828990E+002 -8.8663048725E+001 +1.4955528649E+002 -2.0739873751E+001 +1.3555873563E+002
12235000000.000 -8.2892371056E+000 -1.1169052735E+002 -4.2560758585E+001 -1.6921604538E+002 -8.1174748700E+001 -1.9782690691E+001 -1.9754983024E+001 +1.5467990003E+002
12367500000.000 -8.2779075064E+000 -1.1162667129E+002 -4.2597720276E+001 +1.5604012976E+002 -8.3966443971E+001 +1.4325568226E+001 -1.8880864692E+001 +1.5804659280E+002
12500000000.000 -8.2327717923E+000 -1.1207744781E+002 -4.2602343596E+001 +1.2187135092E+002 -8.8083868513E+001 +1.1396523725E+002 -2.0064571694E+001 +1.6826081282E+002
12632500000.000 -8.1496924934E+000 -1.1219140493E+002 -4.2696447941E+001 +8.6558260190E+001 -8.2694758168E+001 -1.0221307949E+002 -1.9160384417E+001 -1.7287596813E+002
12765000000.000 -8.1272108098E+000 -1.1245855911E+002 -4.2735464267E+001 +5.1263314133E+001 -9.1886128771E+001 +1.5268480145E+002 -1.8528968154E+001 -1.7138766877E+002
12897500000.000 -8.1185358867E+000 -1.1283289826E+002 -4.2775747109E+001 +1.6541287925E+001 -8.4889685154E+001 +1.6296601772E+002 -2.0140983854E+001 -1.5928561563E+002
13030000000.000 -8.0765918052E+000 -1.1303655356E+002 -4.2909637992E+001 -1.8942811515E+001 -8.8442749591E+001 +1.5173917506E+002 -1.8830347087E+001 -1.4139299753E+002
13162500000.000 -8.0145699817E+000 -1.1327455543E+002 -4.2918776922E+001 -5.3322029365E+001 -8.9857503139E+001 -1.0388325540E+002 -1.8650702118E+001 -1.4168239597E+002
13295000000.000 -7.9653248310E+000 -1.1360470454E+002 -4.2915920482E+001 -8.7843892762E+001 -8.8070034661E+001 +8.2727162396E+001 -2.0062679007E+001 -1.2783771855E+002
13427500000.000 -7.9436246673E+000 -1.1420794809E+002 -4.2998295975E+001 -1.2303138905E+002 -8.1538387425E+001 -1.4937490580E+002 -1.8836113164E+001 -1.1407486699E+002
13560000000.000 -7.9382264311E+000 -1.1419672572E+002 -4.3238941005E+001 -1.5790909944E+002 -8.2026928811E+001 +2.6991307132E+000 -1.9052826269E+001 -1.1472326219E+002
13692500000.000 -7.8573151200E+000 -1.1435599233E+002 -4.3221781884E+001 +1.6702674828E+002 -8.5691318450E+001 +8.8411256342E+001 -2.0850761038E+001 -1.0124752910E+002
13825000000.000 -7.7854911304E+000 -1.1492447892E+002 -4.3204380650E+001 +1.3272803769E+002 -9.5165819401E+001 +1.5451285402E+002 -1.9727896103E+001 -8.7506030552E+001
13957500000.000 -7.7877797556E+000 -1.1538134329E+002 -4.3415933715E+001 +9.7513180610E+001 -9.2692785679E+001 -1.0211355765E+002 -2.0395659202E+001 -9.0137251575E+001
14090000000.000 -7.7530608164E+000 -1.1540993536E+002 -4.3588923191E+001 +6.2523443189E+001 -8.5665732234E+001 +1.0057534962E+002 -2.2688314709E+001 -7.2598356379E+001
14222500000.000 -7.6677533509E+000 -1.1539664475E+002 -4.3549069174E+001 +2.7548691436E+001 -8.0922018690E+001 +1.5657203312E+002 -2.1291831705E+001 -5.9252846840E+001
14355000000.000 -7.6129358285E+000 -1.1596388791E+002 -4.3659906798E+001 -8.1068428652E+000 -8.7599710636E+001 -1.0086560902E+002 -2.2498946732E+001 -6.3481867698E+001
14487500000.000 -7.5908251372E+000 -1.1626617479E+002 -4.3593133520E+001 -4.2875443230E+001 -8.5232433530E+001 -2.7054106024E+001 -2.5556490830E+001 -4.0246213460E+001
14620000000.000 -7.5508979863E+000 -1.1615283160E+002 -4.3869810598E+001 -7.7420066961E+001 -9.3015404219E+001 +6.2999264112E+001 -2.3298838537E+001 -2.7303877251E+001
14752500000.000 -7.4386759353E+000 -1.1633765163E+002 -4.3933101079E+001 -1.1271703937E+002 -8.0994796360E+001 -1.3611368101E+002 -2.5406594849E+001 -3.6507399861E+001
14885000000.000 -7.3936323514E+000 -1.1664839643E+002 -4.4127944192E+001 -1.4658171701E+002 -8.2293876294E+001 +5.9802785741E+001 -2.8941473745E+001 +2.3839062448E+000
15017500000.000 -7.3744936180E+000 -1.1664455752E+002 -4.4201999153E+001 +1.7849518750E+002 -7.7016094962E+001 +6.7689198165E+001 -2.5410207961E+001 +9.0858510698E+000
15150000000.000 -7.2861367143E+000 -1.1646916178E+002 -4.4413899033E+001 +1.4249066302E+002 -7.8649504378E+001 -1.1888051374E+002 -2.9163264623E+001 -2.3262344089E+000
15282500000.000 -7.2243705580E+000 -1.1646894303E+002 -4.4336781811E+001 +1.0807126362E+002 -8.2294363657E+001 -6.2241459399E+001 -3.1144793455E+001 +5.8078410598E+001
