!  2-Port S-parameters saved by WinCal
! VAR MeasName=S-Parameters (CALIBRATED_DATA) read from VNA (C)
! VAR MeasDate=10/16/2015 2:28:56 PM
! VAR NAME=M6082_10_13_2_2_20C_1.8mA_-17.5dBm
! VAR FILENAME=M6082_10_13_2_2_20C_1.8mA_-17.5dBm.S2P
! VAR DATE=10/16/2015 2:28:56 PM
! VAR PHYS_PORTS=2,1
! VAR ObjTypeName=DATASET
! VAR IndexType=Frequency
!
# Hz S DB R 50
45000000.000 -1.9498814454E+001 +1.3308288268E+000 -4.2202821143E+001 +1.0044749832E+002 -6.2576675986E+001 -9.0744809313E-001 -3.0651571919E+001 +6.2949418989E+000
177500000.000 -1.9890069424E+001 -8.2882022160E+000 -4.4652000062E+001 +6.6213336359E+001 -7.0169867437E+001 +1.4627251620E+002 -3.2744723512E+001 +4.6604030294E+001
310000000.000 -1.9500919135E+001 -1.3983190445E+001 -4.5060160525E+001 +3.6178618512E+001 -8.5012024140E+001 -8.2561709594E+001 -2.3345160151E+001 +6.4657644113E+001
442500000.000 -1.9747898609E+001 -2.0221818660E+001 -4.3653577140E+001 -3.5242965118E+000 -8.5656368438E+001 -9.8794713776E+001 -2.2381343348E+001 +1.7308402208E+001
575000000.000 -1.9822717188E+001 -2.5696375837E+001 -4.4143836426E+001 -4.0703241349E+001 -7.8325547038E+001 +1.3109501899E+002 -3.0604478212E+001 +2.2385173053E+001
707500000.000 -1.9549649944E+001 -3.0862325502E+001 -4.4260571757E+001 -7.5295499313E+001 -8.2070437538E+001 +1.4882996729E+002 -3.4523307577E+001 +8.3710558519E+001
840000000.000 -1.9403287504E+001 -3.5787934119E+001 -4.4220748457E+001 -1.1014380947E+002 -9.0022755124E+001 +9.1065923704E+001 -2.9685303903E+001 +1.2740216407E+002
972500000.000 -1.8841490795E+001 -4.0091128007E+001 -4.4462886524E+001 -1.4500704443E+002 -8.5047168471E+001 +9.8781270055E+001 -2.5959712097E+001 +1.3531154551E+002
1105000000.000 -1.8520984263E+001 -4.4490317865E+001 -4.4508932764E+001 -1.7977043243E+002 -8.4115923939E+001 -1.5479194249E+002 -2.4359985191E+001 +1.4079518930E+002
1237500000.000 -1.8084018927E+001 -4.8188562461E+001 -4.4390538412E+001 +1.4554804370E+002 -8.2839582704E+001 +2.3680898888E+001 -2.3390549137E+001 +1.4989442374E+002
1370000000.000 -1.7581320258E+001 -5.1860056927E+001 -4.4577471439E+001 +1.0960868648E+002 -8.3451887451E+001 +1.7279698524E+002 -2.2078722530E+001 +1.5996328086E+002
1502500000.000 -1.7420631380E+001 -5.5067054864E+001 -4.4344985492E+001 +7.5209196541E+001 -9.0556103675E+001 +1.5750205109E+002 -2.0855999744E+001 +1.6632704595E+002
1635000000.000 -1.6827915300E+001 -5.7795707970E+001 -4.4391713736E+001 +3.9532109185E+001 -8.1230965970E+001 -4.1995255984E+001 -2.0022526039E+001 +1.7326366321E+002
1767500000.000 -1.6418042844E+001 -6.0814402864E+001 -4.4317039951E+001 +4.7794924349E+000 -8.7652158010E+001 +1.7108896445E+002 -1.9014745489E+001 +1.7849343688E+002
1900000000.000 -1.6348129263E+001 -6.3522254653E+001 -4.4111767606E+001 -2.8846919763E+001 -8.0238352700E+001 -1.6709236858E+002 -1.8866052394E+001 -1.7830025898E+002
2032500000.000 -1.6052173509E+001 -6.6096392934E+001 -4.4142776474E+001 -6.2751845641E+001 -7.5010662554E+001 -5.2031631135E+001 -1.8690283813E+001 -1.6789487129E+002
2165000000.000 -1.5679713835E+001 -6.8601393921E+001 -4.4102563423E+001 -9.6048910630E+001 -8.2980018849E+001 +3.9046437675E+001 -1.7741374809E+001 -1.6098417256E+002
2297500000.000 -1.5419680968E+001 -7.1344778014E+001 -4.4240606403E+001 -1.2951602101E+002 -8.6170961598E+001 -1.6790296775E+002 -1.7246806475E+001 -1.5706395234E+002
2430000000.000 -1.5149714714E+001 -7.3460292238E+001 -4.4277293610E+001 -1.6236381782E+002 -8.0941339473E+001 -1.0404893599E+002 -1.6944707879E+001 -1.5289311540E+002
2562500000.000 -1.4784245076E+001 -7.5015757445E+001 -4.4190664063E+001 +1.6260016410E+002 -9.7649942008E+001 +1.4479218944E+002 -1.6834173891E+001 -1.5047090327E+002
2695000000.000 -1.4530787918E+001 -7.7277696183E+001 -4.4107172683E+001 +1.2950022849E+002 -7.9011145657E+001 -1.3495959396E+002 -1.7373206609E+001 -1.4713695653E+002
2827500000.000 -1.4310546741E+001 -7.8867742787E+001 -4.4314489275E+001 +9.4600147106E+001 -9.0357251882E+001 -1.5741300116E+002 -1.7857400801E+001 -1.4026790182E+002
2960000000.000 -1.3997223394E+001 -7.9959414096E+001 -4.4086725208E+001 +6.0004227502E+001 -8.0198996625E+001 +2.8349714749E+001 -1.8158064235E+001 -1.3541381163E+002
3092500000.000 -1.3650262643E+001 -8.1517828219E+001 -4.4142265872E+001 +2.2526416533E+001 -7.8560904367E+001 +1.6428836984E+002 -1.9084470329E+001 -1.2924318185E+002
3225000000.000 -1.3390414185E+001 -8.3404945504E+001 -4.3984843085E+001 -9.4857724845E+000 -7.7775187125E+001 -1.0187436315E+002 -1.9585283927E+001 -1.1973040764E+002
3357500000.000 -1.3153027204E+001 -8.4664332218E+001 -4.3824594673E+001 -4.5322565724E+001 -7.6682338903E+001 +2.9440297228E+000 -1.9955771412E+001 -1.1431509771E+002
3490000000.000 -1.2830245268E+001 -8.5875775129E+001 -4.4075026477E+001 -8.0112958575E+001 -8.0378714004E+001 +1.5331928655E+002 -2.1133612874E+001 -1.0862552979E+002
3622500000.000 -1.2542031151E+001 -8.7352102945E+001 -4.3858164946E+001 -1.1301931717E+002 -8.1597214397E+001 +7.2941027839E+001 -2.1953090619E+001 -9.8172289367E+001
3755000000.000 -1.2274003571E+001 -8.8852261927E+001 -4.3742858160E+001 -1.4831745231E+002 -8.3890615289E+001 -3.4350671214E+001 -2.2726293177E+001 -9.4554955547E+001
3887500000.000 -1.2026894075E+001 -8.9947630464E+001 -4.3730930058E+001 +1.7564250675E+002 -8.4363302167E+001 +3.7703438524E+001 -2.5070445297E+001 -8.7842429757E+001
4020000000.000 -1.1814342741E+001 -9.0998273246E+001 -4.3672976541E+001 +1.4103084515E+002 -7.8922112277E+001 +1.7001571974E+002 -2.6706027854E+001 -7.3370076378E+001
4152500000.000 -1.1559517738E+001 -9.1872890402E+001 -4.3596195687E+001 +1.0540175782E+002 -8.2082919051E+001 -8.9034173155E+001 -2.8885839727E+001 -6.4995777744E+001
4285000000.000 -1.1303177641E+001 -9.2843958162E+001 -4.3524216009E+001 +6.8650373372E+001 -9.1923096419E+001 +7.4639432347E+001 -3.3333120291E+001 -3.7516635284E+001
4417500000.000 -1.1065728839E+001 -9.3800352789E+001 -4.3414939586E+001 +3.2193323367E+001 -9.3992220030E+001 +1.4684944295E+002 -3.1730982434E+001 +7.9723255847E+000
4550000000.000 -1.0852397008E+001 -9.4389816994E+001 -4.3437365701E+001 -4.8536304880E+000 -8.7555288423E+001 -1.3029603313E+002 -3.0326836981E+001 +1.8146724842E+001
4682500000.000 -1.0527496165E+001 -9.4685083854E+001 -4.3173459910E+001 -4.5286740976E+001 -8.3963590349E+001 +1.4331192470E+001 -2.9647350390E+001 +3.8841709700E+001
4815000000.000 -1.0210918299E+001 -9.5350096399E+001 -4.3021324105E+001 -8.5746386753E+001 -8.1240160968E+001 +9.4628698449E+001 -2.7629844469E+001 +4.1249275042E+001
4947500000.000 -9.9756882911E+000 -9.5987937461E+001 -4.2787454652E+001 -1.2318924031E+002 -8.4358732578E+001 -1.5942291079E+002 -2.9351704989E+001 +3.5794751601E+001
5080000000.000 -9.6183321362E+000 -9.6639971104E+001 -4.2803879750E+001 -1.6703309744E+002 -9.1010168577E+001 +6.4644717769E+001 -3.2219800615E+001 +5.7140373498E+001
5212500000.000 -9.3064177165E+000 -9.7806665949E+001 -4.2972352228E+001 +1.5021527679E+002 -8.6087893895E+001 +9.1947061296E+001 -3.1539619165E+001 +6.9324191346E+001
5345000000.000 -9.1642136154E+000 -9.8683734443E+001 -4.2743573924E+001 +1.1490088485E+002 -8.9170193053E+001 -6.4566722530E+001 -3.5298968114E+001 +7.1007881164E+001
5477500000.000 -8.9784548924E+000 -9.9516468591E+001 -4.2858346039E+001 +7.5928764498E+001 -9.1574823130E+001 +7.9653233026E+000 -3.7236599292E+001 +1.3195441532E+002
5610000000.000 -8.7622595572E+000 -1.0065824166E+002 -4.3185969530E+001 +3.4921445405E+001 -8.7707896591E+001 +5.7652264523E+001 -3.3663361843E+001 +1.3568554189E+002
5742500000.000 -8.6317512692E+000 -1.0160682794E+002 -4.3120896183E+001 -1.4950309333E+000 -1.0145793822E+002 -3.4828332323E+000 -3.7763727011E+001 +1.5231188681E+002
5875000000.000 -8.5577154941E+000 -1.0239977997E+002 -4.2925654570E+001 -3.5928210552E+001 -8.5976727277E+001 -1.7778813863E+001 -3.3793408594E+001 -1.7073639322E+002
6007500000.000 -8.4337599482E+000 -1.0340746927E+002 -4.3369635295E+001 -7.5206323084E+001 -8.8539983059E+001 +9.8091373185E+001 -3.2704952932E+001 +1.7930400990E+002
6140000000.000 -8.2825813288E+000 -1.0437959145E+002 -4.3627582087E+001 -1.1329908782E+002 -8.7095375837E+001 -1.4745229259E+002 -3.6118761463E+001 -1.6978924982E+002
6272500000.000 -8.1826972384E+000 -1.0521341815E+002 -4.3246526390E+001 -1.4621688507E+002 -8.6349876482E+001 -8.2485344040E+001 -3.3872538320E+001 -1.4465557034E+002
6405000000.000 -8.1194642942E+000 -1.0636805475E+002 -4.3420731983E+001 +1.7697678041E+002 -8.8457189116E+001 -1.1948323840E+001 -3.3800747058E+001 -1.6225655195E+002
6537500000.000 -8.0265405463E+000 -1.0719633674E+002 -4.3945321126E+001 +1.3869931949E+002 -8.3960691709E+001 +1.4354936924E+002 -4.0168675713E+001 -1.6040482686E+002
6670000000.000 -7.8900438260E+000 -1.0769229656E+002 -4.3649203781E+001 +1.0549839981E+002 -9.5047543973E+001 -3.2356067494E+001 -3.9371923282E+001 -1.3745380083E+002
6802500000.000 -7.7856411198E+000 -1.0894919653E+002 -4.3931936993E+001 +6.9657912873E+001 -8.4957801775E+001 +1.5746419693E+001 -3.8847167958E+001 +1.7923677138E+002
6935000000.000 -7.7596331232E+000 -1.1021652532E+002 -4.4782643064E+001 +3.0614735762E+001 -8.7575761560E+001 -1.5869305094E+002 -3.8546179646E+001 +1.2272217389E+002
7067500000.000 -7.6893159889E+000 -1.1040327866E+002 -4.4787787682E+001 -2.8387291388E+000 -8.7925723823E+001 -1.3086450429E+002 -3.9001395053E+001 +1.1510001927E+002
7200000000.000 -7.5537545117E+000 -1.1083951253E+002 -4.4367540539E+001 -3.3946902043E+001 -8.7659176784E+001 -6.4118532355E+001 -3.2841780277E+001 +1.3162896155E+002
7332500000.000 -7.4761667782E+000 -1.1209550115E+002 -4.4991386327E+001 -7.0129061563E+001 -8.6127563151E+001 +1.5236414243E+002 -2.9080978833E+001 +1.1909974705E+002
7465000000.000 -7.4341697934E+000 -1.1276658452E+002 -4.5224146541E+001 -1.0570811292E+002 -8.7700055886E+001 -1.5104148324E+002 -2.8644267762E+001 +1.2237062992E+002
7597500000.000 -7.3309175094E+000 -1.1289263290E+002 -4.4664926938E+001 -1.3757412005E+002 -9.5043290046E+001 +5.2334719293E+000 -2.6135388657E+001 +1.3750805575E+002
7730000000.000 -7.2290378601E+000 -1.1366194123E+002 -4.5170748287E+001 -1.7387156398E+002 -1.0118960912E+002 +4.8670736024E+001 -2.3726225039E+001 +1.3792060058E+002
7862500000.000 -7.1717081037E+000 -1.1454159739E+002 -4.6088023357E+001 +1.4889269503E+002 -8.2650890457E+001 -7.6247539258E+001 -2.3282002172E+001 +1.4157453461E+002
7995000000.000 -7.1027854580E+000 -1.1472686465E+002 -4.5639239788E+001 +1.1749939290E+002 -8.4115242954E+001 -8.0549588018E+000 -2.1839319879E+001 +1.5423587295E+002
8127500000.000 -6.9954725367E+000 -1.1496737639E+002 -4.5763773188E+001 +8.3046721438E+001 -8.4394853453E+001 +7.4331299185E+001 -2.0024828658E+001 +1.5654093798E+002
8260000000.000 -6.9311313531E+000 -1.1576697596E+002 -4.6600527615E+001 +4.5868473840E+001 -8.3079274988E+001 -1.5890372678E+002 -1.9873565960E+001 +1.6020460964E+002
8392500000.000 -6.8768225749E+000 -1.1599979258E+002 -4.6197760212E+001 +1.2615910873E+001 -8.1103623934E+001 -1.1137160356E+002 -1.9063941183E+001 +1.7043024833E+002
8525000000.000 -6.8120471899E+000 -1.1609907497E+002 -4.6245347390E+001 -2.1651467216E+001 -8.8191212631E+001 +6.7598102492E+001 -1.8207653555E+001 +1.7302672280E+002
8657500000.000 -6.7540904668E+000 -1.1651059561E+002 -4.7073896918E+001 -5.7403669732E+001 -8.6292969522E+001 -1.6709733212E+002 -1.8567241696E+001 +1.7795908951E+002
8790000000.000 -6.6857928863E+000 -1.1695845328E+002 -4.7176184361E+001 -9.1897819664E+001 -9.2101962886E+001 -1.3848873289E+002 -1.8352127674E+001 -1.7170140144E+002
8922500000.000 -6.6567714024E+000 -1.1724154278E+002 -4.7119301949E+001 -1.2619149850E+002 -8.6454138456E+001 +7.9220739954E+001 -1.7992319191E+001 -1.6597848109E+002
9055000000.000 -6.6092882402E+000 -1.1749561463E+002 -4.7467876467E+001 -1.6171099747E+002 -8.4166337456E+001 +1.2153532627E+002 -1.8456826429E+001 -1.5834368582E+002
9187500000.000 -6.5621578867E+000 -1.1785934514E+002 -4.7732877029E+001 +1.6376894342E+002 -8.2408108488E+001 -1.2279174532E+002 -1.8389829249E+001 -1.4629633475E+002
9320000000.000 -6.5094016071E+000 -1.1853590850E+002 -4.7671660021E+001 +1.2898463506E+002 -9.2028923191E+001 +3.4720496459E+001 -1.8206004119E+001 -1.3964880600E+002
9452500000.000 -6.4865047484E+000 -1.1892289896E+002 -4.8019853060E+001 +9.2786837562E+001 -1.1133712746E+002 +9.1508341874E+001 -1.8857599533E+001 -1.3052522096E+002
9585000000.000 -6.4470563227E+000 -1.1927311833E+002 -4.8580324235E+001 +5.8160462248E+001 -9.1156185080E+001 -1.6038481728E+002 -1.8795118510E+001 -1.1813762169E+002
9717500000.000 -6.3617154583E+000 -1.1976292650E+002 -4.8802064633E+001 +2.2466004711E+001 -8.4545383286E+001 -4.7226679339E+001 -1.8816296763E+001 -1.1105517492E+002
9850000000.000 -6.3438732240E+000 -1.2053704108E+002 -4.8989022642E+001 -1.0216802626E+001 -8.4730943089E+001 +7.3008736804E+001 -1.9666037581E+001 -1.0052042982E+002
9982500000.000 -6.3146673375E+000 -1.2068830116E+002 -4.9193481478E+001 -4.5599897446E+001 -9.1301607583E+001 -1.7912963220E+002 -1.9712249435E+001 -8.6369192946E+001
10115000000.000 -6.2510937110E+000 -1.2097946118E+002 -4.9679372836E+001 -7.9243648488E+001 -8.6849085111E+001 -6.4065008977E+001 -1.9921294935E+001 -7.8954704410E+001
10247500000.000 -6.1883931965E+000 -1.2163880044E+002 -4.9857551130E+001 -1.1355431132E+002 -8.2381663304E+001 +4.5287886136E+001 -2.1155633720E+001 -6.5910000254E+001
10380000000.000 -6.1672440320E+000 -1.2209925594E+002 -5.0423999889E+001 -1.4933690285E+002 -8.6980365743E+001 +1.7088646687E+002 -2.1071943833E+001 -4.9792973057E+001
10512500000.000 -6.1334746191E+000 -1.2240570770E+002 -5.0621954786E+001 +1.7703574797E+002 -9.5627059041E+001 -1.4386259738E+002 -2.1522238646E+001 -4.1814347336E+001
10645000000.000 -6.0780330587E+000 -1.2274199465E+002 -5.0684725944E+001 +1.4279262959E+002 -8.5699313435E+001 +4.9303605996E+000 -2.2820919593E+001 -2.3746615553E+001
10777500000.000 -6.0209826137E+000 -1.2319005103E+002 -5.1151701032E+001 +1.0811832322E+002 -8.8915617024E+001 +7.4352475639E+001 -2.2215747776E+001 -5.7159260323E+000
10910000000.000 -5.9773778988E+000 -1.2362299343E+002 -5.1648926060E+001 +7.3291250826E+001 -9.3372877766E+001 +1.1824548286E+002 -2.2790524115E+001 +4.4527932871E+000
11042500000.000 -5.9220149347E+000 -1.2404632451E+002 -5.1837769838E+001 +4.0673374055E+001 -9.0030818082E+001 +1.1442110862E+001 -2.3441511652E+001 +2.7763608788E+001
11175000000.000 -5.8599459218E+000 -1.2422660318E+002 -5.2142609766E+001 +7.5792998568E+000 -9.0958716649E+001 +1.6226939873E+002 -2.2259427229E+001 +4.2888623216E+001
11307500000.000 -5.8233525436E+000 -1.2447656744E+002 -5.2576774937E+001 -2.7760706015E+001 -8.5630151401E+001 -1.5182584254E+002 -2.2742413428E+001 +5.3377664809E+001
11440000000.000 -5.7611509719E+000 -1.2485132215E+002 -5.2859556353E+001 -6.1006919277E+001 -9.2876193082E+001 -1.2603756630E+002 -2.2566048069E+001 +7.5859761224E+001
11572500000.000 -5.7159907849E+000 -1.2483780595E+002 -5.3209187038E+001 -9.6043031810E+001 -9.3650801663E+001 +9.4090741708E+001 -2.1162844714E+001 +8.7185261593E+001
11705000000.000 -5.6767322164E+000 -1.2503497788E+002 -5.3361970303E+001 -1.2880957905E+002 -8.3528159741E+001 +1.5640804806E+002 -2.1768220654E+001 +9.7207095748E+001
11837500000.000 -5.6240197880E+000 -1.2530445444E+002 -5.3990174664E+001 -1.6226412135E+002 -8.6466303161E+001 +3.0198861449E+001 -2.1113695146E+001 +1.1942529232E+002
11970000000.000 -5.6173451757E+000 -1.2546161359E+002 -5.4013498141E+001 +1.6328647065E+002 -8.8784337400E+001 -6.1882293774E+000 -1.9813914796E+001 +1.2559089798E+002
12102500000.000 -5.5975760461E+000 -1.2538318470E+002 -5.4541836807E+001 +1.3188362270E+002 -8.8410621186E+001 -1.6142196089E+002 -2.0747117894E+001 +1.3548845759E+002
12235000000.000 -5.5464498570E+000 -1.2590759602E+002 -5.4513734888E+001 +9.7807039206E+001 -8.5758991814E+001 -2.1771795689E+001 -1.9763246161E+001 +1.5466586279E+002
12367500000.000 -5.5481287562E+000 -1.2599949300E+002 -5.4839324880E+001 +6.4108608827E+001 -8.8977251203E+001 +8.0074567132E+001 -1.8879490112E+001 +1.5799845601E+002
12500000000.000 -5.5285786848E+000 -1.2644427817E+002 -5.4947540221E+001 +2.8137725899E+001 -8.3952026800E+001 +8.2092559611E+001 -2.0056074306E+001 +1.6816459123E+002
12632500000.000 -5.4868603406E+000 -1.2655846235E+002 -5.4806623920E+001 -3.9981025378E+000 -8.8381934216E+001 +5.1246856299E+000 -1.9166308145E+001 -1.7296512472E+002
12765000000.000 -5.4687089835E+000 -1.2683182911E+002 -5.5506636884E+001 -3.8214054461E+001 -8.1616552560E+001 -1.1762730542E+001 -1.8513480069E+001 -1.7128016414E+002
12897500000.000 -5.4630599956E+000 -1.2718376042E+002 -5.5234047348E+001 -7.3146178477E+001 -8.0310603738E+001 +1.6294817732E+002 -2.0118929377E+001 -1.5939027161E+002
13030000000.000 -5.4445474397E+000 -1.2739549322E+002 -5.6141484222E+001 -1.0797229290E+002 -8.8036632435E+001 -1.4985576069E+002 -1.8852858423E+001 -1.4152414589E+002
13162500000.000 -5.4107279148E+000 -1.2754961028E+002 -5.6353860866E+001 -1.4034328311E+002 -8.1098352161E+001 -2.2514781006E+001 -1.8650366886E+001 -1.4152896586E+002
13295000000.000 -5.3806964190E+000 -1.2777696821E+002 -5.6490329539E+001 -1.7378645109E+002 -8.7455806170E+001 +1.0205905757E+002 -2.0033455720E+001 -1.2782437327E+002
13427500000.000 -5.3698369035E+000 -1.2822984778E+002 -5.6803207166E+001 +1.4899530373E+002 -8.1189281254E+001 -1.6465407506E+002 -1.8850191767E+001 -1.1414367432E+002
13560000000.000 -5.3758887481E+000 -1.2828406038E+002 -5.7362797197E+001 +1.1851912223E+002 -8.8407362176E+001 -2.6356484505E+001 -1.9064697782E+001 -1.1462326744E+002
13692500000.000 -5.3343734281E+000 -1.2838754281E+002 -5.7867419612E+001 +8.0244283801E+001 -8.0060570366E+001 +9.0036539300E+001 -2.0827567592E+001 -1.0122694984E+002
13825000000.000 -5.2929724497E+000 -1.2877382156E+002 -5.7665539365E+001 +4.8891914306E+001 -7.9864767026E+001 -8.0527658933E+001 -1.9737258032E+001 -8.7662521180E+001
13957500000.000 -5.2951296195E+000 -1.2919083752E+002 -5.8178102556E+001 +1.8848237616E+001 -7.6978891751E+001 -1.1367046284E+002 -2.0409903873E+001 -9.0087068621E+001
14090000000.000 -5.2863971875E+000 -1.2929946869E+002 -5.8301295665E+001 -1.8303508198E+001 -8.8248123956E+001 -2.1166238667E+001 -2.2670440766E+001 -7.2560508299E+001
14222500000.000 -5.2358982236E+000 -1.2925883437E+002 -5.9063359927E+001 -4.8018142995E+001 -8.5796545299E+001 -3.5251380215E+001 -2.1280776189E+001 -5.9328590716E+001
14355000000.000 -5.1870198920E+000 -1.2969289317E+002 -5.8649900066E+001 -8.4932881309E+001 -8.1680199763E+001 +1.7591216890E+002 -2.2507182904E+001 -6.3663243640E+001
14487500000.000 -5.1689657992E+000 -1.2993242576E+002 -5.9460643062E+001 -1.1288378402E+002 -8.6023636433E+001 -8.4289619321E+001 -2.5565939274E+001 -4.0217479162E+001
14620000000.000 -5.1549947284E+000 -1.2985744722E+002 -6.0157586955E+001 -1.4265192410E+002 -8.8376461880E+001 -1.9970191078E+001 -2.3275414968E+001 -2.7217083205E+001
14752500000.000 -5.0736952748E+000 -1.2982644943E+002 -5.9361880984E+001 +1.7735896647E+002 -8.0871578140E+001 -5.9542112225E+001 -2.5355226515E+001 -3.6769078362E+001
14885000000.000 -5.0378143729E+000 -1.2998750373E+002 -5.9678200185E+001 +1.4045693380E+002 -7.9876228677E+001 -3.9952404963E+001 -2.8981579759E+001 +2.2934353934E+000
15017500000.000 -5.0224795090E+000 -1.2994547190E+002 -5.9828337029E+001 +1.0858212410E+002 -8.1281212919E+001 +1.0003248349E+002 -2.5400784797E+001 +9.3418757833E+000
15150000000.000 -4.9752231556E+000 -1.2976825494E+002 -6.0393534513E+001 +8.2090231900E+001 -7.9047292142E+001 -1.0970644694E+002 -2.9078862720E+001 -2.6894994449E+000
15282500000.000 -4.9438730781E+000 -1.2967088618E+002 -6.0442734707E+001 +3.9403189655E+001 -8.6264092130E+001 -3.7628551710E+001 -3.1217878848E+001 +5.8137490331E+001
