!  2-Port S-parameters saved by WinCal
! VAR MeasName=S-Parameters (CALIBRATED_DATA) read from VNA (C)
! VAR MeasDate=10/16/2015 3:49:27 PM
! VAR NAME=M6082_10_17_2_2_20C_3.5mA_-17.5dBm
! VAR FILENAME=M6082_10_17_2_2_20C_3.5mA_-17.5dBm.S2P
! VAR DATE=10/16/2015 3:49:27 PM
! VAR PHYS_PORTS=2,1
! VAR ObjTypeName=DATASET
! VAR IndexType=Frequency
!
# Hz S DB R 50
45000000.000 -3.9835495650E+001 -1.6568612255E+002 -4.2714663543E+001 +9.4390399211E+001 -5.5536835431E+001 -3.8389575741E+001 -3.0762678643E+001 +4.7992047026E+000
177500000.000 -3.4713315978E+001 -1.1881522216E+002 -4.2582476341E+001 +6.7916853930E+001 -7.0588853348E+001 +8.7722669897E+001 -3.2732742410E+001 +4.7258235543E+001
310000000.000 -3.0226232826E+001 -1.0691939854E+002 -4.2881596753E+001 +3.8045934590E+001 -8.1389434358E+001 -6.2642989798E+001 -2.3336811172E+001 +6.4612683428E+001
442500000.000 -2.7162477602E+001 -1.0283244067E+002 -4.1784981035E+001 -2.0371451410E+000 -8.7964095570E+001 -5.3539633177E+001 -2.2404921764E+001 +1.7254276715E+001
575000000.000 -2.4759801889E+001 -1.0137703437E+002 -4.2420234904E+001 -3.7846804830E+001 -9.7387645806E+001 +4.2078524177E+001 -3.0660414969E+001 +2.2475157214E+001
707500000.000 -2.2987087829E+001 -1.0116846170E+002 -4.2461524754E+001 -7.2716731427E+001 -8.2287203275E+001 -2.9151990294E+001 -3.4530400375E+001 +8.4065502451E+001
840000000.000 -2.1471312998E+001 -1.0093266129E+002 -4.2773667648E+001 -1.0643526585E+002 -8.5816225724E+001 +3.1166482112E+001 -2.9707157862E+001 +1.2740317085E+002
972500000.000 -2.0208911531E+001 -1.0080147355E+002 -4.2774119216E+001 -1.4169810954E+002 -9.8557249198E+001 +1.4881767076E+002 -2.5961304379E+001 +1.3535304781E+002
1105000000.000 -1.9069346247E+001 -1.0135498812E+002 -4.2794587289E+001 -1.7613954422E+002 -8.0498040769E+001 -9.7701742626E+001 -2.4351097927E+001 +1.4089179425E+002
1237500000.000 -1.8123766319E+001 -1.0196684022E+002 -4.2950349108E+001 +1.5032912761E+002 -8.1854540978E+001 -2.0383158816E+001 -2.3395278826E+001 +1.4995474383E+002
1370000000.000 -1.7257963703E+001 -1.0266988660E+002 -4.2903308682E+001 +1.1549484870E+002 -8.9872816256E+001 +1.1134995243E+002 -2.2079877210E+001 +1.6001665622E+002
1502500000.000 -1.6497765526E+001 -1.0334270617E+002 -4.3128413515E+001 +8.0249535234E+001 -9.5435043182E+001 +2.7773312649E+000 -2.0862365035E+001 +1.6642859469E+002
1635000000.000 -1.5777556945E+001 -1.0373435321E+002 -4.3063937135E+001 +4.6179403860E+001 -8.5803715089E+001 +1.6218125265E+002 -2.0030020967E+001 +1.7327107186E+002
1767500000.000 -1.5117814626E+001 -1.0460735112E+002 -4.2999357430E+001 +1.2317646915E+001 -8.7631672398E+001 -3.4464721008E+001 -1.9021353882E+001 +1.7851768457E+002
1900000000.000 -1.4566745036E+001 -1.0532670070E+002 -4.3100579357E+001 -2.2588031460E+001 -8.6440056265E+001 +1.2590484323E+002 -1.8868078620E+001 -1.7829794285E+002
2032500000.000 -1.4038506150E+001 -1.0607174633E+002 -4.3089583247E+001 -5.7568282641E+001 -7.7174408867E+001 -9.6060974758E+001 -1.8690403313E+001 -1.6789854722E+002
2165000000.000 -1.3514483552E+001 -1.0657204572E+002 -4.3301132364E+001 -9.2117991071E+001 -8.0038688983E+001 +1.0752806699E+001 -1.7745552667E+001 -1.6091937661E+002
2297500000.000 -1.3068099914E+001 -1.0736012939E+002 -4.3425646425E+001 -1.2650593710E+002 -8.1042842130E+001 -1.7618976738E+002 -1.7236554079E+001 -1.5705111548E+002
2430000000.000 -1.2658704733E+001 -1.0811258220E+002 -4.3505010288E+001 -1.5975847557E+002 -8.6089507985E+001 +7.1289511050E+001 -1.6939370650E+001 -1.5281098318E+002
2562500000.000 -1.2239287319E+001 -1.0870195459E+002 -4.3509817859E+001 +1.6468224768E+002 -7.8544568035E+001 +8.7220798126E+001 -1.6830423365E+001 -1.5043956674E+002
2695000000.000 -1.1873839378E+001 -1.0983334654E+002 -4.3564663612E+001 +1.3115163813E+002 -7.4646126643E+001 +1.7331264865E+002 -1.7360386688E+001 -1.4719344901E+002
2827500000.000 -1.1562186639E+001 -1.1079135399E+002 -4.3685718957E+001 +9.6060484140E+001 -8.2352163270E+001 -5.8714228347E+001 -1.7858687721E+001 -1.4029415694E+002
2960000000.000 -1.1247197725E+001 -1.1134387324E+002 -4.3718510679E+001 +6.2250049939E+001 -8.2644529776E+001 +9.3188017364E+001 -1.8158085607E+001 -1.3539380930E+002
3092500000.000 -1.0893324087E+001 -1.1217296707E+002 -4.3730049086E+001 +2.8418169064E+001 -8.2966646444E+001 +1.6473697879E+002 -1.9082226325E+001 -1.2924886665E+002
3225000000.000 -1.0580791191E+001 -1.1327039310E+002 -4.3818284773E+001 -5.8918148239E+000 -8.1749765405E+001 -1.0327953761E+002 -1.9584688227E+001 -1.1966579850E+002
3357500000.000 -1.0344366635E+001 -1.1411757413E+002 -4.4060160545E+001 -4.1268368915E+001 -7.6686041094E+001 +1.0378106354E+001 -1.9958306645E+001 -1.1424629204E+002
3490000000.000 -1.0042971065E+001 -1.1466860689E+002 -4.3997863108E+001 -7.3973734182E+001 -8.8460995262E+001 +7.2374976882E+001 -2.1125544660E+001 -1.0847114126E+002
3622500000.000 -9.7523103977E+000 -1.1536573007E+002 -4.3897564480E+001 -1.0906759573E+002 -7.8970325721E+001 -1.6323193411E+002 -2.1927254488E+001 -9.8167147533E+001
3755000000.000 -9.4853231774E+000 -1.1623061887E+002 -4.3817520083E+001 -1.4251995079E+002 -8.3961700400E+001 -1.7549850021E+000 -2.2745748516E+001 -9.4640390345E+001
3887500000.000 -9.2600554158E+000 -1.1687388971E+002 -4.3921563319E+001 -1.7793552350E+002 -8.7585533227E+001 -3.8698126777E+001 -2.5066054319E+001 -8.7802368963E+001
4020000000.000 -9.0393087463E+000 -1.1748163460E+002 -4.3830864006E+001 +1.4895321989E+002 -7.9581126843E+001 -7.5966223052E+001 -2.6669365119E+001 -7.3294665006E+001
4152500000.000 -8.8110929309E+000 -1.1799817136E+002 -4.3728679315E+001 +1.1437605050E+002 -8.2770684052E+001 -7.7356214228E+001 -2.8888000431E+001 -6.4811175614E+001
4285000000.000 -8.5964177896E+000 -1.1865776546E+002 -4.3908572249E+001 +7.8978291840E+001 -8.6778289049E+001 +1.6410898899E+002 -3.3409021959E+001 -3.7483421277E+001
4417500000.000 -8.3909377069E+000 -1.1939954824E+002 -4.3906391626E+001 +4.5990527855E+001 -8.2377299167E+001 +1.2688140384E+002 -3.1763032003E+001 +8.0468810982E+000
4550000000.000 -8.2226926239E+000 -1.1989606968E+002 -4.4096425457E+001 +1.1252401438E+001 -8.8391372546E+001 -6.3651910747E+001 -3.0374888951E+001 +1.8534218505E+001
4682500000.000 -8.0330019709E+000 -1.2031689313E+002 -4.4084496995E+001 -2.2161096827E+001 -8.5399322179E+001 +2.1665250395E+001 -2.9679553799E+001 +3.9039008993E+001
4815000000.000 -7.8462120699E+000 -1.2088790439E+002 -4.4105528604E+001 -5.5851639226E+001 -9.6268750357E+001 -1.7973260543E+002 -2.7654711393E+001 +4.1511401708E+001
4947500000.000 -7.6907809314E+000 -1.2142243281E+002 -4.4122648815E+001 -8.9771634940E+001 -9.1211271103E+001 +1.6261658081E+002 -2.9416110484E+001 +3.5913107197E+001
5080000000.000 -7.5417156770E+000 -1.2176977027E+002 -4.4032867356E+001 -1.2317109603E+002 -9.6906134699E+001 +8.5870717535E+001 -3.2248271574E+001 +5.7333095674E+001
5212500000.000 -7.3818029371E+000 -1.2219637494E+002 -4.3954265445E+001 -1.5756269898E+002 -9.6307354872E+001 +1.9198273755E+001 -3.1592340259E+001 +6.9903580256E+001
5345000000.000 -7.2412817785E+000 -1.2278697632E+002 -4.3934916456E+001 +1.6826484425E+002 -9.5173930716E+001 +1.3151913352E+002 -3.5363002369E+001 +7.1731207661E+001
5477500000.000 -7.1366419266E+000 -1.2313089224E+002 -4.3830421540E+001 +1.3292624565E+002 -8.4507831069E+001 +5.3824829981E+001 -3.7221128803E+001 +1.3207363118E+002
5610000000.000 -7.0002060943E+000 -1.2345555487E+002 -4.3832215133E+001 +9.9205021151E+001 -8.8994000882E+001 +1.7779925016E+002 -3.3644429768E+001 +1.3584020103E+002
5742500000.000 -6.8724488883E+000 -1.2402118838E+002 -4.3727209321E+001 +6.3743648511E+001 -8.4240742120E+001 +1.7831296399E+002 -3.7695250990E+001 +1.5314351998E+002
5875000000.000 -6.7842743639E+000 -1.2469515353E+002 -4.3738514660E+001 +2.9526779979E+001 -8.5849260224E+001 -8.4155302982E+001 -3.3740823860E+001 -1.7063119187E+002
6007500000.000 -6.6934510027E+000 -1.2507622196E+002 -4.3788479141E+001 -5.2474180147E+000 -9.9161301073E+001 -9.3793932323E+001 -3.2702300193E+001 +1.7976178980E+002
6140000000.000 -6.5666604194E+000 -1.2544049119E+002 -4.3802311205E+001 -3.9651391760E+001 -9.0944485300E+001 +1.6289478141E+002 -3.6089842841E+001 -1.6914506290E+002
6272500000.000 -6.4457416803E+000 -1.2616696679E+002 -4.3760647086E+001 -7.4294150003E+001 -8.2205781361E+001 -9.0654874734E+001 -3.3845799927E+001 -1.4439414276E+002
6405000000.000 -6.3705005039E+000 -1.2692560201E+002 -4.3787657581E+001 -1.0862469138E+002 -8.8901353038E+001 +4.9367648177E+000 -3.3832411507E+001 -1.6180544926E+002
6537500000.000 -6.2828753661E+000 -1.2720401471E+002 -4.3725346666E+001 -1.4324715051E+002 -8.8088832851E+001 +8.2910591326E+001 -4.0123062126E+001 -1.5977801448E+002
6670000000.000 -6.1530011785E+000 -1.2755343742E+002 -4.3902716398E+001 -1.7805996424E+002 -9.2749241031E+001 -1.0696873845E+002 -3.9338137692E+001 -1.3660058454E+002
6802500000.000 -6.0361550305E+000 -1.2829870173E+002 -4.3813307588E+001 +1.4825853692E+002 -8.4031259243E+001 +5.5334370689E+001 -3.8905694202E+001 +1.7971095829E+002
6935000000.000 -5.9761186297E+000 -1.2895648348E+002 -4.3862270624E+001 +1.1293361009E+002 -1.0156142748E+002 -7.8672531325E+001 -3.8622884102E+001 +1.2244776707E+002
7067500000.000 -5.9032016774E+000 -1.2911511295E+002 -4.3888302460E+001 +7.9702418043E+001 -9.0802581909E+001 -6.7225953207E+000 -3.9036977701E+001 +1.1416062320E+002
7200000000.000 -5.7852376182E+000 -1.2945476409E+002 -4.3860624240E+001 +4.4700198363E+001 -9.7580154585E+001 +1.4739313873E+002 -3.2908903077E+001 +1.3137178379E+002
7332500000.000 -5.6841562783E+000 -1.3015447296E+002 -4.3797049066E+001 +1.0221042602E+001 -8.2219797514E+001 +1.7799049451E+002 -2.9090228258E+001 +1.1899308985E+002
7465000000.000 -5.6201289547E+000 -1.3059169588E+002 -4.3815257870E+001 -2.4820733704E+001 -8.3310321032E+001 -1.6540370795E+002 -2.8647938065E+001 +1.2223550187E+002
7597500000.000 -5.5414752079E+000 -1.3079225773E+002 -4.3800142307E+001 -5.8254997351E+001 -9.6422215520E+001 -1.3542888197E+001 -2.6175036356E+001 +1.3745497474E+002
7730000000.000 -5.4280089768E+000 -1.3108314004E+002 -4.3700599085E+001 -9.2912855983E+001 -8.0703307002E+001 +5.5656450486E+001 -2.3721292736E+001 +1.3792962950E+002
7862500000.000 -5.3463040667E+000 -1.3151194235E+002 -4.3799123860E+001 -1.2749906852E+002 -8.4519894450E+001 -1.4675420045E+002 -2.3275192915E+001 +1.4144122089E+002
7995000000.000 -5.2905591361E+000 -1.3178706643E+002 -4.3831052365E+001 -1.6148246248E+002 -9.0830958947E+001 -1.2040807608E+001 -2.1844840365E+001 +1.5422429343E+002
8127500000.000 -5.2001850661E+000 -1.3182035708E+002 -4.3889470625E+001 +1.6411773426E+002 -8.6079800388E+001 -1.3226245746E+001 -2.0027807972E+001 +1.5655869931E+002
8260000000.000 -5.1094283703E+000 -1.3222465481E+002 -4.3812189950E+001 +1.2909128957E+002 -9.5091093619E+001 -1.1435812712E+002 -1.9853090359E+001 +1.6019149906E+002
8392500000.000 -5.0650153383E+000 -1.3245059751E+002 -4.3687575520E+001 +9.4390215644E+001 -8.4998826681E+001 -9.4859767527E+001 -1.9076704804E+001 +1.7039810484E+002
8525000000.000 -5.0074327502E+000 -1.3250710159E+002 -4.3609397744E+001 +6.0471542267E+001 -8.4928168675E+001 -2.2836891541E+000 -1.8214979132E+001 +1.7302618862E+002
8657500000.000 -4.9371403327E+000 -1.3264299848E+002 -4.3714575028E+001 +2.5651507125E+001 -8.4660222656E+001 -1.3098334003E+002 -1.8566478261E+001 +1.7792218234E+002
8790000000.000 -4.8616848105E+000 -1.3296331892E+002 -4.3641137390E+001 -9.1839806511E+000 -9.0671758306E+001 -8.4276889896E+001 -1.8356925416E+001 -1.7168033054E+002
8922500000.000 -4.8337793687E+000 -1.3324717813E+002 -4.3745263111E+001 -4.3761517977E+001 -8.4692264450E+001 -4.9913693655E+001 -1.7993722588E+001 -1.6597259269E+002
9055000000.000 -4.7766079293E+000 -1.3336801287E+002 -4.3477268856E+001 -7.8596514994E+001 -8.7659955433E+001 +1.3157659530E+002 -1.8459985591E+001 -1.5829206991E+002
9187500000.000 -4.7189637653E+000 -1.3361304387E+002 -4.3499687403E+001 -1.1426381029E+002 -9.5045062092E+001 -7.6212488547E+001 -1.8385474036E+001 -1.4625003179E+002
9320000000.000 -4.6608239080E+000 -1.3419753726E+002 -4.3456711496E+001 -1.4909693222E+002 -8.6112310431E+001 +3.4343989895E+001 -1.8206538280E+001 -1.3963647942E+002
9452500000.000 -4.6271351399E+000 -1.3451871119E+002 -4.3468626909E+001 +1.7635824197E+002 -8.7993145980E+001 +1.1170889192E+002 -1.8858173518E+001 -1.3062686207E+002
9585000000.000 -4.5754897335E+000 -1.3478957408E+002 -4.3407236432E+001 +1.4114754429E+002 -8.8274021539E+001 -1.2023114541E+002 -1.8807677895E+001 -1.1816035558E+002
9717500000.000 -4.4976340387E+000 -1.3512865642E+002 -4.3407783097E+001 +1.0619735070E+002 -8.9765146183E+001 +3.5075441849E+001 -1.8808972040E+001 -1.1101616805E+002
9850000000.000 -4.4559804399E+000 -1.3581370605E+002 -4.3320129525E+001 +7.0330419472E+001 -8.3715264165E+001 +4.8433884544E+001 -1.9648499339E+001 -1.0062494178E+002
9982500000.000 -4.4225659682E+000 -1.3593814560E+002 -4.3415854936E+001 +3.5973945975E+001 -8.4568532012E+001 +1.7848833624E+002 -1.9723554740E+001 -8.6375065011E+001
10115000000.000 -4.3632141886E+000 -1.3615450614E+002 -4.3346552740E+001 -2.8113726651E-002 -8.3722591526E+001 -9.7065681672E+001 -1.9910863030E+001 -7.8851289175E+001
10247500000.000 -4.2957551292E+000 -1.3665765369E+002 -4.3475047470E+001 -3.3937084165E+001 -8.4680042514E+001 +6.5027860812E+001 -2.1134460574E+001 -6.5964174895E+001
10380000000.000 -4.2611842804E+000 -1.3709859953E+002 -4.3371251677E+001 -7.0087435677E+001 -8.9183797385E+001 +1.4604621850E+002 -2.1090408942E+001 -4.9722315770E+001
10512500000.000 -4.2288281847E+000 -1.3734850550E+002 -4.3392027647E+001 -1.0504584682E+002 -8.2836402518E+001 -7.7547722263E+000 -2.1513826563E+001 -4.1649744421E+001
10645000000.000 -4.1815814128E+000 -1.3759011458E+002 -4.3519467249E+001 -1.3886610566E+002 -8.9145858162E+001 -2.9921109491E+001 -2.2813833025E+001 -2.3815213575E+001
10777500000.000 -4.1153759281E+000 -1.3795413202E+002 -4.3562532049E+001 -1.7492075669E+002 -8.7685940236E+001 +1.5249831652E+002 -2.2231162707E+001 -5.7488332446E+000
10910000000.000 -4.0715181488E+000 -1.3836170382E+002 -4.3580968326E+001 +1.4999794771E+002 -9.6979531666E+001 -1.4944311684E+002 -2.2790154845E+001 +4.7095836542E+000
11042500000.000 -4.0286590016E+000 -1.3868787346E+002 -4.3518256550E+001 +1.1460261773E+002 -8.1489410078E+001 +8.6729617839E+000 -2.3433999307E+001 +2.7700873671E+001
11175000000.000 -3.9756694824E+000 -1.3880640583E+002 -4.3616833828E+001 +7.9675327618E+001 -8.2638162382E+001 +1.2899741620E+002 -2.2286485725E+001 +4.2907185868E+001
11307500000.000 -3.9353281640E+000 -1.3902561295E+002 -4.3773411254E+001 +4.3136809436E+001 -8.1360334501E+001 -1.4109068121E+002 -2.2746487932E+001 +5.3549899062E+001
11440000000.000 -3.8847019331E+000 -1.3932499562E+002 -4.3749130330E+001 +8.3356503379E+000 -7.8358057687E+001 -2.6520013546E+001 -2.2565306236E+001 +7.5948799588E+001
11572500000.000 -3.8517161012E+000 -1.3933561732E+002 -4.3744377614E+001 -2.5968045872E+001 -8.2925485713E+001 +8.7551087993E+001 -2.1166386797E+001 +8.7254188999E+001
11705000000.000 -3.8153463064E+000 -1.3948389352E+002 -4.4047014491E+001 -6.1923927788E+001 -9.3216777059E+001 -1.0673997266E+002 -2.1780822551E+001 +9.7339332075E+001
11837500000.000 -3.7707223913E+000 -1.3969541048E+002 -4.3959744824E+001 -9.7675388330E+001 -8.7023329103E+001 +1.1042603285E+001 -2.1114396970E+001 +1.1948783379E+002
11970000000.000 -3.7644290553E+000 -1.3991592242E+002 -4.4088245715E+001 -1.3258823833E+002 -8.3603189871E+001 +1.5728762624E+001 -1.9821703075E+001 +1.2566985206E+002
12102500000.000 -3.7546820375E+000 -1.3989605561E+002 -4.4264390078E+001 -1.6778832883E+002 -8.4834476097E+001 -1.6284935743E+002 -2.0749000676E+001 +1.3559975748E+002
12235000000.000 -3.7086733252E+000 -1.4032481324E+002 -4.4313956022E+001 +1.5661984623E+002 -8.7076885996E+001 +1.8684967400E+001 -1.9770805987E+001 +1.5477644266E+002
12367500000.000 -3.7070113300E+000 -1.4050077467E+002 -4.4441892788E+001 +1.2154900094E+002 -8.5166814174E+001 +2.2377293871E+001 -1.8874723146E+001 +1.5812086269E+002
12500000000.000 -3.6888652330E+000 -1.4089965639E+002 -4.4587812194E+001 +8.5763690767E+001 -8.0302770111E+001 +1.2877716513E+002 -2.0050693650E+001 +1.6819897903E+002
12632500000.000 -3.6679031123E+000 -1.4098778109E+002 -4.4834838255E+001 +5.0533167932E+001 -8.0823087038E+001 -6.1560338326E+001 -1.9186653055E+001 -1.7285227211E+002
12765000000.000 -3.6457349855E+000 -1.4127329677E+002 -4.5014529473E+001 +1.5559017899E+001 -1.0409636530E+002 +8.7656242277E+001 -1.8519490687E+001 -1.7112673882E+002
12897500000.000 -3.6396736597E+000 -1.4159429914E+002 -4.5175967193E+001 -1.9144397142E+001 -8.9283828675E+001 +1.1351851576E+002 -2.0123651284E+001 -1.5941644990E+002
13030000000.000 -3.6299362601E+000 -1.4183456985E+002 -4.5276707436E+001 -5.5175421335E+001 -9.3596636790E+001 -1.7552767087E+002 -1.8866226933E+001 -1.4145642601E+002
13162500000.000 -3.6060026973E+000 -1.4196846328E+002 -4.5516611703E+001 -9.0327415622E+001 -8.9825449993E+001 +2.6886788763E+001 -1.8655593776E+001 -1.4140100999E+002
13295000000.000 -3.5838088036E+000 -1.4214633105E+002 -4.5759109675E+001 -1.2540423638E+002 -8.3197141169E+001 +1.0869633109E+002 -2.0022900660E+001 -1.2781751549E+002
13427500000.000 -3.5742546703E+000 -1.4256172305E+002 -4.5933637426E+001 -1.6039057138E+002 -8.2920084254E+001 -1.4917457198E+002 -1.8863590797E+001 -1.1412448348E+002
13560000000.000 -3.5851489965E+000 -1.4268624464E+002 -4.6041289709E+001 +1.6492886741E+002 -7.9940580185E+001 +4.7657150598E+001 -1.9067024857E+001 -1.1450942784E+002
13692500000.000 -3.5531973636E+000 -1.4271419800E+002 -4.6320510028E+001 +1.3099025143E+002 -1.0004595081E+002 -1.3272727954E+002 -2.0822544669E+001 -1.0115914205E+002
13825000000.000 -3.5217860803E+000 -1.4303253486E+002 -4.6590599622E+001 +9.3856768280E+001 -8.2215518616E+001 -1.7399777062E+002 -1.9742856592E+001 -8.7631281486E+001
13957500000.000 -3.5227329219E+000 -1.4340447619E+002 -4.6658948078E+001 +5.7902046472E+001 -1.0049099367E+002 -1.2035174681E+002 -2.0410608072E+001 -9.0020623180E+001
14090000000.000 -3.5198617971E+000 -1.4350665296E+002 -4.7048946788E+001 +2.5314724728E+001 -9.1947279784E+001 +4.4543124591E+001 -2.2670855998E+001 -7.2509788889E+001
14222500000.000 -3.4955486304E+000 -1.4343970449E+002 -4.6965901739E+001 -8.2778659374E+000 -8.4110454082E+001 -9.0212421339E+001 -2.1296757107E+001 -5.9372213775E+001
14355000000.000 -3.4558265250E+000 -1.4376575315E+002 -4.7276618058E+001 -4.3236098505E+001 -7.9361753376E+001 -1.0442922435E+002 -2.2531515138E+001 -6.3704438595E+001
14487500000.000 -3.4400495524E+000 -1.4389659880E+002 -4.7560837305E+001 -7.7418117725E+001 -7.9282278360E+001 -2.6063224979E+001 -2.5607967554E+001 -4.0163168031E+001
14620000000.000 -3.4382785826E+000 -1.4387617881E+002 -4.8012985420E+001 -1.1192488883E+002 -8.5326259517E+001 +1.6017412980E+002 -2.3293594062E+001 -2.7144180647E+001
14752500000.000 -3.3851973675E+000 -1.4374408024E+002 -4.7956139818E+001 -1.4618541677E+002 -8.5203458264E+001 -1.3947751656E+002 -2.5384074863E+001 -3.6893866015E+001
14885000000.000 -3.3495587919E+000 -1.4379813798E+002 -4.8272356510E+001 +1.7719647272E+002 -8.0555633019E+001 +8.7149980422E+001 -2.9055389643E+001 +2.4712414533E+000
15017500000.000 -3.3420957857E+000 -1.4383096463E+002 -4.8463343676E+001 +1.4430538590E+002 -8.0438760720E+001 +1.1267858094E+002 -2.5372331497E+001 +9.5660342186E+000
15150000000.000 -3.3224567686E+000 -1.4365865756E+002 -4.8598437608E+001 +1.0857154008E+002 -7.7539051777E+001 -1.1764726397E+002 -2.9063792513E+001 -2.6879398642E+000
15282500000.000 -3.2967698299E+000 -1.4353237406E+002 -4.8954274254E+001 +7.4609347156E+001 -7.9415226148E+001 -2.0013964138E+001 -3.1342521344E+001 +5.8014497724E+001
