!  2-Port S-parameters saved by WinCal
! VAR MeasName=S-Parameters (CALIBRATED_DATA) read from VNA (C)
! VAR MeasDate=10/16/2015 3:08:32 PM
! VAR NAME=M6082_10_15_2_2_20C_3.5mA_-17.5dBm
! VAR FILENAME=M6082_10_15_2_2_20C_3.5mA_-17.5dBm.S2P
! VAR DATE=10/16/2015 3:08:32 PM
! VAR PHYS_PORTS=2,1
! VAR ObjTypeName=DATASET
! VAR IndexType=Frequency
!
# Hz S DB R 50
45000000.000 -4.3565350173E+001 -3.3494730079E+001 -4.3712417164E+001 +9.9982621407E+001 -5.5912267784E+001 -9.1565908034E+001 -3.1523897063E+001 +5.9931610948E+000
177500000.000 -3.7635487008E+001 -6.6844035794E+001 -4.3214882918E+001 +6.8520704629E+001 -7.1729894398E+001 +8.6092558245E+001 -3.2726109040E+001 +4.6791320920E+001
310000000.000 -3.2799796243E+001 -7.5789633895E+001 -4.3389383823E+001 +3.8182955899E+001 -8.1848936852E+001 -6.4721150142E+001 -2.3332543544E+001 +6.4752009594E+001
442500000.000 -2.9576142974E+001 -8.1100947929E+001 -4.2435529979E+001 -2.0943270480E+000 -8.7335779269E+001 -8.3424507508E+001 -2.2408771953E+001 +1.7162526690E+001
575000000.000 -2.7140841652E+001 -8.4596208640E+001 -4.3084625862E+001 -3.6718306399E+001 -8.1445766801E+001 +1.5627044231E+002 -3.0635784447E+001 +2.2263336926E+001
707500000.000 -2.5357307102E+001 -8.7656459126E+001 -4.2995981342E+001 -7.2275608063E+001 -8.6088473767E+001 -1.3308608406E+002 -3.4485149587E+001 +8.3784848660E+001
840000000.000 -2.3772403474E+001 -8.9291347617E+001 -4.2918185005E+001 -1.0611921308E+002 -8.7365542145E+001 -5.1860128305E+001 -2.9679318007E+001 +1.2745375674E+002
972500000.000 -2.2470883413E+001 -9.0586794241E+001 -4.2990768435E+001 -1.3988124458E+002 -8.4368293982E+001 +1.5831885429E+002 -2.5956524894E+001 +1.3546945098E+002
1105000000.000 -2.1320814015E+001 -9.2120154590E+001 -4.3091646318E+001 -1.7442969569E+002 -8.3142628005E+001 -5.7419737050E+001 -2.4381961353E+001 +1.4080992073E+002
1237500000.000 -2.0358372102E+001 -9.3304533186E+001 -4.3149064967E+001 +1.5129068600E+002 -8.0710032644E+001 +1.0062455443E+001 -2.3401181353E+001 +1.4996396415E+002
1370000000.000 -1.9477915504E+001 -9.4462478154E+001 -4.3129442179E+001 +1.1674285724E+002 -8.6439708677E+001 +8.2704950512E+001 -2.2081675407E+001 +1.6000051946E+002
1502500000.000 -1.8705118456E+001 -9.5453721085E+001 -4.3164732601E+001 +8.2287620403E+001 -9.4681368643E+001 -9.6725129465E+000 -2.0863260417E+001 +1.6642220198E+002
1635000000.000 -1.7953394044E+001 -9.5996171003E+001 -4.3237227332E+001 +4.8267488109E+001 -8.2041333221E+001 +1.3774967566E+001 -2.0034487621E+001 +1.7333387791E+002
1767500000.000 -1.7263780893E+001 -9.7122642264E+001 -4.3217376649E+001 +1.3969544057E+001 -8.4450816845E+001 +1.4352453663E+002 -1.9023167854E+001 +1.7852714402E+002
1900000000.000 -1.6706817275E+001 -9.7905845593E+001 -4.3231958176E+001 -2.0517309136E+001 -9.2895730645E+001 +6.9281049212E+001 -1.8875604929E+001 -1.7822538410E+002
2032500000.000 -1.6171659195E+001 -9.8749156599E+001 -4.3283340914E+001 -5.4758264302E+001 -8.3627505799E+001 -1.2127639561E+002 -1.8688350054E+001 -1.6785339630E+002
2165000000.000 -1.5610441965E+001 -9.9297141425E+001 -4.3503432562E+001 -8.9265924574E+001 -9.7961760426E+001 +6.9512855485E+001 -1.7748887727E+001 -1.6093139687E+002
2297500000.000 -1.5155774791E+001 -1.0020210179E+002 -4.3466605917E+001 -1.2387020860E+002 -7.6476289748E+001 +1.2609766132E+002 -1.7248360669E+001 -1.5710455893E+002
2430000000.000 -1.4733537840E+001 -1.0092235300E+002 -4.3510525138E+001 -1.5789268456E+002 -7.9630025770E+001 -1.0719942516E+002 -1.6944485494E+001 -1.5288350274E+002
2562500000.000 -1.4294394273E+001 -1.0154817089E+002 -4.3639356564E+001 +1.6713755191E+002 -8.2075017207E+001 +8.0092977255E+001 -1.6851764005E+001 -1.5043832239E+002
2695000000.000 -1.3928218086E+001 -1.0277084701E+002 -4.3753336028E+001 +1.3241439747E+002 -7.8727926344E+001 +1.5342917728E+002 -1.7381411800E+001 -1.4708078376E+002
2827500000.000 -1.3613390567E+001 -1.0373283050E+002 -4.3540003780E+001 +1.0021816025E+002 -8.2769981355E+001 -1.1098080446E+002 -1.7858096409E+001 -1.4027075063E+002
2960000000.000 -1.3269416997E+001 -1.0423261838E+002 -4.3542859160E+001 +6.4763345822E+001 -7.6974145150E+001 +2.9792719334E+001 -1.8164864229E+001 -1.3543665713E+002
3092500000.000 -1.2891409708E+001 -1.0506755714E+002 -4.3703975585E+001 +3.1350607875E+001 -8.6849029321E+001 +9.7090359064E+001 -1.9099591436E+001 -1.2926112443E+002
3225000000.000 -1.2568123919E+001 -1.0629119424E+002 -4.3896478076E+001 -3.5214862282E+000 -7.8121060258E+001 -1.4107276505E+002 -1.9582686967E+001 -1.1965108899E+002
3357500000.000 -1.2319924086E+001 -1.0712675608E+002 -4.3574272641E+001 -3.7422791641E+001 -8.1706753542E+001 -5.1733339399E+001 -1.9958741929E+001 -1.1419749380E+002
3490000000.000 -1.1993453482E+001 -1.0765351371E+002 -4.3714418253E+001 -7.1117198929E+001 -7.8914295883E+001 +1.3107305009E+002 -2.1137234733E+001 -1.0851530972E+002
3622500000.000 -1.1681556843E+001 -1.0836916603E+002 -4.3788931165E+001 -1.0427506419E+002 -1.0137211829E+002 +1.2221752381E+002 -2.1935152829E+001 -9.8188424349E+001
3755000000.000 -1.1387477757E+001 -1.0925040078E+002 -4.3661778694E+001 -1.3919430027E+002 -8.5303252158E+001 +1.2702959774E+001 -2.2715044357E+001 -9.4656952693E+001
3887500000.000 -1.1143241452E+001 -1.0989608089E+002 -4.3600996260E+001 -1.7355134079E+002 -8.0090260323E+001 +9.3223855382E+001 -2.5047170704E+001 -8.7926416908E+001
4020000000.000 -1.0910983415E+001 -1.1048309500E+002 -4.3711313878E+001 +1.5201682668E+002 -8.2431110529E+001 -5.1403917398E+001 -2.6664440613E+001 -7.3333897777E+001
4152500000.000 -1.0651395988E+001 -1.1095749382E+002 -4.3529923373E+001 +1.1793000483E+002 -7.9758907431E+001 -8.4998786674E+001 -2.8896003691E+001 -6.4930891433E+001
4285000000.000 -1.0412319441E+001 -1.1158930156E+002 -4.3604031519E+001 +8.3345027059E+001 -8.2121589829E+001 +2.5168345577E+001 -3.3386469724E+001 -3.7045971950E+001
4417500000.000 -1.0192462438E+001 -1.1235307553E+002 -4.3709523391E+001 +4.8971059973E+001 -8.7505547912E+001 +1.2581940447E+002 -3.1731989679E+001 +8.2544889542E+000
4550000000.000 -1.0003442910E+001 -1.1278857669E+002 -4.3805174279E+001 +1.4879870014E+001 -8.6001505447E+001 -5.8843026587E+001 -3.0362369978E+001 +1.8422985261E+001
4682500000.000 -9.7858636479E+000 -1.1316494358E+002 -4.3835502853E+001 -1.9135650254E+001 -9.2315192024E+001 -1.3382857237E+002 -2.9665804036E+001 +3.8997640271E+001
4815000000.000 -9.5755271591E+000 -1.1377108673E+002 -4.3825989026E+001 -5.2144558835E+001 -8.0250557347E+001 +1.2935185455E+002 -2.7635541090E+001 +4.1443577509E+001
4947500000.000 -9.4079106741E+000 -1.1423492815E+002 -4.3769283202E+001 -8.5986783614E+001 -8.8131224519E+001 +8.4174044753E+001 -2.9384232154E+001 +3.5840625269E+001
5080000000.000 -9.2333984905E+000 -1.1453277303E+002 -4.3574658030E+001 -1.2019722786E+002 -9.9142100281E+001 -7.4062240482E+001 -3.2246281349E+001 +5.7437153214E+001
5212500000.000 -9.0519269160E+000 -1.1495190242E+002 -4.3518230965E+001 -1.5548078232E+002 -8.5013883953E+001 -6.1315205336E+001 -3.1546041693E+001 +6.9918293563E+001
5345000000.000 -8.8976301021E+000 -1.1551516905E+002 -4.3477467624E+001 +1.7122206410E+002 -8.2710657375E+001 -1.1842380411E+002 -3.5290844272E+001 +7.1583136965E+001
5477500000.000 -8.7754693437E+000 -1.1578006478E+002 -4.3375424355E+001 +1.3602582823E+002 -8.9987083492E+001 -1.6090972013E+001 -3.7176838741E+001 +1.3208713026E+002
5610000000.000 -8.6180155332E+000 -1.1606625272E+002 -4.3246702772E+001 +1.0155442870E+002 -8.5162694301E+001 +8.9475961953E+001 -3.3619043688E+001 +1.3592579386E+002
5742500000.000 -8.4759484767E+000 -1.1663559584E+002 -4.3194754257E+001 +6.7228947188E+001 -9.1180083862E+001 -1.6527739338E+002 -3.7691848852E+001 +1.5300218966E+002
5875000000.000 -8.3831856774E+000 -1.1725378270E+002 -4.3240240952E+001 +3.2281470349E+001 -9.6348099187E+001 -1.5722108386E+002 -3.3709623579E+001 -1.7052548618E+002
6007500000.000 -8.2752462593E+000 -1.1759099536E+002 -4.3111952131E+001 -2.2268625047E+000 -9.5260828921E+001 +3.1557972607E+001 -3.2645355243E+001 +1.7999297071E+002
6140000000.000 -8.1299206313E+000 -1.1794490094E+002 -4.3168750678E+001 -3.7120549589E+001 -9.5722820322E+001 -1.5112055659E+002 -3.6057123619E+001 -1.6891772897E+002
6272500000.000 -7.9979961484E+000 -1.1871979928E+002 -4.3196382248E+001 -7.1133766539E+001 -1.1632436384E+002 +5.3100395279E+001 -3.3812128860E+001 -1.4430561758E+002
6405000000.000 -7.9170537696E+000 -1.1946806748E+002 -4.3078695214E+001 -1.0582022432E+002 -9.5611464696E+001 -1.5859796193E+002 -3.3769863509E+001 -1.6164011074E+002
6537500000.000 -7.8122616709E+000 -1.1968730378E+002 -4.3069021232E+001 -1.4065065375E+002 -8.9557953157E+001 +1.6053754808E+002 -4.0141101341E+001 -1.6000621769E+002
6670000000.000 -7.6600851752E+000 -1.2004924892E+002 -4.3077942399E+001 -1.7497426232E+002 -8.7240974495E+001 -1.0186057243E+002 -3.9347915567E+001 -1.3689464410E+002
6802500000.000 -7.5250314847E+000 -1.2086961984E+002 -4.3118751304E+001 +1.5019203502E+002 -8.6801340629E+001 +3.2938110883E+001 -3.8848978384E+001 +1.7980856011E+002
6935000000.000 -7.4587972765E+000 -1.2150341547E+002 -4.3021285535E+001 +1.1534783205E+002 -8.7316614030E+001 +1.1562197315E+002 -3.8657314412E+001 +1.2269542426E+002
7067500000.000 -7.3714010917E+000 -1.2161432728E+002 -4.3132551071E+001 +8.1790098562E+001 -8.7244081012E+001 +5.3034759371E+001 -3.9146988051E+001 +1.1462206391E+002
7200000000.000 -7.2254505135E+000 -1.2199452419E+002 -4.2977951082E+001 +4.7321071184E+001 -8.2269696764E+001 -2.3432253448E+001 -3.2896226363E+001 +1.3156844646E+002
7332500000.000 -7.1118920581E+000 -1.2273653663E+002 -4.2986495158E+001 +1.2236043456E+001 -8.6381110150E+001 +7.8375467294E+001 -2.9091574398E+001 +1.1896420796E+002
7465000000.000 -7.0373615134E+000 -1.2316832403E+002 -4.3030952342E+001 -2.2588583539E+001 -8.6796303137E+001 -1.1253297489E+002 -2.8651001706E+001 +1.2223950337E+002
7597500000.000 -6.9348836518E+000 -1.2337218296E+002 -4.2924396926E+001 -5.6284466977E+001 -8.7406286806E+001 +4.3604937089E+000 -2.6172129367E+001 +1.3756906981E+002
7730000000.000 -6.8004765175E+000 -1.2369802520E+002 -4.2899927563E+001 -9.1190350717E+001 -8.5027491472E+001 +1.7178158633E+002 -2.3736578526E+001 +1.3793360454E+002
7862500000.000 -6.7052003919E+000 -1.2412821645E+002 -4.2873376484E+001 -1.2649602977E+002 -7.8900920776E+001 +1.5213030153E+002 -2.3283496830E+001 +1.4143832858E+002
7995000000.000 -6.6346469412E+000 -1.2436982930E+002 -4.2815425467E+001 -1.6024477524E+002 -9.0481445030E+001 -7.5921795871E+001 -2.1848045628E+001 +1.5426812054E+002
8127500000.000 -6.5189978489E+000 -1.2442812417E+002 -4.2829724446E+001 +1.6524738436E+002 -8.5869918627E+001 +6.4119801076E+001 -2.0032515854E+001 +1.5654762105E+002
8260000000.000 -6.4136885281E+000 -1.2484753895E+002 -4.2738341792E+001 +1.2969937247E+002 -8.7208736321E+001 -1.5214993122E+002 -1.9866156242E+001 +1.6024048993E+002
8392500000.000 -6.3524248144E+000 -1.2503443483E+002 -4.2700671816E+001 +9.5691487002E+001 -7.8746335218E+001 -1.0390281348E+001 -1.9065862685E+001 +1.7050573225E+002
8525000000.000 -6.2815556260E+000 -1.2504250417E+002 -4.2619331230E+001 +6.0859651768E+001 -9.3445802553E+001 +2.5059032305E+001 -1.8217788505E+001 +1.7303109534E+002
8657500000.000 -6.1908768202E+000 -1.2519814078E+002 -4.2570585642E+001 +2.5526037328E+001 -8.4763459785E+001 -1.2736005098E+002 -1.8564439851E+001 +1.7801350946E+002
8790000000.000 -6.0981006161E+000 -1.2549686606E+002 -4.2541488082E+001 -9.8983446543E+000 -8.8343199413E+001 -6.8298537858E+001 -1.8354748341E+001 -1.7166963600E+002
8922500000.000 -6.0653543483E+000 -1.2577100311E+002 -4.2383367723E+001 -4.4415369479E+001 -8.5259596763E+001 +2.7798156674E+001 -1.7988557432E+001 -1.6596501809E+002
9055000000.000 -5.9914061105E+000 -1.2587862240E+002 -4.2401552161E+001 -8.0051178451E+001 -8.2793633457E+001 +1.3212792625E+002 -1.8464361996E+001 -1.5831014215E+002
9187500000.000 -5.9189113449E+000 -1.2611466234E+002 -4.2259178270E+001 -1.1506013767E+002 -8.0418970908E+001 -1.6972199963E+002 -1.8385990648E+001 -1.4618005595E+002
9320000000.000 -5.8524048323E+000 -1.2672377988E+002 -4.2237590214E+001 -1.5004444520E+002 -8.5100095522E+001 +4.6699849913E+001 -1.8204050984E+001 -1.3958975677E+002
9452500000.000 -5.8081527293E+000 -1.2704154969E+002 -4.2196976429E+001 +1.7438095568E+002 -9.1647193933E+001 +1.1246845064E+002 -1.8859362629E+001 -1.3051751344E+002
9585000000.000 -5.7407351609E+000 -1.2731010478E+002 -4.2279692426E+001 +1.3886336159E+002 -8.7620232298E+001 +1.2677033503E+002 -1.8803662238E+001 -1.1806845402E+002
9717500000.000 -5.6475725684E+000 -1.2771514599E+002 -4.2369906059E+001 +1.0417029898E+002 -9.1298673515E+001 -7.0446486161E+001 -1.8812249796E+001 -1.1101834984E+002
9850000000.000 -5.5990612545E+000 -1.2845117710E+002 -4.2338732367E+001 +6.7724421126E+001 -8.7696284218E+001 +9.0727419528E+001 -1.9665869759E+001 -1.0056087052E+002
9982500000.000 -5.5488893406E+000 -1.2855505910E+002 -4.2438960298E+001 +3.2219942260E+001 -8.3689368078E+001 -1.6582046988E+002 -1.9710871397E+001 -8.6293505713E+001
10115000000.000 -5.4751632339E+000 -1.2880367892E+002 -4.2415180523E+001 -2.5516125382E+000 -8.2356361798E+001 -3.7023037661E+001 -1.9923527871E+001 -7.8883391027E+001
10247500000.000 -5.3953957564E+000 -1.2940182815E+002 -4.2467582146E+001 -3.6973707385E+001 -8.1657613047E+001 +3.1669949292E+001 -2.1148410310E+001 -6.5821961067E+001
10380000000.000 -5.3525729303E+000 -1.2985490931E+002 -4.2392595610E+001 -7.3444140541E+001 -8.8757473834E+001 +1.1871083923E+002 -2.1085253903E+001 -4.9643954807E+001
10512500000.000 -5.3101176476E+000 -1.3012594518E+002 -4.2311963946E+001 -1.0814406974E+002 -8.3717421428E+001 -9.7153853710E+001 -2.1520241175E+001 -4.1555048758E+001
10645000000.000 -5.2479713414E+000 -1.3043090471E+002 -4.2395702281E+001 -1.4292887337E+002 -8.2616223740E+001 +3.3131617181E+001 -2.2826426691E+001 -2.3769216660E+001
10777500000.000 -5.1709717126E+000 -1.3083450225E+002 -4.2420622723E+001 -1.7926712191E+002 -8.7309644387E+001 +9.9468834803E+001 -2.2224470240E+001 -5.6507485031E+000
10910000000.000 -5.1125049253E+000 -1.3128445111E+002 -4.2552171674E+001 +1.4398596553E+002 -9.3742493329E+001 -1.2736423083E+002 -2.2774995660E+001 +4.7496510848E+000
11042500000.000 -5.0543687244E+000 -1.3164731089E+002 -4.2461920913E+001 +1.0930904775E+002 -8.2428915280E+001 -2.9374054738E+001 -2.3432988728E+001 +2.7908321293E+001
11175000000.000 -4.9888228611E+000 -1.3182759985E+002 -4.2533588606E+001 +7.3948852592E+001 -8.2070524420E+001 +6.3270184386E+001 -2.2278705562E+001 +4.3139240166E+001
11307500000.000 -4.9392207048E+000 -1.3210804761E+002 -4.2707348581E+001 +3.7913599938E+001 -8.6699026210E+001 -1.0752776908E+002 -2.2737098165E+001 +5.3647694007E+001
11440000000.000 -4.8753571947E+000 -1.3245471447E+002 -4.2717171391E+001 +2.8962627943E+000 -8.4625739207E+001 -6.3260167972E+001 -2.2564650892E+001 +7.6040672176E+001
11572500000.000 -4.8286317023E+000 -1.3248132571E+002 -4.2847232910E+001 -3.2445308974E+001 -8.3002687384E+001 +1.2152521087E+002 -2.1152154603E+001 +8.7331143597E+001
11705000000.000 -4.7844665967E+000 -1.3266584302E+002 -4.2992054231E+001 -6.8613142298E+001 -9.2827182628E+001 +1.1248524148E+002 -2.1773997475E+001 +9.7436262429E+001
11837500000.000 -4.7286934580E+000 -1.3294736579E+002 -4.3148533451E+001 -1.0414430996E+002 -8.6008141736E+001 -8.5205206123E+001 -2.1113252807E+001 +1.1963209144E+002
11970000000.000 -4.7191195973E+000 -1.3315836071E+002 -4.3231130663E+001 -1.3912874434E+002 -1.0484783399E+002 +1.4665970263E+002 -1.9812124807E+001 +1.2580894635E+002
12102500000.000 -4.7016369472E+000 -1.3314506088E+002 -4.3378396607E+001 -1.7478677620E+002 -8.2653785128E+001 +1.6796675618E+002 -2.0750566808E+001 +1.3572624801E+002
12235000000.000 -4.6470753838E+000 -1.3364559491E+002 -4.3638807326E+001 +1.4979349392E+002 -8.7663436892E+001 -1.7317054104E+002 -1.9766510697E+001 +1.5484621297E+002
12367500000.000 -4.6461664271E+000 -1.3380303715E+002 -4.3691525969E+001 +1.1492020099E+002 -8.6805689041E+001 +4.1419337449E+001 -1.8880460687E+001 +1.5823605295E+002
12500000000.000 -4.6250784655E+000 -1.3423874054E+002 -4.3883233641E+001 +7.8457562733E+001 -8.1138600129E+001 -1.7933080093E+002 -2.0057779626E+001 +1.6833752638E+002
12632500000.000 -4.5877184213E+000 -1.3436362773E+002 -4.4214816751E+001 +4.3810432818E+001 -8.6463774372E+001 -4.3575167917E+001 -1.9180693173E+001 -1.7277901918E+002
12765000000.000 -4.5639872256E+000 -1.3467275444E+002 -4.4325029849E+001 +8.4886452751E+000 -8.3608819358E+001 -3.4587469241E+001 -1.8525664116E+001 -1.7105316731E+002
12897500000.000 -4.5576303333E+000 -1.3504387919E+002 -4.4525607744E+001 -2.6940502886E+001 -9.3296408287E+001 -1.7099057538E+002 -2.0121292071E+001 -1.5919959029E+002
13030000000.000 -4.5413819192E+000 -1.3528989682E+002 -4.4689919332E+001 -6.1908485251E+001 -9.3075443699E+001 +1.7795347592E+002 -1.8862383486E+001 -1.4137852008E+002
13162500000.000 -4.5106142652E+000 -1.3544681863E+002 -4.4888670150E+001 -9.7298440180E+001 -8.4030704759E+001 -1.8920194437E+001 -1.8671880528E+001 -1.4131031144E+002
13295000000.000 -4.4847885649E+000 -1.3567757130E+002 -4.5029779458E+001 -1.3237403666E+002 -8.4206285433E+001 +4.4152433143E+001 -2.0047653975E+001 -1.2767471629E+002
13427500000.000 -4.4727744371E+000 -1.3611121459E+002 -4.5252212865E+001 -1.6652965382E+002 -8.2853196099E+001 -1.3064309466E+002 -1.8881892663E+001 -1.1409438708E+002
13560000000.000 -4.4820161525E+000 -1.3621909554E+002 -4.5608295755E+001 +1.5830309442E+002 -9.4664881864E+001 -1.7265325151E+001 -1.9084212687E+001 -1.1441204873E+002
13692500000.000 -4.4475395137E+000 -1.3631125797E+002 -4.5885627839E+001 +1.2362516049E+002 -8.4057832573E+001 +1.0579453848E+002 -2.0834795591E+001 -1.0107210195E+002
13825000000.000 -4.4079205513E+000 -1.3666174024E+002 -4.6106954480E+001 +9.0132450035E+001 -7.7174608292E+001 +1.6879105632E+002 -1.9764195960E+001 -8.7491321044E+001
13957500000.000 -4.4059968524E+000 -1.3708150199E+002 -4.6551420399E+001 +5.4942074481E+001 -8.9460994886E+001 +2.3316452905E+001 -2.0429714473E+001 -8.9873691821E+001
14090000000.000 -4.4048139778E+000 -1.3720756917E+002 -4.6578996372E+001 +1.9436479387E+001 -7.9304423712E+001 +5.6173871988E+001 -2.2697763474E+001 -7.2419360556E+001
14222500000.000 -4.3689914893E+000 -1.3714016621E+002 -4.6757913686E+001 -1.4725851529E+001 -8.6707455486E+001 +8.3415672235E+001 -2.1321786459E+001 -5.9182453729E+001
14355000000.000 -4.3211103552E+000 -1.3752929841E+002 -4.7120765314E+001 -5.0908923890E+001 -9.8612831478E+001 -2.2030304211E+001 -2.2568505231E+001 -6.3668802486E+001
14487500000.000 -4.3054725834E+000 -1.3773808922E+002 -4.7190446234E+001 -8.4134816908E+001 -7.9277280165E+001 +3.1932518049E+001 -2.5631839688E+001 -4.0047478687E+001
14620000000.000 -4.3009920315E+000 -1.3767574861E+002 -4.7500200716E+001 -1.1683596489E+002 -8.8001057500E+001 +1.7719449611E+002 -2.3312533667E+001 -2.7226316896E+001
14752500000.000 -4.2308449296E+000 -1.3757766242E+002 -4.7484622610E+001 -1.5370393093E+002 -8.2633352634E+001 -1.2742514251E+002 -2.5386908331E+001 -3.6892654706E+001
14885000000.000 -4.1946436275E+000 -1.3769933576E+002 -4.8028809050E+001 +1.7301461878E+002 -7.9690694400E+001 +6.2577321971E+001 -2.9068257789E+001 +2.5184092763E+000
15017500000.000 -4.1895125179E+000 -1.3767267817E+002 -4.8134972667E+001 +1.3601904831E+002 -7.7555222628E+001 +1.0285552971E+002 -2.5418077191E+001 +9.6356415046E+000
15150000000.000 -4.1533642563E+000 -1.3750384752E+002 -4.8303616013E+001 +1.0189497186E+002 -8.7397289082E+001 -1.5230296303E+002 -2.9111037742E+001 -2.6838725413E+000
15282500000.000 -4.1277341759E+000 -1.3742580546E+002 -4.8567336322E+001 +6.8674389218E+001 -7.7686631248E+001 -2.7785046535E+001 -3.1371899554E+001 +5.8345966270E+001
