!  2-Port S-parameters saved by WinCal
! VAR MeasName=S-Parameters (CALIBRATED_DATA) read from VNA (C)
! VAR MeasDate=10/16/2015 3:44:15 PM
! VAR NAME=M6082_10_17_2_2_20C_1.8mA_-17.5dBm
! VAR FILENAME=M6082_10_17_2_2_20C_1.8mA_-17.5dBm.S2P
! VAR DATE=10/16/2015 3:44:15 PM
! VAR PHYS_PORTS=2,1
! VAR ObjTypeName=DATASET
! VAR IndexType=Frequency
!
# Hz S DB R 50
45000000.000 -2.1659406413E+001 -3.6350882539E+000 -4.2264974535E+001 +1.1192619151E+002 -6.4057218721E+001 +1.2314606487E+002 -3.1086148835E+001 +8.0763809999E+000
177500000.000 -2.0905174255E+001 -1.6554494864E+001 -4.4161329552E+001 +6.5044932641E+001 -7.9315605727E+001 -1.5565694154E+002 -3.2608099674E+001 +4.7103877695E+001
310000000.000 -2.0177272085E+001 -2.7319267019E+001 -4.4621844352E+001 +3.3320459917E+001 -8.7194936354E+001 -1.1679015502E+002 -2.3322892012E+001 +6.4681029414E+001
442500000.000 -1.9985105012E+001 -3.7539324603E+001 -4.3492318478E+001 -4.8189273277E+000 -9.8749237076E+001 -5.2724449062E+000 -2.2406675563E+001 +1.7197491870E+001
575000000.000 -1.9622523332E+001 -4.6391119387E+001 -4.3940249899E+001 -4.2344416465E+001 -8.0470133330E+001 +8.2859333419E+001 -3.0681233521E+001 +2.2499680676E+001
707500000.000 -1.8888990897E+001 -5.3678232566E+001 -4.4112914035E+001 -7.7286341744E+001 -8.2478269460E+001 -1.4899534226E+002 -3.4571655292E+001 +8.4087137315E+001
840000000.000 -1.8202061998E+001 -5.9828623538E+001 -4.4166965670E+001 -1.1224075991E+002 -8.3129655525E+001 +4.1350166533E+001 -2.9686939431E+001 +1.2751960956E+002
972500000.000 -1.7284351196E+001 -6.4395259183E+001 -4.4287208264E+001 -1.4797042164E+002 -9.2451646364E+001 +8.0386479619E+001 -2.5966887962E+001 +1.3535634683E+002
1105000000.000 -1.6650125342E+001 -6.9148584254E+001 -4.4233146202E+001 +1.7594908335E+002 -7.8295403656E+001 -1.1019471270E+002 -2.4366730550E+001 +1.4084978957E+002
1237500000.000 -1.5886809401E+001 -7.2792789854E+001 -4.4327841744E+001 +1.4083667070E+002 -9.0737808258E+001 +4.9594172407E+001 -2.3396099498E+001 +1.4999639946E+002
1370000000.000 -1.5152554610E+001 -7.6102097639E+001 -4.4569704662E+001 +1.0532425892E+002 -8.6935055090E+001 +1.1966222893E+002 -2.2078977269E+001 +1.5999222146E+002
1502500000.000 -1.4770248181E+001 -7.9457258476E+001 -4.4270160235E+001 +7.1219683071E+001 -8.8546611549E+001 +7.5656328172E+001 -2.0865700914E+001 +1.6645805712E+002
1635000000.000 -1.4069656681E+001 -8.1720292495E+001 -4.4354813919E+001 +3.4400035442E+001 -8.6994893303E+001 -2.2684702837E+001 -2.0028040006E+001 +1.7327261342E+002
1767500000.000 -1.3487150988E+001 -8.4263513996E+001 -4.4393724717E+001 -1.2936654304E+000 -8.7767014242E+001 +9.1370263767E+001 -1.9029120242E+001 +1.7853395475E+002
1900000000.000 -1.3255341965E+001 -8.6952124091E+001 -4.3850993566E+001 -3.4342905268E+001 -8.8917624202E+001 -1.5618483640E+002 -1.8862364378E+001 -1.7825686184E+002
2032500000.000 -1.2845280173E+001 -8.9382352059E+001 -4.3762482440E+001 -6.8583915663E+001 -7.9489766111E+001 -6.4661865598E+001 -1.8695220119E+001 -1.6787634348E+002
2165000000.000 -1.2376059901E+001 -9.1186751901E+001 -4.3848801429E+001 -1.0268204411E+002 -8.4252854275E+001 -1.2852738661E+001 -1.7748540004E+001 -1.6096609179E+002
2297500000.000 -1.2016907997E+001 -9.3625713962E+001 -4.3956007312E+001 -1.3482940482E+002 -7.9647160438E+001 -1.7877022582E+002 -1.7240516584E+001 -1.5708841028E+002
2430000000.000 -1.1670685257E+001 -9.5440173177E+001 -4.3810998244E+001 -1.6880722645E+002 -7.3195350830E+001 -8.0905101371E+001 -1.6942011485E+001 -1.5277092275E+002
2562500000.000 -1.1275895778E+001 -9.6778678510E+001 -4.3737129977E+001 +1.5665302517E+002 -7.9880198218E+001 -5.4870525521E+001 -1.6841005425E+001 -1.5039644989E+002
2695000000.000 -1.0955601446E+001 -9.8671312482E+001 -4.3976160814E+001 +1.2284030532E+002 -8.1567942618E+001 +9.9244176120E+001 -1.7364880711E+001 -1.4709364134E+002
2827500000.000 -1.0677930780E+001 -1.0028987473E+002 -4.3973946602E+001 +8.8367923219E+001 -8.0574928850E+001 -8.7698361179E+001 -1.7852729974E+001 -1.4036446242E+002
2960000000.000 -1.0378552398E+001 -1.0126858904E+002 -4.3668004121E+001 +5.2231933499E+001 -7.7614149549E+001 +2.2170629053E+001 -1.8163416574E+001 -1.3537153355E+002
3092500000.000 -1.0036974976E+001 -1.0252700081E+002 -4.3797889736E+001 +1.7581408678E+001 -8.3109556752E+001 +1.2917479763E+002 -1.9068624925E+001 -1.2925929104E+002
3225000000.000 -9.7595261670E+000 -1.0416799216E+002 -4.3919425185E+001 -1.7497470125E+001 -7.7830838874E+001 -1.4666133972E+002 -1.9584459867E+001 -1.1971050962E+002
3357500000.000 -9.5219091435E+000 -1.0542746703E+002 -4.3765409325E+001 -5.2013566598E+001 -9.2387372441E+001 +6.1176458205E+001 -1.9952331707E+001 -1.1430723326E+002
3490000000.000 -9.2212256984E+000 -1.0637313682E+002 -4.3831448684E+001 -8.8710977525E+001 -8.8933574005E+001 +1.5312525214E+002 -2.1127552009E+001 -1.0856479962E+002
3622500000.000 -8.9590490854E+000 -1.0758649473E+002 -4.3892340994E+001 -1.2254417424E+002 -7.4906401490E+001 -7.6033450283E+001 -2.1951560362E+001 -9.8204013377E+001
3755000000.000 -8.7160695077E+000 -1.0885123221E+002 -4.3734254507E+001 -1.5622598120E+002 -8.1204190318E+001 -1.6179687851E+002 -2.2726654404E+001 -9.4600164219E+001
3887500000.000 -8.4901531379E+000 -1.0976573370E+002 -4.3624239233E+001 +1.6596224794E+002 -8.2457672344E+001 +3.8350598115E+001 -2.5039088600E+001 -8.7756437543E+001
4020000000.000 -8.2921921246E+000 -1.1072377912E+002 -4.3718522762E+001 +1.3192022124E+002 -8.0006498184E+001 -1.0402380994E+002 -2.6657983093E+001 -7.3265610790E+001
4152500000.000 -8.0831774592E+000 -1.1150949833E+002 -4.3504701775E+001 +9.6644844344E+001 -8.7982808420E+001 +9.2039106142E+001 -2.8907550058E+001 -6.4827909622E+001
4285000000.000 -7.8683795204E+000 -1.1233201493E+002 -4.3479575660E+001 +5.9764698961E+001 -8.3427655174E+001 +2.6744223838E+001 -3.3376173159E+001 -3.7266490092E+001
4417500000.000 -7.6616504934E+000 -1.1318999300E+002 -4.3207785029E+001 +2.1511853977E+001 -8.7040529229E+001 -1.7008504471E+002 -3.1716985377E+001 +7.9934238921E+000
4550000000.000 -7.4987708958E+000 -1.1384967564E+002 -4.3395852092E+001 -1.2350061544E+001 -8.3118955748E+001 -7.8890280039E+001 -3.0369692246E+001 +1.8306089413E+001
4682500000.000 -7.2636725198E+000 -1.1424375206E+002 -4.3205774193E+001 -5.4493559581E+001 -8.0446429709E+001 -9.0685328267E+000 -2.9662340607E+001 +3.9039036963E+001
4815000000.000 -6.9830651317E+000 -1.1488837993E+002 -4.3304677007E+001 -9.7084612053E+001 -8.2343863685E+001 +8.5508453698E+001 -2.7633375748E+001 +4.1453787176E+001
4947500000.000 -6.8235535803E+000 -1.1559065708E+002 -4.2942535070E+001 -1.3366072125E+002 -8.6328729572E+001 -5.9508441362E+001 -2.9390889645E+001 +3.5727375280E+001
5080000000.000 -6.6116849878E+000 -1.1623442179E+002 -4.2996835164E+001 -1.7382723341E+002 -8.4456368835E+001 -4.1973299482E+001 -3.2230982078E+001 +5.7217660908E+001
5212500000.000 -6.3538981306E+000 -1.1725655201E+002 -4.3633004138E+001 +1.4035413558E+002 -9.6332925145E+001 +5.8330960879E+001 -3.1583151796E+001 +6.9786609063E+001
5345000000.000 -6.2264392889E+000 -1.1806416656E+002 -4.3276446796E+001 +1.0460344291E+002 -8.6735365248E+001 -1.4515417028E+002 -3.5379325672E+001 +7.1648285607E+001
5477500000.000 -6.1218558444E+000 -1.1867865158E+002 -4.3163514979E+001 +6.7927668059E+001 -9.4399041455E+001 +1.4591618794E+002 -3.7189527451E+001 +1.3208286823E+002
5610000000.000 -5.9613562760E+000 -1.1957751212E+002 -4.3587760035E+001 +2.6434858903E+001 -8.6558930209E+001 +4.9502403775E+001 -3.3677388036E+001 +1.3581073962E+002
5742500000.000 -5.8409142150E+000 -1.2046293976E+002 -4.3696759248E+001 -1.0621068043E+001 -8.5428511840E+001 +1.6067476317E+002 -3.7738198927E+001 +1.5328521660E+002
5875000000.000 -5.7768723036E+000 -1.2114482348E+002 -4.3273349173E+001 -4.3617169851E+001 -8.8746064510E+001 -5.2211356812E+001 -3.3695048249E+001 -1.7054419806E+002
6007500000.000 -5.6831211144E+000 -1.2198345471E+002 -4.3586991214E+001 -8.2913137812E+001 -8.9662954139E+001 +1.1167662168E+002 -3.2668105512E+001 +1.7990133173E+002
6140000000.000 -5.5684769194E+000 -1.2288073278E+002 -4.4244172347E+001 -1.2328739607E+002 -8.5746194908E+001 +4.4295135726E+001 -3.6088094364E+001 -1.6931744454E+002
6272500000.000 -5.4733293749E+000 -1.2357076790E+002 -4.3665284201E+001 -1.5496020190E+002 -9.6082049309E+001 -1.2069831937E+001 -3.3865948849E+001 -1.4421906410E+002
6405000000.000 -5.4127786361E+000 -1.2452707979E+002 -4.3791246419E+001 +1.6893421655E+002 -8.5141132148E+001 +5.6077215458E+001 -3.3843350135E+001 -1.6182701569E+002
6537500000.000 -5.3429970764E+000 -1.2530285494E+002 -4.4567552650E+001 +1.2940844224E+002 -8.7683098700E+001 +1.7457179803E+002 -4.0146532168E+001 -1.5954899622E+002
6670000000.000 -5.2378982218E+000 -1.2571265172E+002 -4.4072935553E+001 +9.6427953265E+001 -8.3417441302E+001 -6.6676381377E+001 -3.9306302954E+001 -1.3650016314E+002
6802500000.000 -5.1454478052E+000 -1.2659576179E+002 -4.4058845944E+001 +6.2042783010E+001 -8.9019545788E+001 +1.1967374846E+001 -3.8887733664E+001 +1.7934858455E+002
6935000000.000 -5.1148756462E+000 -1.2769826351E+002 -4.5175974184E+001 +2.1302873659E+001 -9.8616814582E+001 -6.5213518486E+000 -3.8644413634E+001 +1.2289658562E+002
7067500000.000 -5.0624750756E+000 -1.2801246041E+002 -4.5114592619E+001 -1.3436853414E+001 -9.3021858296E+001 -1.0299067650E+002 -3.9055439429E+001 +1.1476196169E+002
7200000000.000 -4.9619589693E+000 -1.2828945982E+002 -4.4533714215E+001 -4.4172987196E+001 -8.3813740374E+001 -3.6579175219E+000 -3.2855730368E+001 +1.3160483234E+002
7332500000.000 -4.8934632249E+000 -1.2924359203E+002 -4.5110094157E+001 -8.2042815358E+001 -8.2528984712E+001 +1.0239654093E+002 -2.9065859543E+001 +1.1912242685E+002
7465000000.000 -4.8569811760E+000 -1.2990758627E+002 -4.5682619528E+001 -1.1898313819E+002 -1.1242582844E+002 -1.1548240944E+002 -2.8647797944E+001 +1.2223142253E+002
7597500000.000 -4.7883448285E+000 -1.3005869948E+002 -4.4826136998E+001 -1.4957731222E+002 -8.3767217089E+001 -6.5541599371E+001 -2.6156075703E+001 +1.3754546653E+002
7730000000.000 -4.7060681461E+000 -1.3054684649E+002 -4.5432495514E+001 +1.7388621911E+002 -7.9678768879E+001 +1.1803243714E+002 -2.3735532895E+001 +1.3785831176E+002
7862500000.000 -4.6639445304E+000 -1.3125233659E+002 -4.6521432334E+001 +1.3596498725E+002 -9.2889451485E+001 -9.9108309924E+001 -2.3279562127E+001 +1.4146716417E+002
7995000000.000 -4.6208286003E+000 -1.3153664098E+002 -4.6218968761E+001 +1.0309455229E+002 -7.8932392694E+001 -4.2638226643E+001 -2.1837765885E+001 +1.5427679822E+002
8127500000.000 -4.5506555862E+000 -1.3166284081E+002 -4.6380377093E+001 +6.9586269058E+001 -9.8966148023E+001 -1.0380013109E+002 -2.0024696371E+001 +1.5653892727E+002
8260000000.000 -4.4954709128E+000 -1.3224388826E+002 -4.7134115840E+001 +3.2537888659E+001 -8.9306368992E+001 -8.6742221660E+001 -1.9858327209E+001 +1.6018590925E+002
8392500000.000 -4.4689389187E+000 -1.3252041925E+002 -4.7177114432E+001 -1.9011458579E+000 -9.8383995191E+001 -1.7791956786E+002 -1.9067659981E+001 +1.7043407532E+002
8525000000.000 -4.4269105908E+000 -1.3263025083E+002 -4.7097176833E+001 -3.4420443213E+001 -9.5442992809E+001 -4.1180132642E+001 -1.8219636648E+001 +1.7301346007E+002
8657500000.000 -4.3835505956E+000 -1.3288185983E+002 -4.7642235102E+001 -7.0500784773E+001 -8.3098465601E+001 +1.0420560614E+002 -1.8567730611E+001 +1.7799792022E+002
8790000000.000 -4.3343056132E+000 -1.3327996269E+002 -4.8321322547E+001 -1.0613565320E+002 -8.2339302471E+001 -1.0206177654E+002 -1.8357253591E+001 -1.7172023385E+002
8922500000.000 -4.3192659837E+000 -1.3359815951E+002 -4.8132200782E+001 -1.3846830377E+002 -1.0315185045E+002 -1.4370193658E+002 -1.7988366041E+001 -1.6597426929E+002
9055000000.000 -4.2831327175E+000 -1.3377914380E+002 -4.8647148730E+001 -1.7475252302E+002 -8.0079742842E+001 +1.5455925247E+002 -1.8459472296E+001 -1.5828356675E+002
9187500000.000 -4.2479936242E+000 -1.3408153130E+002 -4.9074563430E+001 +1.4996130912E+002 -1.0960743713E+002 -1.6548896346E+002 -1.8386318202E+001 -1.4631395980E+002
9320000000.000 -4.2053874034E+000 -1.3470404818E+002 -4.9221458581E+001 +1.1682645617E+002 -9.0099839199E+001 +3.5373777585E+001 -1.8204330082E+001 -1.3966051825E+002
9452500000.000 -4.1880281912E+000 -1.3504405364E+002 -4.9309620963E+001 +8.1744637736E+001 -9.4134288326E+001 +6.9051994362E+001 -1.8851840643E+001 -1.3056079046E+002
9585000000.000 -4.1611872669E+000 -1.3535932912E+002 -5.0061294681E+001 +4.8592261009E+001 -8.0331823854E+001 -1.4877268969E+002 -1.8807314563E+001 -1.1818500792E+002
9717500000.000 -4.0973404199E+000 -1.3572529955E+002 -4.9891808317E+001 +1.3394177637E+001 -8.1621832081E+001 +1.4815581243E+001 -1.8809988302E+001 -1.1101466042E+002
9850000000.000 -4.0733293046E+000 -1.3641606952E+002 -5.0176371463E+001 -2.0391194316E+001 -8.9967062111E+001 +5.8137880889E+001 -1.9659470080E+001 -1.0058079554E+002
9982500000.000 -4.0585286840E+000 -1.3656265519E+002 -5.0672869607E+001 -5.5901483721E+001 -7.8804154119E+001 -1.7241174774E+002 -1.9713650748E+001 -8.6381320467E+001
10115000000.000 -4.0159453338E+000 -1.3680836754E+002 -5.1030951247E+001 -8.8487061934E+001 -8.0670696766E+001 -4.8755943105E+001 -1.9915329258E+001 -7.8922686026E+001
10247500000.000 -3.9609616099E+000 -1.3728593194E+002 -5.1000621484E+001 -1.2427622754E+002 -8.3871693268E+001 +9.4835612582E+001 -2.1140179163E+001 -6.5993733426E+001
10380000000.000 -3.9474150390E+000 -1.3774345013E+002 -5.1920449582E+001 -1.5868141431E+002 -9.4098351546E+001 +1.4056966745E+002 -2.1082208128E+001 -4.9738927690E+001
10512500000.000 -3.9281644230E+000 -1.3800298171E+002 -5.2221382895E+001 +1.6803908174E+002 -8.1370740259E+001 -7.9585616465E+001 -2.1518114343E+001 -4.1692338806E+001
10645000000.000 -3.8916080139E+000 -1.3822293059E+002 -5.2172049742E+001 +1.3421157574E+002 -8.7953756514E+001 +7.2186152035E+000 -2.2814915277E+001 -2.3851404990E+001
10777500000.000 -3.8444753239E+000 -1.3859014180E+002 -5.2733848784E+001 +9.8783730310E+001 -1.0484072995E+002 +5.0777455828E+001 -2.2224005360E+001 -5.6816557357E+000
10910000000.000 -3.8139474662E+000 -1.3898503947E+002 -5.3339140305E+001 +6.4270620028E+001 -9.1536507284E+001 +7.2508292465E+001 -2.2784806886E+001 +4.5858099205E+000
11042500000.000 -3.7826156357E+000 -1.3929448948E+002 -5.3771929406E+001 +2.9737023042E+001 -8.9008103858E+001 +1.1769885414E+001 -2.3434954598E+001 +2.7748185113E+001
11175000000.000 -3.7426804256E+000 -1.3940162344E+002 -5.3954480173E+001 -1.4542237904E+000 -9.0874848248E+001 +7.1678360772E+001 -2.2275066095E+001 +4.2965199863E+001
11307500000.000 -3.7134405901E+000 -1.3958934304E+002 -5.4492829721E+001 -3.7298870665E+001 -8.4597376600E+001 -1.3917132831E+002 -2.2749802133E+001 +5.3554258919E+001
11440000000.000 -3.6752363835E+000 -1.3988168213E+002 -5.4970697097E+001 -6.9208738878E+001 -8.4374942889E+001 -4.8373647073E+001 -2.2551604087E+001 +7.5986512140E+001
11572500000.000 -3.6503930577E+000 -1.3987337304E+002 -5.4799585422E+001 -1.0445862941E+002 -8.0228762801E+001 +7.1426454980E+001 -2.1168153663E+001 +8.7288673767E+001
11705000000.000 -3.6236996095E+000 -1.3999022307E+002 -5.5679492367E+001 -1.3719294734E+002 -8.7036631680E+001 +1.7081457736E+002 -2.1768897037E+001 +9.7383238428E+001
11837500000.000 -3.5878748184E+000 -1.4017412626E+002 -5.5857145344E+001 -1.7177517315E+002 -9.2989699502E+001 +1.3749730397E+002 -2.1105478212E+001 +1.1957153722E+002
11970000000.000 -3.5899265828E+000 -1.4039310384E+002 -5.6000177613E+001 +1.5543014101E+002 -8.5845971812E+001 +6.6758009012E+001 -1.9822588508E+001 +1.2560290032E+002
12102500000.000 -3.5861553733E+000 -1.4033821104E+002 -5.5616484969E+001 +1.2078343050E+002 -8.2464789999E+001 -1.1682874631E+002 -2.0745359834E+001 +1.3563992390E+002
12235000000.000 -3.5474472781E+000 -1.4071244398E+002 -5.6531393240E+001 +9.2857715105E+001 -8.1446730263E+001 -5.5740014490E+001 -1.9764522433E+001 +1.5479831026E+002
12367500000.000 -3.5524304783E+000 -1.4088596875E+002 -5.6491228652E+001 +4.9393017054E+001 -8.3485583775E+001 -3.6229669609E+001 -1.8881052546E+001 +1.5813721928E+002
12500000000.000 -3.5384362955E+000 -1.4126139579E+002 -5.6675308082E+001 +2.1489155142E+001 -8.9009502073E+001 +4.4749820275E+001 -2.0055110735E+001 +1.6828500620E+002
12632500000.000 -3.5237728635E+000 -1.4130864459E+002 -5.7102140712E+001 -1.2388974168E+001 -8.2954170772E+001 -1.3537324331E+002 -1.9176547790E+001 -1.7280051723E+002
12765000000.000 -3.5066430742E+000 -1.4156631185E+002 -5.6694764825E+001 -4.6006881053E+001 -9.0381547480E+001 +1.1961650586E+002 -1.8522369928E+001 -1.7116482502E+002
12897500000.000 -3.5009489592E+000 -1.4186937265E+002 -5.7664577576E+001 -8.3368992640E+001 -8.9599077869E+001 +1.7072681405E+002 -2.0126504551E+001 -1.5932169947E+002
13030000000.000 -3.4990497904E+000 -1.4207844170E+002 -5.7881583642E+001 -1.1622039027E+002 -8.7295278676E+001 -1.4312318126E+002 -1.8860289831E+001 -1.4141653059E+002
13162500000.000 -3.4777173881E+000 -1.4219115949E+002 -5.7925168783E+001 -1.5168467211E+002 -8.8257431717E+001 -1.1341070347E+002 -1.8659762600E+001 -1.4139343326E+002
13295000000.000 -3.4574516212E+000 -1.4235061249E+002 -5.8016386723E+001 +1.7697092806E+002 -8.3166304711E+001 +8.6001529352E+001 -2.0045867545E+001 -1.2772948739E+002
13427500000.000 -3.4519594524E+000 -1.4272266008E+002 -5.9381631386E+001 +1.3892627064E+002 -8.6374987393E+001 -1.4698023353E+002 -1.8868806913E+001 -1.1414620609E+002
13560000000.000 -3.4625527589E+000 -1.4282323711E+002 -5.8663663884E+001 +1.1133161757E+002 -8.0705673380E+001 +1.6988178753E+001 -1.9075227579E+001 -1.1452331222E+002
13692500000.000 -3.4331674566E+000 -1.4285594705E+002 -5.9427214880E+001 +7.9574191474E+001 -7.6131372450E+001 +7.2988545968E+001 -2.0837509278E+001 -1.0123015903E+002
13825000000.000 -3.4078005072E+000 -1.4313786811E+002 -6.0047741391E+001 +4.5059489589E+001 -8.3518313817E+001 +1.3461528809E+002 -1.9749850155E+001 -8.7616619776E+001
13957500000.000 -3.4081552785E+000 -1.4351374945E+002 -5.9798547268E+001 +3.0846926192E+000 -8.4753291474E+001 -1.7969975769E+000 -2.0421035950E+001 -8.9983940480E+001
14090000000.000 -3.4047765226E+000 -1.4358812760E+002 -6.0237193908E+001 -2.5908176672E+001 -7.6862593641E+001 +5.8478634191E+001 -2.2680678336E+001 -7.2458151871E+001
14222500000.000 -3.3831630278E+000 -1.4350387068E+002 -6.1359041274E+001 -5.6446167458E+001 -8.4214528043E+001 +1.2109933944E+002 -2.1313172810E+001 -5.9325758968E+001
14355000000.000 -3.3416967960E+000 -1.4383607074E+002 -6.1068601395E+001 -8.7687856198E+001 -8.0109869928E+001 -5.2703830000E+001 -2.2544818095E+001 -6.3696990351E+001
14487500000.000 -3.3281869043E+000 -1.4393604205E+002 -6.1607544279E+001 -1.3118186606E+002 -8.9691036152E+001 +4.8651538180E+001 -2.5628183279E+001 -4.0111841133E+001
14620000000.000 -3.3288691875E+000 -1.4390737271E+002 -6.1228535944E+001 -1.5166567265E+002 -8.1845574103E+001 +1.4484038110E+002 -2.3285749632E+001 -2.7241404484E+001
14752500000.000 -3.2759427469E+000 -1.4376343266E+002 -6.2116045347E+001 +1.7332058179E+002 -8.1336457955E+001 -1.1834442516E+002 -2.5359537663E+001 -3.6876379206E+001
14885000000.000 -3.2384506082E+000 -1.4380894136E+002 -6.0758587457E+001 +1.4336488926E+002 -8.0447799507E+001 -2.7829506886E+001 -2.9059336163E+001 +2.6524106883E+000
15017500000.000 -3.2348436255E+000 -1.4384520295E+002 -6.1584983567E+001 +1.0555241377E+002 -8.0649821148E+001 +1.4997950809E+002 -2.5394259953E+001 +9.5141421125E+000
15150000000.000 -3.2143330203E+000 -1.4365211860E+002 -6.2311507478E+001 +6.8018604364E+001 -8.3043662501E+001 -1.2723594373E+002 -2.9068735603E+001 -2.7858201079E+000
15282500000.000 -3.1885867400E+000 -1.4351982234E+002 -6.2127913505E+001 +3.7918416932E+001 -9.0284972800E+001 -1.2258687364E+002 -3.1270278004E+001 +5.8108038369E+001
