!  2-Port S-parameters saved by WinCal
! VAR MeasName=S-Parameters (CALIBRATED_DATA) read from VNA (C)
! VAR MeasDate=10/16/2015 11:04:07 AM
! VAR NAME=M6082_13_13_2_2_20C_10.0mA_-17.5dBm
! VAR FILENAME=M6082_13_13_2_2_20C_10.0mA_-17.5dBm_1_1.S2P
! VAR DATE=10/16/2015 11:04:07 AM
! VAR PHYS_PORTS=2,1
! VAR ObjTypeName=DATASET
! VAR IndexType=Frequency
!
# Hz S DB R 50
45000000.000 -1.9751614619E+001 +1.0875756679E+000 -4.3855630840E+001 +9.3852742925E+001 -6.2575986689E+001 +1.9942495068E+000 -3.0810995851E+001 +7.2278410613E+000
177500000.000 -1.9530476824E+001 -1.2362735633E+000 -4.3359024073E+001 +6.9930471979E+001 -7.1690798112E+001 -1.4252590290E+002 -3.2566110222E+001 +4.5835692325E+001
310000000.000 -1.9407733490E+001 -3.8165193209E+000 -4.3372857958E+001 +4.0476109980E+001 -7.7361855118E+001 -1.1462726435E+002 -2.3328807696E+001 +6.4486820127E+001
442500000.000 -1.9332870854E+001 -6.5214679947E+000 -4.2458085281E+001 +4.5322257054E-001 -7.9011714763E+001 -4.0009955855E+001 -2.2299785759E+001 +1.7738703676E+001
575000000.000 -1.9260214447E+001 -9.3956654729E+000 -4.3026143536E+001 -3.4141506154E+001 -8.4975248256E+001 +1.7420693064E+002 -3.0443600481E+001 +2.2753031983E+001
707500000.000 -1.9208608148E+001 -1.1763079914E+001 -4.3158605415E+001 -6.8057367523E+001 -8.7199605290E+001 -1.1269941312E+002 -3.4393540430E+001 +8.2326205264E+001
840000000.000 -1.9089905104E+001 -1.4460150316E+001 -4.3288018004E+001 -1.0201172745E+002 -8.6352243768E+001 -4.8563978878E-001 -2.9707648216E+001 +1.2712852685E+002
972500000.000 -1.8984125092E+001 -1.6948621962E+001 -4.3337916076E+001 -1.3617463867E+002 -7.9672784839E+001 +8.2490252085E+001 -2.5920141569E+001 +1.3506110896E+002
1105000000.000 -1.8912580571E+001 -1.9588833028E+001 -4.3568837332E+001 -1.6979355262E+002 -9.0621097834E+001 +1.0774197865E+002 -2.4335927295E+001 +1.4048233339E+002
1237500000.000 -1.8820306506E+001 -2.1848534417E+001 -4.3452244946E+001 +1.5619044636E+002 -9.0196664402E+001 -6.5605328397E+001 -2.3375050320E+001 +1.4978590953E+002
1370000000.000 -1.8712349216E+001 -2.4257733703E+001 -4.3503566935E+001 +1.2278264922E+002 -8.3438262350E+001 +1.7249605035E+001 -2.2046977286E+001 +1.5981858827E+002
1502500000.000 -1.8595983105E+001 -2.6504346828E+001 -4.3458501166E+001 +8.8854684590E+001 -8.7124029868E+001 -1.2000400451E+002 -2.0842667751E+001 +1.6613022696E+002
1635000000.000 -1.8432643820E+001 -2.8593420398E+001 -4.3538188394E+001 +5.5233175820E+001 -9.0004021734E+001 +5.9881973433E+001 -2.0011489712E+001 +1.7311576643E+002
1767500000.000 -1.8279325483E+001 -3.0982512495E+001 -4.3578058467E+001 +2.0788013603E+001 -9.6355011539E+001 +7.5074795767E+001 -1.9002096236E+001 +1.7836698437E+002
1900000000.000 -1.8153317297E+001 -3.2855412702E+001 -4.3462229166E+001 -1.3080645510E+001 -8.2074449198E+001 +1.6298275345E+002 -1.8855875199E+001 -1.7843450183E+002
2032500000.000 -1.8036510370E+001 -3.4637374589E+001 -4.3553462687E+001 -4.7692694995E+001 -8.9013534673E+001 -1.1886675359E+002 -1.8673072869E+001 -1.6800167854E+002
2165000000.000 -1.7819036831E+001 -3.6541051008E+001 -4.3525635776E+001 -8.2167344120E+001 -7.7218423144E+001 +5.9829782220E+001 -1.7733157089E+001 -1.6111676320E+002
2297500000.000 -1.7683436122E+001 -3.8222947284E+001 -4.3576806451E+001 -1.1474158365E+002 -8.4328682460E+001 +1.7000138215E+002 -1.7227501948E+001 -1.5713845432E+002
2430000000.000 -1.7550832904E+001 -3.9896549198E+001 -4.3755818769E+001 -1.4730423476E+002 -8.0875706428E+001 -9.0762576503E+001 -1.6912455589E+001 -1.5289512365E+002
2562500000.000 -1.7393835875E+001 -4.1577066466E+001 -4.3496640290E+001 +1.7621337830E+002 -7.7480505297E+001 +1.3329117993E+002 -1.6805248293E+001 -1.5058916827E+002
2695000000.000 -1.7339878565E+001 -4.3420549160E+001 -4.3906706755E+001 +1.4257662822E+002 -8.0079638062E+001 -1.0059596911E+002 -1.7355449327E+001 -1.4734855203E+002
2827500000.000 -1.7277201255E+001 -4.4673541510E+001 -4.3863520766E+001 +1.0920666461E+002 -8.0148466883E+001 -1.7079789395E+002 -1.7830732748E+001 -1.4041373640E+002
2960000000.000 -1.7127924696E+001 -4.5948291037E+001 -4.3712068212E+001 +7.5568041464E+001 -8.1568897149E+001 +1.4392995219E+002 -1.8126285135E+001 -1.3567389037E+002
3092500000.000 -1.6968492644E+001 -4.7956750232E+001 -4.3677453371E+001 +4.1229883804E+001 -7.6223637373E+001 -9.5078078488E+001 -1.9074870840E+001 -1.2959576004E+002
3225000000.000 -1.6912216320E+001 -4.9826695689E+001 -4.3879197919E+001 +9.1558874138E+000 -8.0721025160E+001 -3.2362334069E+001 -1.9574348557E+001 -1.1983548600E+002
3357500000.000 -1.6846543055E+001 -5.0959604131E+001 -4.3824844117E+001 -2.4320331148E+001 -8.2473339526E+001 +1.3923250397E+002 -1.9927628063E+001 -1.1446691614E+002
3490000000.000 -1.6648507813E+001 -5.2546108642E+001 -4.3923765754E+001 -5.7267094773E+001 -7.8601412806E+001 +1.0571902329E+002 -2.1107759001E+001 -1.0888800390E+002
3622500000.000 -1.6485089834E+001 -5.4322467941E+001 -4.3970775452E+001 -9.1955302696E+001 -8.8501708503E+001 -1.6325287758E+002 -2.1932152943E+001 -9.8249022760E+001
3755000000.000 -1.6343158183E+001 -5.6087906272E+001 -4.3585371101E+001 -1.2656110640E+002 -7.9281389064E+001 -6.8781247467E+000 -2.2670162875E+001 -9.4620970876E+001
3887500000.000 -1.6195873160E+001 -5.7381897440E+001 -4.3839982411E+001 -1.5989050393E+002 -8.4845131759E+001 +4.4470060132E+001 -2.4986595511E+001 -8.8032087260E+001
4020000000.000 -1.6068807801E+001 -5.8742548672E+001 -4.3724954627E+001 +1.6674518761E+002 -7.6479428470E+001 +1.4941943650E+002 -2.6648357683E+001 -7.3529845847E+001
4152500000.000 -1.5888122541E+001 -6.0007566110E+001 -4.3751805267E+001 +1.3297769047E+002 -8.1824544301E+001 -6.2486878252E+001 -2.8805471408E+001 -6.4349545251E+001
4285000000.000 -1.5726944337E+001 -6.1359463700E+001 -4.3764442102E+001 +9.7206297284E+001 -8.3018490056E+001 -1.3627768508E+000 -3.3147384904E+001 -3.8533416719E+001
4417500000.000 -1.5597563202E+001 -6.2820218411E+001 -4.3729575560E+001 +6.4628868321E+001 -7.8964653472E+001 +1.0401143016E+002 -3.1692033511E+001 +7.3242350144E+000
4550000000.000 -1.5442065276E+001 -6.3731072318E+001 -4.4022003531E+001 +3.0639533458E+001 -8.3776074133E+001 -9.9541993723E+001 -3.0199434673E+001 +1.7793640407E+001
4682500000.000 -1.5240243528E+001 -6.4921275744E+001 -4.4079610112E+001 -2.7781710167E+000 -9.0830570933E+001 +1.3007444620E+002 -2.9579164213E+001 +3.7739121250E+001
4815000000.000 -1.5094393009E+001 -6.6165435844E+001 -4.3950139578E+001 -3.5692325273E+001 -8.0987266640E+001 -1.5607636006E+002 -2.7576606245E+001 +4.0480773621E+001
4947500000.000 -1.4957061984E+001 -6.6870784913E+001 -4.3938709455E+001 -6.8545903573E+001 -8.8063319687E+001 +1.9971340527E+001 -2.9282680656E+001 +3.4737212931E+001
5080000000.000 -1.4765437405E+001 -6.7616090754E+001 -4.3899302841E+001 -1.0211075025E+002 -8.5992726535E+001 -1.3369533515E+001 -3.2154509779E+001 +5.5173060792E+001
5212500000.000 -1.4613399639E+001 -6.8632138409E+001 -4.3830678792E+001 -1.3600445396E+002 -8.8921907123E+001 +2.8821241408E+001 -3.1508335994E+001 +6.7943221573E+001
5345000000.000 -1.4510713004E+001 -6.9464622879E+001 -4.3754617851E+001 -1.7017124724E+002 -8.9323040342E+001 -1.2516170901E+002 -3.5213368755E+001 +6.8602091721E+001
5477500000.000 -1.4362076092E+001 -6.9650604831E+001 -4.3648076550E+001 +1.5554417280E+002 -8.6595306403E+001 -6.4880173748E+000 -3.7637489713E+001 +1.2977518974E+002
5610000000.000 -1.4190666085E+001 -7.0453132760E+001 -4.3633646709E+001 +1.2155787045E+002 -1.0161979771E+002 +1.2421527676E+002 -3.3822954310E+001 +1.3422868975E+002
5742500000.000 -1.4125270999E+001 -7.1334508532E+001 -4.3639276057E+001 +8.7053583123E+001 -8.2499296799E+001 -1.3099087839E+002 -3.8146504719E+001 +1.4936592836E+002
5875000000.000 -1.4082970399E+001 -7.1787479167E+001 -4.3467157068E+001 +5.3653005951E+001 -8.2230376048E+001 -4.8645221258E+001 -3.4085742753E+001 -1.7069954526E+002
6007500000.000 -1.3947683403E+001 -7.2158675807E+001 -4.3646991637E+001 +1.9711016620E+001 -8.5572960380E+001 +2.9347594012E+001 -3.2790248427E+001 +1.7877767851E+002
6140000000.000 -1.3812635137E+001 -7.3044661937E+001 -4.3464646373E+001 -1.4854839975E+001 -1.0737861167E+002 +1.3604563667E+002 -3.6475500341E+001 -1.7191238569E+002
6272500000.000 -1.3759597323E+001 -7.4298734578E+001 -4.3577807581E+001 -4.8947744697E+001 -8.1132147727E+001 -3.8988294128E+001 -3.4231247521E+001 -1.4494162314E+002
6405000000.000 -1.3747405252E+001 -7.4945896029E+001 -4.3626985391E+001 -8.3126832175E+001 -8.7227858632E+001 +2.3126449901E+001 -3.3898692874E+001 -1.6330464474E+002
6537500000.000 -1.3623812312E+001 -7.5185211646E+001 -4.3619026667E+001 -1.1723227473E+002 -8.7496513441E+001 +1.5446226126E+002 -4.0218456152E+001 -1.6516531523E+002
6670000000.000 -1.3430622892E+001 -7.6191180761E+001 -4.3642946608E+001 -1.5090382165E+002 -8.7531175206E+001 -8.5499804235E+001 -3.9913823270E+001 -1.4038959921E+002
6802500000.000 -1.3359333721E+001 -7.7624382115E+001 -4.3676866955E+001 +1.7452436638E+002 -8.3309348595E+001 +3.7641931013E+001 -3.8799498000E+001 +1.7744605717E+002
6935000000.000 -1.3361507964E+001 -7.8216599057E+001 -4.3629545010E+001 +1.4119244655E+002 -9.3466841824E+001 +1.3832050875E+002 -3.8150927572E+001 +1.2351062071E+002
7067500000.000 -1.3229835432E+001 -7.8375896045E+001 -4.3639099881E+001 +1.0715281375E+002 -8.1203138814E+001 -1.7102253030E+002 -3.8518562763E+001 +1.1557288629E+002
7200000000.000 -1.3054630715E+001 -7.9563694262E+001 -4.3683390939E+001 +7.3350343100E+001 -8.9755357361E+001 -3.4058171464E+001 -3.2652114789E+001 +1.3159887647E+002
7332500000.000 -1.2987602910E+001 -8.0784499900E+001 -4.3658329619E+001 +3.9022272392E+001 -8.1771414067E+001 +1.0209786468E+002 -2.9013420538E+001 +1.1967333144E+002
7465000000.000 -1.2928006339E+001 -8.1259726851E+001 -4.3735919136E+001 +5.2219995440E+000 -8.3293253709E+001 -1.6732303925E+002 -2.8584074708E+001 +1.2332240827E+002
7597500000.000 -1.2758694536E+001 -8.1913406484E+001 -4.3646184708E+001 -2.8500805822E+001 -8.9431110741E+001 -9.0954630558E+001 -2.6067168083E+001 +1.3765329096E+002
7730000000.000 -1.2611512949E+001 -8.2850666036E+001 -4.3722982299E+001 -6.2139687160E+001 -8.9537456102E+001 +1.7441708296E+002 -2.3711040909E+001 +1.3783483734E+002
7862500000.000 -1.2515846339E+001 -8.3500328554E+001 -4.3728539069E+001 -9.5687625216E+001 -8.1913198727E+001 -1.7456736091E+002 -2.3284847096E+001 +1.4191516314E+002
7995000000.000 -1.2405990932E+001 -8.3808020342E+001 -4.3710888368E+001 -1.2974175661E+002 -8.7198049906E+001 -5.6267223006E+001 -2.1802795921E+001 +1.5463795931E+002
8127500000.000 -1.2211132095E+001 -8.4349198246E+001 -4.3739710543E+001 -1.6346034690E+002 -8.9484528788E+001 +1.6964565714E+002 -2.0022847503E+001 +1.5641755187E+002
8260000000.000 -1.2107459633E+001 -8.5035754106E+001 -4.3699753595E+001 +1.6233293519E+002 -8.9253280966E+001 -1.7164303515E+002 -1.9892171704E+001 +1.6011906762E+002
8392500000.000 -1.2001424478E+001 -8.5221903914E+001 -4.3762890617E+001 +1.2889867363E+002 -8.3567391475E+001 -1.5018284813E+001 -1.9058613049E+001 +1.7043418317E+002
8525000000.000 -1.1886451212E+001 -8.5408956919E+001 -4.3686691073E+001 +9.4649527551E+001 -8.6590857162E+001 -1.5530063440E+002 -1.8194676778E+001 +1.7278491299E+002
8657500000.000 -1.1773597345E+001 -8.5652009218E+001 -4.3596230714E+001 +6.0439940676E+001 -8.3176418143E+001 +1.0777233506E+002 -1.8569163500E+001 +1.7775273203E+002
8790000000.000 -1.1656245427E+001 -8.6012346630E+001 -4.3650076398E+001 +2.6973323313E+001 -9.3932348748E+001 -7.3628130514E+001 -1.8354723609E+001 -1.7188345297E+002
8922500000.000 -1.1603234093E+001 -8.6279927646E+001 -4.3548047376E+001 -7.4880286260E+000 -8.0505930326E+001 +3.4414839115E+001 -1.7988411143E+001 -1.6621354169E+002
9055000000.000 -1.1518589519E+001 -8.6576690631E+001 -4.3569313957E+001 -4.0799065867E+001 -8.7591636168E+001 +6.9337088276E+001 -1.8464912732E+001 -1.5862374165E+002
9187500000.000 -1.1454058230E+001 -8.6831229336E+001 -4.3634372434E+001 -7.5418511270E+001 -9.7880330333E+001 +1.7083046352E+002 -1.8392430405E+001 -1.4664443785E+002
9320000000.000 -1.1402793213E+001 -8.7441995058E+001 -4.3513006695E+001 -1.0975558042E+002 -8.3860908366E+001 +9.2652929750E+000 -1.8222041215E+001 -1.4002521954E+002
9452500000.000 -1.1342005809E+001 -8.7773096328E+001 -4.3557396535E+001 -1.4377204501E+002 -8.8801923397E+001 +1.1306810809E+002 -1.8847764831E+001 -1.3089133588E+002
9585000000.000 -1.1269044007E+001 -8.8163118276E+001 -4.3548804386E+001 -1.7770758262E+002 -8.5279483569E+001 +1.6324237441E+002 -1.8780133162E+001 -1.1869579877E+002
9717500000.000 -1.1168469235E+001 -8.9000517320E+001 -4.3607829761E+001 +1.4805274744E+002 -8.8330307754E+001 +7.3673632369E+001 -1.8830258428E+001 -1.1161162915E+002
9850000000.000 -1.1148514192E+001 -8.9608714754E+001 -4.3479253928E+001 +1.1484862550E+002 -8.7752555281E+001 +7.6541965106E+001 -1.9662734078E+001 -1.0087369537E+002
9982500000.000 -1.1065334649E+001 -8.9774968639E+001 -4.3577710282E+001 +7.9839582881E+001 -8.3973201080E+001 -1.4937979540E+002 -1.9652886736E+001 -8.7130148942E+001
10115000000.000 -1.0966722036E+001 -9.0401722091E+001 -4.3583376371E+001 +4.6476879814E+001 -9.3322139648E+001 -1.4779403243E+002 -1.9931021827E+001 -7.9888517156E+001
10247500000.000 -1.0923487183E+001 -9.1183882754E+001 -4.3497206418E+001 +1.2258870669E+001 -8.4458648099E+001 +1.2481920679E+002 -2.1141588226E+001 -6.6466250739E+001
10380000000.000 -1.0851141982E+001 -9.1427218832E+001 -4.3505369514E+001 -2.1531764620E+001 -9.1312186121E+001 +9.6379853897E+001 -2.0983807470E+001 -5.0578668305E+001
10512500000.000 -1.0766492477E+001 -9.2108243419E+001 -4.3565487205E+001 -5.6054047450E+001 -9.1260871763E+001 +2.4587501125E+001 -2.1462081550E+001 -4.3014414693E+001
10645000000.000 -1.0728485499E+001 -9.2818264227E+001 -4.3572276948E+001 -8.9861913317E+001 -9.5820785124E+001 +3.6084598705E+001 -2.2837360847E+001 -2.4401825538E+001
10777500000.000 -1.0662542982E+001 -9.3164437550E+001 -4.3519802468E+001 -1.2367984040E+002 -9.0147875914E+001 +1.0243832959E+002 -2.2128137481E+001 -6.5739425259E+000
10910000000.000 -1.0547897535E+001 -9.3600764330E+001 -4.3405563000E+001 -1.5777283632E+002 -8.3911218844E+001 -5.2142930732E+001 -2.2759920477E+001 +2.7820208806E+000
11042500000.000 -1.0441389305E+001 -9.4600828853E+001 -4.3603487325E+001 +1.6850752516E+002 -8.3295559269E+001 -3.0490200404E+000 -2.3470988264E+001 +2.6528610439E+001
11175000000.000 -1.0360016389E+001 -9.5072591454E+001 -4.3506220581E+001 +1.3368809014E+002 -8.2180318947E+001 +1.4133119416E+002 -2.2176949654E+001 +4.1850074850E+001
11307500000.000 -1.0301185543E+001 -9.5219305639E+001 -4.3436819085E+001 +9.9859288158E+001 -9.2623887708E+001 +8.1105809826E+001 -2.2705961395E+001 +5.1812600053E+001
11440000000.000 -1.0172248081E+001 -9.5754086818E+001 -4.3423957110E+001 +6.5791470169E+001 -8.4147115123E+001 -3.9324508781E+001 -2.2629070192E+001 +7.4760448687E+001
11572500000.000 -1.0066024161E+001 -9.5991945788E+001 -4.3480669501E+001 +3.1393602345E+001 -8.4194026744E+001 +1.0573252065E+002 -2.1147599097E+001 +8.6183270386E+001
11705000000.000 -1.0002014361E+001 -9.6309348655E+001 -4.3467598878E+001 -2.2731118186E+000 -9.4160832590E+001 -1.2667755751E+002 -2.1760029548E+001 +9.5761728906E+001
11837500000.000 -9.9193025049E+000 -9.6673832326E+001 -4.3388042333E+001 -3.6966749132E+001 -8.2769693540E+001 -4.1800074039E+001 -2.1165005410E+001 +1.1814688039E+002
11970000000.000 -9.8801869498E+000 -9.6761768909E+001 -4.3430659573E+001 -7.0767368581E+001 -9.8185678331E+001 +8.4787929439E+001 -1.9826142024E+001 +1.2456711167E+002
12102500000.000 -9.8026456518E+000 -9.6625210358E+001 -4.3441857129E+001 -1.0582547734E+002 -8.5851101288E+001 -2.2063390751E+001 -2.0748226519E+001 +1.3439524210E+002
12235000000.000 -9.7715285877E+000 -9.7513141603E+001 -4.3447986295E+001 -1.3942492939E+002 -9.2927349863E+001 +1.6878370618E+002 -1.9775913822E+001 +1.5354639868E+002
12367500000.000 -9.7544177389E+000 -9.7338364011E+001 -4.3585509669E+001 -1.7358572590E+002 -8.1460693900E+001 +5.6906683562E+001 -1.8888234822E+001 +1.5682110535E+002
12500000000.000 -9.7059003725E+000 -9.7852674237E+001 -4.3439398853E+001 +1.5270240597E+002 -9.6223034883E+001 +1.1698062252E+002 -2.0059027477E+001 +1.6714228294E+002
12632500000.000 -9.6090020443E+000 -9.8253447504E+001 -4.3566159879E+001 +1.1800573352E+002 -1.1740770865E+002 -8.8198263941E+001 -1.9099385895E+001 -1.7394159243E+002
12765000000.000 -9.6138342338E+000 -9.8597583654E+001 -4.3505723004E+001 +8.3971724342E+001 -8.2922138406E+001 -2.5436766694E+000 -1.8489296349E+001 -1.7246604422E+002
12897500000.000 -9.6108694756E+000 -9.8915592661E+001 -4.3553194034E+001 +4.9541684089E+001 -7.9406357560E+001 +1.2786466837E+002 -2.0145991262E+001 -1.6013102267E+002
13030000000.000 -9.5422148356E+000 -9.9065207759E+001 -4.3598389864E+001 +1.5886617914E+001 -8.4253755629E+001 -1.0875547669E+002 -1.8755777840E+001 -1.4238082904E+002
13162500000.000 -9.4737315942E+000 -9.9417832270E+001 -4.3530344322E+001 -1.8409653247E+001 -9.0312704133E+001 +2.4642580975E+001 -1.8545352967E+001 -1.4291529087E+002
13295000000.000 -9.4256329336E+000 -9.9829892335E+001 -4.3567685734E+001 -5.2649315081E+001 -8.8525519254E+001 +1.0741722486E+002 -2.0009416916E+001 -1.2874318628E+002
13427500000.000 -9.4287514328E+000 -1.0043566645E+002 -4.3459857127E+001 -8.6716570580E+001 -8.4638327334E+001 -1.0593289328E+002 -1.8711865141E+001 -1.1465168741E+002
13560000000.000 -9.4238582148E+000 -1.0035344240E+002 -4.3660632097E+001 -1.2127441003E+002 -8.4845078203E+001 +4.4433151227E+001 -1.8896422310E+001 -1.1582557524E+002
13692500000.000 -9.3233091061E+000 -1.0046176629E+002 -4.3696237819E+001 -1.5489924407E+002 -8.0255995865E+001 +6.7923455974E+001 -2.0775294408E+001 -1.0228386129E+002
13825000000.000 -9.2705806865E+000 -1.0123365846E+002 -4.3673210186E+001 +1.7085989781E+002 -8.5396824066E+001 -1.4002961090E+002 -1.9618783666E+001 -8.8008197285E+001
13957500000.000 -9.2851966534E+000 -1.0178033716E+002 -4.3550821153E+001 +1.3649898400E+002 -8.0759650624E+001 -6.3659976092E+001 -2.0203110030E+001 -9.0803242884E+001
14090000000.000 -9.2469271242E+000 -1.0187024873E+002 -4.3508369696E+001 +1.0191500015E+002 -8.2055323450E+001 -1.1079501100E+002 -2.2528229943E+001 -7.3734882781E+001
14222500000.000 -9.1377402925E+000 -1.0207290147E+002 -4.3569408615E+001 +6.6834143899E+001 -9.0933040237E+001 +1.1532732009E+002 -2.1174679334E+001 -5.9827133944E+001
14355000000.000 -9.0957701558E+000 -1.0276119982E+002 -4.3676592153E+001 +3.3731142665E+001 -8.1941746664E+001 -1.4627217798E+002 -2.2309832177E+001 -6.3749932797E+001
14487500000.000 -9.0668840834E+000 -1.0311298480E+002 -4.3635615893E+001 -1.2042134965E+000 -7.8477946731E+001 +6.2828493130E+001 -2.5303942337E+001 -4.1036357335E+001
14620000000.000 -8.9817711264E+000 -1.0305101207E+002 -4.3851429558E+001 -3.5100993812E+001 -8.2270495003E+001 -1.6764347961E+002 -2.3198009307E+001 -2.8042016538E+001
14752500000.000 -8.8438461856E+000 -1.0351794828E+002 -4.3656614960E+001 -7.0736471373E+001 -8.8346727598E+001 +1.6497782748E+002 -2.5258691179E+001 -3.6106271447E+001
14885000000.000 -8.8068438826E+000 -1.0381648311E+002 -4.3688450809E+001 -1.0336346999E+002 -8.2393463913E+001 -7.2867710914E+001 -2.8503572862E+001 +1.6932362586E+000
15017500000.000 -8.7923677147E+000 -1.0364938380E+002 -4.3947069266E+001 -1.3917440435E+002 -8.4235851920E+001 -3.1285962721E+001 -2.5282144384E+001 +8.0261926148E+000
15150000000.000 -8.6615877303E+000 -1.0346835679E+002 -4.3952150356E+001 -1.7255290409E+002 -8.3217207515E+001 +1.6386097489E+002 -2.9072042640E+001 -1.4349680286E+000
15282500000.000 -8.5834476481E+000 -1.0354350997E+002 -4.3985842186E+001 +1.5383417904E+002 -7.5861858647E+001 -1.0732834792E+001 -3.0581314447E+001 +5.7484456204E+001
