!  2-Port S-parameters saved by WinCal
! VAR MeasName=S-Parameters (CALIBRATED_DATA) read from VNA (C)
! VAR MeasDate=10/16/2015 1:57:32 PM
! VAR NAME=M6082_13_17_2_2_20C_10.4mA_-17.5dBm
! VAR FILENAME=M6082_13_17_2_2_20C_10.4mA_-17.5dBm.S2P
! VAR DATE=10/16/2015 1:57:32 PM
! VAR PHYS_PORTS=2,1
! VAR ObjTypeName=DATASET
! VAR IndexType=Frequency
!
# Hz S DB R 50
45000000.000 -2.0012399553E+001 -1.7996716825E+002 -4.2659679490E+001 +1.0697204367E+002 -6.3600353989E+001 -3.0448247171E+001 -3.0883020670E+001 +3.1960640439E+000
177500000.000 -2.0102828328E+001 -1.7715681246E+002 -4.3713297961E+001 +6.9296362662E+001 -7.5750562261E+001 +9.5191822432E+001 -3.2697575838E+001 +4.6195190592E+001
310000000.000 -2.0104087315E+001 -1.7436578270E+002 -4.3550730993E+001 +3.9646843573E+001 -9.2298448336E+001 -9.1435832628E+001 -2.3325307550E+001 +6.4639798350E+001
442500000.000 -2.0072232484E+001 -1.7162398115E+002 -4.2757888311E+001 +1.5182961608E+000 -9.3279520678E+001 -5.0353115160E+000 -2.2379603169E+001 +1.7325902159E+001
575000000.000 -1.9978214674E+001 -1.6854768672E+002 -4.3153201017E+001 -3.5236091400E+001 -8.9466591127E+001 +1.0571302980E+002 -3.0585539296E+001 +2.2647875559E+001
707500000.000 -1.9862741876E+001 -1.6609942193E+002 -4.3569893458E+001 -6.8715888745E+001 -8.9845882360E+001 -1.1182603628E+002 -3.4527258831E+001 +8.3473424741E+001
840000000.000 -1.9764256938E+001 -1.6313389016E+002 -4.3477184850E+001 -1.0293410957E+002 -8.8372658216E+001 -2.7482376105E+001 -2.9709164574E+001 +1.2734179827E+002
972500000.000 -1.9632415735E+001 -1.6040621267E+002 -4.3536740395E+001 -1.3670273354E+002 -8.2982128595E+001 +1.3087542723E+002 -2.5945273118E+001 +1.3534167154E+002
1105000000.000 -1.9428744956E+001 -1.5787556101E+002 -4.3820377622E+001 -1.7100521302E+002 -7.9190291950E+001 -1.4767555445E+002 -2.4357527904E+001 +1.4075249829E+002
1237500000.000 -1.9239774940E+001 -1.5565017858E+002 -4.3760679610E+001 +1.5556510930E+002 -8.4639297965E+001 -5.2552958251E+001 -2.3403266282E+001 +1.4998776200E+002
1370000000.000 -1.9031664151E+001 -1.5358795871E+002 -4.3627494348E+001 +1.2140164173E+002 -8.4833689803E+001 +8.6829567913E+001 -2.2072787713E+001 +1.5994506370E+002
1502500000.000 -1.8837483602E+001 -1.5151252259E+002 -4.3804143490E+001 +8.7357357114E+001 -8.2612102408E+001 -1.3434961145E+002 -2.0868384448E+001 +1.6636681634E+002
1635000000.000 -1.8624234672E+001 -1.4916869461E+002 -4.3736257288E+001 +5.4056782867E+001 -9.4589787272E+001 -1.6707038792E+002 -2.0023050650E+001 +1.7327428785E+002
1767500000.000 -1.8371149189E+001 -1.4735426327E+002 -4.3672858711E+001 +1.9900808859E+001 -8.7880442206E+001 +5.7931555557E+001 -1.9019859001E+001 +1.7851403355E+002
1900000000.000 -1.8194735030E+001 -1.4576480012E+002 -4.3869084357E+001 -1.4383831186E+001 -8.1387219616E+001 -1.6286855116E+002 -1.8869375251E+001 -1.7826313298E+002
2032500000.000 -1.7971908049E+001 -1.4422836137E+002 -4.3827502588E+001 -4.8563696034E+001 -9.3876429943E+001 -1.4272880854E+002 -1.8691177847E+001 -1.6786861023E+002
2165000000.000 -1.7733747461E+001 -1.4236129235E+002 -4.3987174774E+001 -8.2071067662E+001 -8.1065837207E+001 +2.6321158162E+001 -1.7740490274E+001 -1.6093627229E+002
2297500000.000 -1.7529241208E+001 -1.4105818666E+002 -4.3885901113E+001 -1.1617707761E+002 -7.8676156370E+001 +1.3337859745E+002 -1.7242719349E+001 -1.5710645145E+002
2430000000.000 -1.7316749691E+001 -1.3976354745E+002 -4.3843866043E+001 -1.5040466749E+002 -8.2049310463E+001 +8.1319173722E+001 -1.6952126348E+001 -1.5283346571E+002
2562500000.000 -1.7069154366E+001 -1.3841762338E+002 -4.4287572786E+001 +1.7673985350E+002 -8.6887394683E+001 +1.2971361198E-001 -1.6841037586E+001 -1.5045222952E+002
2695000000.000 -1.6830818206E+001 -1.3788442832E+002 -4.4096229453E+001 +1.4131762722E+002 -7.6842512317E+001 -1.5110365122E+002 -1.7372537723E+001 -1.4716287723E+002
2827500000.000 -1.6651366527E+001 -1.3743713980E+002 -4.4214638126E+001 +1.0796896858E+002 -9.0602278838E+001 +5.0659183748E+001 -1.7844369228E+001 -1.4031932033E+002
2960000000.000 -1.6463630248E+001 -1.3634451197E+002 -4.4244567224E+001 +7.3570999769E+001 -8.6018403661E+001 +9.9051169251E+001 -1.8146324759E+001 -1.3541075567E+002
3092500000.000 -1.6174529124E+001 -1.3541787589E+002 -4.4018097986E+001 +3.9260556335E+001 -7.6982967941E+001 +1.2638850534E+002 -1.9078850914E+001 -1.2931955817E+002
3225000000.000 -1.5903010647E+001 -1.3512150359E+002 -4.4120175084E+001 +5.9928048700E+000 -7.6447299941E+001 -1.2078186578E+002 -1.9593515873E+001 -1.1976143830E+002
3357500000.000 -1.5743933739E+001 -1.3481063697E+002 -4.4436342046E+001 -2.7212583107E+001 -7.7553961691E+001 -1.2391500185E+001 -1.9957806551E+001 -1.1428536578E+002
3490000000.000 -1.5498832441E+001 -1.3381711285E+002 -4.4281931380E+001 -6.1376153720E+001 -8.1468490954E+001 +1.6726601489E+001 -2.1137636939E+001 -1.0868707384E+002
3622500000.000 -1.5233669376E+001 -1.3308549378E+002 -4.4424923298E+001 -9.3979678291E+001 -8.5027755399E+001 -9.8364888911E+001 -2.1946406094E+001 -9.8152146480E+001
3755000000.000 -1.4968463634E+001 -1.3265262927E+002 -4.4112279038E+001 -1.2833818116E+002 -8.1724789893E+001 +6.1582133794E+000 -2.2703626866E+001 -9.4698721253E+001
3887500000.000 -1.4771204851E+001 -1.3215627913E+002 -4.4006781111E+001 -1.6253804706E+002 -7.9268804745E+001 +3.0733254226E+001 -2.5034739217E+001 -8.7874715125E+001
4020000000.000 -1.4582791147E+001 -1.3165824929E+002 -4.4086209970E+001 +1.6291077516E+002 -7.8658102494E+001 -1.5051621940E+002 -2.6662240321E+001 -7.3195719895E+001
4152500000.000 -1.4361096788E+001 -1.3089781477E+002 -4.4236031466E+001 +1.2788083713E+002 -8.1066832753E+001 -2.6980582652E+001 -2.8851812079E+001 -6.4745854865E+001
4285000000.000 -1.4137355493E+001 -1.3049096620E+002 -4.4267427345E+001 +9.5328246300E+001 -8.4184699268E+001 +6.0798388442E+001 -3.3362404998E+001 -3.7552921336E+001
4417500000.000 -1.3932365467E+001 -1.3026788867E+002 -4.4161005976E+001 +6.1684904007E+001 -7.8503258922E+001 -1.6684702391E+002 -3.1718540010E+001 +7.9353228292E+000
4550000000.000 -1.3779275844E+001 -1.2977166066E+002 -4.4427665043E+001 +2.7580163827E+001 -8.8953320515E+001 -1.1395593866E+001 -3.0316508639E+001 +1.8037693570E+001
4682500000.000 -1.3572463485E+001 -1.2914090182E+002 -4.4657370504E+001 -6.8139299742E+000 -1.0074437850E+002 +1.1633105950E+002 -2.9643014354E+001 +3.8784641105E+001
4815000000.000 -1.3364099909E+001 -1.2884742801E+002 -4.4527066237E+001 -3.8958724423E+001 -9.6443189253E+001 +4.0991940760E+001 -2.7629437090E+001 +4.1180481292E+001
4947500000.000 -1.3219816364E+001 -1.2847903251E+002 -4.4480553320E+001 -7.1630897554E+001 -1.0851964233E+002 -8.2041205647E+001 -2.9356378150E+001 +3.5666749848E+001
5080000000.000 -1.3063836070E+001 -1.2787705386E+002 -4.4295565326E+001 -1.0636969420E+002 -8.2329260385E+001 +3.6965346799E+001 -3.2199005944E+001 +5.6527225128E+001
5212500000.000 -1.2879106140E+001 -1.2750613180E+002 -4.4142523047E+001 -1.4034405901E+002 -8.6285292018E+001 +1.3512914596E+002 -3.1542456435E+001 +6.9420767204E+001
5345000000.000 -1.2730356023E+001 -1.2741809343E+002 -4.4268443663E+001 -1.7362060021E+002 -9.1725082083E+001 -1.3957751899E+002 -3.5321032514E+001 +7.0961089740E+001
5477500000.000 -1.2638940985E+001 -1.2695118999E+002 -4.4174312806E+001 +1.5216841509E+002 -8.5508334877E+001 +1.0523199970E+002 -3.7301707932E+001 +1.3102919133E+002
5610000000.000 -1.2477009132E+001 -1.2644667156E+002 -4.4237129064E+001 +1.1769646862E+002 -8.2682200793E+001 +3.5448981306E+001 -3.3686483630E+001 +1.3544734422E+002
5742500000.000 -1.2333451607E+001 -1.2646120445E+002 -4.4158532869E+001 +8.3889664127E+001 -8.2235679267E+001 -1.3532994445E+002 -3.7866760550E+001 +1.5232238221E+002
5875000000.000 -1.2252471147E+001 -1.2658969338E+002 -4.4123592602E+001 +4.9743137601E+001 -8.9070520249E+001 -1.0678347363E+002 -3.3788989525E+001 -1.7077364239E+002
6007500000.000 -1.2160074225E+001 -1.2626613103E+002 -4.4122058038E+001 +1.5605795161E+001 -8.3084312396E+001 +9.6259504883E+001 -3.2736148298E+001 +1.7931571298E+002
6140000000.000 -1.2000640569E+001 -1.2600280593E+002 -4.4186886099E+001 -1.9066638211E+001 -8.4433091603E+001 -1.6939301373E+002 -3.6169349454E+001 -1.7013600012E+002
6272500000.000 -1.1839238218E+001 -1.2637754765E+002 -4.4183928932E+001 -5.3333990047E+001 -9.0966270053E+001 -6.1992523796E+001 -3.3953373694E+001 -1.4454940020E+002
6405000000.000 -1.1769224362E+001 -1.2674890124E+002 -4.4279610014E+001 -8.7051845110E+001 -8.2967194655E+001 +5.7540441183E+001 -3.3836168985E+001 -1.6229167382E+002
6537500000.000 -1.1675327419E+001 -1.2639848710E+002 -4.4199377950E+001 -1.2133190155E+002 -9.0320761777E+001 +1.0977442897E+002 -4.0167908116E+001 -1.6147344566E+002
6670000000.000 -1.1482117987E+001 -1.2615406148E+002 -4.4179930209E+001 -1.5558147237E+002 -8.6128116496E+001 -1.5846785787E+002 -3.9484041436E+001 -1.3790122344E+002
6802500000.000 -1.1310018383E+001 -1.2665418919E+002 -4.4342754244E+001 +1.7042660157E+002 -8.6144368468E+001 -3.1409189270E+000 -3.8818710043E+001 +1.7886482298E+002
6935000000.000 -1.1250797129E+001 -1.2701804743E+002 -4.4249027902E+001 +1.3676948922E+002 -8.8771599676E+001 +6.4260422661E+001 -3.8534166723E+001 +1.2277280400E+002
7067500000.000 -1.1161510406E+001 -1.2655387339E+002 -4.4207267448E+001 +1.0260937552E+002 -9.6201796565E+001 +1.3382787761E+002 -3.8998586019E+001 +1.1456021248E+002
7200000000.000 -1.0960615947E+001 -1.2645147358E+002 -4.4349870251E+001 +6.9018158034E+001 -8.5344206836E+001 +1.5489388090E+002 -3.2848484068E+001 +1.3177755233E+002
7332500000.000 -1.0818389147E+001 -1.2694402050E+002 -4.4341710433E+001 +3.4362737827E+001 -8.8314710304E+001 +9.9482885845E+001 -2.9058959560E+001 +1.1929601261E+002
7465000000.000 -1.0738967941E+001 -1.2701890125E+002 -4.4256852709E+001 +8.9649761264E-001 -8.4924011166E+001 -1.3192694386E+002 -2.8651038163E+001 +1.2246029995E+002
7597500000.000 -1.0606684862E+001 -1.2672107084E+002 -4.4366781319E+001 -3.2804973208E+001 -9.3743948940E+001 -2.8182922729E+001 -2.6134499621E+001 +1.3753444490E+002
7730000000.000 -1.0431533188E+001 -1.2665808695E+002 -4.4646653893E+001 -6.6052904013E+001 -9.4912186491E+001 -1.0299728859E+002 -2.3728861702E+001 +1.3788226405E+002
7862500000.000 -1.0317146786E+001 -1.2674544902E+002 -4.4445976500E+001 -1.0138591678E+002 -8.1622989993E+001 -1.7294774664E+002 -2.3279361472E+001 +1.4149877921E+002
7995000000.000 -1.0237922912E+001 -1.2659654986E+002 -4.4626760516E+001 -1.3444218227E+002 -9.3321932696E+001 +8.6180495425E+001 -2.1834921219E+001 +1.5423788242E+002
8127500000.000 -1.0086548959E+001 -1.2619469133E+002 -4.4561771756E+001 -1.6885494701E+002 -8.6483353004E+001 +9.7327459291E+001 -2.0025267686E+001 +1.5648710042E+002
8260000000.000 -9.9597613731E+000 -1.2632721720E+002 -4.4541500189E+001 +1.5816521458E+002 -1.0029667842E+002 -7.0563640501E+001 -1.9865543986E+001 +1.6018476268E+002
8392500000.000 -9.8838792347E+000 -1.2615733832E+002 -4.4362124583E+001 +1.2342650667E+002 -8.8455549335E+001 -1.0818659184E+002 -1.9071603630E+001 +1.7037590692E+002
8525000000.000 -9.7990867923E+000 -1.2580492447E+002 -4.4529900258E+001 +9.0080542653E+001 -8.8284498972E+001 +3.0480151086E+001 -1.8213702367E+001 +1.7291426905E+002
8657500000.000 -9.6857586836E+000 -1.2558510267E+002 -4.4692517184E+001 +5.6250104428E+001 -8.7023543418E+001 -1.3119246081E+002 -1.8571113205E+001 +1.7794704739E+002
8790000000.000 -9.5782570489E+000 -1.2556982395E+002 -4.4448954327E+001 +2.1927994702E+001 -9.1983327928E+001 -8.7486685737E+001 -1.8352575475E+001 -1.7175943626E+002
8922500000.000 -9.5377842581E+000 -1.2559527188E+002 -4.4593585990E+001 -1.1638175061E+001 -8.6343477362E+001 -3.1315940544E+001 -1.7989889357E+001 -1.6603609699E+002
9055000000.000 -9.4555739892E+000 -1.2534026097E+002 -4.4473759871E+001 -4.5517358518E+001 -8.4402264089E+001 +1.4519694621E+002 -1.8457615755E+001 -1.5841642346E+002
9187500000.000 -9.3754375679E+000 -1.2531724953E+002 -4.4464171493E+001 -8.0065711883E+001 -8.5264889736E+001 -1.6046489159E+002 -1.8384942897E+001 -1.4634617268E+002
9320000000.000 -9.2944032175E+000 -1.2572227954E+002 -4.4502734244E+001 -1.1404354643E+002 -8.4900984879E+001 +1.8319247877E+001 -1.8210517007E+001 -1.3974713855E+002
9452500000.000 -9.2452847953E+000 -1.2576779192E+002 -4.4567527761E+001 -1.4837508534E+002 -7.9756679950E+001 +9.4339808231E+001 -1.8853061967E+001 -1.3068376863E+002
9585000000.000 -9.1709293005E+000 -1.2575356096E+002 -4.4563620498E+001 +1.7817696907E+002 -8.6030512518E+001 -1.6821776470E+002 -1.8801249672E+001 -1.1832783499E+002
9717500000.000 -9.0458866477E+000 -1.2595780456E+002 -4.4503134700E+001 +1.4360728849E+002 -9.5447681693E+001 -1.2148528032E+002 -1.8818599383E+001 -1.1116940911E+002
9850000000.000 -8.9898706828E+000 -1.2654108760E+002 -4.4413585532E+001 +1.0883130401E+002 -8.3635598135E+001 +6.8484115291E+001 -1.9661699702E+001 -1.0067337554E+002
9982500000.000 -8.9359725889E+000 -1.2636994631E+002 -4.4683931056E+001 +7.6187025554E+001 -8.7763044255E+001 -1.7195216452E+002 -1.9705557949E+001 -8.6545574720E+001
10115000000.000 -8.8324430190E+000 -1.2640729139E+002 -4.4456475490E+001 +4.1375253954E+001 -8.2101394824E+001 -4.0048536420E+001 -1.9919107033E+001 -7.9153812022E+001
10247500000.000 -8.7249394075E+000 -1.2686178115E+002 -4.4731332331E+001 +7.8723000656E+000 -7.7279792301E+001 +6.2771239992E+001 -2.1147084980E+001 -6.6096265257E+001
10380000000.000 -8.6753798727E+000 -1.2706263618E+002 -4.4546838622E+001 -2.6186618283E+001 -9.2506852202E+001 +1.2961296158E+002 -2.1058888256E+001 -5.0039842398E+001
10512500000.000 -8.6042280886E+000 -1.2714628864E+002 -4.4611614067E+001 -6.0821301117E+001 -8.3348939478E+001 -7.9148020215E+001 -2.1505200643E+001 -4.2001895572E+001
10645000000.000 -8.5206576141E+000 -1.2726022986E+002 -4.4821409625E+001 -9.3629180933E+001 -8.4156784769E+001 +5.3272014528E+001 -2.2820840240E+001 -2.3994424364E+001
10777500000.000 -8.4246852315E+000 -1.2747410541E+002 -4.4577240302E+001 -1.2809861659E+002 -8.9157708472E+001 +4.7336488830E+001 -2.2206621953E+001 -5.9988290350E+000
10910000000.000 -8.3431737702E+000 -1.2766860352E+002 -4.4536126861E+001 -1.6243386387E+002 -8.1883690730E+001 -7.9807559896E+001 -2.2791353376E+001 +4.0965686289E+000
11042500000.000 -8.2517664934E+000 -1.2788271622E+002 -4.4552764470E+001 +1.6437597256E+002 -8.8338665009E+001 +3.1685108570E+001 -2.3454546745E+001 +2.7476567480E+001
11175000000.000 -8.1607800197E+000 -1.2786321135E+002 -4.4611434066E+001 +1.2935527326E+002 -9.3212069747E+001 +8.5724181651E+001 -2.2256210875E+001 +4.2652764650E+001
11307500000.000 -8.1006970013E+000 -1.2788258290E+002 -4.4579659526E+001 +9.6431436347E+001 -8.6296706367E+001 -1.4611437824E+002 -2.2745084739E+001 +5.3130701961E+001
11440000000.000 -7.9993488425E+000 -1.2808914656E+002 -4.4697234096E+001 +6.2630220896E+001 -8.6218073035E+001 -6.1352596457E+001 -2.2579125768E+001 +7.5661999838E+001
11572500000.000 -7.9253620718E+000 -1.2788281295E+002 -4.4597147807E+001 +2.8524580378E+001 -8.0870804680E+001 +1.3577417508E+002 -2.1168500582E+001 +8.6890489114E+001
11705000000.000 -7.8572520422E+000 -1.2789866703E+002 -4.4720014605E+001 -7.0080256180E+000 -8.6777612361E+001 -1.7853269162E+002 -2.1777932235E+001 +9.6885488284E+001
11837500000.000 -7.7764710204E+000 -1.2798761158E+002 -4.4734577294E+001 -3.9995621157E+001 -9.5858460281E+001 -1.5214457471E+002 -2.1129392691E+001 +1.1914405842E+002
11970000000.000 -7.7500165663E+000 -1.2799232193E+002 -4.4645969956E+001 -7.4534812782E+001 -8.8187333314E+001 +1.1792859965E+002 -1.9820333530E+001 +1.2537665462E+002
12102500000.000 -7.7084658309E+000 -1.2768240166E+002 -4.4696614626E+001 -1.0912930122E+002 -8.0995013535E+001 -1.5357517211E+002 -2.0752203070E+001 +1.3525111088E+002
12235000000.000 -7.6278424532E+000 -1.2810416850E+002 -4.4787130773E+001 -1.4328370362E+002 -8.8427329014E+001 -9.8162757233E+001 -1.9773145814E+001 +1.5444153816E+002
12367500000.000 -7.6231841621E+000 -1.2802400280E+002 -4.4745463884E+001 -1.7575219074E+002 -8.0585072577E+001 +5.8780271950E+000 -1.8884690795E+001 +1.5780200598E+002
12500000000.000 -7.5792600386E+000 -1.2831116531E+002 -4.4785305072E+001 +1.4917361781E+002 -8.4442706435E+001 +9.9187854208E+001 -2.0055739677E+001 +1.6796270277E+002
12632500000.000 -7.5143123889E+000 -1.2821484426E+002 -4.4866118069E+001 +1.1508755815E+002 -8.3824199781E+001 -3.0296287372E+001 -1.9166667707E+001 -1.7314886714E+002
12765000000.000 -7.4832158233E+000 -1.2839094188E+002 -4.4905076768E+001 +8.1855965583E+001 -9.7358705925E+001 +1.1348859771E+002 -1.8519545737E+001 -1.7152008927E+002
12897500000.000 -7.4650562680E+000 -1.2863110748E+002 -4.4909494344E+001 +4.6678037598E+001 -9.2303475104E+001 +7.7482406920E+001 -2.0132603145E+001 -1.5957434816E+002
13030000000.000 -7.4295847353E+000 -1.2871569120E+002 -4.4768005115E+001 +1.2429270499E+001 -9.3593223711E+001 +5.1604835497E+001 -1.8837728964E+001 -1.4165699879E+002
13162500000.000 -7.3696474401E+000 -1.2877941749E+002 -4.4886138810E+001 -2.0894466817E+001 -8.2877866377E+001 -2.6299148552E+001 -1.8636085045E+001 -1.4177751330E+002
13295000000.000 -7.3222730929E+000 -1.2891739406E+002 -4.4919689685E+001 -5.5150341028E+001 -8.5015134614E+001 -2.4326738041E+001 -2.0025665837E+001 -1.2795111958E+002
13427500000.000 -7.2896248670E+000 -1.2934593164E+002 -4.4853361509E+001 -8.8731586666E+001 -8.0433448571E+001 -1.6728891680E+002 -1.8830970527E+001 -1.1430893012E+002
13560000000.000 -7.2807386315E+000 -1.2924830118E+002 -4.5083137010E+001 -1.2334383463E+002 -9.2912708184E+001 -1.7858122591E+001 -1.9021578970E+001 -1.1488016146E+002
13692500000.000 -7.2102561191E+000 -1.2923508926E+002 -4.4918015945E+001 -1.5702954236E+002 -8.4242602322E+001 +6.0717665518E+001 -2.0809835393E+001 -1.0146803093E+002
13825000000.000 -7.1356508485E+000 -1.2955433683E+002 -4.4998280296E+001 +1.6890440771E+002 -7.7096888506E+001 -1.1015830087E+002 -1.9706361007E+001 -8.7757528008E+001
13957500000.000 -7.1252719311E+000 -1.2989785972E+002 -4.5004444225E+001 +1.3495703548E+002 -9.0868185693E+001 +9.2770305924E+001 -2.0366513670E+001 -9.0259905060E+001
14090000000.000 -7.0998824155E+000 -1.2982002039E+002 -4.4981438585E+001 +1.0095529095E+002 -8.5282492688E+001 -1.4056092411E+002 -2.2648950708E+001 -7.2884409390E+001
14222500000.000 -7.0298660599E+000 -1.2961068824E+002 -4.4971558296E+001 +6.6415125937E+001 -8.4747845037E+001 -1.4273005788E+002 -2.1270033730E+001 -5.9532146303E+001
14355000000.000 -6.9575757575E+000 -1.3001779149E+002 -4.5100302229E+001 +3.1831118428E+001 -8.3339818866E+001 -4.7430521762E+001 -2.2481857221E+001 -6.3732819675E+001
14487500000.000 -6.9244762515E+000 -1.3017449012E+002 -4.4822906923E+001 -1.7425534512E+000 -7.9315247928E+001 +6.2458668539E+000 -2.5511669978E+001 -4.0450603703E+001
14620000000.000 -6.8969108181E+000 -1.2996331889E+002 -4.5046982547E+001 -3.7009113001E+001 -8.6511504727E+001 +3.4511314686E+001 -2.3265871596E+001 -2.7449860486E+001
14752500000.000 -6.7905208778E+000 -1.2988238389E+002 -4.5125079736E+001 -6.9820659959E+001 -9.4140766029E+001 -1.1520228099E+002 -2.5332762377E+001 -3.6693818468E+001
14885000000.000 -6.7333750965E+000 -1.2999148365E+002 -4.5282828188E+001 -1.0374347342E+002 -9.9295497059E+001 +6.3625288584E+001 -2.8951054277E+001 +2.2608643179E+000
15017500000.000 -6.7039416420E+000 -1.2992521818E+002 -4.5006517819E+001 -1.3994479737E+002 -7.9417964995E+001 +9.9683171637E+001 -2.5352972159E+001 +9.1445572093E+000
15150000000.000 -6.6338880487E+000 -1.2962634067E+002 -4.5260896401E+001 -1.7306655777E+002 -8.6465359460E+001 +1.3275954859E+002 -2.9041886646E+001 -2.5231614233E+000
15282500000.000 -6.5810179908E+000 -1.2946695512E+002 -4.5420003671E+001 +1.5344977132E+002 -7.8593253967E+001 -2.3486767694E+001 -3.1137290099E+001 +5.7821119017E+001
