!  2-Port S-parameters saved by WinCal
! VAR MeasName=S-Parameters (CALIBRATED_DATA) read from VNA (C)
! VAR MeasDate=10/16/2015 10:57:27 AM
! VAR NAME=M6082_13_13_2_2_20C_4.8mA_-17.5dBm
! VAR FILENAME=M6082_13_13_2_2_20C_4.8mA_-17.5dBm_1_1.S2P
! VAR DATE=10/16/2015 10:57:27 AM
! VAR PHYS_PORTS=2,1
! VAR ObjTypeName=DATASET
! VAR IndexType=Frequency
!
# Hz S DB R 50
45000000.000 -1.2310101453E+001 -1.4067366999E-001 -4.2318073622E+001 +9.6078381900E+001 -5.6320128865E+001 +2.2477297359E+001 -3.1342843390E+001 +8.9139112006E+000
177500000.000 -1.2321150593E+001 -1.7446747623E+000 -4.3421506652E+001 +6.7880758238E+001 -7.1963271686E+001 +8.8304071753E+001 -3.2537719310E+001 +4.6222495421E+001
310000000.000 -1.2310992500E+001 -3.2736778306E+000 -4.3699216611E+001 +3.9295734132E+001 -8.2642120989E+001 -1.2239641076E+002 -2.3290265652E+001 +6.4285838421E+001
442500000.000 -1.2315468584E+001 -5.0341502142E+000 -4.2474674309E+001 +5.9213642086E-001 -8.5227756792E+001 -4.7717661546E+001 -2.2294817898E+001 +1.7710294205E+001
575000000.000 -1.2318557811E+001 -6.7528663762E+000 -4.2972723817E+001 -3.4946006337E+001 -8.3991569873E+001 -1.5305029744E+002 -3.0433302818E+001 +2.2628108161E+001
707500000.000 -1.2324444851E+001 -8.2808333121E+000 -4.3197457815E+001 -6.8644323295E+001 -8.3133017310E+001 -1.1824249023E+002 -3.4402900442E+001 +8.2312092362E+001
840000000.000 -1.2313162827E+001 -9.9419287265E+000 -4.3408290498E+001 -1.0237218074E+002 -8.2840695585E+001 -1.0077931290E+002 -2.9708685300E+001 +1.2697249250E+002
972500000.000 -1.2293802156E+001 -1.1452911263E+001 -4.3485370920E+001 -1.3619186659E+002 -8.8572178821E+001 -1.4909762424E+002 -2.5904870851E+001 +1.3494814863E+002
1105000000.000 -1.2297770585E+001 -1.3102336305E+001 -4.3484286440E+001 -1.7019589283E+002 -9.2619374702E+001 -1.3133078784E+002 -2.4357283794E+001 +1.4050869178E+002
1237500000.000 -1.2292135107E+001 -1.4563555967E+001 -4.3483088849E+001 +1.5573179393E+002 -8.2962921378E+001 +7.3288391053E+001 -2.3384340663E+001 +1.4979501396E+002
1370000000.000 -1.2278634614E+001 -1.6105591937E+001 -4.3473507011E+001 +1.2284908896E+002 -8.7509439005E+001 +8.8913053795E+001 -2.2054688083E+001 +1.5976447412E+002
1502500000.000 -1.2269522440E+001 -1.7622599145E+001 -4.3656074095E+001 +8.7549948249E+001 -8.4441289521E+001 +1.1827399849E+002 -2.0851772136E+001 +1.6617250151E+002
1635000000.000 -1.2222079539E+001 -1.9001220299E+001 -4.3621611499E+001 +5.4306668133E+001 -1.0470655951E+002 -1.7973395794E+002 -2.0018517283E+001 +1.7313443549E+002
1767500000.000 -1.2190504187E+001 -2.0670970575E+001 -4.3570004085E+001 +2.0490450255E+001 -8.3317957646E+001 +2.3696709288E+001 -1.9007927150E+001 +1.7834833248E+002
1900000000.000 -1.2168168439E+001 -2.2028747656E+001 -4.3532756121E+001 -1.3754603521E+001 -8.5062978887E+001 -1.3767873287E+002 -1.8855214716E+001 -1.7841545595E+002
2032500000.000 -1.2154819393E+001 -2.3315829085E+001 -4.3657304569E+001 -4.7732471048E+001 -8.5934374410E+001 -1.8643038672E+000 -1.8665421930E+001 -1.6802581225E+002
2165000000.000 -1.2087758861E+001 -2.4720381174E+001 -4.3769652583E+001 -8.1716937519E+001 -8.0595758071E+001 +5.0447951670E+000 -1.7737465762E+001 -1.6114264222E+002
2297500000.000 -1.2054775981E+001 -2.6042656968E+001 -4.3663370555E+001 -1.1562147856E+002 -7.9930240511E+001 -1.6972450782E+002 -1.7223859247E+001 -1.5717959258E+002
2430000000.000 -1.2040034322E+001 -2.7254669022E+001 -4.3837293380E+001 -1.4967397069E+002 -7.4651253434E+001 +6.0300088083E+000 -1.6908816257E+001 -1.5296930675E+002
2562500000.000 -1.1991996107E+001 -2.8538859752E+001 -4.3766655326E+001 +1.7726957876E+002 -7.6627542263E+001 -5.9670828957E+001 -1.6801753101E+001 -1.5067157601E+002
2695000000.000 -1.2007017246E+001 -2.9884218482E+001 -4.3664460779E+001 +1.4269392146E+002 -8.8457834127E+001 -1.5429306378E+002 -1.7343206231E+001 -1.4729127421E+002
2827500000.000 -1.2010761924E+001 -3.0851698527E+001 -4.3701289155E+001 +1.0923604651E+002 -7.7562250756E+001 +1.7451366225E+002 -1.7817605653E+001 -1.4038380193E+002
2960000000.000 -1.1965485663E+001 -3.1948057866E+001 -4.3642503192E+001 +7.4412494717E+001 -7.3541978128E+001 -1.1182958118E+001 -1.8112632599E+001 -1.3571014424E+002
3092500000.000 -1.1927332511E+001 -3.3488560290E+001 -4.3806278098E+001 +4.2064326554E+001 -7.9343601945E+001 +9.9872927991E+001 -1.9073802641E+001 -1.2959503122E+002
3225000000.000 -1.1947645357E+001 -3.4817574380E+001 -4.3787911681E+001 +7.6349928957E+000 -7.8208968679E+001 -1.0396210911E+002 -1.9577128445E+001 -1.1993725227E+002
3357500000.000 -1.1937712950E+001 -3.5822089539E+001 -4.3903712193E+001 -2.5858358309E+001 -7.8782430934E+001 +7.8251992652E+001 -1.9936276779E+001 -1.1459784161E+002
3490000000.000 -1.1872713613E+001 -3.7160066371E+001 -4.3731298383E+001 -5.9257636723E+001 -8.3202631273E+001 -1.2464203286E+001 -2.1111601585E+001 -1.0885992446E+002
3622500000.000 -1.1829465907E+001 -3.8604909643E+001 -4.3813592705E+001 -9.4418370777E+001 -7.7763465300E+001 -1.0326791698E+002 -2.1928862912E+001 -9.8284486028E+001
3755000000.000 -1.1798193966E+001 -3.9994534625E+001 -4.3814827337E+001 -1.2773929120E+002 -7.9144956016E+001 -4.5943809378E+001 -2.2675177301E+001 -9.4617677768E+001
3887500000.000 -1.1753943392E+001 -4.1202952805E+001 -4.3626606870E+001 -1.6072424347E+002 -8.0025994636E+001 +5.6977927411E+001 -2.4998342397E+001 -8.8025534707E+001
4020000000.000 -1.1719484781E+001 -4.2346907947E+001 -4.3590598855E+001 +1.6425035541E+002 -9.0964496865E+001 -8.2747519579E+001 -2.6666943392E+001 -7.3446893414E+001
4152500000.000 -1.1650767997E+001 -4.3550651266E+001 -4.3595881289E+001 +1.3085503829E+002 -7.6265774609E+001 -2.2190255061E+001 -2.8787241697E+001 -6.4530452572E+001
4285000000.000 -1.1593666790E+001 -4.4832074091E+001 -4.3648164494E+001 +9.6465091985E+001 -8.6700019615E+001 +1.0728311457E+002 -3.3167273947E+001 -3.8336108925E+001
4417500000.000 -1.1560022506E+001 -4.6071567727E+001 -4.3639587100E+001 +6.1975529040E+001 -7.6768292495E+001 -1.7344436396E+002 -3.1708157208E+001 +7.3866998515E+000
4550000000.000 -1.1497223885E+001 -4.7062983271E+001 -4.3714630540E+001 +2.8080250942E+001 -8.4958014076E+001 -1.8906778726E+001 -3.0197729527E+001 +1.7695375734E+001
4682500000.000 -1.1410323279E+001 -4.8268290505E+001 -4.3820840059E+001 -3.7161686347E+000 -9.3828794593E+001 -8.0503622175E+001 -2.9592361656E+001 +3.7666903395E+001
4815000000.000 -1.1362865692E+001 -4.9435540794E+001 -4.3746329292E+001 -3.7795129857E+001 -8.8981204555E+001 +1.6105442743E+002 -2.7590965489E+001 +4.0365534253E+001
4947500000.000 -1.1297445801E+001 -5.0275808481E+001 -4.3727267213E+001 -7.0701834515E+001 -9.0796719377E+001 -8.7133900352E+001 -2.9277000118E+001 +3.4606866399E+001
5080000000.000 -1.1196884490E+001 -5.1158569223E+001 -4.3611207648E+001 -1.0397147130E+002 -9.1844436314E+001 -3.5998071734E+001 -3.2178493531E+001 +5.5179156455E+001
5212500000.000 -1.1134826839E+001 -5.2247288055E+001 -4.3417395933E+001 -1.3837907051E+002 -9.8682702435E+001 +1.5155732336E+002 -3.1536958260E+001 +6.7926676486E+001
5345000000.000 -1.1099486409E+001 -5.3095273433E+001 -4.3326539227E+001 -1.7249750367E+002 -8.6410768960E+001 -1.0964226065E+002 -3.5265412274E+001 +6.8473913111E+001
5477500000.000 -1.1007639102E+001 -5.3598612215E+001 -4.3262742509E+001 +1.5399530263E+002 -8.3093903059E+001 -2.3100944629E+001 -3.7664105836E+001 +1.3012074416E+002
5610000000.000 -1.0923022264E+001 -5.4531661562E+001 -4.3179957980E+001 +1.1864819273E+002 -9.1359134261E+001 +3.8976606578E+001 -3.3820404055E+001 +1.3417864540E+002
5742500000.000 -1.0907267126E+001 -5.5381226691E+001 -4.3234360034E+001 +8.5023991113E+001 -8.8361374241E+001 +1.7043154909E+002 -3.8208139149E+001 +1.4912658943E+002
5875000000.000 -1.0890906138E+001 -5.5897021561E+001 -4.3088388306E+001 +5.0603750606E+001 -8.5840725889E+001 -9.3292553478E+001 -3.4113952094E+001 -1.7075618010E+002
6007500000.000 -1.0815415091E+001 -5.6512915504E+001 -4.3143575687E+001 +1.6044020415E+001 -8.4683051445E+001 +4.9725389496E+001 -3.2815147426E+001 +1.7865228133E+002
6140000000.000 -1.0751199521E+001 -5.7477135646E+001 -4.3093553692E+001 -1.8191931106E+001 -8.8410005268E+001 +1.4120018395E+002 -3.6466332948E+001 -1.7232494518E+002
6272500000.000 -1.0754850122E+001 -5.8583443466E+001 -4.3022216367E+001 -5.2321832490E+001 -8.2054949095E+001 -1.1909216304E+002 -3.4248019885E+001 -1.4450818241E+002
6405000000.000 -1.0762349974E+001 -5.9179109925E+001 -4.3013276041E+001 -8.6352783390E+001 -8.8358231698E+001 +1.9451811871E+001 -3.3901719791E+001 -1.6329582801E+002
6537500000.000 -1.0687628208E+001 -5.9662357054E+001 -4.3014740738E+001 -1.2104894751E+002 -8.5752766535E+001 -1.6861051378E+002 -4.0285211272E+001 -1.6469139588E+002
6670000000.000 -1.0585555790E+001 -6.0798033936E+001 -4.3085713272E+001 -1.5482947365E+002 -1.0837829173E+002 -1.4750840600E+002 -3.9934610074E+001 -1.4015415569E+002
6802500000.000 -1.0575103981E+001 -6.2030552603E+001 -4.3023288776E+001 +1.7082489858E+002 -8.3270447465E+001 -5.9482809457E+000 -3.8787930342E+001 +1.7704741050E+002
6935000000.000 -1.0590257879E+001 -6.2615775051E+001 -4.2951766652E+001 +1.3650900632E+002 -9.7789614658E+001 -5.4777337128E+001 -3.8153375309E+001 +1.2377338361E+002
7067500000.000 -1.0510862048E+001 -6.3046802179E+001 -4.2933291637E+001 +1.0259734578E+002 -9.8545491178E+001 -4.3029929568E+000 -3.8473963075E+001 +1.1561794728E+002
7200000000.000 -1.0423824874E+001 -6.4300895821E+001 -4.2912463591E+001 +6.8055637800E+001 -9.0865390187E+001 -5.2385147443E+001 -3.2636299571E+001 +1.3146578834E+002
7332500000.000 -1.0405469863E+001 -6.5414838455E+001 -4.2826676249E+001 +3.4333760194E+001 -8.5260051407E+001 +7.4800278296E+001 -2.9015598215E+001 +1.1958567148E+002
7465000000.000 -1.0382114756E+001 -6.6030177673E+001 -4.2739621088E+001 +7.4903786890E-003 -8.5486313548E+001 -1.0454251437E+002 -2.8588484256E+001 +1.2342772866E+002
7597500000.000 -1.0279186521E+001 -6.6880508419E+001 -4.2886548433E+001 -3.3494624112E+001 -9.1021967461E+001 +7.6875718796E-001 -2.6066502382E+001 +1.3774641213E+002
7730000000.000 -1.0199987882E+001 -6.7895466086E+001 -4.2822281613E+001 -6.8094326486E+001 -8.9281315596E+001 +1.4938071253E+002 -2.3704341988E+001 +1.3795828648E+002
7862500000.000 -1.0148791895E+001 -6.8640423326E+001 -4.2829215766E+001 -1.0233446652E+002 -8.6531100770E+001 +1.4959838266E+002 -2.3286893875E+001 +1.4193498454E+002
7995000000.000 -1.0081599032E+001 -6.9180686951E+001 -4.2769789496E+001 -1.3600723029E+002 -8.8113384044E+001 +8.3809171887E+001 -2.1804244373E+001 +1.5458280468E+002
8127500000.000 -9.9533869249E+000 -6.9997863566E+001 -4.2791524060E+001 -1.6992818110E+002 -9.3522152702E+001 +1.2758417958E+000 -2.0029620890E+001 +1.5642675568E+002
8260000000.000 -9.8915978353E+000 -7.0730957057E+001 -4.2627638719E+001 +1.5549393052E+002 -8.6138499568E+001 +8.9190785275E+001 -1.9897490202E+001 +1.6018445851E+002
8392500000.000 -9.8208883998E+000 -7.1188223382E+001 -4.2675977377E+001 +1.2183316515E+002 -8.7641873508E+001 -1.4899212636E+002 -1.9055868766E+001 +1.7040939786E+002
8525000000.000 -9.7386326829E+000 -7.1604075215E+001 -4.2603391851E+001 +8.7717199957E+001 -8.0932690846E+001 +5.1244811444E+001 -1.8190921687E+001 +1.7273080071E+002
8657500000.000 -9.6628269414E+000 -7.2007409403E+001 -4.2534599733E+001 +5.3147659906E+001 -8.7358906009E+001 +1.2560338426E+002 -1.8565695078E+001 +1.7773694006E+002
8790000000.000 -9.5822987521E+000 -7.2571627971E+001 -4.2461021706E+001 +1.9061195016E+001 -8.5839656266E+001 -1.2000650167E+002 -1.8357011718E+001 -1.7187399090E+002
8922500000.000 -9.5490728012E+000 -7.2983725741E+001 -4.2487791296E+001 -1.5263734082E+001 -8.5675086535E+001 +1.8004893140E+001 -1.7987282547E+001 -1.6618323602E+002
9055000000.000 -9.4908077619E+000 -7.3403144914E+001 -4.2337941248E+001 -4.9658963504E+001 -8.0183719099E+001 -1.7068282990E+002 -1.8465148627E+001 -1.5864280086E+002
9187500000.000 -9.4508583725E+000 -7.3779036055E+001 -4.2291246075E+001 -8.3908241659E+001 -1.0307705189E+002 +1.4111863156E+001 -1.8388698679E+001 -1.4671277892E+002
9320000000.000 -9.4217272681E+000 -7.4447920596E+001 -4.2401488238E+001 -1.1855497478E+002 -8.3159615721E+001 +4.2068357914E+001 -1.8225023541E+001 -1.4004592070E+002
9452500000.000 -9.3802350965E+000 -7.4884186832E+001 -4.2266685979E+001 -1.5322874994E+002 -9.9567504293E+001 -3.7508076243E+001 -1.8845702133E+001 -1.3087196305E+002
9585000000.000 -9.3336465816E+000 -7.5377510195E+001 -4.2218923531E+001 +1.7245453835E+002 -8.4129031760E+001 +2.9749778809E+001 -1.8774501049E+001 -1.1871225490E+002
9717500000.000 -9.2713854091E+000 -7.6294243782E+001 -4.2204409817E+001 +1.3822375228E+002 -9.3960735621E+001 +1.6009240922E+002 -1.8824254625E+001 -1.1164933574E+002
9850000000.000 -9.2718743392E+000 -7.6933733508E+001 -4.2126936155E+001 +1.0322063551E+002 -8.4101830384E+001 +6.5118958125E+001 -1.9653994799E+001 -1.0082841129E+002
9982500000.000 -9.2103853232E+000 -7.7273499622E+001 -4.2030134597E+001 +6.9111292112E+001 -8.6524834768E+001 -4.2840187125E+001 -1.9651718592E+001 -8.7061154170E+001
10115000000.000 -9.1469822503E+000 -7.8008861310E+001 -4.2104506425E+001 +3.4428202650E+001 -7.8273536038E+001 -6.0379472154E+001 -1.9928167442E+001 -7.9894076215E+001
10247500000.000 -9.1327655967E+000 -7.8797525507E+001 -4.1952300961E+001 -2.7365146343E-002 -9.5439982147E+001 +4.2527220244E+001 -2.1151082572E+001 -6.6379052490E+001
10380000000.000 -9.0753463595E+000 -7.9201401441E+001 -4.2033396523E+001 -3.4641980481E+001 -8.8855706946E+001 +1.3747119868E+002 -2.0974759901E+001 -5.0602376029E+001
10512500000.000 -9.0247212014E+000 -8.0018501686E+001 -4.2013406833E+001 -6.8972629164E+001 -8.7638332448E+001 -3.6111312936E+001 -2.1462377828E+001 -4.3018006901E+001
10645000000.000 -9.0164716625E+000 -8.0731674406E+001 -4.1937076350E+001 -1.0333476178E+002 -8.4715121407E+001 +5.3444525688E+001 -2.2831544999E+001 -2.4391077873E+001
10777500000.000 -8.9666610368E+000 -8.1172845653E+001 -4.1951502370E+001 -1.3863871675E+002 -8.6104062770E+001 +9.3214855420E+001 -2.2111961426E+001 -6.5981321294E+000
10910000000.000 -8.8806821652E+000 -8.1788782126E+001 -4.1882264266E+001 -1.7295158224E+002 -9.8721199886E+001 -1.0843713343E+002 -2.2753754138E+001 +2.7530042102E+000
11042500000.000 -8.8210280929E+000 -8.2877977552E+001 -4.1900373754E+001 +1.5239325304E+002 -8.2305010676E+001 +1.4567482262E+001 -2.3470545803E+001 +2.6523510851E+001
11175000000.000 -8.7650054531E+000 -8.3496400824E+001 -4.1838983678E+001 +1.1749294392E+002 -8.7507883151E+001 -5.4275632197E+001 -2.2178480870E+001 +4.1889299459E+001
11307500000.000 -8.7181471925E+000 -8.3723555084E+001 -4.1776048324E+001 +8.3456220422E+001 -8.7323895320E+001 -1.2060989435E+002 -2.2698785767E+001 +5.1817565965E+001
11440000000.000 -8.6296033796E+000 -8.4466319090E+001 -4.1775272556E+001 +4.8450379571E+001 -8.6096477914E+001 +3.6999087460E+001 -2.2633980227E+001 +7.4665702295E+001
11572500000.000 -8.5459861367E+000 -8.4904656149E+001 -4.1858108303E+001 +1.4092870375E+001 -8.6075614589E+001 +6.9354203542E+001 -2.1151398126E+001 +8.6184099206E+001
11705000000.000 -8.5002494884E+000 -8.5347052815E+001 -4.1816493685E+001 -2.1237340838E+001 -8.9859123593E+001 -1.1154292662E+001 -2.1740190700E+001 +9.5727068055E+001
11837500000.000 -8.4430707075E+000 -8.5855109020E+001 -4.1854589617E+001 -5.5948760424E+001 -8.7249394766E+001 -1.1155987427E+002 -2.1156469902E+001 +1.1816208266E+002
11970000000.000 -8.4119387183E+000 -8.6091569860E+001 -4.1831204720E+001 -9.0249623836E+001 -8.9638461996E+001 -1.6372865916E+002 -1.9821932361E+001 +1.2451679421E+002
12102500000.000 -8.3427940862E+000 -8.6145503905E+001 -4.1931688843E+001 -1.2582389744E+002 -8.2230413826E+001 -1.6904506347E+002 -2.0736251690E+001 +1.3440785142E+002
12235000000.000 -8.3394502724E+000 -8.7043742876E+001 -4.1884257678E+001 -1.6033875613E+002 -8.1608902119E+001 -9.7991692103E+001 -1.9763945885E+001 +1.5350724390E+002
12367500000.000 -8.3195341044E+000 -8.7020861442E+001 -4.1866783120E+001 +1.6474250473E+002 -8.6520276179E+001 -4.8238977539E+001 -1.8888771256E+001 +1.5680494486E+002
12500000000.000 -8.2916891923E+000 -8.7621525036E+001 -4.1915205304E+001 +1.2935267446E+002 -8.0844030774E+001 +1.3260249224E+002 -2.0045556188E+001 +1.6720761517E+002
12632500000.000 -8.2206562988E+000 -8.8175121456E+001 -4.1832990176E+001 +9.5040474057E+001 -8.3687019994E+001 -1.1468511744E+002 -1.9097824197E+001 -1.7395655318E+002
12765000000.000 -8.2329962749E+000 -8.8580983126E+001 -4.1942291154E+001 +6.0480787409E+001 -8.6731040671E+001 -3.8977791302E+001 -1.8485135879E+001 -1.7248263560E+002
12897500000.000 -8.2399752096E+000 -8.8934364943E+001 -4.2019502233E+001 +2.5454230321E+001 -8.0137802248E+001 -1.7251670309E+002 -2.0142953732E+001 -1.6017369516E+002
13030000000.000 -8.1875297254E+000 -8.9266198131E+001 -4.2164286140E+001 -9.6887865604E+000 -8.4466580309E+001 -1.6320314340E+002 -1.8745787409E+001 -1.4237904168E+002
13162500000.000 -8.1376126391E+000 -8.9745651248E+001 -4.2118360074E+001 -4.4956854668E+001 -8.5226145921E+001 +4.9809852382E+001 -1.8536870864E+001 -1.4298531095E+002
13295000000.000 -8.1102693358E+000 -9.0237980403E+001 -4.2134823378E+001 -7.9663283750E+001 -8.4619323616E+001 +3.4985919077E+001 -2.0013709462E+001 -1.2877433881E+002
13427500000.000 -8.1275609363E+000 -9.0873622164E+001 -4.2198333130E+001 -1.1437391446E+002 -9.0356897775E+001 +5.5365338285E+001 -1.8710166941E+001 -1.1464447422E+002
13560000000.000 -8.1248278189E+000 -9.0886715911E+001 -4.2258228908E+001 -1.4879651866E+002 -8.1774358179E+001 +3.0719491433E+001 -1.8894896424E+001 -1.1584636318E+002
13692500000.000 -8.0470546734E+000 -9.1168103144E+001 -4.2254240741E+001 +1.7627156092E+002 -8.5748613873E+001 +1.1674174953E+002 -2.0777940533E+001 -1.0230478857E+002
13825000000.000 -8.0174539486E+000 -9.2007238954E+001 -4.2472872854E+001 +1.4145845527E+002 -8.8894500469E+001 +1.7369360759E+002 -1.9599599905E+001 -8.7918610361E+001
13957500000.000 -8.0463220461E+000 -9.2544216215E+001 -4.2396344277E+001 +1.0628734917E+002 -9.0199612016E+001 +1.2149748042E+001 -2.0183070540E+001 -9.0825948566E+001
14090000000.000 -8.0189119814E+000 -9.2778547939E+001 -4.2566306638E+001 +7.2095606238E+001 -8.4847197926E+001 +8.0179003301E+001 -2.2535938899E+001 -7.3878521470E+001
14222500000.000 -7.9334513570E+000 -9.3161576435E+001 -4.2719605937E+001 +3.6286982807E+001 -8.5237911670E+001 -1.4142822656E+002 -2.1157420346E+001 -5.9780591865E+001
14355000000.000 -7.9198009005E+000 -9.3880364236E+001 -4.2648742077E+001 +1.2027529347E+000 -8.5842028458E+001 -4.5718599380E+001 -2.2315125415E+001 -6.3646766917E+001
14487500000.000 -7.9089435100E+000 -9.4302534952E+001 -4.2937237416E+001 -3.3390403916E+001 -9.3159025012E+001 -1.8738179500E+001 -2.5259425624E+001 -4.1217004288E+001
14620000000.000 -7.8352611658E+000 -9.4415231871E+001 -4.2992982742E+001 -6.8256232484E+001 -8.4787872676E+001 +2.2971239548E+000 -2.3154809733E+001 -2.8024142553E+001
14752500000.000 -7.7343863043E+000 -9.5052310598E+001 -4.3168792669E+001 -1.0252389953E+002 -8.2774610498E+001 -1.7466912813E+002 -2.5265642055E+001 -3.6033118696E+001
14885000000.000 -7.7143559520E+000 -9.5399131403E+001 -4.3310081293E+001 -1.3798915419E+002 -7.8541603559E+001 -2.9794794009E+001 -2.8497028274E+001 +1.6774206434E+000
15017500000.000 -7.7046714835E+000 -9.5352588941E+001 -4.3159962047E+001 -1.7297956679E+002 -8.0098524035E+001 +1.0432997411E+002 -2.5258586039E+001 +7.8486627927E+000
15150000000.000 -7.5941451642E+000 -9.5356281498E+001 -4.3522322064E+001 +1.5364389269E+002 -7.8036390232E+001 -1.1238884011E+002 -2.9069326808E+001 -1.2730300201E+000
15282500000.000 -7.5318813640E+000 -9.5570833976E+001 -4.3583201833E+001 +1.1866596094E+002 -8.7667516087E+001 -1.0376845767E+001 -3.0526838179E+001 +5.7912101274E+001
