!  2-Port S-parameters saved by WinCal
! VAR MeasName=S-Parameters (CALIBRATED_DATA) read from VNA (C)
! VAR MeasDate=10/16/2015 1:40:11 PM
! VAR NAME=M6082_13_17_2_2_20C_1.8mA_-17.5dBm
! VAR FILENAME=M6082_13_17_2_2_20C_1.8mA_-17.5dBm.S2P
! VAR DATE=10/16/2015 1:40:11 PM
! VAR PHYS_PORTS=2,1
! VAR ObjTypeName=DATASET
! VAR IndexType=Frequency
!
# Hz S DB R 50
45000000.000 -1.7325894276E+001 -1.3045807921E+000 -4.4436240599E+001 +1.0256683418E+002 -6.0808218683E+001 -9.0556351137E+000 -3.0889465604E+001 +4.1997701222E+000
177500000.000 -1.7514779114E+001 -6.8627259656E+000 -4.5482194466E+001 +6.8159012720E+001 -7.8419007420E+001 +1.7184674845E+002 -3.2697896372E+001 +4.6173560724E+001
310000000.000 -1.7547324632E+001 -1.2646781007E+001 -4.5821914351E+001 +3.5496703019E+001 -7.5979204792E+001 -1.3691652675E+002 -2.3341429058E+001 +6.4486195435E+001
442500000.000 -1.7600014722E+001 -1.5821958965E+001 -4.4370577364E+001 -2.6896642942E+000 -9.0850287951E+001 -1.9811553264E+001 -2.2395181670E+001 +1.7276548972E+001
575000000.000 -1.7746252500E+001 -1.9836888277E+001 -4.4912738217E+001 -4.1078915795E+001 -8.1976738546E+001 +1.0911462842E+002 -3.0607496090E+001 +2.2453513863E+001
707500000.000 -1.7618420259E+001 -2.3974635452E+001 -4.5113703123E+001 -7.6422800631E+001 -8.4686463829E+001 -9.5306958330E+001 -3.4516436967E+001 +8.3750637197E+001
840000000.000 -1.7624867224E+001 -2.7679782235E+001 -4.5003231219E+001 -1.1101709791E+002 -7.9460242513E+001 +1.7768284222E+001 -2.9686731359E+001 +1.2726891055E+002
972500000.000 -1.7307651169E+001 -3.1418774319E+001 -4.5179897178E+001 -1.4664353559E+002 -9.0907161275E+001 +1.4667568283E+002 -2.5947422029E+001 +1.3526972617E+002
1105000000.000 -1.7137144287E+001 -3.5153381146E+001 -4.5128134144E+001 +1.7909273240E+002 -8.4911274252E+001 -1.1798916890E+002 -2.4361759848E+001 +1.4078097729E+002
1237500000.000 -1.6890172183E+001 -3.8479891565E+001 -4.5284827686E+001 +1.4308692733E+002 -8.1746319891E+001 -7.3141525548E+001 -2.3382192630E+001 +1.4991517923E+002
1370000000.000 -1.6603553936E+001 -4.1900187008E+001 -4.5306941576E+001 +1.0793517333E+002 -8.0695496559E+001 +1.1266753538E+002 -2.2070705477E+001 +1.5995598315E+002
1502500000.000 -1.6549521189E+001 -4.4616669498E+001 -4.5095121630E+001 +7.3545873427E+001 -8.4769360161E+001 +1.7311039953E+002 -2.0861474191E+001 +1.6635303192E+002
1635000000.000 -1.6115336197E+001 -4.7525608786E+001 -4.5332135967E+001 +3.7835581686E+001 -8.9862504355E+001 -1.1229802213E+001 -2.0021323319E+001 +1.7327121897E+002
1767500000.000 -1.5859714476E+001 -5.0440968829E+001 -4.5094287013E+001 +2.8399635137E+000 -8.2795696315E+001 +4.9452367429E+001 -1.9021011826E+001 +1.7850602287E+002
1900000000.000 -1.5878807427E+001 -5.2382652392E+001 -4.4622561199E+001 -3.1592417152E+001 -1.0214746529E+002 -7.5558570888E+001 -1.8864318323E+001 -1.7823920145E+002
2032500000.000 -1.5710695442E+001 -5.4777407053E+001 -4.4568988957E+001 -6.6072012978E+001 -8.0235253933E+001 -5.5887811265E+001 -1.8693228389E+001 -1.6794070229E+002
2165000000.000 -1.5489703861E+001 -5.7079600959E+001 -4.4562275722E+001 -9.8760562423E+001 -7.5758040176E+001 -9.9648849878E+000 -1.7746972504E+001 -1.6099819656E+002
2297500000.000 -1.5377528203E+001 -5.9769804951E+001 -4.4369147804E+001 -1.3155399631E+002 -7.8231220366E+001 +8.7798606380E+001 -1.7238637952E+001 -1.5705911116E+002
2430000000.000 -1.5186751273E+001 -6.1902692557E+001 -4.4678074900E+001 -1.6464366698E+002 -8.4255209277E+001 -5.2106531031E+001 -1.6937108326E+001 -1.5282900857E+002
2562500000.000 -1.4894775986E+001 -6.3540299779E+001 -4.4296954113E+001 +1.5925699883E+002 -8.7700482445E+001 +1.3235739842E+002 -1.6833613299E+001 -1.5045206111E+002
2695000000.000 -1.4720998335E+001 -6.5957749980E+001 -4.4286324454E+001 +1.2638567915E+002 -8.3260138716E+001 +1.3414214881E+002 -1.7384638737E+001 -1.4716137466E+002
2827500000.000 -1.4542870661E+001 -6.7716145788E+001 -4.4161566573E+001 +8.9625032974E+001 -7.7585640562E+001 +1.3832001374E+002 -1.7843010470E+001 -1.4032454019E+002
2960000000.000 -1.4245010460E+001 -6.8967342794E+001 -4.4355522257E+001 +5.6109128138E+001 -8.5638343736E+001 -1.6749666988E+002 -1.8147901416E+001 -1.3551447685E+002
3092500000.000 -1.3967995005E+001 -7.0927928435E+001 -4.4245397892E+001 +2.0581329054E+001 -8.5382106618E+001 +7.1922518018E+001 -1.9087912469E+001 -1.2933038898E+002
3225000000.000 -1.3773367223E+001 -7.3038661598E+001 -4.4245385478E+001 -1.3860157064E+001 -9.9022499518E+001 +9.8856186197E+000 -1.9577566876E+001 -1.1970614700E+002
3357500000.000 -1.3590448199E+001 -7.4563596888E+001 -4.4254639353E+001 -4.8288699971E+001 -8.2800166803E+001 -7.7215845827E+001 -1.9952670490E+001 -1.1421763549E+002
3490000000.000 -1.3320641675E+001 -7.5984394628E+001 -4.4128959333E+001 -8.2983733127E+001 -8.5135598420E+001 +1.2268704873E+001 -2.1116818603E+001 -1.0857249930E+002
3622500000.000 -1.3079045836E+001 -7.7597931380E+001 -4.4022386999E+001 -1.1710090025E+002 -7.6282493922E+001 +1.7965774867E+002 -2.1944059384E+001 -9.8086412644E+001
3755000000.000 -1.2843122993E+001 -7.9210947832E+001 -4.3796911767E+001 -1.5235188347E+002 -7.9865910345E+001 -1.4346680289E+001 -2.2720905860E+001 -9.4549126150E+001
3887500000.000 -1.2606946720E+001 -8.0258179422E+001 -4.3756653570E+001 +1.7124407431E+002 -8.8161685643E+001 -2.4827977787E+001 -2.5054287359E+001 -8.7821001317E+001
4020000000.000 -1.2408041879E+001 -8.1258552618E+001 -4.3561038281E+001 +1.3592716714E+002 -9.3484329925E+001 -1.5144525497E+002 -2.6667754876E+001 -7.3349472819E+001
4152500000.000 -1.2129310695E+001 -8.2171907804E+001 -4.3319586788E+001 +9.7944947301E+001 -9.2210069683E+001 -2.8277319137E+001 -2.8847850269E+001 -6.4641011846E+001
4285000000.000 -1.1823924332E+001 -8.3090311918E+001 -4.3178075177E+001 +5.8087728980E+001 -8.1148402935E+001 +4.0361102615E+001 -3.3356714712E+001 -3.7585027728E+001
4417500000.000 -1.1519618194E+001 -8.4137686307E+001 -4.3130488902E+001 +1.8000109857E+001 -7.8688502678E+001 +1.3648869309E+002 -3.1717578219E+001 +7.8430272845E+000
4550000000.000 -1.1221357993E+001 -8.4917926912E+001 -4.3224318709E+001 -2.1863916489E+001 -9.1490307212E+001 -9.8322749621E+001 -3.0343698838E+001 +1.8268386836E+001
4682500000.000 -1.0766768547E+001 -8.6361691479E+001 -4.3488609870E+001 -6.8151588555E+001 -8.5452336901E+001 -3.1897091362E+001 -2.9657985549E+001 +3.8934551922E+001
4815000000.000 -1.0479424184E+001 -8.7881390629E+001 -4.3758988042E+001 -1.0842562616E+002 -8.1241567489E+001 +1.1055345139E+002 -2.7639256196E+001 +4.1417799851E+001
4947500000.000 -1.0280448714E+001 -8.9034833193E+001 -4.3695202154E+001 -1.4557825056E+002 -8.4197093884E+001 -1.1372795592E+002 -2.9363507202E+001 +3.5821235702E+001
5080000000.000 -1.0039789919E+001 -9.0430494872E+001 -4.3978626329E+001 +1.7314822045E+002 -8.9065014284E+001 +4.5832520200E+001 -3.2229936681E+001 +5.6948040313E+001
5212500000.000 -9.8473373412E+000 -9.1831232161E+001 -4.4256313540E+001 +1.3397190249E+002 -7.9993279659E+001 +1.2029804139E+002 -3.1534697717E+001 +6.9431164736E+001
5345000000.000 -9.7256947480E+000 -9.2837925511E+001 -4.4040534749E+001 +9.8842244421E+001 -8.5505822282E+001 -1.2355895613E+002 -3.5356666480E+001 +7.1323084681E+001
5477500000.000 -9.6015084100E+000 -9.3781578404E+001 -4.4262043981E+001 +5.9819212553E+001 -8.7349977976E+001 +1.2040069170E+000 -3.7212018529E+001 +1.3169213422E+002
5610000000.000 -9.4520421200E+000 -9.4935224796E+001 -4.4746351252E+001 +2.1790456784E+001 -8.3278045238E+001 +7.0181792098E+001 -3.3649663556E+001 +1.3561006056E+002
5742500000.000 -9.3489258699E+000 -9.5928047911E+001 -4.4622396917E+001 -1.4908943957E+001 -8.4496275478E+001 -1.5741705474E+002 -3.7774023009E+001 +1.5240513164E+002
5875000000.000 -9.2887586179E+000 -9.6789155249E+001 -4.4557392761E+001 -4.9814612469E+001 -9.3942061898E+001 -1.6939552172E+002 -3.3766602099E+001 -1.7071386676E+002
6007500000.000 -9.2107528829E+000 -9.7662040912E+001 -4.4915488740E+001 -8.7432284124E+001 -8.8007116330E+001 -7.3554136539E+001 -3.2705216080E+001 +1.7925443955E+002
6140000000.000 -9.0896083443E+000 -9.8593793318E+001 -4.5219751649E+001 -1.2376953266E+002 -8.9019232118E+001 -1.5296579695E+002 -3.6150854570E+001 -1.7015184958E+002
6272500000.000 -8.9915485115E+000 -9.9610842507E+001 -4.5019452291E+001 -1.5819633000E+002 -8.3949184622E+001 -9.2364942771E+001 -3.3854151123E+001 -1.4441098192E+002
6405000000.000 -8.9619690453E+000 -1.0068686826E+002 -4.5240146566E+001 +1.6459659960E+002 -9.4469885058E+001 -6.0695894800E+000 -3.3805902850E+001 -1.6208249711E+002
6537500000.000 -8.8948364981E+000 -1.0135003550E+002 -4.5700872210E+001 +1.2841058509E+002 -9.1265267539E+001 +1.5104929553E+002 -4.0133166530E+001 -1.6080264985E+002
6670000000.000 -8.7487403076E+000 -1.0199394320E+002 -4.5422094509E+001 +9.4206441642E+001 -9.1139119177E+001 -4.7768111847E+001 -3.9438543408E+001 -1.3768117478E+002
6802500000.000 -8.6604814099E+000 -1.0328393762E+002 -4.5658741414E+001 +5.8320735142E+001 -8.7180285928E+001 -5.3310123753E+001 -3.8835526483E+001 +1.7921628811E+002
6935000000.000 -8.6686716178E+000 -1.0436413413E+002 -4.6493449622E+001 +2.1042274920E+001 -8.9028650847E+001 +1.7975857815E+002 -3.8585927910E+001 +1.2276410111E+002
7067500000.000 -8.5835899939E+000 -1.0461158591E+002 -4.6351380145E+001 -1.3488999471E+001 -8.6155605370E+001 +1.5949495449E+002 -3.9009640658E+001 +1.1458820113E+002
7200000000.000 -8.4381848454E+000 -1.0525248526E+002 -4.6048910312E+001 -4.6896851846E+001 -8.0021964005E+001 -3.3992745957E+001 -3.2858748446E+001 +1.3156792902E+002
7332500000.000 -8.3793723653E+000 -1.0641776332E+002 -4.6550043657E+001 -8.3773646088E+001 -9.1380157025E+001 +1.4618759370E+002 -2.9074575100E+001 +1.1906380708E+002
7465000000.000 -8.3388930283E+000 -1.0705924779E+002 -4.6801389344E+001 -1.1845420816E+002 -8.0872579056E+001 -1.5087892113E+002 -2.8647322991E+001 +1.2244646817E+002
7597500000.000 -8.2267773567E+000 -1.0733856048E+002 -4.6369539668E+001 -1.5227616428E+002 -8.4229557559E+001 -2.7266416405E+001 -2.6148840547E+001 +1.3755904609E+002
7730000000.000 -8.1306969351E+000 -1.0805637115E+002 -4.7081143057E+001 +1.7283210104E+002 -8.5828358352E+001 +5.2307193297E+000 -2.3730515847E+001 +1.3785428231E+002
7862500000.000 -8.0811761984E+000 -1.0877702585E+002 -4.7752569219E+001 +1.3639028110E+002 -8.2906565147E+001 -1.5217964059E+002 -2.3286228861E+001 +1.4157888437E+002
7995000000.000 -8.0139613637E+000 -1.0902897615E+002 -4.7488495266E+001 +1.0283724651E+002 -8.7576118855E+001 +1.6226019154E+002 -2.1838073650E+001 +1.5421884697E+002
8127500000.000 -7.9016031943E+000 -1.0931730343E+002 -4.7689744774E+001 +6.9688477498E+001 -9.0939541820E+001 +7.3291931417E+001 -2.0032755444E+001 +1.5646320676E+002
8260000000.000 -7.8406745818E+000 -1.0999858027E+002 -4.8300800916E+001 +3.3429969824E+001 -1.0054295521E+002 -1.1239527444E+002 -1.9867545950E+001 +1.6019601979E+002
8392500000.000 -7.7889141314E+000 -1.1027408032E+002 -4.8247707040E+001 +1.0751297106E+000 -8.6034859473E+001 -1.1279714988E+002 -1.9061356572E+001 +1.7045898415E+002
8525000000.000 -7.7232805412E+000 -1.1037330165E+002 -4.8520882166E+001 -3.4236249592E+001 -9.8424402131E+001 +4.1986716252E+001 -1.8208078279E+001 +1.7294754844E+002
8657500000.000 -7.6562574407E+000 -1.1070773734E+002 -4.9068222025E+001 -6.9539329197E+001 -8.5962926622E+001 +1.6746245306E+002 -1.8569377531E+001 +1.7793818303E+002
8790000000.000 -7.5888087929E+000 -1.1112969235E+002 -4.9329612340E+001 -1.0405273146E+002 -8.0503909884E+001 -1.0831048938E+002 -1.8355354097E+001 -1.7172205704E+002
8922500000.000 -7.5651306633E+000 -1.1142128180E+002 -4.9230395495E+001 -1.3686356367E+002 -8.1008198016E+001 -4.8552145279E+000 -1.7990212403E+001 -1.6600876070E+002
9055000000.000 -7.5102795144E+000 -1.1158980201E+002 -4.9773827798E+001 -1.7243595013E+002 -8.6285134336E+001 +1.2279168064E+002 -1.8459953234E+001 -1.5838078989E+002
9187500000.000 -7.4639384553E+000 -1.1189802378E+002 -5.0109069328E+001 +1.5380664478E+002 -8.2879670214E+001 -1.2231805240E+002 -1.8381968906E+001 -1.4632653688E+002
9320000000.000 -7.4202171680E+000 -1.1256550629E+002 -5.0500886644E+001 +1.2115525188E+002 -8.9424343720E+001 -7.7711340731E+001 -1.8207400074E+001 -1.3965964649E+002
9452500000.000 -7.3971542450E+000 -1.1285989092E+002 -5.0445489300E+001 +8.6218591978E+001 -8.9491166581E+001 +7.3010529547E+001 -1.8854960761E+001 -1.3059859340E+002
9585000000.000 -7.3544252454E+000 -1.1317315892E+002 -5.1118021610E+001 +5.2336596348E+001 -8.7350066454E+001 +1.7354883181E+002 -1.8800478651E+001 -1.1815221989E+002
9717500000.000 -7.2673871544E+000 -1.1370692826E+002 -5.1083568070E+001 +1.7048220000E+001 -8.5863312659E+001 -1.7824448020E+001 -1.8810303452E+001 -1.1115231562E+002
9850000000.000 -7.2521139845E+000 -1.1446596609E+002 -5.1549889546E+001 -1.8337791760E+001 -8.5139255882E+001 +2.0132380449E+001 -1.9660266395E+001 -1.0054115398E+002
9982500000.000 -7.2190041682E+000 -1.1460060417E+002 -5.1765903637E+001 -5.2168195015E+001 -8.8355789946E+001 +3.1682700238E+001 -1.9702099549E+001 -8.6381903708E+001
10115000000.000 -7.1464774357E+000 -1.1494558419E+002 -5.1946233182E+001 -8.5983696091E+001 -8.6704450175E+001 -2.1466927035E+001 -1.9916813605E+001 -7.9075144254E+001
10247500000.000 -7.0829414855E+000 -1.1565126681E+002 -5.2331023030E+001 -1.1884334148E+002 -8.5293103970E+001 +4.5087444737E+001 -2.1152222837E+001 -6.5939191466E+001
10380000000.000 -7.0608850628E+000 -1.1610492481E+002 -5.2873864377E+001 -1.5422703070E+002 -8.7538129100E+001 +1.3055056432E+002 -2.1065276430E+001 -4.9794546578E+001
10512500000.000 -7.0135639918E+000 -1.1642653726E+002 -5.2963228937E+001 +1.7302872765E+002 -8.3374774262E+001 -1.1709297818E+002 -2.1517965278E+001 -4.1838037321E+001
10645000000.000 -6.9551014929E+000 -1.1680364796E+002 -5.3118077270E+001 +1.3940759477E+002 -8.3110233037E+001 +1.1733912066E+001 -2.2818412577E+001 -2.3881444848E+001
10777500000.000 -6.8939288406E+000 -1.1724037992E+002 -5.3834961124E+001 +1.0391405002E+002 -8.0888582929E+001 +1.4876254153E+002 -2.2196618107E+001 -5.7598839129E+000
10910000000.000 -6.8458126234E+000 -1.1763827008E+002 -5.3955112524E+001 +6.9870251238E+001 -8.6018124343E+001 -1.1362363515E+002 -2.2791754322E+001 +4.3869152915E+000
11042500000.000 -6.7859973280E+000 -1.1810158027E+002 -5.4325403520E+001 +3.4387445778E+001 -9.0316643977E+001 +1.6601681327E+002 -2.3444765080E+001 +2.7813479151E+001
11175000000.000 -6.7179673116E+000 -1.1831846468E+002 -5.4878307578E+001 +1.7747090079E+000 -8.6273955668E+001 +1.4364786622E+002 -2.2256195429E+001 +4.2936532081E+001
11307500000.000 -6.6811725891E+000 -1.1852463215E+002 -5.5018294740E+001 -3.0211553957E+001 -8.5262227975E+001 +1.7492935431E+002 -2.2732451767E+001 +5.3329481809E+001
11440000000.000 -6.6134273503E+000 -1.1895259845E+002 -5.5301563942E+001 -6.6338516717E+001 -8.6746185296E+001 -4.8390162563E+001 -2.2570580530E+001 +7.5846166225E+001
11572500000.000 -6.5573305425E+000 -1.1899299984E+002 -5.5658351480E+001 -9.6162660091E+001 -8.3466647298E+001 +5.7092164646E+001 -2.1160796841E+001 +8.7215939568E+001
11705000000.000 -6.5141721338E+000 -1.1919553781E+002 -5.5955490235E+001 -1.3245553215E+002 -7.8886762354E+001 -1.4772293524E+002 -2.1762831226E+001 +9.7210697928E+001
11837500000.000 -6.4566729141E+000 -1.1950497775E+002 -5.6230263009E+001 -1.6508468875E+002 -9.8805515597E+001 -1.2486000953E+002 -2.1111583764E+001 +1.1941458598E+002
11970000000.000 -6.4445454171E+000 -1.1966449387E+002 -5.6354140967E+001 +1.6497460729E+002 -8.3915096916E+001 +1.1669089510E+002 -1.9816443395E+001 +1.2557126105E+002
12102500000.000 -6.4162798082E+000 -1.1955852506E+002 -5.6864390719E+001 +1.3280302955E+002 -9.4422682257E+001 -1.7912675908E+002 -2.0748089552E+001 +1.3552557279E+002
12235000000.000 -6.3610197509E+000 -1.2011703643E+002 -5.6788159132E+001 +9.4579848137E+001 -9.0616379128E+001 -1.4924687963E+002 -1.9764872171E+001 +1.5465372287E+002
12367500000.000 -6.3652425858E+000 -1.2016686306E+002 -5.7159449059E+001 +5.8005318770E+001 -7.9431545953E+001 +4.6804128624E+001 -1.8878519130E+001 +1.5800311558E+002
12500000000.000 -6.3404631252E+000 -1.2056801014E+002 -5.7501320439E+001 +2.2255165793E+001 -8.4003213236E+001 +8.2844342180E+001 -2.0047105768E+001 +1.6820392274E+002
12632500000.000 -6.2951906500E+000 -1.2064992043E+002 -5.7418195258E+001 -7.3877670108E+000 -8.7412683160E+001 +6.9207308188E+001 -1.9161391224E+001 -1.7289713694E+002
12765000000.000 -6.2779286315E+000 -1.2092205678E+002 -5.7797763966E+001 -4.2564905391E+001 -7.8986968406E+001 -3.0388788479E+001 -1.8510591317E+001 -1.7130171346E+002
12897500000.000 -6.2783162429E+000 -1.2127698352E+002 -5.8358891855E+001 -7.5821820174E+001 -9.4851468864E+001 +1.5802275649E+002 -2.0132033672E+001 -1.5941226766E+002
13030000000.000 -6.2624766990E+000 -1.2147252095E+002 -5.8466745353E+001 -1.0944972046E+002 -8.9705649268E+001 -1.2046719901E+002 -1.8838388011E+001 -1.4145336653E+002
13162500000.000 -6.2253987101E+000 -1.2167177329E+002 -5.8456642804E+001 -1.4267206382E+002 -8.7373586285E+001 -2.2349338677E+001 -1.8641933971E+001 -1.4163037726E+002
13295000000.000 -6.1903140047E+000 -1.2194660398E+002 -5.8559354437E+001 -1.7654638500E+002 -8.8318909373E+001 +2.6662059285E+001 -2.0039744129E+001 -1.2775655040E+002
13427500000.000 -6.1794692153E+000 -1.2246805092E+002 -5.9768179099E+001 +1.5142403923E+002 -9.4188083582E+001 -1.7902430035E+002 -1.8844558255E+001 -1.1415637929E+002
13560000000.000 -6.1843538908E+000 -1.2252025262E+002 -5.9119658072E+001 +1.1773266993E+002 -8.6632666385E+001 +8.5056051914E+001 -1.9037221450E+001 -1.1460489119E+002
13692500000.000 -6.1266344872E+000 -1.2262472930E+002 -6.0021064123E+001 +8.0212939712E+001 -9.2785254053E+001 +5.5919745721E+001 -2.0830647513E+001 -1.0126040824E+002
13825000000.000 -6.0778899200E+000 -1.2306422916E+002 -6.0259921170E+001 +4.4850708343E+001 -8.6150801049E+001 +7.3713535248E+001 -1.9727586397E+001 -8.7557002971E+001
13957500000.000 -6.0832200985E+000 -1.2345365057E+002 -6.0146293779E+001 +1.6587303147E+001 -8.1791419082E+001 +1.3876274405E+002 -2.0379746017E+001 -9.0022833370E+001
14090000000.000 -6.0617889277E+000 -1.2348249445E+002 -6.0542281302E+001 -1.7737747304E+001 -8.5359179197E+001 -1.4570703183E+002 -2.2661206047E+001 -7.2604527157E+001
14222500000.000 -6.0082858542E+000 -1.2341936099E+002 -6.1427246346E+001 -4.9510031211E+001 -8.6458365476E+001 -5.6657960192E+001 -2.1285721573E+001 -5.9214880649E+001
14355000000.000 -5.9597263798E+000 -1.2387547141E+002 -6.1604457217E+001 -9.0846269343E+001 -8.1661870564E+001 +1.7634821624E+002 -2.2502467576E+001 -6.3607054688E+001
14487500000.000 -5.9452341094E+000 -1.2411650991E+002 -6.1396235798E+001 -1.1707803227E+002 -8.4204933311E+001 +1.6987344085E+002 -2.5554971274E+001 -4.0161788527E+001
14620000000.000 -5.9271926898E+000 -1.2402974478E+002 -6.0760168417E+001 -1.4832058290E+002 -9.5703259165E+001 +1.2267432814E+002 -2.3286349048E+001 -2.7268565579E+001
14752500000.000 -5.8420287547E+000 -1.2408011635E+002 -6.2139486826E+001 -1.7404313339E+002 -7.8463347955E+001 -1.4395527107E+002 -2.5356922514E+001 -3.6598158013E+001
14885000000.000 -5.8031723873E+000 -1.2428412309E+002 -6.1228225578E+001 +1.4676108391E+002 -9.0187666973E+001 -1.0428996641E+001 -2.8942725018E+001 +2.3321896855E+000
15017500000.000 -5.7896944092E+000 -1.2433278925E+002 -6.1591807945E+001 +1.0577157138E+002 -7.6283087547E+001 +8.3633995193E+001 -2.5404231789E+001 +9.2280273850E+000
15150000000.000 -5.7323620348E+000 -1.2416154407E+002 -6.2650493029E+001 +8.0757450322E+001 -8.1017377480E+001 -9.2131399029E+001 -2.9085364974E+001 -2.4984700904E+000
15282500000.000 -5.6875835745E+000 -1.2411618072E+002 -6.2434469087E+001 +4.3625574194E+001 -8.1734498426E+001 +8.4965221250E-001 -3.1140273944E+001 +5.7997123032E+001
