!  2-Port S-parameters saved by WinCal
! VAR MeasName=S-Parameters (CALIBRATED_DATA) read from VNA (C)
! VAR MeasDate=10/16/2015 2:37:07 PM
! VAR NAME=M6082_10_13_2_2_20C_6.4mA_-17.5dBm
! VAR FILENAME=M6082_10_13_2_2_20C_6.4mA_-17.5dBm.S2P
! VAR DATE=10/16/2015 2:37:07 PM
! VAR PHYS_PORTS=2,1
! VAR ObjTypeName=DATASET
! VAR IndexType=Frequency
!
# Hz S DB R 50
45000000.000 -2.4952363981E+001 -1.7918242798E+002 -4.2486678047E+001 +1.0058580078E+002 -6.5161703411E+001 -1.5961118405E+001 -3.1110997207E+001 +6.8558754018E+000
177500000.000 -2.5070846622E+001 -1.7361523695E+002 -4.2556773277E+001 +6.8100189301E+001 -7.6296259281E+001 -1.7336342954E+002 -3.2819961470E+001 +4.6734680536E+001
310000000.000 -2.5049887883E+001 -1.6747140429E+002 -4.2563673637E+001 +3.7946764684E+001 -7.6517497327E+001 -5.6512914140E+001 -2.3339790970E+001 +6.4733003060E+001
442500000.000 -2.4847081705E+001 -1.6073356318E+002 -4.1471766832E+001 +1.1846582814E+000 -8.5522257978E+001 -1.4945239980E+002 -2.2377705449E+001 +1.7385226909E+001
575000000.000 -2.4416197869E+001 -1.5440361593E+002 -4.2054024884E+001 -3.5342750465E+001 -8.3222732172E+001 +5.3271465436E+001 -3.0619634939E+001 +2.2695662602E+001
707500000.000 -2.3954909546E+001 -1.4954983082E+002 -4.2239395068E+001 -6.9721622419E+001 -8.9424299919E+001 +8.7007630749E+001 -3.4482241938E+001 +8.3306229816E+001
840000000.000 -2.3457271267E+001 -1.4445891755E+002 -4.2377250113E+001 -1.0340023551E+002 -8.2062211133E+001 +7.0135676533E+000 -2.9680581328E+001 +1.2730293890E+002
972500000.000 -2.2934142171E+001 -1.4001553710E+002 -4.2518637343E+001 -1.3739266144E+002 -8.7709984362E+001 -1.3325074621E+002 -2.5960479160E+001 +1.3521180770E+002
1105000000.000 -2.2312026018E+001 -1.3658341208E+002 -4.2351036956E+001 -1.7196764772E+002 -8.4727820256E+001 +1.0685039777E+002 -2.4367023378E+001 +1.4075495948E+002
1237500000.000 -2.1758697335E+001 -1.3372444746E+002 -4.2594359972E+001 +1.5444386307E+002 -8.7429586506E+001 +1.2122283820E+001 -2.3397990710E+001 +1.4992758953E+002
1370000000.000 -2.1189655623E+001 -1.3129674676E+002 -4.2607237550E+001 +1.2051145746E+002 -8.5584764375E+001 +7.8744608757E+001 -2.2084442178E+001 +1.5996134650E+002
1502500000.000 -2.0674592149E+001 -1.2907151532E+002 -4.2578751334E+001 +8.5972795225E+001 -8.3404069207E+001 -9.9388067925E+001 -2.0858167290E+001 +1.6637570512E+002
1635000000.000 -2.0145120412E+001 -1.2674766091E+002 -4.2658345944E+001 +5.2706381262E+001 -8.1734973394E+001 -2.1539572375E+001 -2.0024584141E+001 +1.7330399255E+002
1767500000.000 -1.9608750358E+001 -1.2517431632E+002 -4.2593379399E+001 +1.8169428300E+001 -9.0593271217E+001 -4.0431384739E+000 -1.9019335915E+001 +1.7853169971E+002
1900000000.000 -1.9185172745E+001 -1.2382583795E+002 -4.2604931024E+001 -1.6638846281E+001 -8.3478733402E+001 +1.1942283179E+002 -1.8865305480E+001 -1.7826394684E+002
2032500000.000 -1.8737334666E+001 -1.2267311120E+002 -4.2798893644E+001 -5.0222673049E+001 -7.8826446729E+001 -1.1393730810E+002 -1.8687576977E+001 -1.6788332491E+002
2165000000.000 -1.8275489446E+001 -1.2124989036E+002 -4.2676015266E+001 -8.4328435671E+001 -8.6716217457E+001 +7.8567098806E+000 -1.7740323395E+001 -1.6093308712E+002
2297500000.000 -1.7883614347E+001 -1.2048665038E+002 -4.2639628719E+001 -1.1828395532E+002 -8.4249385629E+001 +5.1842577879E+001 -1.7238789382E+001 -1.5711049027E+002
2430000000.000 -1.7513357305E+001 -1.1973144320E+002 -4.2797362804E+001 -1.5252021644E+002 -8.5364428922E+001 -1.1668719419E+002 -1.6955401918E+001 -1.5279468378E+002
2562500000.000 -1.7120751305E+001 -1.1893527966E+002 -4.2972303348E+001 +1.7426242100E+002 -8.2400017355E+001 +8.8308697984E+001 -1.6836837559E+001 -1.5039110825E+002
2695000000.000 -1.6748878154E+001 -1.1907475307E+002 -4.2655363300E+001 +1.4073225338E+002 -8.2040261654E+001 -6.6788294025E+001 -1.7373956563E+001 -1.4713568371E+002
2827500000.000 -1.6466563686E+001 -1.1899835169E+002 -4.2931849969E+001 +1.0484792697E+002 -7.4661168247E+001 -1.4580919307E+002 -1.7859777937E+001 -1.4030816815E+002
2960000000.000 -1.6158150854E+001 -1.1845712970E+002 -4.3012101109E+001 +7.2444368493E+001 -9.1307053721E+001 +1.1829863024E+002 -1.8151837604E+001 -1.3538977819E+002
3092500000.000 -1.5773193722E+001 -1.1817791338E+002 -4.2951771031E+001 +3.7270950039E+001 -9.0403971991E+001 -9.0579832586E+001 -1.9080402198E+001 -1.2925427017E+002
3225000000.000 -1.5429985061E+001 -1.1857768341E+002 -4.2985378060E+001 +3.3035669104E+000 -8.7208565486E+001 -1.1391005924E+002 -1.9589360002E+001 -1.1975057005E+002
3357500000.000 -1.5196668990E+001 -1.1868972687E+002 -4.3092756939E+001 -3.0074357003E+001 -8.4765446254E+001 -2.0566423010E+001 -1.9948273209E+001 -1.1431898498E+002
3490000000.000 -1.4865421594E+001 -1.1827878929E+002 -4.3095536229E+001 -6.2477795823E+001 -8.6548711435E+001 -1.7162995569E+002 -2.1116009028E+001 -1.0845538297E+002
3622500000.000 -1.4527041130E+001 -1.1816642469E+002 -4.3056609808E+001 -9.8171302572E+001 -8.4007116430E+001 -1.6660671807E+002 -2.1948741998E+001 -9.8217915763E+001
3755000000.000 -1.4208096924E+001 -1.1832552867E+002 -4.3223507943E+001 -1.3061095829E+002 -7.7522397614E+001 -1.8647067988E+001 -2.2695994878E+001 -9.4655700998E+001
3887500000.000 -1.3954502824E+001 -1.1831581177E+002 -4.3028684988E+001 -1.6496969066E+002 -7.9614690573E+001 +6.2541872201E+001 -2.5037540508E+001 -8.7745117906E+001
4020000000.000 -1.3717959301E+001 -1.1825737578E+002 -4.3038783896E+001 +1.6107409836E+002 -8.4899905033E+001 +1.4292636121E+002 -2.6652310797E+001 -7.3370099277E+001
4152500000.000 -1.3442052150E+001 -1.1805278749E+002 -4.3118936706E+001 +1.2573210662E+002 -8.5958876371E+001 -1.1784372441E+002 -2.8848395987E+001 -6.4662749980E+001
4285000000.000 -1.3183038898E+001 -1.1811612432E+002 -4.3123609240E+001 +9.1237069248E+001 -8.0041151504E+001 +5.3387022762E+001 -3.3401129911E+001 -3.7366300047E+001
4417500000.000 -1.2941380839E+001 -1.1837812511E+002 -4.3154833563E+001 +5.8423124681E+001 -8.8910310645E+001 +9.9969351269E+001 -3.1735311826E+001 +8.1318927727E+000
4550000000.000 -1.2745373421E+001 -1.1823500161E+002 -4.3218213204E+001 +2.3574541336E+001 -8.6184408226E+001 -1.7457379379E+002 -3.0329588929E+001 +1.8298169761E+001
4682500000.000 -1.2502039553E+001 -1.1811131528E+002 -4.3380418807E+001 -8.8448689776E+000 -8.6396269572E+001 +3.5171322267E+001 -2.9654281321E+001 +3.9072917006E+001
4815000000.000 -1.2268773634E+001 -1.1824459084E+002 -4.3464331210E+001 -4.2402535659E+001 -9.6432488001E+001 +1.7952049678E+002 -2.7634378843E+001 +4.1336831214E+001
4947500000.000 -1.2089225026E+001 -1.1827551040E+002 -4.3211544266E+001 -7.6229416919E+001 -8.0296970823E+001 -1.0372072533E+002 -2.9341616591E+001 +3.5802087608E+001
5080000000.000 -1.1901037549E+001 -1.1806256853E+002 -4.3221807927E+001 -1.0972705925E+002 -9.1612858799E+001 +6.3919247275E+001 -3.2242933894E+001 +5.7212085249E+001
5212500000.000 -1.1698467875E+001 -1.1807466219E+002 -4.3089915642E+001 -1.4313634126E+002 -8.7320408647E+001 +1.3591856117E+002 -3.1536679776E+001 +6.9595780879E+001
5345000000.000 -1.1529978313E+001 -1.1829494964E+002 -4.3091032354E+001 -1.7784289109E+002 -8.2063322529E+001 -1.4784082995E+002 -3.5301653033E+001 +7.1465455432E+001
5477500000.000 -1.1406748966E+001 -1.1814113460E+002 -4.3062828562E+001 +1.4758813614E+002 -8.7341951995E+001 +1.0359925687E+002 -3.7245316875E+001 +1.3200347966E+002
5610000000.000 -1.1226458921E+001 -1.1802257390E+002 -4.3024315828E+001 +1.1368134160E+002 -8.8618999173E+001 +8.4082306303E+001 -3.3652057688E+001 +1.3595257806E+002
5742500000.000 -1.1071283767E+001 -1.1830319176E+002 -4.2982072423E+001 +7.9849128237E+001 -8.9624723472E+001 -1.3674864960E+002 -3.7746302380E+001 +1.5303623002E+002
5875000000.000 -1.0972766750E+001 -1.1867585958E+002 -4.2969388274E+001 +4.4900747782E+001 -8.3037284898E+001 -2.4606590468E+001 -3.3752609171E+001 -1.7067770187E+002
6007500000.000 -1.0856006828E+001 -1.1865039314E+002 -4.2972801190E+001 +1.0401881174E+001 -9.3150280602E+001 +1.1131278773E+002 -3.2672764754E+001 +1.7949228454E+002
6140000000.000 -1.0688232323E+001 -1.1870289024E+002 -4.2959116733E+001 -2.3146389976E+001 -8.1471575475E+001 +1.6037679120E+002 -3.6095740733E+001 -1.6949233718E+002
6272500000.000 -1.0527527130E+001 -1.1928830007E+002 -4.2988085308E+001 -5.7753595573E+001 -9.1872116866E+001 -5.4799106120E+001 -3.3873011969E+001 -1.4426529874E+002
6405000000.000 -1.0443514282E+001 -1.1984448398E+002 -4.3037398489E+001 -9.1752139882E+001 -8.9614551522E+001 +1.5676686140E+002 -3.3814112680E+001 -1.6225083501E+002
6537500000.000 -1.0331768739E+001 -1.1975877567E+002 -4.3037515136E+001 -1.2583459815E+002 -8.6890683077E+001 +1.6871088906E+002 -4.0178831486E+001 -1.6059399935E+002
6670000000.000 -1.0141738191E+001 -1.1984944824E+002 -4.3009071697E+001 -1.5991804202E+002 -8.9095697722E+001 -7.2127652164E+001 -3.9365285675E+001 -1.3738362655E+002
6802500000.000 -9.9795364036E+000 -1.2053141159E+002 -4.3130880404E+001 +1.6562833613E+002 -8.9927788342E+001 +3.3328971278E+001 -3.8890023533E+001 +1.7905265120E+002
6935000000.000 -9.9117039990E+000 -1.2103556572E+002 -4.3106897685E+001 +1.3155015454E+002 -8.8152005700E+001 +1.7213764741E+002 -3.8567942811E+001 +1.2296908871E+002
7067500000.000 -9.8071581746E+000 -1.2083159459E+002 -4.3067134489E+001 +9.7584491902E+001 -8.7873700426E+001 -1.1420955492E+002 -3.8998731014E+001 +1.1489569936E+002
7200000000.000 -9.6216830936E+000 -1.2101550438E+002 -4.3142271898E+001 +6.3712140443E+001 -8.9858602982E+001 -4.8968239654E+000 -3.2860485059E+001 +1.3176458683E+002
7332500000.000 -9.4881086915E+000 -1.2168434144E+002 -4.3252588828E+001 +2.9086247497E+001 -8.4366807062E+001 +1.3277870155E+002 -2.9076446015E+001 +1.1911511541E+002
7465000000.000 -9.4003121333E+000 -1.2195369099E+002 -4.3187453832E+001 -4.5712483211E+000 -8.6919644955E+001 -9.1879894305E+001 -2.8638234368E+001 +1.2258176808E+002
7597500000.000 -9.2727149912E+000 -1.2192398956E+002 -4.3243776977E+001 -3.8522820315E+001 -8.5301247923E+001 -1.0489545074E+001 -2.6137060671E+001 +1.3761202178E+002
7730000000.000 -9.1055500885E+000 -1.2208707602E+002 -4.3198594820E+001 -7.2460956398E+001 -8.4895011911E+001 +1.4166406036E+002 -2.3739919136E+001 +1.3799067272E+002
7862500000.000 -8.9908184714E+000 -1.2238605186E+002 -4.3274357053E+001 -1.0703420529E+002 -8.5434993037E+001 +1.4948690782E+002 -2.3291146864E+001 +1.4149400856E+002
7995000000.000 -8.9075457573E+000 -1.2243772284E+002 -4.3230277203E+001 -1.4058512202E+002 -8.4628363505E+001 -3.8257413393E+001 -2.1841111343E+001 +1.5433512479E+002
8127500000.000 -8.7598892849E+000 -1.2228129716E+002 -4.3265471170E+001 -1.7376065044E+002 -9.5981153709E+001 -3.2029420704E+001 -2.0024523839E+001 +1.5654181054E+002
8260000000.000 -8.6372446334E+000 -1.2260459317E+002 -4.3173979689E+001 +1.5179190982E+002 -8.3511438483E+001 +1.4958577118E+002 -1.9860499054E+001 +1.6018760535E+002
8392500000.000 -8.5625863586E+000 -1.2258853633E+002 -4.3265499613E+001 +1.1821303738E+002 -8.6363290999E+001 +6.8758921563E+001 -1.9070647862E+001 +1.7044469407E+002
8525000000.000 -8.4760769624E+000 -1.2242119707E+002 -4.3249288344E+001 +8.3450604459E+001 -8.5214055447E+001 +6.3944718354E+001 -1.8211372834E+001 +1.7300759159E+002
8657500000.000 -8.3653637097E+000 -1.2241884397E+002 -4.3219586231E+001 +4.9798388446E+001 -8.3082593432E+001 +1.4024704049E+002 -1.8565537178E+001 +1.7795578192E+002
8790000000.000 -8.2596326850E+000 -1.2258989381E+002 -4.3156422539E+001 +1.5549771253E+001 -8.3292811785E+001 -1.0148361482E+002 -1.8354002305E+001 -1.7173614576E+002
8922500000.000 -8.2182302949E+000 -1.2272318411E+002 -4.3112546257E+001 -1.8692715967E+001 -8.5520553303E+001 +4.7973546288E+001 -1.7987282515E+001 -1.6595997241E+002
9055000000.000 -8.1372925715E+000 -1.2266283915E+002 -4.3166320714E+001 -5.2903910098E+001 -8.7608308798E+001 +1.0722745028E+002 -1.8463147106E+001 -1.5838425741E+002
9187500000.000 -8.0546148944E+000 -1.2279272014E+002 -4.3185382860E+001 -8.7337915084E+001 -8.2535875047E+001 -1.6661120941E+002 -1.8389751898E+001 -1.4627921196E+002
9320000000.000 -7.9770282037E+000 -1.2329703352E+002 -4.3174591669E+001 -1.2152998667E+002 -9.5076032981E+001 -3.1042406350E+001 -1.8214086484E+001 -1.3967586737E+002
9452500000.000 -7.9270408776E+000 -1.2348773357E+002 -4.3175942503E+001 -1.5561405931E+002 -9.2160797264E+001 +9.5352929827E+001 -1.8855023475E+001 -1.3058633377E+002
9585000000.000 -7.8526936328E+000 -1.2362299822E+002 -4.3161865260E+001 +1.7045881991E+002 -8.9446728446E+001 -1.2727522207E+002 -1.8798974395E+001 -1.1811021916E+002
9717500000.000 -7.7353086297E+000 -1.2393583880E+002 -4.3191767511E+001 +1.3588020240E+002 -8.2906215975E+001 -5.6675980531E+001 -1.8819181200E+001 -1.1107476819E+002
9850000000.000 -7.6850846715E+000 -1.2459938272E+002 -4.3146356832E+001 +1.0184065115E+002 -8.3126008141E+001 +6.4846906939E+001 -1.9663755611E+001 -1.0056682645E+002
9982500000.000 -7.6292318836E+000 -1.2456845500E+002 -4.3161326292E+001 +6.7965334902E+001 -8.2887575965E+001 -1.7878264418E+002 -1.9707575754E+001 -8.6417733539E+001
10115000000.000 -7.5362587695E+000 -1.2468672667E+002 -4.3217021031E+001 +3.4065387183E+001 -8.4781671163E+001 -8.0722664187E+001 -1.9920562980E+001 -7.8986538067E+001
10247500000.000 -7.4395093210E+000 -1.2525598190E+002 -4.3096668520E+001 -9.1709126358E-001 -8.3634260106E+001 +6.9308055310E+001 -2.1151679230E+001 -6.5918926787E+001
10380000000.000 -7.3913810635E+000 -1.2558194773E+002 -4.3136054241E+001 -3.4661559297E+001 -8.6491607446E+001 +1.0262388427E+002 -2.1073548800E+001 -4.9813165676E+001
10512500000.000 -7.3302050748E+000 -1.2574187592E+002 -4.3145250329E+001 -6.9261843129E+001 -9.1666426426E+001 -7.3500284707E+001 -2.1510709254E+001 -4.1805683835E+001
10645000000.000 -7.2495171225E+000 -1.2597391203E+002 -4.3095279199E+001 -1.0255652741E+002 -8.0726414601E+001 +5.0396771161E+001 -2.2822108599E+001 -2.3796339051E+001
10777500000.000 -7.1616781842E+000 -1.2630518581E+002 -4.3205460663E+001 -1.3696607505E+002 -8.1607891069E+001 +1.2148046044E+002 -2.2221686948E+001 -5.8333337087E+000
10910000000.000 -7.0910844083E+000 -1.2661791667E+002 -4.3124220914E+001 -1.7137854596E+002 -8.2979662746E+001 -6.1537896303E+001 -2.2791399671E+001 +4.4562662653E+000
11042500000.000 -7.0118875144E+000 -1.2693535880E+002 -4.3128357976E+001 +1.5446054339E+002 -8.5133515904E+001 -1.2479229778E+002 -2.3438922404E+001 +2.7673919511E+001
11175000000.000 -6.9224192435E+000 -1.2701577302E+002 -4.3188046316E+001 +1.2029248840E+002 -8.0218518436E+001 +1.1075432986E+002 -2.2271903574E+001 +4.2808242228E+001
11307500000.000 -6.8612229400E+000 -1.2713956818E+002 -4.3183906125E+001 +8.5847684327E+001 -9.0589050466E+001 +1.4810525583E+002 -2.2737282539E+001 +5.3374822777E+001
11440000000.000 -6.7739393199E+000 -1.2741186137E+002 -4.3165780808E+001 +5.2043598010E+001 -8.9012486712E+001 -1.6262908450E+002 -2.2577047665E+001 +7.5799007371E+001
11572500000.000 -6.7082729149E+000 -1.2732488086E+002 -4.3191824958E+001 +1.7245877111E+001 -9.3261659415E+001 +4.5184118466E+001 -2.1171324882E+001 +8.7102371809E+001
11705000000.000 -6.6476681320E+000 -1.2740403933E+002 -4.3218257411E+001 -1.6605051168E+001 -8.2967313073E+001 -1.2942233709E+002 -2.1772308963E+001 +9.7164579282E+001
11837500000.000 -6.5744615298E+000 -1.2757847776E+002 -4.3196876080E+001 -5.0793641712E+001 -8.0873019027E+001 -2.8130518081E+001 -2.1130582987E+001 +1.1933388590E+002
11970000000.000 -6.5532159407E+000 -1.2767491582E+002 -4.3167143145E+001 -8.5713690935E+001 -9.0299519301E+001 +1.4553870369E+002 -1.9824555390E+001 +1.2557004744E+002
12102500000.000 -6.5178442933E+000 -1.2748832660E+002 -4.3098789073E+001 -1.1986083412E+002 -8.3765209644E+001 +1.3641688005E+002 -2.0749435453E+001 +1.3547342452E+002
12235000000.000 -6.4434346002E+000 -1.2797802771E+002 -4.3043351140E+001 -1.5447570839E+002 -7.6961044184E+001 -4.2518671437E+001 -1.9772759867E+001 +1.5466911684E+002
12367500000.000 -6.4336199843E+000 -1.2800428660E+002 -4.3158572560E+001 +1.7083489932E+002 -8.9073620716E+001 +6.2180002213E+001 -1.8874843524E+001 +1.5800462451E+002
12500000000.000 -6.3980780079E+000 -1.2837631493E+002 -4.3246224386E+001 +1.3712701886E+002 -7.8533815057E+001 +1.3616019124E+002 -2.0050906295E+001 +1.6816274790E+002
12632500000.000 -6.3347798471E+000 -1.2841687982E+002 -4.3345322918E+001 +1.0234717829E+002 -1.0002248604E+002 -1.1573360888E+002 -1.9166505053E+001 -1.7289493335E+002
12765000000.000 -6.3022123679E+000 -1.2865755167E+002 -4.3318811756E+001 +6.8999280047E+001 -9.0318672159E+001 -9.1875095397E+001 -1.8514669852E+001 -1.7125845949E+002
12897500000.000 -6.2849961069E+000 -1.2897144621E+002 -4.3326106041E+001 +3.3632280577E+001 -8.4786971114E+001 +6.4196053859E+001 -2.0127066556E+001 -1.5936296516E+002
13030000000.000 -6.2507782211E+000 -1.2911267114E+002 -4.3352750197E+001 -6.1694579073E-001 -8.4892040622E+001 -1.2078438635E+002 -1.8855166356E+001 -1.4153406814E+002
13162500000.000 -6.1996219732E+000 -1.2923490167E+002 -4.3302563585E+001 -3.5113798815E+001 -8.2499080354E+001 -4.7580813774E+001 -1.8649934083E+001 -1.4150733318E+002
13295000000.000 -6.1578946938E+000 -1.2941914256E+002 -4.3322242125E+001 -6.9718175915E+001 -8.4005702261E+001 +1.0785261201E+002 -2.0031445940E+001 -1.2785574461E+002
13427500000.000 -6.1313410531E+000 -1.2983368793E+002 -4.3373903642E+001 -1.0256595246E+002 -8.2979095855E+001 -1.6955660874E+002 -1.8857615142E+001 -1.1420764889E+002
13560000000.000 -6.1276982342E+000 -1.2983208957E+002 -4.3381054043E+001 -1.3766257023E+002 -9.2479782161E+001 -1.1616245021E+002 -1.9056394623E+001 -1.1458739757E+002
13692500000.000 -6.0708035201E+000 -1.2989338893E+002 -4.3394829118E+001 -1.7209150389E+002 -8.0987569939E+001 +2.4113034403E+001 -2.0818860538E+001 -1.0129391780E+002
13825000000.000 -6.0102690632E+000 -1.3025369012E+002 -4.3421472571E+001 +1.5303184683E+002 -8.4627000970E+001 +3.6373567236E+001 -1.9738103178E+001 -8.7643190896E+001
13957500000.000 -6.0023590067E+000 -1.3065655760E+002 -4.3412096541E+001 +1.1784825336E+002 -8.3105535018E+001 -2.6271614186E+001 -2.0407118177E+001 -9.0114527271E+001
14090000000.000 -5.9788515758E+000 -1.3071397558E+002 -4.3454577385E+001 +8.4299522678E+001 -7.7369677883E+001 +7.2220247541E+001 -2.2671525510E+001 -7.2633029570E+001
14222500000.000 -5.9169121528E+000 -1.3062809342E+002 -4.3529350472E+001 +5.0456486888E+001 -8.8663027104E+001 +4.0004692768E+001 -2.1285378129E+001 -5.9340045986E+001
14355000000.000 -5.8535109721E+000 -1.3103570466E+002 -4.3453028220E+001 +1.5616171210E+001 -7.8665353166E+001 -1.5681030228E+002 -2.2513241594E+001 -6.3763923686E+001
14487500000.000 -5.8225429831E+000 -1.3128239290E+002 -4.3531318544E+001 -1.9161486793E+001 -8.9782629447E+001 +3.9580740786E+001 -2.5580880680E+001 -4.0322741884E+001
14620000000.000 -5.7976066955E+000 -1.3115418209E+002 -4.3555980334E+001 -5.4010588663E+001 -7.9607759047E+001 +1.3928717526E+002 -2.3280056113E+001 -2.7220283776E+001
14752500000.000 -5.7016889367E+000 -1.3108777777E+002 -4.3534839795E+001 -8.7666083614E+001 -8.8991976866E+001 +1.2197623729E+002 -2.5361503095E+001 -3.6865845754E+001
14885000000.000 -5.6531862356E+000 -1.3120106196E+002 -4.3591288930E+001 -1.2202049031E+002 -8.1947597893E+001 -1.5443238716E+002 -2.9008422917E+001 +2.5504851985E+000
15017500000.000 -5.6277884040E+000 -1.3114347722E+002 -4.3800217092E+001 -1.5717229843E+002 -8.1015858796E+001 +1.1287252536E+002 -2.5388376436E+001 +9.3757914310E+000
15150000000.000 -5.5696075592E+000 -1.3093746578E+002 -4.3851134588E+001 +1.6884366396E+002 -8.6771252715E+001 -1.4397673282E+002 -2.9096082587E+001 -2.5202604451E+000
15282500000.000 -5.5306612028E+000 -1.3082679543E+002 -4.3895177523E+001 +1.3421799301E+002 -8.7008672705E+001 -3.5010829146E+001 -3.1243659865E+001 +5.8015118142E+001
