!  2-Port S-parameters saved by WinCal
! VAR MeasName=S-Parameters (CALIBRATED_DATA) read from VNA (C)
! VAR MeasDate=10/16/2015 4:00:51 PM
! VAR NAME=M6082_10_17_2_2_20C_12.9mA_-17.5dBm
! VAR FILENAME=M6082_10_17_2_2_20C_12.9mA_-17.5dBm.S2P
! VAR DATE=10/16/2015 4:00:52 PM
! VAR PHYS_PORTS=2,1
! VAR ObjTypeName=DATASET
! VAR IndexType=Frequency
!
# Hz S DB R 50
45000000.000 -1.6835631694E+001 -1.7914363370E+002 -4.2931605311E+001 +1.0138727595E+002 -6.3926240134E+001 +2.2427279328E+001 -3.0479383680E+001 +4.5386103957E+000
177500000.000 -1.6903571824E+001 -1.7639235667E+002 -4.3018079867E+001 +6.9018712872E+001 -7.0449856843E+001 +1.3761566312E+002 -3.2762128919E+001 +4.7630622427E+001
310000000.000 -1.6894770870E+001 -1.7319353254E+002 -4.3175442024E+001 +3.9534060210E+001 -8.1022601763E+001 -1.2926017993E+002 -2.3333684112E+001 +6.4767969262E+001
442500000.000 -1.6849082095E+001 -1.7002267567E+002 -4.2016776276E+001 +2.2399895911E-001 -8.6016135025E+001 -8.1964762463E+000 -2.2383527980E+001 +1.7397256756E+001
575000000.000 -1.6720838271E+001 -1.6655322242E+002 -4.2614643071E+001 -3.5685520097E+001 -9.0394765009E+001 -1.7991700364E+002 -3.0636708357E+001 +2.2482989001E+001
707500000.000 -1.6556967951E+001 -1.6366721706E+002 -4.2833156025E+001 -6.9660624883E+001 -7.6086581121E+001 -1.2489663244E+002 -3.4505791617E+001 +8.4050249800E+001
840000000.000 -1.6385497511E+001 -1.6050094882E+002 -4.2792288496E+001 -1.0443469241E+002 -8.8069664716E+001 -3.9424972695E+001 -2.9675139890E+001 +1.2733629131E+002
972500000.000 -1.6185547136E+001 -1.5753250613E+002 -4.2995865899E+001 -1.3832673934E+002 -8.4588445962E+001 +3.6296846735E+001 -2.5957526452E+001 +1.3540813078E+002
1105000000.000 -1.5918748435E+001 -1.5481225618E+002 -4.2946297720E+001 -1.7275486440E+002 -8.0233476910E+001 -1.2899675578E+002 -2.4357753195E+001 +1.4078856415E+002
1237500000.000 -1.5661376914E+001 -1.5248348807E+002 -4.3036821986E+001 +1.5394104997E+002 -8.1852114978E+001 -3.8833087491E+001 -2.3401980953E+001 +1.5007664025E+002
1370000000.000 -1.5371408711E+001 -1.5035281206E+002 -4.3035571786E+001 +1.1943775460E+002 -8.3825219134E+001 +1.0546128573E+002 -2.2075130220E+001 +1.5999555215E+002
1502500000.000 -1.5103488687E+001 -1.4831394592E+002 -4.3249072572E+001 +8.5447931190E+001 -1.0719181079E+002 +1.3648215118E+001 -2.0873656779E+001 +1.6641806135E+002
1635000000.000 -1.4807309000E+001 -1.4615122989E+002 -4.3084161288E+001 +5.0840551376E+001 -8.1361167159E+001 -6.3890482876E+001 -2.0032799508E+001 +1.7329541819E+002
1767500000.000 -1.4496306030E+001 -1.4455778093E+002 -4.3137234868E+001 +1.6321836826E+001 -9.3488472646E+001 -9.3506972867E+001 -1.9021429958E+001 +1.7853720588E+002
1900000000.000 -1.4236169170E+001 -1.4310894073E+002 -4.3207030994E+001 -1.7295671206E+001 -8.4558485599E+001 +1.7237651136E+002 -1.8869169888E+001 -1.7821901968E+002
2032500000.000 -1.3945959953E+001 -1.4176047409E+002 -4.3263317115E+001 -5.2621316730E+001 -8.0747130223E+001 -4.1537144002E+001 -1.8689984914E+001 -1.6788568191E+002
2165000000.000 -1.3646829579E+001 -1.4028492477E+002 -4.3373000155E+001 -8.5309624391E+001 -8.7699095473E+001 +7.7261385452E+001 -1.7755405579E+001 -1.6091117050E+002
2297500000.000 -1.3378946707E+001 -1.3928897355E+002 -4.3438873468E+001 -1.2069574144E+002 -8.6298516548E+001 +1.4839408591E+002 -1.7233395002E+001 -1.5704267630E+002
2430000000.000 -1.3116407728E+001 -1.3833507130E+002 -4.3611597333E+001 -1.5353772224E+002 -7.9829413942E+001 -1.0288135565E+002 -1.6957152583E+001 -1.5284413544E+002
2562500000.000 -1.2833028806E+001 -1.3733835534E+002 -4.3527123693E+001 +1.7309012982E+002 -7.9748359185E+001 +5.7330180125E+001 -1.6834868086E+001 -1.5045434927E+002
2695000000.000 -1.2552287005E+001 -1.3693326752E+002 -4.3551942100E+001 +1.3742879792E+002 -8.3362396234E+001 +1.5403944572E+002 -1.7378058582E+001 -1.4712396999E+002
2827500000.000 -1.2317335433E+001 -1.3661733048E+002 -4.3710958587E+001 +1.0243408863E+002 -8.5062815173E+001 -9.0927158981E+001 -1.7857364263E+001 -1.4028364565E+002
2960000000.000 -1.2087065590E+001 -1.3591608755E+002 -4.3787700843E+001 +7.0326279305E+001 -7.8545194724E+001 +9.1821825767E+001 -1.8164762113E+001 -1.3535282364E+002
3092500000.000 -1.1801601643E+001 -1.3538007391E+002 -4.3569401607E+001 +3.6467721611E+001 -9.6297243603E+001 -4.8273439427E+001 -1.9087488324E+001 -1.2921879922E+002
3225000000.000 -1.1527617755E+001 -1.3529251908E+002 -4.3849419973E+001 +2.4221740990E+000 -8.0329514221E+001 -9.3609385773E+001 -1.9590178764E+001 -1.1968643682E+002
3357500000.000 -1.1327717792E+001 -1.3517311227E+002 -4.4020991136E+001 -3.3322290327E+001 -8.4429310723E+001 +1.1355631550E+002 -1.9973475881E+001 -1.1421492869E+002
3490000000.000 -1.1079794091E+001 -1.3466573045E+002 -4.3886546573E+001 -6.6337585017E+001 -8.8034438332E+001 -3.4833710859E+001 -2.1129721354E+001 -1.0841212088E+002
3622500000.000 -1.0823828165E+001 -1.3429390119E+002 -4.3877907443E+001 -9.9715014004E+001 -8.0331276872E+001 -1.3836204116E+002 -2.1950955161E+001 -9.8269788424E+001
3755000000.000 -1.0574298379E+001 -1.3416351035E+002 -4.3999361737E+001 -1.3557405612E+002 -7.9792900067E+001 -3.1940653974E+001 -2.2714434920E+001 -9.4632646680E+001
3887500000.000 -1.0369077407E+001 -1.3399638097E+002 -4.3869873810E+001 -1.6755979478E+002 -7.8033776443E+001 +5.9263049328E+001 -2.5049316255E+001 -8.7732277491E+001
4020000000.000 -1.0176141345E+001 -1.3385581287E+002 -4.3968859645E+001 +1.5723310823E+002 -8.7741558200E+001 -1.0442862894E+001 -2.6680281129E+001 -7.3305047246E+001
4152500000.000 -9.9610620204E+000 -1.3352366659E+002 -4.3868989935E+001 +1.2235260829E+002 -8.2483751201E+001 -8.6551793142E+001 -2.8880986666E+001 -6.4812782704E+001
4285000000.000 -9.7551654524E+000 -1.3341851728E+002 -4.4021790184E+001 +8.8782279005E+001 -8.0888184652E+001 -2.6303891910E+001 -3.3363694983E+001 -3.7143244070E+001
4417500000.000 -9.5581462438E+000 -1.3349767185E+002 -4.4168209008E+001 +5.4043546637E+001 -8.9289964272E+001 -1.5527112455E+002 -3.1731419936E+001 +8.0877480942E+000
4550000000.000 -9.3973601707E+000 -1.3336649624E+002 -4.4374380563E+001 +1.9288446109E+001 -8.1872147660E+001 -1.1535713311E+002 -3.0329439206E+001 +1.8392383495E+001
4682500000.000 -9.2160429544E+000 -1.3313845311E+002 -4.4590924190E+001 -1.4212169253E+001 -8.1874702592E+001 +8.7573148377E+001 -2.9651205884E+001 +3.8902710750E+001
4815000000.000 -9.0252469972E+000 -1.3313695308E+002 -4.4345402843E+001 -4.5090801476E+001 -8.3743926407E+001 +1.0046025694E+002 -2.7630455997E+001 +4.1340351516E+001
4947500000.000 -8.8741170851E+000 -1.3312614608E+002 -4.4499349940E+001 -8.0292633809E+001 -8.3431277798E+001 -1.5596223152E+002 -2.9367114008E+001 +3.5804732457E+001
5080000000.000 -8.7299999318E+000 -1.3293391454E+002 -4.4472323274E+001 -1.1469179690E+002 -1.0420790565E+002 -1.6156710555E+002 -3.2225951861E+001 +5.7116809605E+001
5212500000.000 -8.5691844226E+000 -1.3286564862E+002 -4.4344924243E+001 -1.4721279803E+002 -8.4169752681E+001 +9.2208299076E+001 -3.1545433724E+001 +6.9662379837E+001
5345000000.000 -8.4196193579E+000 -1.3301136214E+002 -4.4345010346E+001 +1.7878792941E+002 -8.3376381732E+001 -1.7082391621E+002 -3.5339843381E+001 +7.1404389394E+001
5477500000.000 -8.3206614281E+000 -1.3293877690E+002 -4.4149968368E+001 +1.4406542279E+002 -9.1791911237E+001 +1.5515758235E+000 -3.7223357263E+001 +1.3160206113E+002
5610000000.000 -8.1810471969E+000 -1.3281775502E+002 -4.4301803024E+001 +1.1005913621E+002 -8.3846194461E+001 +9.5682483792E+001 -3.3651457521E+001 +1.3578413662E+002
5742500000.000 -8.0406131717E+000 -1.3300732343E+002 -4.4231106753E+001 +7.5927087238E+001 -8.2809593228E+001 +1.7703728631E+002 -3.7711150212E+001 +1.5270361698E+002
5875000000.000 -7.9483819321E+000 -1.3335733908E+002 -4.4129384893E+001 +4.1302311354E+001 -8.3074314647E+001 -5.6596685190E+001 -3.3755487866E+001 -1.7054774535E+002
6007500000.000 -7.8508052824E+000 -1.3340318032E+002 -4.4351916030E+001 +6.9452064749E+000 -8.7796722784E+001 -9.6457218046E+000 -3.2681536566E+001 +1.7969177140E+002
6140000000.000 -7.7193802550E+000 -1.3340009283E+002 -4.4318522637E+001 -2.7063236589E+001 -8.9614845880E+001 +1.7187583309E+002 -3.6140107736E+001 -1.6951809281E+002
6272500000.000 -7.5804360404E+000 -1.3380882198E+002 -4.4487047368E+001 -6.2405702051E+001 -9.2626589939E+001 -9.3195914870E+001 -3.3901494454E+001 -1.4454636355E+002
6405000000.000 -7.4961855153E+000 -1.3431420676E+002 -4.4351721900E+001 -9.5708798494E+001 -8.3546737222E+001 +2.0849171449E+001 -3.3828888138E+001 -1.6218576726E+002
6537500000.000 -7.4022519676E+000 -1.3429983847E+002 -4.4551835971E+001 -1.3039635315E+002 -8.9139690450E+001 +1.5010934559E+002 -4.0143565607E+001 -1.6043716811E+002
6670000000.000 -7.2586375249E+000 -1.3430989457E+002 -4.4750217083E+001 -1.6360166837E+002 -8.2849330988E+001 -9.2125044517E+001 -3.9389274916E+001 -1.3695954406E+002
6802500000.000 -7.1232341756E+000 -1.3479505223E+002 -4.4535692324E+001 +1.6127886958E+002 -8.6356435831E+001 -4.1285686774E+001 -3.8834677170E+001 +1.7934060561E+002
6935000000.000 -7.0517900318E+000 -1.3524364447E+002 -4.4699350600E+001 +1.2683704591E+002 -8.8075575976E+001 +1.3647536843E+002 -3.8569967086E+001 +1.2249838535E+002
7067500000.000 -6.9751417690E+000 -1.3514628208E+002 -4.4775894673E+001 +9.3285276475E+001 -9.1997309321E+001 -1.7722964735E+002 -3.9018603234E+001 +1.1444092551E+002
7200000000.000 -6.8362838339E+000 -1.3517791554E+002 -4.4901216930E+001 +5.9675102314E+001 -8.0796960718E+001 -4.8909006730E+000 -3.2868828575E+001 +1.3148559483E+002
7332500000.000 -6.7175282648E+000 -1.3567387930E+002 -4.4905965021E+001 +2.5807385260E+001 -1.0413468547E+002 +1.1748891069E+002 -2.9060858502E+001 +1.1911470565E+002
7465000000.000 -6.6455949720E+000 -1.3592477387E+002 -4.4818201263E+001 -8.7165007286E+000 -8.7749090311E+001 +1.3586497512E+001 -2.8628251817E+001 +1.2239107168E+002
7597500000.000 -6.5568866934E+000 -1.3589301632E+002 -4.5158370995E+001 -4.2189484407E+001 -9.4154382442E+001 +1.8404818072E+001 -2.6167499188E+001 +1.3747644373E+002
7730000000.000 -6.4265139704E+000 -1.3595486284E+002 -4.5154661682E+001 -7.5293818828E+001 -8.4461240049E+001 +2.2101495632E+001 -2.3721693493E+001 +1.3787750917E+002
7862500000.000 -6.3314720678E+000 -1.3619439692E+002 -4.5062264796E+001 -1.0961416002E+002 -8.2615461218E+001 -1.4897886163E+002 -2.3271962767E+001 +1.4150909162E+002
7995000000.000 -6.2675040964E+000 -1.3627851260E+002 -4.5113164121E+001 -1.4309810867E+002 -8.6431226931E+001 -7.0862344240E+001 -2.1854463251E+001 +1.5426873640E+002
8127500000.000 -6.1662451773E+000 -1.3609895023E+002 -4.5237216456E+001 -1.7658032468E+002 -8.4732625546E+001 +1.4620632081E+002 -2.0029494235E+001 +1.5653475065E+002
8260000000.000 -6.0632955725E+000 -1.3634573910E+002 -4.5228659901E+001 +1.4836129082E+002 -8.1296094282E+001 +1.5527037567E+002 -1.9859061554E+001 +1.6016130389E+002
8392500000.000 -6.0084241801E+000 -1.3640518891E+002 -4.5183016658E+001 +1.1461416761E+002 -8.2996609306E+001 +1.7529016890E+002 -1.9073825153E+001 +1.7042721921E+002
8525000000.000 -5.9464155341E+000 -1.3632161742E+002 -4.5320498799E+001 +8.1000118136E+001 -8.3600446599E+001 -2.9662131181E+001 -1.8215957270E+001 +1.7300567474E+002
8657500000.000 -5.8645849080E+000 -1.3628371398E+002 -4.5396509362E+001 +4.7746493453E+001 -8.5356360206E+001 +1.2910757441E+002 -1.8566188462E+001 +1.7797231675E+002
8790000000.000 -5.7798402594E+000 -1.3645770348E+002 -4.5342602419E+001 +1.3021890573E+001 -8.7946625625E+001 -1.3651298653E+002 -1.8353376075E+001 -1.7172030065E+002
8922500000.000 -5.7474632786E+000 -1.3662966499E+002 -4.5465140783E+001 -2.0953790788E+001 -8.7199166006E+001 +2.9845549586E+001 -1.7987218755E+001 -1.6595829062E+002
9055000000.000 -5.6850450587E+000 -1.3661918283E+002 -4.5285796548E+001 -5.4312610917E+001 -8.7075673484E+001 +1.3959947085E+002 -1.8464094067E+001 -1.5834040641E+002
9187500000.000 -5.6209349178E+000 -1.3672776470E+002 -4.5441226497E+001 -8.9838985431E+001 -9.4275274063E+001 -1.6321165052E+002 -1.8389753120E+001 -1.4630539994E+002
9320000000.000 -5.5506979193E+000 -1.3719904189E+002 -4.5467995481E+001 -1.2330255063E+002 -8.1285032223E+001 -3.2913065006E+001 -1.8206496685E+001 -1.3965537682E+002
9452500000.000 -5.5108351116E+000 -1.3742584224E+002 -4.5438936881E+001 -1.5674370307E+002 -8.5774690305E+001 +1.0106537756E+002 -1.8856409578E+001 -1.3061688137E+002
9585000000.000 -5.4561993793E+000 -1.3757993998E+002 -4.5498875453E+001 +1.6876474363E+002 -9.9601249593E+001 -1.7505520522E+002 -1.8801860463E+001 -1.1819165743E+002
9717500000.000 -5.3658813636E+000 -1.3778510452E+002 -4.5619245159E+001 +1.3458864329E+002 -8.0520548913E+001 -1.5118567456E+001 -1.8807559004E+001 -1.1108812397E+002
9850000000.000 -5.3160660978E+000 -1.3839939866E+002 -4.5551039781E+001 +1.0031040258E+002 -8.1287649532E+001 +1.1482666398E+002 -1.9658078514E+001 -1.0067528937E+002
9982500000.000 -5.2779681681E+000 -1.3840951924E+002 -4.5554804137E+001 +6.7327749034E+001 -8.3126019246E+001 -1.5780322626E+002 -1.9710228649E+001 -8.6359447646E+001
10115000000.000 -5.2098824357E+000 -1.3851261630E+002 -4.5696949729E+001 +3.3331622248E+001 -9.9091616655E+001 -2.5565526377E+001 -1.9919085799E+001 -7.8981816233E+001
10247500000.000 -5.1288271992E+000 -1.3891041109E+002 -4.5687020093E+001 -1.4093612251E+000 -8.4596028770E+001 +1.0626440754E+002 -2.1146627863E+001 -6.6064860690E+001
10380000000.000 -5.0924821759E+000 -1.3926610725E+002 -4.5835120817E+001 -3.4510451294E+001 -8.7918445924E+001 +1.0962166884E+002 -2.1087608677E+001 -4.9796371742E+001
10512500000.000 -5.0521373852E+000 -1.3941821449E+002 -4.5878440130E+001 -6.9312148013E+001 -8.6763556152E+001 +1.5545463891E+002 -2.1502719997E+001 -4.1720287628E+001
10645000000.000 -4.9939974386E+000 -1.3955727618E+002 -4.5865435808E+001 -1.0228050844E+002 -8.6833528227E+001 +1.7975406500E+001 -2.2812498362E+001 -2.3857571432E+001
10777500000.000 -4.9221247416E+000 -1.3982353910E+002 -4.5954609876E+001 -1.3651096631E+002 -9.0329365812E+001 -1.7012593486E+002 -2.2230607678E+001 -5.7569844222E+000
10910000000.000 -4.8702665841E+000 -1.4012088910E+002 -4.6017481484E+001 -1.7134229297E+002 -7.8040713306E+001 -1.0067385852E+002 -2.2787389225E+001 +4.5237097610E+000
11042500000.000 -4.8158912525E+000 -1.4034390378E+002 -4.6001884279E+001 +1.5607543306E+002 -8.9352272459E+001 +1.0968311174E+002 -2.3438920256E+001 +2.7596936133E+001
11175000000.000 -4.7528820618E+000 -1.4037706837E+002 -4.6058062252E+001 +1.2188235306E+002 -8.7478046900E+001 +1.3526239706E+002 -2.2284884825E+001 +4.2786854320E+001
11307500000.000 -4.7096006988E+000 -1.4048589334E+002 -4.6154476403E+001 +8.7082727976E+001 -9.1931759500E+001 -1.5351978252E+002 -2.2742006861E+001 +5.3374056819E+001
11440000000.000 -4.6462140193E+000 -1.4070145628E+002 -4.6009911988E+001 +5.2435900035E+001 -8.6524327450E+001 +4.1403811962E+001 -2.2572513527E+001 +7.5812637108E+001
11572500000.000 -4.6066820977E+000 -1.4062058030E+002 -4.5959951400E+001 +1.9231148967E+001 -8.1780356167E+001 -1.6772865881E+002 -2.1176987900E+001 +8.7097974341E+001
11705000000.000 -4.5639881945E+000 -1.4066752394E+002 -4.6262421803E+001 -1.4701239303E+001 -8.8838286747E+001 -1.5831152734E+002 -2.1781939491E+001 +9.7175273748E+001
11837500000.000 -4.5114504941E+000 -1.4079093848E+002 -4.6160120445E+001 -4.8489695301E+001 -1.0840936819E+002 +1.9914682933E+001 -2.1126040605E+001 +1.1933132310E+002
11970000000.000 -4.4984865800E+000 -1.4093247860E+002 -4.6202563956E+001 -8.2498828589E+001 -8.4822928221E+001 +3.5697207008E+001 -1.9818704664E+001 +1.2558719489E+002
12102500000.000 -4.4838353741E+000 -1.4081830793E+002 -4.6066780019E+001 -1.1667560137E+002 -9.2269112268E+001 -1.6172857874E+002 -2.0748928879E+001 +1.3547002746E+002
12235000000.000 -4.4250418662E+000 -1.4116066438E+002 -4.6218689030E+001 -1.5072142103E+002 -9.5094463413E+001 +4.3504752755E+001 -1.9776966321E+001 +1.5461825871E+002
12367500000.000 -4.4210865061E+000 -1.4129544398E+002 -4.6328291239E+001 +1.7549187794E+002 -8.2279921579E+001 +6.5270795127E+001 -1.8877300689E+001 +1.5806020810E+002
12500000000.000 -4.3928303510E+000 -1.4161844861E+002 -4.6393292309E+001 +1.4228021859E+002 -8.3284037267E+001 -1.7036611259E+002 -2.0047817876E+001 +1.6806595330E+002
12632500000.000 -4.3627134820E+000 -1.4161703421E+002 -4.6412946649E+001 +1.0664859550E+002 -9.4505272138E+001 -1.4715509242E+002 -1.9180739404E+001 -1.7292530975E+002
12765000000.000 -4.3318250374E+000 -1.4183840727E+002 -4.6473098815E+001 +7.2237674748E+001 -9.2459995516E+001 -9.8724364623E+001 -1.8513650527E+001 -1.7123899384E+002
12897500000.000 -4.3168440532E+000 -1.4210195077E+002 -4.6585349680E+001 +3.9602865360E+001 -9.5881878036E+001 +1.1031638852E+002 -2.0121368985E+001 -1.5948364479E+002
13030000000.000 -4.3002627194E+000 -1.4227950019E+002 -4.6425501171E+001 +4.9065076321E+000 -8.4524444893E+001 -8.2314053897E+001 -1.8860472656E+001 -1.4153807851E+002
13162500000.000 -4.2658793198E+000 -1.4233715653E+002 -4.6728732850E+001 -2.8914683022E+001 -8.5045444537E+001 -9.3304173169E+001 -1.8654197844E+001 -1.4148256555E+002
13295000000.000 -4.2320174791E+000 -1.4246776442E+002 -4.6471139718E+001 -6.2633202584E+001 -9.8425040605E+001 +1.6564204333E+002 -2.0029900543E+001 -1.2786171108E+002
13427500000.000 -4.2166976724E+000 -1.4282750912E+002 -4.6679415095E+001 -9.5597096226E+001 -8.6836485155E+001 -1.6875812129E+002 -1.8864492349E+001 -1.1420492218E+002
13560000000.000 -4.2192634332E+000 -1.4285925139E+002 -4.6646410212E+001 -1.2991703732E+002 -8.3105863795E+001 -5.8713301901E+001 -1.9053259473E+001 -1.1454776724E+002
13692500000.000 -4.1806296631E+000 -1.4287969399E+002 -4.6955638339E+001 -1.6234249556E+002 -8.7730321947E+001 -1.6344239003E+002 -2.0806658736E+001 -1.0129252921E+002
13825000000.000 -4.1363444435E+000 -1.4314389622E+002 -4.6712398650E+001 +1.6198887447E+002 -8.2846784933E+001 -8.6505338502E+001 -1.9730415313E+001 -8.7700413144E+001
13957500000.000 -4.1311467942E+000 -1.4348177839E+002 -4.6807279704E+001 +1.2732604078E+002 -8.7861066633E+001 -1.0295546413E+002 -2.0409218052E+001 -9.0029784272E+001
14090000000.000 -4.1171138703E+000 -1.4353626532E+002 -4.6562363106E+001 +9.4220283886E+001 -8.7941960503E+001 +5.4194248390E+001 -2.2674260977E+001 -7.2571291837E+001
14222500000.000 -4.0833072893E+000 -1.4341885076E+002 -4.6907047741E+001 +6.0791405379E+001 -8.8055169871E+001 +1.4520247175E+002 -2.1279748104E+001 -5.9376768684E+001
14355000000.000 -4.0311340108E+000 -1.4370414791E+002 -4.6960051397E+001 +2.5287968262E+001 -7.9053868739E+001 -1.1153624365E+002 -2.2517015818E+001 -6.3748394228E+001
14487500000.000 -4.0055994792E+000 -1.4381727266E+002 -4.6944417070E+001 -7.7570915836E+000 -8.0830616783E+001 -8.6425423663E+001 -2.5597071312E+001 -4.0222423144E+001
14620000000.000 -3.9966156166E+000 -1.4376447995E+002 -4.7144586512E+001 -4.1914753814E+001 -8.5423538387E+001 -1.4874679219E+002 -2.3264898624E+001 -2.7299572211E+001
14752500000.000 -3.9351167612E+000 -1.4357625531E+002 -4.7133078037E+001 -7.4276415121E+001 -8.2134230816E+001 -9.7746484403E+001 -2.5364553374E+001 -3.6997577181E+001
14885000000.000 -3.8876505089E+000 -1.4362306654E+002 -4.6923455367E+001 -1.0960835204E+002 -8.0666270949E+001 +9.2323677714E+001 -2.9031036553E+001 +2.6004568495E+000
15017500000.000 -3.8724288226E+000 -1.4360199454E+002 -4.7178078198E+001 -1.4514671085E+002 -7.9414793437E+001 +1.3075625711E+002 -2.5364000584E+001 +9.5382825404E+000
15150000000.000 -3.8444359822E+000 -1.4340285179E+002 -4.7389465396E+001 -1.7820859086E+002 -8.5389057528E+001 -1.2693737913E+002 -2.9020020353E+001 -2.6342426512E+000
15282500000.000 -3.8138661222E+000 -1.4325487638E+002 -4.7396481004E+001 +1.4805162024E+002 -8.5930768185E+001 -5.0398908028E+001 -3.1301253647E+001 +5.8098869349E+001
