!  2-Port S-parameters saved by WinCal
! VAR NAME=M6082_13_17_2_2_20C_4.8mA_-17.5dBm
! VAR DATE=10/16/2015 2:04:51 PM
! VAR FILENAME=M6082_13_17_2_2_20C_4.8mA_-17.5dBm.S2P
! VAR MeasName=S-Parameters (CALIBRATED_DATA) read from VNA (C)
! VAR MeasDate=10/16/2015 2:03:17 PM
! VAR PHYS_PORTS=2,1
! VAR ObjTypeName=DATASET
! VAR IndexType=Frequency
!
# Hz S DB R 50
45000000.000 -4.7141207382E+001 -1.7376175488E+002 -4.2045048513E+001 +1.0544008988E+002 -6.4081115835E+001 +1.1717710486E+002 -3.0523387143E+001 +7.3112205461E+000
177500000.000 -4.1458037113E+001 -1.1550787212E+002 -4.3408815735E+001 +6.7060878539E+001 -7.6621168060E+001 +5.1288004873E+001 -3.2734503584E+001 +4.5944129699E+001
310000000.000 -3.6745465222E+001 -1.0428361100E+002 -4.3395089570E+001 +3.8922830726E+001 -8.2280860552E+001 +1.7410575832E+002 -2.3344676979E+001 +6.4531130630E+001
442500000.000 -3.3461193599E+001 -1.0031497578E+002 -4.2423936772E+001 +3.1781505156E-001 -7.6708334211E+001 -3.9336251345E+000 -2.2375989597E+001 +1.7315458016E+001
575000000.000 -3.1001595061E+001 -9.8693383098E+001 -4.3017617050E+001 -3.6268182212E+001 -9.1492472323E+001 +1.0600292066E+002 -3.0614060401E+001 +2.2489479549E+001
707500000.000 -2.9235284469E+001 -9.8720418165E+001 -4.3198385058E+001 -7.0701009817E+001 -8.3680738459E+001 -1.4664545709E+002 -3.4473576283E+001 +8.3441039027E+001
840000000.000 -2.7653175638E+001 -9.7634732037E+001 -4.3269377304E+001 -1.0360419320E+002 -8.1688919331E+001 -4.8869193412E+001 -2.9699842628E+001 +1.2734529835E+002
972500000.000 -2.6351831968E+001 -9.6914915680E+001 -4.3477133463E+001 -1.3852661072E+002 -8.3136207351E+001 +9.5336671945E+001 -2.5947336311E+001 +1.3537087105E+002
1105000000.000 -2.5198432148E+001 -9.7352888242E+001 -4.3328954568E+001 -1.7246508344E+002 -8.8653593409E+001 -1.6421102373E+002 -2.4363942691E+001 +1.4072724050E+002
1237500000.000 -2.4252006635E+001 -9.7614437871E+001 -4.3375665117E+001 +1.5338809291E+002 -8.5818438470E+001 -7.5969825732E+001 -2.3394285025E+001 +1.4989507002E+002
1370000000.000 -2.3374744809E+001 -9.7877097215E+001 -4.3576261821E+001 +1.1927250189E+002 -9.0084442080E+001 +7.5629016314E+001 -2.2072134503E+001 +1.5991709786E+002
1502500000.000 -2.2605301722E+001 -9.8024128981E+001 -4.3571841689E+001 +8.5275208817E+001 -8.7095195647E+001 +1.2851268352E+002 -2.0865299748E+001 +1.6634441876E+002
1635000000.000 -2.1845305388E+001 -9.7737896808E+001 -4.3536888785E+001 +5.1677106831E+001 -8.8215083573E+001 +3.2607763104E+001 -2.0025804269E+001 +1.7324124138E+002
1767500000.000 -2.1145985764E+001 -9.8223213381E+001 -4.3529440484E+001 +1.7407611182E+001 -8.9635799954E+001 +6.8219518581E+000 -1.9023037017E+001 +1.7849395152E+002
1900000000.000 -2.0589428089E+001 -9.8347440283E+001 -4.3596600256E+001 -1.7315310528E+001 -8.6731300643E+001 -1.3502293141E+002 -1.8864274041E+001 -1.7829293258E+002
2032500000.000 -2.0051480339E+001 -9.8709386949E+001 -4.3594085344E+001 -5.1672879008E+001 -1.0292098936E+002 -9.0786154604E+001 -1.8686204502E+001 -1.6792177725E+002
2165000000.000 -1.9472108936E+001 -9.8569615510E+001 -4.3707111607E+001 -8.5994469777E+001 -7.8542824971E+001 +9.5803257599E+001 -1.7747206170E+001 -1.6099231511E+002
2297500000.000 -1.9017344953E+001 -9.8899160380E+001 -4.3789908549E+001 -1.1953964028E+002 -8.0940883499E+001 +1.4537705662E+002 -1.7237338273E+001 -1.5710417447E+002
2430000000.000 -1.8582040326E+001 -9.9257532885E+001 -4.4080573796E+001 -1.5640027672E+002 -7.0608740114E+001 -5.7109916884E+001 -1.6932572453E+001 -1.5285816516E+002
2562500000.000 -1.8123197539E+001 -9.9456821795E+001 -4.3987719595E+001 +1.7273580910E+002 -8.9939376781E+001 +7.0950358666E+001 -1.6834521072E+001 -1.5046262660E+002
2695000000.000 -1.7759063529E+001 -1.0046343462E+002 -4.3950750985E+001 +1.3917617728E+002 -7.7764115011E+001 +7.0056929101E+001 -1.7372178281E+001 -1.4720092125E+002
2827500000.000 -1.7451197046E+001 -1.0110664346E+002 -4.3955061288E+001 +1.0491754300E+002 -8.7469131197E+001 -3.8488094719E+001 -1.7837377964E+001 -1.4034649066E+002
2960000000.000 -1.7115696913E+001 -1.0119184267E+002 -4.4024618637E+001 +7.0849612088E+001 -8.6749565906E+001 -1.1194755625E+001 -1.8157565873E+001 -1.3551129916E+002
3092500000.000 -1.6695211534E+001 -1.0174708164E+002 -4.3993055139E+001 +3.5797706713E+001 -7.2558349078E+001 +1.6936609465E+002 -1.9076984812E+001 -1.2932217899E+002
3225000000.000 -1.6357449696E+001 -1.0283305561E+002 -4.4115830841E+001 +1.9223827561E+000 -8.3252580440E+001 -5.1349402039E+001 -1.9584578678E+001 -1.1973015038E+002
3357500000.000 -1.6122525190E+001 -1.0343513037E+002 -4.4151459159E+001 -3.0230746693E+001 -8.1649000248E+001 -2.8104821237E+001 -1.9952868005E+001 -1.1437325105E+002
3490000000.000 -1.5759496215E+001 -1.0355343809E+002 -4.4015333086E+001 -6.6092564355E+001 -8.3646979456E+001 +9.0313904568E+000 -2.1110736796E+001 -1.0859046847E+002
3622500000.000 -1.5402565536E+001 -1.0405997360E+002 -4.4039608688E+001 -9.8223299150E+001 -7.6250743604E+001 -1.0852437204E+002 -2.1935508321E+001 -9.8114265935E+001
3755000000.000 -1.5075119245E+001 -1.0481865457E+002 -4.4029101157E+001 -1.3441475823E+002 -8.3750669700E+001 -8.2495739528E+000 -2.2707824458E+001 -9.4653074809E+001
3887500000.000 -1.4812941051E+001 -1.0514961728E+002 -4.4025699159E+001 -1.6636085485E+002 -8.1475426630E+001 +1.3864964012E+002 -2.5037259835E+001 -8.7797926911E+001
4020000000.000 -1.4553502581E+001 -1.0549411341E+002 -4.4023339351E+001 +1.5816634118E+002 -8.0745639793E+001 -1.5988058308E+002 -2.6681953648E+001 -7.3474029675E+001
4152500000.000 -1.4254379343E+001 -1.0570802704E+002 -4.4543080571E+001 +1.2144202055E+002 -8.5035166676E+001 -1.0663536408E+002 -2.8870116161E+001 -6.4682112138E+001
4285000000.000 -1.3988666616E+001 -1.0615036737E+002 -4.4153038244E+001 +9.1238467958E+001 -8.1029661500E+001 +1.0597510370E+002 -3.3374736321E+001 -3.7522290034E+001
4417500000.000 -1.3744465305E+001 -1.0672328812E+002 -4.4055080188E+001 +5.6398763069E+001 -8.7193262716E+001 +8.9171808601E+001 -3.1692797314E+001 +7.9350084089E+000
4550000000.000 -1.3531412411E+001 -1.0688494672E+002 -4.4337780348E+001 +1.9309060575E+001 -8.0926349864E+001 -7.2426401902E+001 -3.0360354562E+001 +1.8285723602E+001
4682500000.000 -1.3274071204E+001 -1.0706598533E+002 -4.4529298009E+001 -1.4560854102E+001 -9.0249409847E+001 +7.3834917964E+000 -2.9650454581E+001 +3.8715538641E+001
4815000000.000 -1.3035361604E+001 -1.0751671257E+002 -4.4328131292E+001 -4.4659771555E+001 -9.1210341603E+001 -1.7303281292E+002 -2.7620918570E+001 +4.1260581470E+001
4947500000.000 -1.2849868237E+001 -1.0770423996E+002 -4.4192269448E+001 -7.8212118169E+001 -8.6394997890E+001 -1.4338771190E+002 -2.9362140775E+001 +3.5569593908E+001
5080000000.000 -1.2643343973E+001 -1.0768170086E+002 -4.4049225182E+001 -1.1093855846E+002 -8.5706829731E+001 -3.2635403847E+001 -3.2246214824E+001 +5.6813924209E+001
5212500000.000 -1.2431191062E+001 -1.0792832918E+002 -4.3941779888E+001 -1.4505607717E+002 -9.4347761684E+001 +7.9364192335E+000 -3.1558546644E+001 +6.9444922721E+001
5345000000.000 -1.2261872737E+001 -1.0836462084E+002 -4.3906825653E+001 -1.7959088908E+002 -8.5227120669E+001 -1.3865976906E+002 -3.5374724585E+001 +7.0977636058E+001
5477500000.000 -1.2128406069E+001 -1.0828303321E+002 -4.3793743294E+001 +1.4592409235E+002 -8.3321430277E+001 +2.8966023203E+001 -3.7257609210E+001 +1.3175796425E+002
5610000000.000 -1.1931204709E+001 -1.0836178812E+002 -4.3778970094E+001 +1.1206557351E+002 -8.8079035345E+001 +1.1846602173E+002 -3.3682194624E+001 +1.3558247800E+002
5742500000.000 -1.1778078168E+001 -1.0883084055E+002 -4.3712152731E+001 +7.7887835263E+001 -8.8536259116E+001 -1.6570026433E+002 -3.7843483921E+001 +1.5219093115E+002
5875000000.000 -1.1683266891E+001 -1.0928236510E+002 -4.3736784520E+001 +4.2753791845E+001 -8.4512354740E+001 +2.7389936565E+001 -3.3800174662E+001 -1.7066131160E+002
6007500000.000 -1.1560927761E+001 -1.0933330216E+002 -4.3683788902E+001 +8.6399791413E+000 -9.2661938766E+001 +1.4884712841E+002 -3.2697520919E+001 +1.7960398512E+002
6140000000.000 -1.1386359463E+001 -1.0956416245E+002 -4.3724961635E+001 -2.5717023367E+001 -8.6717338105E+001 +1.4646644113E+002 -3.6157337728E+001 -1.6973974204E+002
6272500000.000 -1.1233646709E+001 -1.1035091614E+002 -4.3603063919E+001 -6.0147627352E+001 -8.3125260084E+001 -2.7020573395E+001 -3.3878974280E+001 -1.4429687220E+002
6405000000.000 -1.1160112462E+001 -1.1097172320E+002 -4.3655786903E+001 -9.4146699203E+001 -8.8036721831E+001 +1.1895451863E+001 -3.3819549752E+001 -1.6215201846E+002
6537500000.000 -1.1039313677E+001 -1.1095540525E+002 -4.3604517107E+001 -1.2898578766E+002 -9.7726896971E+001 +1.1604796027E+002 -4.0229306906E+001 -1.6085981243E+002
6670000000.000 -1.0836477503E+001 -1.1121519856E+002 -4.3718673077E+001 -1.6274363036E+002 -1.0285751830E+002 +1.3956759738E+002 -3.9417322863E+001 -1.3761494874E+002
6802500000.000 -1.0679013804E+001 -1.1211394901E+002 -4.3645727119E+001 +1.6312496453E+002 -9.1074859690E+001 +4.6616599810E+001 -3.8908461559E+001 +1.7913256909E+002
6935000000.000 -1.0617998189E+001 -1.1267626718E+002 -4.3661916973E+001 +1.2897981859E+002 -8.9519121251E+001 +1.5344280274E+002 -3.8531795315E+001 +1.2308983214E+002
7067500000.000 -1.0508229246E+001 -1.1255041664E+002 -4.3638448189E+001 +9.4171731059E+001 -9.2488079166E+001 -8.7111224028E+001 -3.8953858489E+001 +1.1477209561E+002
7200000000.000 -1.0308179588E+001 -1.1291799660E+002 -4.3695920877E+001 +6.0466189175E+001 -7.9509805769E+001 +2.2871719386E+001 -3.2836412806E+001 +1.3178033600E+002
7332500000.000 -1.0174523918E+001 -1.1374195534E+002 -4.3701444989E+001 +2.6070158477E+001 -8.8874920832E+001 +8.8232685139E+001 -2.9073836962E+001 +1.1920334796E+002
7465000000.000 -1.0091525736E+001 -1.1404901229E+002 -4.3777725257E+001 -7.8006175000E+000 -9.0580915629E+001 -1.3619032740E+002 -2.8631915954E+001 +1.2263048236E+002
7597500000.000 -9.9520042256E+000 -1.1411128274E+002 -4.3755755460E+001 -4.2184199601E+001 -8.8380364409E+001 -3.4822689836E+001 -2.6152045597E+001 +1.3754271436E+002
7730000000.000 -9.7742274556E+000 -1.1442143838E+002 -4.3696824670E+001 -7.5639221340E+001 -8.5411345672E+001 +6.3644072817E+001 -2.3722268257E+001 +1.3784919580E+002
7862500000.000 -9.6611037006E+000 -1.1480373897E+002 -4.3704682431E+001 -1.1000813674E+002 -9.7311201653E+001 +1.3962867632E+002 -2.3271967103E+001 +1.4162699909E+002
7995000000.000 -9.5734910804E+000 -1.1491210160E+002 -4.3657979713E+001 -1.4465347197E+002 -8.9307746605E+001 -5.3116390608E+001 -2.1837803854E+001 +1.5433961377E+002
8127500000.000 -9.4116826289E+000 -1.1483974064E+002 -4.3674013569E+001 -1.7867364643E+002 -8.8808565725E+001 +2.8889424446E+001 -2.0028859418E+001 +1.5650309565E+002
8260000000.000 -9.2826260125E+000 -1.1527401383E+002 -4.3712938369E+001 +1.4738823738E+002 -9.5039179479E+001 +7.5575556900E+001 -1.9867177480E+001 +1.6020833355E+002
8392500000.000 -9.2032252036E+000 -1.1532074112E+002 -4.3549601381E+001 +1.1347930439E+002 -7.7812106577E+001 -1.3447322453E+002 -1.9067408800E+001 +1.7041245472E+002
8525000000.000 -9.1069441455E+000 -1.1522064095E+002 -4.3563780439E+001 +7.8892371169E+001 -9.6588869426E+001 +1.3513757687E+002 -1.8210886438E+001 +1.7295242584E+002
8657500000.000 -8.9894484985E+000 -1.1525522123E+002 -4.3571223809E+001 +4.4944627697E+001 -8.6461778066E+001 -6.2343225765E+001 -1.8570741326E+001 +1.7793043814E+002
8790000000.000 -8.8800959490E+000 -1.1549772023E+002 -4.3467981176E+001 +1.0685705283E+001 -9.1902476597E+001 +8.7610907778E+001 -1.8349386902E+001 -1.7172778187E+002
8922500000.000 -8.8330207739E+000 -1.1565808971E+002 -4.3339552272E+001 -2.4276234374E+001 -8.9461932004E+001 -6.7356222160E+001 -1.7994041500E+001 -1.6597385537E+002
9055000000.000 -8.7426095172E+000 -1.1562254616E+002 -4.3378461628E+001 -5.8088406572E+001 -8.2777048708E+001 +1.0731791282E+002 -1.8458979435E+001 -1.5836955319E+002
9187500000.000 -8.6598153690E+000 -1.1576925405E+002 -4.3369776479E+001 -9.2666836316E+001 -8.7199992207E+001 -8.3379288968E+001 -1.8385325778E+001 -1.4632704666E+002
9320000000.000 -8.5822329805E+000 -1.1635921280E+002 -4.3314853463E+001 -1.2765984164E+002 -8.9958492907E+001 +6.5300988597E+000 -1.8210374310E+001 -1.3974327422E+002
9452500000.000 -8.5332322053E+000 -1.1654625404E+002 -4.3349152722E+001 -1.6165588688E+002 -9.0864392093E+001 +1.2258470348E+002 -1.8849192014E+001 -1.3066940400E+002
9585000000.000 -8.4555049478E+000 -1.1671305382E+002 -4.3353221752E+001 +1.6337274744E+002 -9.1208657948E+001 -8.8310583439E+001 -1.8798726899E+001 -1.1825834396E+002
9717500000.000 -8.3351310186E+000 -1.1712952838E+002 -4.3218604795E+001 +1.2898923635E+002 -8.5576231103E+001 -1.0041621896E+002 -1.8813214503E+001 -1.1119246029E+002
9850000000.000 -8.2870011124E+000 -1.1782387334E+002 -4.3184238351E+001 +9.4387670337E+001 -8.6389043764E+001 +1.5354250713E+002 -1.9662388388E+001 -1.0060364124E+002
9982500000.000 -8.2257707310E+000 -1.1783317697E+002 -4.3188071196E+001 +6.0283489244E+001 -7.9652055088E+001 +1.4551935868E+002 -1.9695668901E+001 -8.6481852085E+001
10115000000.000 -8.1237617405E+000 -1.1805453537E+002 -4.3227397755E+001 +2.5427577997E+001 -9.4322412680E+001 -4.8147606196E+001 -1.9916183436E+001 -7.9122240002E+001
10247500000.000 -8.0298329252E+000 -1.1868432385E+002 -4.3202276729E+001 -8.9077343586E+000 -8.1190807012E+001 +6.3530197193E+001 -2.1146475293E+001 -6.6038017492E+001
10380000000.000 -7.9770585459E+000 -1.1902928841E+002 -4.3204821102E+001 -4.3548387181E+001 -7.9799304183E+001 +1.3957674386E+002 -2.1064352784E+001 -4.9948326215E+001
10512500000.000 -7.9077770686E+000 -1.1926649550E+002 -4.3206963277E+001 -7.7675029217E+001 -8.4309675449E+001 -1.3187881461E+002 -2.1508893994E+001 -4.1889219216E+001
10645000000.000 -7.8236552400E+000 -1.1954202743E+002 -4.3212791689E+001 -1.1183555914E+002 -8.6628736473E+001 +1.5646038105E+001 -2.2828106258E+001 -2.3946200590E+001
10777500000.000 -7.7332173846E+000 -1.1992608695E+002 -4.3037480754E+001 -1.4686946163E+002 -8.8858788034E+001 +5.3212075589E+001 -2.2200218011E+001 -5.9151229907E+000
10910000000.000 -7.6552808188E+000 -1.2026767958E+002 -4.3224430413E+001 +1.7835035972E+002 -9.0029630515E+001 -1.0484896204E+002 -2.2786630001E+001 +4.3148373080E+000
11042500000.000 -7.5714267573E+000 -1.2066119128E+002 -4.3162386113E+001 +1.4377142276E+002 -8.9976091232E+001 +8.6163761668E+001 -2.3443960647E+001 +2.7645495651E+001
11175000000.000 -7.4777867888E+000 -1.2080913157E+002 -4.3113399884E+001 +1.0942474473E+002 -8.3706726094E+001 +1.0247737047E+002 -2.2255170143E+001 +4.2808452386E+001
11307500000.000 -7.4164228360E+000 -1.2097995531E+002 -4.3075683196E+001 +7.4476514155E+001 -8.7302027716E+001 +1.5817194751E+002 -2.2731577192E+001 +5.3251633594E+001
11440000000.000 -7.3226170405E+000 -1.2134800564E+002 -4.3191476121E+001 +3.9284271601E+001 -1.0563594473E+002 -4.2586179932E+001 -2.2571730417E+001 +7.5756342226E+001
11572500000.000 -7.2446385486E+000 -1.2130244991E+002 -4.3007241543E+001 +4.9499995434E+000 -8.3312557942E+001 +7.0729866073E+001 -2.1169064630E+001 +8.7055554090E+001
11705000000.000 -7.1806890876E+000 -1.2145864837E+002 -4.3137380378E+001 -2.9821960011E+001 -8.6010465782E+001 -8.4364715335E+001 -2.1774062836E+001 +9.7028250442E+001
11837500000.000 -7.1033554701E+000 -1.2168457823E+002 -4.3147046028E+001 -6.4527711134E+001 -9.7148303240E+001 -4.2085896533E+001 -2.1123258434E+001 +1.1927252570E+002
11970000000.000 -7.0756454946E+000 -1.2182958682E+002 -4.3116253318E+001 -9.9221200075E+001 -8.9257309606E+001 +6.1706168981E+001 -1.9816392318E+001 +1.2543170453E+002
12102500000.000 -7.0268844797E+000 -1.2164222969E+002 -4.3177497654E+001 -1.3438307165E+002 -8.0303020277E+001 +1.3584240936E+002 -2.0745763279E+001 +1.3532333998E+002
12235000000.000 -6.9536163721E+000 -1.2220720510E+002 -4.3058536476E+001 -1.6912210364E+002 -8.3588074654E+001 -4.5375267105E+001 -1.9764793243E+001 +1.5453857556E+002
12367500000.000 -6.9478549294E+000 -1.2222006351E+002 -4.3122508882E+001 +1.5620601059E+002 -8.3954373529E+001 +1.5938408831E+002 -1.8878736403E+001 +1.5785328897E+002
12500000000.000 -6.9029601317E+000 -1.2263195869E+002 -4.3208297781E+001 +1.2091969277E+002 -8.1570748801E+001 -1.0917417687E+002 -2.0060044320E+001 +1.6799039945E+002
12632500000.000 -6.8425548728E+000 -1.2269954100E+002 -4.3299795815E+001 +8.6324366712E+001 -8.4449286405E+001 -9.9097453017E+001 -1.9167460168E+001 -1.7307622721E+002
12765000000.000 -6.8127987940E+000 -1.2295424568E+002 -4.3304278408E+001 +5.1444431032E+001 -9.0766609736E+001 +4.3735714289E+001 -1.8519335420E+001 -1.7139915113E+002
12897500000.000 -6.7952897324E+000 -1.2329931089E+002 -4.3232376528E+001 +1.6872940333E+001 -8.6128858885E+001 +1.0792646828E+002 -2.0140648761E+001 -1.5954509026E+002
13030000000.000 -6.7607821100E+000 -1.2348516714E+002 -4.3478051818E+001 -1.9007462032E+001 -8.4298674979E+001 -1.1897706896E+002 -1.8845990403E+001 -1.4163338988E+002
13162500000.000 -6.7064089244E+000 -1.2368219557E+002 -4.3454932830E+001 -5.3114648993E+001 -8.7947287222E+001 -1.0153515345E+002 -1.8648321431E+001 -1.4175913951E+002
13295000000.000 -6.6632371436E+000 -1.2393445562E+002 -4.3542291492E+001 -8.7468783527E+001 -8.8154096487E+001 +7.5266853744E+001 -2.0038115871E+001 -1.2797067516E+002
13427500000.000 -6.6364969429E+000 -1.2443505290E+002 -4.3593036012E+001 -1.2290677335E+002 -8.7330597025E+001 -1.1716553709E+002 -1.8852257147E+001 -1.1430939129E+002
13560000000.000 -6.6263965264E+000 -1.2447578955E+002 -4.3654820235E+001 -1.5756531523E+002 -7.9976627979E+001 +6.3154112741E+001 -1.9042377336E+001 -1.1476051178E+002
13692500000.000 -6.5614829466E+000 -1.2456439763E+002 -4.3641603837E+001 +1.6625247524E+002 -8.7117136683E+001 +1.3165043226E+002 -2.0815405913E+001 -1.0145589067E+002
13825000000.000 -6.4991798184E+000 -1.2499686369E+002 -4.3760502342E+001 +1.3291605468E+002 -8.6672208014E+001 -1.6674498883E+002 -1.9734049357E+001 -8.7716421913E+001
13957500000.000 -6.4890408982E+000 -1.2543105857E+002 -4.3828181203E+001 +9.8333026810E+001 -9.0567363335E+001 -1.3465354448E+002 -2.0372118258E+001 -9.0111785373E+001
14090000000.000 -6.4682599935E+000 -1.2546469939E+002 -4.4045592738E+001 +6.3084550054E+001 -8.2431948422E+001 +8.4566763355E+001 -2.2660583313E+001 -7.2720895612E+001
14222500000.000 -6.4009869976E+000 -1.2539879311E+002 -4.4053900710E+001 +2.8295591632E+001 -8.2989535441E+001 -2.3901643705E+001 -2.1269147810E+001 -5.9382860637E+001
14355000000.000 -6.3429741172E+000 -1.2587941568E+002 -4.4044849472E+001 -6.7773464821E+000 -8.8759934590E+001 +1.7571551489E+002 -2.2492954837E+001 -6.3664172396E+001
14487500000.000 -6.3179929601E+000 -1.2610014197E+002 -4.4146331890E+001 -4.0491198769E+001 -8.2202091521E+001 -4.7718642276E+000 -2.5534193574E+001 -4.0314147913E+001
14620000000.000 -6.2909168998E+000 -1.2604156352E+002 -4.4338978702E+001 -7.6440960071E+001 -9.8855735910E+001 +3.7810575976E+001 -2.3269728257E+001 -2.7366214023E+001
14752500000.000 -6.1940692532E+000 -1.2607786521E+002 -4.4327889170E+001 -1.1131918940E+002 -8.0609751704E+001 -1.1512008265E+002 -2.5341113073E+001 -3.6744987652E+001
14885000000.000 -6.1457587056E+000 -1.2629656161E+002 -4.4535274890E+001 -1.4561635460E+002 -8.4461060880E+001 -3.6975132125E+001 -2.8948832984E+001 +2.3951218382E+000
15017500000.000 -6.1242593239E+000 -1.2628913098E+002 -4.4765049765E+001 +1.7895725581E+002 -8.0231307553E+001 +1.0514745613E+002 -2.5372242905E+001 +9.1835355479E+000
15150000000.000 -6.0575200218E+000 -1.2611761569E+002 -4.4808646004E+001 +1.4468579713E+002 -8.4118988445E+001 +1.6460200685E+002 -2.9072258199E+001 -2.4107684419E+000
15282500000.000 -6.0136619272E+000 -1.2607143233E+002 -4.4975794160E+001 +1.0899646641E+002 -8.0146796008E+001 -2.9455429542E+001 -3.1184609093E+001 +5.8077745975E+001
