!  2-Port S-parameters saved by WinCal
! VAR MeasName=S-Parameters (CALIBRATED_DATA) read from VNA (C)
! VAR MeasDate=10/16/2015 2:01:17 PM
! VAR NAME=M6082_13_17_2_2_20C_15.6mA_-17.5dBm
! VAR FILENAME=M6082_13_17_2_2_20C_15.6mA_-17.5dBm.S2P
! VAR DATE=10/16/2015 2:01:17 PM
! VAR PHYS_PORTS=2,1
! VAR ObjTypeName=DATASET
! VAR IndexType=Frequency
!
# Hz S DB R 50
45000000.000 -1.7220644203E+001 -1.7939052719E+002 -4.3823796151E+001 +9.1606221007E+001 -6.0295768119E+001 -1.2511070147E+002 -3.0602133799E+001 +7.2605431374E+000
177500000.000 -1.7279754882E+001 -1.7833147646E+002 -4.5247729498E+001 +7.0512964153E+001 -7.3313816105E+001 +1.3945553043E+002 -3.2792857746E+001 +4.6351653148E+001
310000000.000 -1.7278788485E+001 -1.7665230453E+002 -4.5537421419E+001 +3.8464066059E+001 -7.6973253492E+001 -1.3902763511E+002 -2.3335672225E+001 +6.4728081187E+001
442500000.000 -1.7306038438E+001 -1.7509579726E+002 -4.4379371898E+001 +5.7447656378E-001 -7.9294751467E+001 +1.1306458903E+001 -2.2373887026E+001 +1.7350254591E+001
575000000.000 -1.7271874213E+001 -1.7310231680E+002 -4.5090966091E+001 -3.5448930372E+001 -7.7756875150E+001 +9.2186630816E+001 -3.0616375792E+001 +2.2747003194E+001
707500000.000 -1.7233942263E+001 -1.7157675817E+002 -4.5148543280E+001 -6.7842045215E+001 -8.3327501543E+001 -1.4449307600E+002 -3.4507951423E+001 +8.3409069477E+001
840000000.000 -1.7221640546E+001 -1.6960968497E+002 -4.5137091276E+001 -1.0345205877E+002 -8.7670696689E+001 +5.1928301771E+001 -2.9714322913E+001 +1.2748989104E+002
972500000.000 -1.7199857169E+001 -1.6773051738E+002 -4.5200039370E+001 -1.3639400950E+002 -8.2114596016E+001 +1.3743912431E+002 -2.5946005083E+001 +1.3530032814E+002
1105000000.000 -1.7104717942E+001 -1.6588171230E+002 -4.5350741896E+001 -1.7010689057E+002 -8.6750401538E+001 +1.7567554261E+002 -2.4371259765E+001 +1.4078347085E+002
1237500000.000 -1.7028393544E+001 -1.6428276928E+002 -4.5351454215E+001 +1.5577271602E+002 -8.1125228128E+001 -6.3104093089E+000 -2.3398983625E+001 +1.4991632568E+002
1370000000.000 -1.6928704387E+001 -1.6268424383E+002 -4.5412826349E+001 +1.2237721458E+002 -8.7883132917E+001 +1.0764118828E+002 -2.2076782447E+001 +1.5997681158E+002
1502500000.000 -1.6844979790E+001 -1.6109400588E+002 -4.5262342624E+001 +8.8026705361E+001 -8.3522840506E+001 -1.3927419519E+002 -2.0868826627E+001 +1.6636859451E+002
1635000000.000 -1.6752489975E+001 -1.5918274996E+002 -4.5525833469E+001 +5.4848140480E+001 -8.6520076895E+001 -3.9969117392E+001 -2.0026971805E+001 +1.7326902920E+002
1767500000.000 -1.6620585337E+001 -1.5770349284E+002 -4.5451462600E+001 +2.0995992352E+001 -8.9224155615E+001 +1.5971681284E+001 -1.9019920082E+001 +1.7852964785E+002
1900000000.000 -1.6542027823E+001 -1.5630876196E+002 -4.5520321092E+001 -1.3632767543E+001 -9.8725121173E+001 +4.1588387349E+001 -1.8875783282E+001 -1.7826377193E+002
2032500000.000 -1.6425918413E+001 -1.5498450651E+002 -4.5468625637E+001 -4.9538862588E+001 -8.2549991315E+001 -1.6516318287E+002 -1.8690482333E+001 -1.6788305500E+002
2165000000.000 -1.6305020991E+001 -1.5332507924E+002 -4.5458632213E+001 -8.3628134069E+001 -8.2193472649E+001 +1.4266410117E+002 -1.7755143122E+001 -1.6099926440E+002
2297500000.000 -1.6190190829E+001 -1.5212236828E+002 -4.5710702872E+001 -1.1693879602E+002 -8.5708227014E+001 +8.7406787402E+001 -1.7240566520E+001 -1.5710554032E+002
2430000000.000 -1.6065808436E+001 -1.5089248973E+002 -4.5952922047E+001 -1.5037112232E+002 -8.0148910307E+001 +1.5960431505E+002 -1.6952857504E+001 -1.5290361910E+002
2562500000.000 -1.5924049085E+001 -1.4956328900E+002 -4.5725137420E+001 +1.7598813503E+002 -7.5403217460E+001 +1.2797467073E+001 -1.6833720163E+001 -1.5046562002E+002
2695000000.000 -1.5750147652E+001 -1.4891674721E+002 -4.5866745029E+001 +1.4165206859E+002 -7.4792608558E+001 +1.3533976965E+002 -1.7378074796E+001 -1.4717776662E+002
2827500000.000 -1.5633968919E+001 -1.4835507920E+002 -4.6017671726E+001 +1.0772240520E+002 -7.6143970207E+001 -1.3025911288E+002 -1.7853936287E+001 -1.4033126144E+002
2960000000.000 -1.5531751690E+001 -1.4720149386E+002 -4.5896722609E+001 +7.3549964986E+001 -9.0747169146E+001 -2.2289409350E+001 -1.8169265204E+001 -1.3540307924E+002
3092500000.000 -1.5321719796E+001 -1.4614720704E+002 -4.5654684730E+001 +3.9501718966E+001 -7.9488575136E+001 +5.5827697500E+001 -1.9084928612E+001 -1.2935750240E+002
3225000000.000 -1.5117278476E+001 -1.4561749072E+002 -4.5955229113E+001 +7.1855560247E+000 -9.0389953801E+001 +1.1500996307E+002 -1.9590965873E+001 -1.1971100112E+002
3357500000.000 -1.5004727511E+001 -1.4521229225E+002 -4.5987923100E+001 -2.5143176560E+001 -7.7127072685E+001 +6.4814116630E+000 -1.9959905930E+001 -1.1436563148E+002
3490000000.000 -1.4831625179E+001 -1.4402509526E+002 -4.6179380356E+001 -6.0703784391E+001 -8.0890734457E+001 +1.0191752474E+002 -2.1116708913E+001 -1.0854341579E+002
3622500000.000 -1.4637072054E+001 -1.4311737143E+002 -4.5938997218E+001 -9.3317350416E+001 -7.8145437257E+001 -1.4503071964E+002 -2.1940154492E+001 -9.8303623512E+001
3755000000.000 -1.4422560257E+001 -1.4246674786E+002 -4.5894347332E+001 -1.2782798758E+002 -8.0809314860E+001 +2.3951123226E+000 -2.2723478169E+001 -9.4673488849E+001
3887500000.000 -1.4273831763E+001 -1.4181407333E+002 -4.5869395306E+001 -1.6300603837E+002 -8.3391297855E+001 +7.4980004839E+001 -2.5044369854E+001 -8.7798077485E+001
4020000000.000 -1.4135639817E+001 -1.4116920261E+002 -4.5785616778E+001 +1.6137332597E+002 -7.7636263642E+001 -1.3355583584E+002 -2.6674045107E+001 -7.3538649816E+001
4152500000.000 -1.3961173803E+001 -1.4024637101E+002 -4.5756466929E+001 +1.2951578277E+002 -9.1760366345E+001 +8.8489193706E+001 -2.8891255822E+001 -6.4878365858E+001
4285000000.000 -1.3783182620E+001 -1.3961193678E+002 -4.5874580790E+001 +9.5178619150E+001 -8.1833549118E+001 -1.9801356618E+001 -3.3350556019E+001 -3.7762427171E+001
4417500000.000 -1.3611094180E+001 -1.3921374310E+002 -4.5963722168E+001 +6.1732885451E+001 -8.4933256155E+001 +5.0745177551E+001 -3.1720499626E+001 +7.8882111828E+000
4550000000.000 -1.3500000622E+001 -1.3857961861E+002 -4.6182492216E+001 +2.6057162902E+001 -8.3757220800E+001 -1.0953145458E+002 -3.0328303141E+001 +1.8151783420E+001
4682500000.000 -1.3333105150E+001 -1.3776425268E+002 -4.6247086419E+001 -6.7768417204E+000 -8.7213066782E+001 +3.1639423595E+001 -2.9641996329E+001 +3.8543535691E+001
4815000000.000 -1.3157372651E+001 -1.3729510545E+002 -4.6277342980E+001 -3.9390681350E+001 -8.8691265464E+001 -1.3602532065E+002 -2.7627149075E+001 +4.1177761506E+001
4947500000.000 -1.3042996143E+001 -1.3677773216E+002 -4.6207465057E+001 -7.2997014991E+001 -8.4740575328E+001 -2.4782988125E+001 -2.9378759630E+001 +3.5612478370E+001
5080000000.000 -1.2925450053E+001 -1.3600892793E+002 -4.5996616052E+001 -1.0480874036E+002 -1.0715862006E+002 +1.5251132026E+002 -3.2209076911E+001 +5.6696818035E+001
5212500000.000 -1.2767539096E+001 -1.3546242129E+002 -4.6009988241E+001 -1.3865697530E+002 -8.6792179952E+001 -1.7610135753E+002 -3.1574537230E+001 +6.9325648369E+001
5345000000.000 -1.2638082967E+001 -1.3525030242E+002 -4.6008675421E+001 -1.7259105870E+002 -8.2436092660E+001 -1.5914566769E+002 -3.5366783129E+001 +7.1012636630E+001
5477500000.000 -1.2576773625E+001 -1.3463836374E+002 -4.5869925205E+001 +1.5276007848E+002 -9.2504313518E+001 +1.7663191333E+001 -3.7305004846E+001 +1.3137833635E+002
5610000000.000 -1.2446751815E+001 -1.3398168836E+002 -4.5900731323E+001 +1.1806915827E+002 -8.7462798205E+001 -1.1437596652E+002 -3.3708526302E+001 +1.3550465946E+002
5742500000.000 -1.2314616083E+001 -1.3385668647E+002 -4.5719714108E+001 +8.4263672475E+001 -8.9380737045E+001 -1.6093597673E+002 -3.7835689391E+001 +1.5261686066E+002
5875000000.000 -1.2250186639E+001 -1.3390440608E+002 -4.5919924916E+001 +4.9144596138E+001 -8.6722029412E+001 -4.8047646196E+000 -3.3834666355E+001 -1.7064015880E+002
6007500000.000 -1.2179050936E+001 -1.3346853994E+002 -4.5793991649E+001 +1.5559303210E+001 -8.7001840033E+001 +4.6265746996E+001 -3.2727758438E+001 +1.7945121117E+002
6140000000.000 -1.2040709230E+001 -1.3305983300E+002 -4.5906516412E+001 -1.8934628481E+001 -8.7524622961E+001 -1.7415000688E+002 -3.6205183685E+001 -1.7010735309E+002
6272500000.000 -1.1885609590E+001 -1.3322905585E+002 -4.5803502388E+001 -5.1637737606E+001 -9.3133203804E+001 -1.1368675415E+002 -3.3957897166E+001 -1.4446453989E+002
6405000000.000 -1.1825046256E+001 -1.3352971546E+002 -4.5918536094E+001 -8.6552515729E+001 -8.6958209195E+001 +1.6537544653E+001 -3.3854775689E+001 -1.6211948443E+002
6537500000.000 -1.1749173491E+001 -1.3306049825E+002 -4.5883660553E+001 -1.2103524535E+002 -8.5536353201E+001 +1.5081324268E+002 -4.0186455324E+001 -1.6083062067E+002
6670000000.000 -1.1571964986E+001 -1.3261790840E+002 -4.5920173344E+001 -1.5514299706E+002 -8.8216385418E+001 -4.6739589559E+001 -3.9470993638E+001 -1.3735643166E+002
6802500000.000 -1.1403824332E+001 -1.3296828773E+002 -4.6106897819E+001 +1.7186014185E+002 -8.5861168498E+001 +3.2845526313E+001 -3.8883819926E+001 +1.7920711259E+002
6935000000.000 -1.1351132807E+001 -1.3323537880E+002 -4.5940807356E+001 +1.3703714167E+002 -8.5515906662E+001 +1.7817102529E+002 -3.8569447430E+001 +1.2268872426E+002
7067500000.000 -1.1279677651E+001 -1.3265823674E+002 -4.6220291594E+001 +1.0230563209E+002 -8.6591689628E+001 -1.0638156472E+002 -3.8884637459E+001 +1.1477128067E+002
7200000000.000 -1.1090597945E+001 -1.3236815047E+002 -4.6006737652E+001 +6.8940163351E+001 -8.7219386291E+001 -2.9514854789E+000 -3.2843101910E+001 +1.3140939214E+002
7332500000.000 -1.0948730803E+001 -1.3271200452E+002 -4.6183596707E+001 +3.5152574763E+001 -8.3033142609E+001 +7.5243651469E+001 -2.9080132352E+001 +1.1919273725E+002
7465000000.000 -1.0878357760E+001 -1.3268068899E+002 -4.6209932753E+001 +6.5340828444E-001 -8.8559776119E+001 -7.6226576184E+001 -2.8618092503E+001 +1.2275072248E+002
7597500000.000 -1.0757411601E+001 -1.3226334027E+002 -4.6285823063E+001 -3.2496252658E+001 -8.5093249176E+001 +1.1568100037E+000 -2.6131032625E+001 +1.3755536822E+002
7730000000.000 -1.0593094651E+001 -1.3203594648E+002 -4.6323146310E+001 -6.7155779683E+001 -8.3125598187E+001 +6.4292700200E+001 -2.3729533538E+001 +1.3781711175E+002
7862500000.000 -1.0484609114E+001 -1.3201274373E+002 -4.6177165639E+001 -9.9919189680E+001 -8.5273777413E+001 -3.9653353127E+001 -2.3280087401E+001 +1.4161506716E+002
7995000000.000 -1.0415747260E+001 -1.3177347314E+002 -4.6334459269E+001 -1.3293049990E+002 -9.2432528774E+001 +8.4077010340E+001 -2.1836217761E+001 +1.5423075623E+002
8127500000.000 -1.0273521675E+001 -1.3122766109E+002 -4.6409205126E+001 -1.6829615929E+002 -8.1609745036E+001 +1.8660796655E+001 -2.0032597783E+001 +1.5648280201E+002
8260000000.000 -1.0149833730E+001 -1.3126014640E+002 -4.6373166075E+001 +1.5860806555E+002 -8.5208733081E+001 +1.2587959035E+002 -1.9868835123E+001 +1.6018151546E+002
8392500000.000 -1.0084360294E+001 -1.3096874106E+002 -4.6344057752E+001 +1.2396770005E+002 -8.2896926112E+001 -1.5345227040E+002 -1.9072105253E+001 +1.7040722035E+002
8525000000.000 -1.0010004604E+001 -1.3052233788E+002 -4.6340114602E+001 +9.0170067116E+001 -8.5600007906E+001 +2.1510263772E+001 -1.8213725049E+001 +1.7297341816E+002
8657500000.000 -9.9053122446E+000 -1.3021331413E+002 -4.6264752983E+001 +5.6980962233E+001 -9.0500328734E+001 +4.0555345427E+001 -1.8566543100E+001 +1.7788322465E+002
8790000000.000 -9.8005324168E+000 -1.3009253192E+002 -4.6349412571E+001 +2.2606550602E+001 -8.5783884019E+001 -1.3091061617E+002 -1.8354076474E+001 -1.7172693789E+002
8922500000.000 -9.7661992851E+000 -1.3005177295E+002 -4.6114268474E+001 -1.2343387061E+001 -8.3954394023E+001 -7.7193954839E+000 -1.7991035307E+001 -1.6604493998E+002
9055000000.000 -9.6909765320E+000 -1.2969489039E+002 -4.6302114306E+001 -4.6254276876E+001 -9.2258592021E+001 -1.6049088983E+002 -1.8464770893E+001 -1.5843122792E+002
9187500000.000 -9.6157547883E+000 -1.2959424599E+002 -4.6280166166E+001 -7.9480639038E+001 -8.5207881002E+001 -1.1214034411E+002 -1.8387298289E+001 -1.4640559234E+002
9320000000.000 -9.5332751912E+000 -1.2991895686E+002 -4.6356607739E+001 -1.1394028667E+002 -8.3896703163E+001 -2.4007800988E+001 -1.8213303835E+001 -1.3973856558E+002
9452500000.000 -9.4928422511E+000 -1.2990373853E+002 -4.6222526246E+001 -1.4813126230E+002 -8.2152561466E+001 +3.7079376681E+001 -1.8855747159E+001 -1.3063080327E+002
9585000000.000 -9.4235810926E+000 -1.2982677114E+002 -4.6412343045E+001 +1.7851933101E+002 -9.4962196347E+001 +5.0885489548E+001 -1.8801306906E+001 -1.1834318017E+002
9717500000.000 -9.2944655946E+000 -1.2992502008E+002 -4.6495078246E+001 +1.4491649801E+002 -8.4681981440E+001 +4.5540778681E+001 -1.8815507420E+001 -1.1121673561E+002
9850000000.000 -9.2415093643E+000 -1.3044493614E+002 -4.6378145652E+001 +1.1005023687E+002 -7.9926447247E+001 +9.0963023670E+001 -1.9655615249E+001 -1.0065940108E+002
9982500000.000 -9.1907438724E+000 -1.3020707325E+002 -4.6369138843E+001 +7.6696296893E+001 -8.8127140543E+001 +1.2758534358E+002 -1.9700686343E+001 -8.6539052089E+001
10115000000.000 -9.0903743645E+000 -1.3015272898E+002 -4.6394146378E+001 +4.3460015386E+001 -8.3901241752E+001 -2.6897858058E+001 -1.9915841127E+001 -7.9190995901E+001
10247500000.000 -8.9814747489E+000 -1.3051328686E+002 -4.6614976546E+001 +9.0246426037E+000 -8.3543376978E+001 -3.5605210539E+001 -2.1139107382E+001 -6.6051427041E+001
10380000000.000 -8.9298020753E+000 -1.3066995771E+002 -4.6462653557E+001 -2.4853645216E+001 -8.8964641057E+001 -1.6376615663E+002 -2.1056464494E+001 -4.9982366089E+001
10512500000.000 -8.8609059595E+000 -1.3068703718E+002 -4.6662274358E+001 -5.8411190376E+001 -8.7844835410E+001 -1.3921191107E+002 -2.1504805145E+001 -4.1969825434E+001
10645000000.000 -8.7786749729E+000 -1.3071071964E+002 -4.6423052071E+001 -9.3436029827E+001 -8.3703577380E+001 +8.6931882164E+001 -2.2821712684E+001 -2.4063218444E+001
10777500000.000 -8.6820698246E+000 -1.3084245941E+002 -4.6397417216E+001 -1.2726250228E+002 -8.6587994913E+001 +1.2165034294E+002 -2.2211632027E+001 -6.0079729204E+000
10910000000.000 -8.6031152581E+000 -1.3096691887E+002 -4.6537910659E+001 -1.6106712661E+002 -8.4681459156E+001 -1.1863382091E+002 -2.2795521428E+001 +4.0924918266E+000
11042500000.000 -8.5123040865E+000 -1.3111295203E+002 -4.6533193767E+001 +1.6484325113E+002 -8.6058517629E+001 -2.1563749966E+001 -2.3445079876E+001 +2.7423976585E+001
11175000000.000 -8.4175748908E+000 -1.3100492898E+002 -4.6595617448E+001 +1.3159948002E+002 -8.0872796925E+001 +1.1758783639E+002 -2.2265038205E+001 +4.2629296307E+001
11307500000.000 -8.3591599949E+000 -1.3096523325E+002 -4.6559486344E+001 +9.6429113918E+001 -8.5225641532E+001 -8.8344175840E+001 -2.2741765333E+001 +5.3089044941E+001
11440000000.000 -8.2574478657E+000 -1.3108122648E+002 -4.6751460446E+001 +6.2831535869E+001 -8.0647826624E+001 -3.2583370116E+001 -2.2592970448E+001 +7.5650800705E+001
11572500000.000 -8.1828092962E+000 -1.3080320226E+002 -4.6659024704E+001 +2.9128860603E+001 -8.7739906305E+001 +6.0034395205E+001 -2.1180241818E+001 +8.6886278817E+001
11705000000.000 -8.1200357428E+000 -1.3075296307E+002 -4.6680738149E+001 -5.0591194720E+000 -8.2758110962E+001 -1.5605716029E+002 -2.1782116158E+001 +9.6880713115E+001
11837500000.000 -8.0361779177E+000 -1.3079384257E+002 -4.6761813273E+001 -3.9088951640E+001 -9.0332966601E+001 -4.3143675584E+001 -2.1143300879E+001 +1.1911247934E+002
11970000000.000 -8.0124097326E+000 -1.3074298511E+002 -4.6641694408E+001 -7.2878284559E+001 -8.8313961714E+001 -1.1569492832E+002 -1.9830260492E+001 +1.2537323138E+002
12102500000.000 -7.9732882705E+000 -1.3036620469E+002 -4.6818089068E+001 -1.0756269358E+002 -8.0732053503E+001 +1.7875059821E+002 -2.0765991290E+001 +1.3527851778E+002
12235000000.000 -7.8912160853E+000 -1.3073749336E+002 -4.6740462339E+001 -1.4173374637E+002 -8.1777146037E+001 -4.7274770171E+001 -1.9783330325E+001 +1.5446846448E+002
12367500000.000 -7.8880311979E+000 -1.3062222250E+002 -4.6631645027E+001 -1.7459565655E+002 -8.5028192196E+001 +3.3996349018E+001 -1.8900017087E+001 +1.5780023278E+002
12500000000.000 -7.8430721202E+000 -1.3086049052E+002 -4.7010222497E+001 +1.5095922436E+002 -8.4572783183E+001 +1.4510922049E+002 -2.0065843199E+001 +1.6801152897E+002
12632500000.000 -7.7777176473E+000 -1.3069579071E+002 -4.6783926324E+001 +1.1627289166E+002 -9.6700797804E+001 -9.6071761441E+001 -1.9169941515E+001 -1.7311225792E+002
12765000000.000 -7.7463903953E+000 -1.3083078561E+002 -4.6816706761E+001 +8.2589376205E+001 -8.3713968665E+001 -2.6599451623E+001 -1.8527136725E+001 -1.7144360229E+002
12897500000.000 -7.7275373609E+000 -1.3103596958E+002 -4.7137845978E+001 +4.9640849309E+001 -8.7885904074E+001 -4.6906721712E+001 -2.0138830460E+001 -1.5956378436E+002
13030000000.000 -7.6924167923E+000 -1.3108203791E+002 -4.6829201084E+001 +1.4242789855E+001 -7.8960167283E+001 -1.5202141401E+002 -1.8847328532E+001 -1.4170936240E+002
13162500000.000 -7.6346691802E+000 -1.3111699389E+002 -4.6986637381E+001 -1.8819258151E+001 -9.6703036286E+001 -1.0119287316E+002 -1.8646099063E+001 -1.4180401335E+002
13295000000.000 -7.5830307030E+000 -1.3118454684E+002 -4.6933110892E+001 -5.3162573833E+001 -8.6345701545E+001 +5.6700797348E+001 -2.0038146372E+001 -1.2804884649E+002
13427500000.000 -7.5490762179E+000 -1.3157466968E+002 -4.6870995257E+001 -8.6593198177E+001 -8.1579676655E+001 -1.5947421880E+002 -1.8842256405E+001 -1.1435308255E+002
13560000000.000 -7.5430125868E+000 -1.3147522109E+002 -4.7070112161E+001 -1.2060052083E+002 -8.5764091361E+001 +1.2255705140E+001 -1.9045134560E+001 -1.1478184186E+002
13692500000.000 -7.4705115732E+000 -1.3139623389E+002 -4.6995213581E+001 -1.5526691396E+002 -9.3529299713E+001 +3.8521335514E+001 -2.0820694922E+001 -1.0144090372E+002
13825000000.000 -7.3968150770E+000 -1.3167199036E+002 -4.6908209519E+001 +1.7206461311E+002 -7.7735930040E+001 +1.5075226425E+002 -1.9721240589E+001 -8.7724025327E+001
13957500000.000 -7.3816542031E+000 -1.3198630041E+002 -4.7048413081E+001 +1.3809370594E+002 -8.0114028906E+001 -1.5949584395E+002 -2.0375533039E+001 -9.0214530098E+001
14090000000.000 -7.3599337335E+000 -1.3187682198E+002 -4.7207163633E+001 +1.0237016180E+002 -8.8658712977E+001 -9.3061122456E+001 -2.2670719890E+001 -7.2846350981E+001
14222500000.000 -7.2884960812E+000 -1.3161152757E+002 -4.6885399146E+001 +7.0202032345E+001 -8.6623508764E+001 +9.2077826316E+001 -2.1275961541E+001 -5.9473872458E+001
14355000000.000 -7.2134736086E+000 -1.3197170612E+002 -4.7120333278E+001 +3.2533264260E+001 -8.0361460951E+001 -1.4917095087E+002 -2.2503914301E+001 -6.3797476457E+001
14487500000.000 -7.1786338877E+000 -1.3207720533E+002 -4.6907867689E+001 +1.0288649435E+000 -9.6723520678E+001 +9.8959690411E+001 -2.5561972661E+001 -4.0437360279E+001
14620000000.000 -7.1517588703E+000 -1.3185071563E+002 -4.7140568308E+001 -3.3616795448E+001 -9.5229835110E+001 -9.6844119467E+001 -2.3270391476E+001 -2.7305734766E+001
14752500000.000 -7.0403447220E+000 -1.3171682040E+002 -4.7412948664E+001 -6.8133081065E+001 -9.1285002819E+001 -1.4980567803E+001 -2.5338301053E+001 -3.6766445867E+001
14885000000.000 -6.9810125807E+000 -1.3179037194E+002 -4.7247277806E+001 -1.0141853824E+002 -8.4963907717E+001 -3.0141754610E+001 -2.8924276708E+001 +2.0766846643E+000
15017500000.000 -6.9538190534E+000 -1.3167218027E+002 -4.7321295459E+001 -1.3693015907E+002 -8.1491630806E+001 +9.7546243470E+001 -2.5375358224E+001 +9.1580819763E+000
15150000000.000 -6.8855158567E+000 -1.3133565453E+002 -4.7297216963E+001 -1.7105846795E+002 -7.7440923327E+001 -1.7034270782E+002 -2.9059017612E+001 -2.4195092167E+000
15282500000.000 -6.8292829702E+000 -1.3115126195E+002 -4.7397357717E+001 +1.5461545156E+002 -8.7279779672E+001 -6.5942811485E+001 -3.1113983078E+001 +5.7662292421E+001
