!  2-Port S-parameters saved by WinCal
! VAR MeasName=S-Parameters (CALIBRATED_DATA) read from VNA (C)
! VAR MeasDate=10/16/2015 3:42:39 PM
! VAR NAME=M6082_10_17_2_2_20C_1.4mA_-17.5dBm
! VAR FILENAME=M6082_10_17_2_2_20C_1.4mA_-17.5dBm.S2P
! VAR DATE=10/16/2015 3:42:39 PM
! VAR PHYS_PORTS=2,1
! VAR ObjTypeName=DATASET
! VAR IndexType=Frequency
!
# Hz S DB R 50
45000000.000 -1.4186794035E+001 -4.1739713935E+000 -4.4087547472E+001 +1.0705304540E+002 -6.3146780169E+001 +6.2012212479E+000 -3.0955676875E+001 +2.5353835703E+000
177500000.000 -1.4930144996E+001 -1.3863548770E+001 -4.7098066448E+001 +6.4924809625E+001 -7.9806514297E+001 +5.7122797558E+001 -3.2763427037E+001 +4.7051103150E+001
310000000.000 -1.4490240864E+001 -2.3383955969E+001 -4.8920670669E+001 +3.5264710820E+001 -8.1362998823E+001 -9.2337916880E+001 -2.3355831257E+001 +6.4757704347E+001
442500000.000 -1.5000552583E+001 -3.1777894043E+001 -4.6434106029E+001 -7.9364103241E+000 -7.9929915284E+001 -1.6467444633E+001 -2.2427183141E+001 +1.7082116608E+001
575000000.000 -1.5089411592E+001 -3.9041091815E+001 -4.6754271583E+001 -4.6035359517E+001 -9.3075966104E+001 +8.7787328968E+001 -3.0715579824E+001 +2.2279098439E+001
707500000.000 -1.4851975174E+001 -4.5931348233E+001 -4.7074155630E+001 -8.1951030844E+001 -1.0231938104E+002 +1.6268360130E+002 -3.4544428966E+001 +8.4082257959E+001
840000000.000 -1.4592565474E+001 -5.1570601504E+001 -4.7022038179E+001 -1.1942848347E+002 -9.1540645865E+001 -2.6146939893E+001 -2.9694231679E+001 +1.2754184264E+002
972500000.000 -1.4190139602E+001 -5.6826678594E+001 -4.7233436635E+001 -1.5561168328E+002 -8.1425554987E+001 +8.0318530267E+001 -2.5967504536E+001 +1.3543471392E+002
1105000000.000 -1.3864904289E+001 -6.1584414989E+001 -4.7342187381E+001 +1.6821717815E+002 -8.9982244952E+001 -7.2380365098E+001 -2.4365390700E+001 +1.4094776297E+002
1237500000.000 -1.3378171908E+001 -6.5882823047E+001 -4.7421850703E+001 +1.3133587148E+002 -8.5276131152E+001 +1.2905777546E+001 -2.3403596409E+001 +1.5008543237E+002
1370000000.000 -1.2956367437E+001 -6.9883274832E+001 -4.7566590948E+001 +9.4155853822E+001 -8.1934068180E+001 +1.2825248730E+002 -2.2084481804E+001 +1.6003517184E+002
1502500000.000 -1.2730956320E+001 -7.3201935961E+001 -4.7334377695E+001 +5.9177685979E+001 -8.4450116842E+001 -1.6461520357E+002 -2.0871199351E+001 +1.6646423064E+002
1635000000.000 -1.2219130096E+001 -7.6230830456E+001 -4.7567136923E+001 +2.2199993462E+001 -8.1552146302E+001 +3.3706567950E+000 -2.0024215387E+001 +1.7330207130E+002
1767500000.000 -1.1786944836E+001 -7.9238896616E+001 -4.7794199896E+001 -1.5161952049E+001 -9.9545016267E+001 -1.7612579981E+002 -1.9024176400E+001 +1.7855823750E+002
1900000000.000 -1.1633437055E+001 -8.1662270956E+001 -4.7184107375E+001 -5.0726966908E+001 -8.6869373612E+001 +1.3199473480E+002 -1.8874695936E+001 -1.7821788588E+002
2032500000.000 -1.1337590538E+001 -8.4152705906E+001 -4.6907557256E+001 -8.7451433890E+001 -8.5402973987E+001 -2.5119334862E+001 -1.8694063429E+001 -1.6785874728E+002
2165000000.000 -1.0985518837E+001 -8.6309112467E+001 -4.6779196388E+001 -1.2257203323E+002 -8.6318132481E+001 +3.8523204369E+001 -1.7750830186E+001 -1.6093232218E+002
2297500000.000 -1.0816328495E+001 -8.8201741441E+001 -4.5833424816E+001 -1.5693236663E+002 -8.3929040333E+001 +1.5721907917E+002 -1.7241896957E+001 -1.5701199334E+002
2430000000.000 -1.0597270739E+001 -8.9795658654E+001 -4.5592400462E+001 +1.6805200629E+002 -8.1438117209E+001 -6.7952099228E+001 -1.6949154181E+001 -1.5280202407E+002
2562500000.000 -1.0251959994E+001 -9.1485798381E+001 -4.5666162360E+001 +1.3223460955E+002 -7.4583555048E+001 +4.7740929637E+000 -1.6834168477E+001 -1.5034173357E+002
2695000000.000 -1.0028114790E+001 -9.3105211258E+001 -4.5044321382E+001 +9.6334259836E+001 -8.1536724507E+001 +1.1469400579E+002 -1.7374597811E+001 -1.4705598162E+002
2827500000.000 -9.8206611189E+000 -9.4549085452E+001 -4.4461163185E+001 +6.1140094715E+001 -7.8610978782E+001 -4.6256741867E+001 -1.7861548939E+001 -1.4024737217E+002
2960000000.000 -9.4327498245E+000 -9.5842537200E+001 -4.4669967845E+001 +2.1474400675E+001 -9.0678397509E+001 +1.8801318332E+001 -1.8167608735E+001 -1.3535168771E+002
3092500000.000 -9.0316598190E+000 -9.7390039800E+001 -4.4814785064E+001 -2.1265773054E+001 -7.8756682737E+001 +1.6073439663E+002 -1.9096513632E+001 -1.2919876880E+002
3225000000.000 -8.7393686118E+000 -9.8974864217E+001 -4.4235973247E+001 -5.8010652026E+001 -7.8211089282E+001 -1.3803667495E+002 -1.9590943373E+001 -1.1961013671E+002
3357500000.000 -8.4322282839E+000 -1.0070245791E+002 -4.4858014442E+001 -9.8527220554E+001 -9.4962639732E+001 +4.2636264163E+001 -1.9963525021E+001 -1.1425463934E+002
3490000000.000 -8.0822048117E+000 -1.0242781431E+002 -4.5282986332E+001 -1.3972753571E+002 -7.7918019085E+001 +7.2682044279E+001 -2.1113849231E+001 -1.0854495156E+002
3622500000.000 -7.8000425545E+000 -1.0387436789E+002 -4.5191997770E+001 -1.7873083223E+002 -8.5909227638E+001 -3.1079039635E+001 -2.1938431908E+001 -9.8191537446E+001
3755000000.000 -7.5349119183E+000 -1.0574238955E+002 -4.5134701139E+001 +1.4026897845E+002 -8.1505284003E+001 +4.2202487860E+001 -2.2726383905E+001 -9.4585014529E+001
3887500000.000 -7.3201910321E+000 -1.0759110258E+002 -4.6068627561E+001 +1.0222427245E+002 -8.1058914251E+001 +8.1907747697E+001 -2.5032422099E+001 -8.7682025062E+001
4020000000.000 -7.1261823106E+000 -1.0908995529E+002 -4.6338856432E+001 +6.1192310293E+001 -8.4213515928E+001 -8.4471903249E+001 -2.6672748884E+001 -7.3344536061E+001
4152500000.000 -6.9324337341E+000 -1.1038397747E+002 -4.6153827445E+001 +2.2968362403E+001 -8.3027790532E+001 -3.4245415758E+001 -2.8883352561E+001 -6.4896085622E+001
4285000000.000 -6.7789629608E+000 -1.1197360775E+002 -4.7090296516E+001 -1.6886896727E+001 -8.3980720786E+001 +8.4513425962E+001 -3.3372530588E+001 -3.7277024433E+001
4417500000.000 -6.6386417504E+000 -1.1347790433E+002 -4.7580709899E+001 -5.5715947272E+001 -8.3439989015E+001 +1.7074624321E+002 -3.1766309229E+001 +8.1354928124E+000
4550000000.000 -6.5158196906E+000 -1.1454966247E+002 -4.7665979621E+001 -9.3558415349E+001 -8.9101064744E+001 -1.6442327566E+002 -3.0375938465E+001 +1.8468042701E+001
4682500000.000 -6.4005937694E+000 -1.1564350901E+002 -4.8674005186E+001 -1.2930988814E+002 -1.0164159421E+002 +7.4802831470E+001 -2.9666459663E+001 +3.9153223703E+001
4815000000.000 -6.2847731199E+000 -1.1678834526E+002 -4.9162195927E+001 -1.6632385130E+002 -8.5033194383E+001 +1.7722321630E+002 -2.7642861776E+001 +4.1577749890E+001
4947500000.000 -6.1845151273E+000 -1.1772376841E+002 -4.9342207337E+001 +1.5833653947E+002 -8.4466327358E+001 -1.1440953971E+002 -2.9384237666E+001 +3.6087255804E+001
5080000000.000 -6.0931260366E+000 -1.1849493024E+002 -4.9629170937E+001 +1.2097972872E+002 -8.2241526483E+001 -4.5973935413E+001 -3.2232590603E+001 +5.7515955166E+001
5212500000.000 -6.0076041667E+000 -1.1930982011E+002 -5.0413109197E+001 +8.5528677340E+001 -8.5921271810E+001 +1.5480437968E+002 -3.1550165028E+001 +6.9800540843E+001
5345000000.000 -5.9127793044E+000 -1.2015636827E+002 -5.0315373594E+001 +4.9845712204E+001 -8.6830670778E+001 -8.8814319134E+001 -3.5312084388E+001 +7.1855133511E+001
5477500000.000 -5.8488987811E+000 -1.2076089571E+002 -5.0267718267E+001 +1.4978480656E+001 -9.1017428514E+001 -1.7171106804E+002 -3.7121408443E+001 +1.3152782739E+002
5610000000.000 -5.7721976915E+000 -1.2136270802E+002 -5.1225017887E+001 -2.0067887105E+001 -9.9044778045E+001 +8.3624174749E+001 -3.3586777458E+001 +1.3587157616E+002
5742500000.000 -5.6929502303E+000 -1.2211140177E+002 -5.1325090608E+001 -5.3466726973E+001 -8.4712487172E+001 -1.3867400030E+002 -3.7651676550E+001 +1.5261442902E+002
5875000000.000 -5.6281820327E+000 -1.2293124275E+002 -5.1014229425E+001 -9.0852054408E+001 -8.2914525191E+001 -8.8085974048E+001 -3.3698394443E+001 -1.7064508633E+002
6007500000.000 -5.5843122471E+000 -1.2349498074E+002 -5.1639369293E+001 -1.2578936713E+002 -9.1448916568E+001 -7.8876968078E+001 -3.2680100169E+001 +1.7968005974E+002
6140000000.000 -5.5154815263E+000 -1.2402225569E+002 -5.2631985332E+001 -1.5753715131E+002 -8.9504136631E+001 -1.5322111970E+002 -3.6072286914E+001 -1.6927164407E+002
6272500000.000 -5.4158694317E+000 -1.2490423757E+002 -5.2199888939E+001 +1.6553387754E+002 -8.7039379915E+001 +4.2721429918E-001 -3.3803442398E+001 -1.4430390684E+002
6405000000.000 -5.3726370096E+000 -1.2576500262E+002 -5.2089661149E+001 +1.2980398816E+002 -8.9297850128E+001 +1.6276764578E+001 -3.3797137047E+001 -1.6188738571E+002
6537500000.000 -5.3363157103E+000 -1.2616139724E+002 -5.3311631465E+001 +9.9450884576E+001 -8.6382803826E+001 +1.5986745732E+002 -4.0105192870E+001 -1.6013337024E+002
6670000000.000 -5.2290024863E+000 -1.2665313041E+002 -5.2687902313E+001 +6.1693263963E+001 -9.1245285886E+001 -1.2499680667E+002 -3.9252211053E+001 -1.3624971744E+002
6802500000.000 -5.1409555470E+000 -1.2752408216E+002 -5.2708469180E+001 +2.5873677222E+001 -8.7635304121E+001 -3.8277538150E+000 -3.8891931661E+001 +1.7992063968E+002
6935000000.000 -5.1362258139E+000 -1.2818206263E+002 -5.4766907986E+001 -1.0282792175E-001 -8.4331775747E+001 +1.0758580589E+002 -3.8729909464E+001 +1.2253582198E+002
7067500000.000 -5.0832881323E+000 -1.2847399138E+002 -5.4374816059E+001 -3.7045031575E+001 -8.5016742736E+001 +1.7171688840E+002 -3.9117804080E+001 +1.1437674964E+002
7200000000.000 -4.9730556018E+000 -1.2896454956E+002 -5.3029709402E+001 -7.7931756173E+001 -8.8954488068E+001 +5.9967124310E+001 -3.2913101440E+001 +1.3129640299E+002
7332500000.000 -4.9133563466E+000 -1.2970821284E+002 -5.4088224083E+001 -1.1042672878E+002 -8.5052354514E+001 +5.0252365639E+001 -2.9088490776E+001 +1.1886586688E+002
7465000000.000 -4.8796549413E+000 -1.3019133924E+002 -5.4676228979E+001 -1.4364779000E+002 -1.0218231148E+002 -1.1732056456E+002 -2.8670394475E+001 +1.2224489873E+002
7597500000.000 -4.8114853376E+000 -1.3052473047E+002 -5.3844972806E+001 +1.7941488913E+002 -8.9045238276E+001 -3.2638852162E+001 -2.6157991722E+001 +1.3739829813E+002
7730000000.000 -4.7303958670E+000 -1.3087953127E+002 -5.4751543426E+001 +1.4404425162E+002 -8.9715920609E+001 +7.9625331611E+001 -2.3732520335E+001 +1.3777884441E+002
7862500000.000 -4.6873897816E+000 -1.3134633611E+002 -5.6039076818E+001 +1.1521748268E+002 -1.0243555644E+002 +4.2050737800E+001 -2.3286151696E+001 +1.4137332927E+002
7995000000.000 -4.6429718573E+000 -1.3170429212E+002 -5.5286171831E+001 +7.7278517135E+001 -8.4608466127E+001 +3.6053044411E+000 -2.1849889279E+001 +1.5417516006E+002
8127500000.000 -4.5746598479E+000 -1.3181401493E+002 -5.5222781765E+001 +4.1042831518E+001 -8.5733780195E+001 -4.8221545130E+001 -2.0024300038E+001 +1.5647792584E+002
8260000000.000 -4.5115080880E+000 -1.3226063945E+002 -5.6684839847E+001 +8.7209907081E+000 -8.0923814596E+001 +1.5996132048E+002 -1.9856266373E+001 +1.6018623650E+002
8392500000.000 -4.4849686013E+000 -1.3254590918E+002 -5.6288307468E+001 -2.4033958260E+001 -8.5819821762E+001 -3.9681663691E+001 -1.9070835689E+001 +1.7041660258E+002
8525000000.000 -4.4445286221E+000 -1.3264814281E+002 -5.6779882341E+001 -6.0093435136E+001 -8.6637242621E+001 +1.0633160705E+002 -1.8214017093E+001 +1.7300365913E+002
8657500000.000 -4.3919396017E+000 -1.3282647463E+002 -5.7231273887E+001 -9.2371886228E+001 -8.6553598906E+001 +1.1996613964E+002 -1.8564893603E+001 +1.7799301252E+002
8790000000.000 -4.3381591484E+000 -1.3317932132E+002 -5.7515534402E+001 -1.2551978349E+002 -9.1892178707E+001 -1.6201688976E+002 -1.8354619072E+001 -1.7172641744E+002
8922500000.000 -4.3270953616E+000 -1.3350835491E+002 -5.7999328931E+001 -1.6135232455E+002 -8.3376783000E+001 -2.5833517620E+001 -1.7987470610E+001 -1.6591498237E+002
9055000000.000 -4.2872953350E+000 -1.3364889671E+002 -5.7906747687E+001 +1.6584464137E+002 -8.6890200505E+001 -1.6576005737E+002 -1.8460193262E+001 -1.5828561340E+002
9187500000.000 -4.2470770222E+000 -1.3390922532E+002 -5.8320657079E+001 +1.3247845928E+002 -9.8315009519E+001 -4.9542198358E+001 -1.8379900325E+001 -1.4622441495E+002
9320000000.000 -4.2043103413E+000 -1.3453957321E+002 -5.8530708135E+001 +9.7938025576E+001 -8.3378148158E+001 +2.4499988863E+001 -1.8203722938E+001 -1.3953789182E+002
9452500000.000 -4.1860314604E+000 -1.3485886042E+002 -5.8570246656E+001 +6.3157715433E+001 -8.5325341714E+001 +8.3864766194E+001 -1.8861190242E+001 -1.3051520850E+002
9585000000.000 -4.1537682497E+000 -1.3514360814E+002 -5.8695184200E+001 +3.1073626563E+001 -8.6443684035E+001 -1.5883071781E+002 -1.8802845172E+001 -1.1811090807E+002
9717500000.000 -4.0898806660E+000 -1.3551281096E+002 -5.8837438494E+001 -3.7457184650E+000 -9.1043632297E+001 +4.2149017404E+001 -1.8809634454E+001 -1.1099947384E+002
9850000000.000 -4.0628021349E+000 -1.3621396291E+002 -5.9956211694E+001 -3.7555954359E+001 -7.9750540455E+001 +5.0808655777E+001 -1.9652022689E+001 -1.0051181836E+002
9982500000.000 -4.0463414472E+000 -1.3635058665E+002 -5.9235673203E+001 -6.9152222045E+001 -9.1537209763E+001 -7.8737471095E+000 -1.9709085561E+001 -8.6275205677E+001
10115000000.000 -4.0012195835E+000 -1.3657590302E+002 -5.9943724396E+001 -1.0562800070E+002 -8.6475902857E+001 -3.0975329099E+001 -1.9915065705E+001 -7.8790667505E+001
10247500000.000 -3.9428753594E+000 -1.3706395994E+002 -6.0087847516E+001 -1.4075319186E+002 -8.9655053505E+001 +9.4142232688E+001 -2.1148862790E+001 -6.5883502740E+001
10380000000.000 -3.9262600405E+000 -1.3751698231E+002 -6.0361850886E+001 -1.7132408181E+002 -8.8715883271E+001 +8.2347454340E+001 -2.1089611965E+001 -4.9570707741E+001
10512500000.000 -3.9053389609E+000 -1.3777093401E+002 -6.0552890689E+001 +1.5123544718E+002 -9.3223743906E+001 +1.4202162468E+002 -2.1523179663E+001 -4.1509599005E+001
10645000000.000 -3.8669205134E+000 -1.3797799837E+002 -6.0573888721E+001 +1.1555667387E+002 -7.9864577180E+001 -1.2245489134E+001 -2.2819756401E+001 -2.3621066567E+001
10777500000.000 -3.8181250639E+000 -1.3834471252E+002 -6.1328182781E+001 +8.3633880973E+001 -8.7236387307E+001 +9.8809253037E+001 -2.2225818563E+001 -5.5891991930E+000
10910000000.000 -3.7865366772E+000 -1.3873483957E+002 -6.1949627466E+001 +5.0125470084E+001 -9.6009547460E+001 -1.6862396568E+002 -2.2789460140E+001 +4.8724999122E+000
11042500000.000 -3.7566278820E+000 -1.3903423349E+002 -6.1930612154E+001 +1.4209513859E+001 -8.9750646401E+001 +7.2839647855E+001 -2.3443992097E+001 +2.8000143456E+001
11175000000.000 -3.7148487796E+000 -1.3913080895E+002 -6.3092797410E+001 -1.7333227885E+001 -8.1149342373E+001 +1.1061279205E+002 -2.2272952391E+001 +4.3177635725E+001
11307500000.000 -3.6861048242E+000 -1.3934550622E+002 -6.2926649017E+001 -4.9406487817E+001 -7.8370254702E+001 -1.2873468949E+002 -2.2748538407E+001 +5.3687067956E+001
11440000000.000 -3.6456265619E+000 -1.3963850407E+002 -6.3469521732E+001 -8.0748627769E+001 -8.2269307034E+001 -5.6945689035E+001 -2.2550905538E+001 +7.6162852485E+001
11572500000.000 -3.6207246480E+000 -1.3964213369E+002 -6.3451509427E+001 -1.1215100843E+002 -8.3233779109E+001 +1.0704010817E+002 -2.1162026960E+001 +8.7388134711E+001
11705000000.000 -3.5928043825E+000 -1.3975665412E+002 -6.3697380185E+001 -1.4383004608E+002 -8.2499008121E+001 -9.7431776069E+001 -2.1769059594E+001 +9.7540109196E+001
11837500000.000 -3.5536507630E+000 -1.3995377672E+002 -6.4137584029E+001 +1.7480183719E+002 -8.7891189958E+001 -5.3836964190E+001 -2.1112462610E+001 +1.1964627620E+002
11970000000.000 -3.5541354192E+000 -1.4017083431E+002 -6.3991920998E+001 +1.5233212677E+002 -8.2127790919E+001 +2.7882243857E+001 -1.9816371156E+001 +1.2577375434E+002
12102500000.000 -3.5506034193E+000 -1.4011828301E+002 -6.4661148983E+001 +1.1751194866E+002 -8.3217127149E+001 +1.2283180974E+002 -2.0742548644E+001 +1.3577776869E+002
12235000000.000 -3.5121784094E+000 -1.4047888441E+002 -6.4723501464E+001 +8.7133922664E+001 -8.4906638000E+001 -8.1132789692E+001 -1.9757965452E+001 +1.5496654137E+002
12367500000.000 -3.5176110159E+000 -1.4064622024E+002 -6.5164094023E+001 +5.1850768177E+001 -8.8745957385E+001 -3.0293444231E+001 -1.8876064993E+001 +1.5831377388E+002
12500000000.000 -3.5056436285E+000 -1.4101801703E+002 -6.4801921302E+001 +4.3374707800E+000 -8.4569986374E+001 -7.6994553118E+001 -2.0056981800E+001 +1.6839925917E+002
12632500000.000 -3.4915637741E+000 -1.4106956289E+002 -6.5212358744E+001 -2.3028212568E+001 -8.9639505379E+001 -7.5382667429E+001 -1.9181631716E+001 -1.7262382000E+002
12765000000.000 -3.4747203591E+000 -1.4130637787E+002 -6.7176812212E+001 -5.5577374203E+001 -9.0340934944E+001 +4.9916472945E+001 -1.8519155436E+001 -1.7092370004E+002
12897500000.000 -3.4703533670E+000 -1.4162604119E+002 -6.6218368858E+001 -9.5446211519E+001 -8.3161237648E+001 +9.3811418799E+001 -2.0123405236E+001 -1.5924883099E+002
13030000000.000 -3.4680847845E+000 -1.4184701907E+002 -6.5735231562E+001 -1.2144436986E+002 -9.0103793662E+001 -1.4062888867E+002 -1.8861600530E+001 -1.4124018772E+002
13162500000.000 -3.4460055441E+000 -1.4197770565E+002 -6.5892166545E+001 -1.6226577628E+002 -9.5257164404E+001 -8.9817638260E+001 -1.8672173403E+001 -1.4121978756E+002
13295000000.000 -3.4261446862E+000 -1.4213912222E+002 -6.6421560204E+001 +1.6995970050E+002 -9.6820242235E+001 -1.1691421964E+002 -2.0042550419E+001 -1.2759604491E+002
13427500000.000 -3.4157252925E+000 -1.4252950924E+002 -6.5283252393E+001 +1.2274380271E+002 -8.6427258599E+001 -1.6417596399E+002 -1.8889903386E+001 -1.1400428219E+002
13560000000.000 -3.4279964781E+000 -1.4264386612E+002 -6.6627427606E+001 +1.0308314140E+002 -7.8738833551E+001 +3.9211607560E+001 -1.9084871979E+001 -1.1436434638E+002
13692500000.000 -3.3983573842E+000 -1.4268224173E+002 -6.6493657472E+001 +5.5103110032E+001 -8.9018770363E+001 +5.1847240937E-001 -2.0843725579E+001 -1.0104682145E+002
13825000000.000 -3.3688365327E+000 -1.4294661960E+002 -6.7083725847E+001 +3.4378416671E+001 -9.5788523917E+001 -1.3963802964E+002 -1.9764308495E+001 -8.7508321936E+001
13957500000.000 -3.3700065806E+000 -1.4331773361E+002 -6.9031926564E+001 -8.7430809317E-001 -8.0035374194E+001 -3.6624721161E+001 -2.0438771702E+001 -8.9875858955E+001
14090000000.000 -3.3738050182E+000 -1.4337299544E+002 -6.8446009970E+001 -3.4363183693E+001 -8.1097184872E+001 -1.2791491972E+001 -2.2709956587E+001 -7.2337459595E+001
14222500000.000 -3.3526923758E+000 -1.4328083434E+002 -7.1178786718E+001 -6.3480585190E+001 -7.9754526876E+001 +1.2582447631E+002 -2.1328211755E+001 -5.9169021984E+001
14355000000.000 -3.3132105986E+000 -1.4360176095E+002 -6.9328323902E+001 -1.2921907642E+002 -8.8075408343E+001 +3.0218834710E+000 -2.2570525976E+001 -6.3616293085E+001
14487500000.000 -3.2993917061E+000 -1.4371963689E+002 -6.9642216286E+001 -1.3119201849E+002 -8.3100113008E+001 +1.6559019823E+002 -2.5628869262E+001 -3.9992824648E+001
14620000000.000 -3.3026820578E+000 -1.4369735357E+002 -6.6820078111E+001 -1.6296416657E+002 -7.8541271778E+001 +7.3074513434E+001 -2.3307964783E+001 -2.7169459889E+001
14752500000.000 -3.2479609933E+000 -1.4357688266E+002 -6.8567790486E+001 +1.6628137523E+002 -8.3841354020E+001 +5.9044788275E+001 -2.5406202173E+001 -3.6960313788E+001
14885000000.000 -3.2095052122E+000 -1.4364727405E+002 -7.2429360703E+001 +1.3814166025E+002 -9.8313440480E+001 +1.2086010005E+001 -2.9097739419E+001 +2.5550387325E+000
15017500000.000 -3.2036813334E+000 -1.4369749894E+002 -6.8748138901E+001 +1.0391832309E+002 -7.7632644105E+001 +1.0688573584E+002 -2.5420094688E+001 +9.6668664906E+000
15150000000.000 -3.1812448264E+000 -1.4351797986E+002 -7.0745117685E+001 +8.6762405478E+001 -8.3103882350E+001 +1.5444613849E+002 -2.9103772855E+001 -2.9593796985E+000
15282500000.000 -3.1539499980E+000 -1.4338502569E+002 -7.0154970744E+001 +2.8753477272E+001 -8.1230603012E+001 +2.4469396502E+001 -3.1300322745E+001 +5.8081413685E+001
