!  2-Port S-parameters saved by WinCal
! VAR MeasName=S-Parameters (CALIBRATED_DATA) read from VNA (C)
! VAR MeasDate=10/16/2015 3:11:57 PM
! VAR NAME=M6082_10_15_2_2_20C_6.4mA_-17.5dBm
! VAR FILENAME=M6082_10_15_2_2_20C_6.4mA_-17.5dBm.S2P
! VAR DATE=10/16/2015 3:11:57 PM
! VAR PHYS_PORTS=2,1
! VAR ObjTypeName=DATASET
! VAR IndexType=Frequency
!
# Hz S DB R 50
45000000.000 -2.3911841136E+001 -1.7876201392E+002 -4.3203732953E+001 +9.7795147690E+001 -5.6808712469E+001 -4.2487347047E+001 -3.0459858079E+001 +4.6161265094E+000
177500000.000 -2.4017109176E+001 -1.7186474367E+002 -4.2522468162E+001 +6.7029471945E+001 -8.0300871404E+001 +1.2306249592E+002 -3.2711168219E+001 +4.6841689590E+001
310000000.000 -2.3876544195E+001 -1.6451574133E+002 -4.2684448517E+001 +3.7060437536E+001 -7.6008596346E+001 +1.7989754660E+002 -2.3341185368E+001 +6.4606095214E+001
442500000.000 -2.3504594555E+001 -1.5732514038E+002 -4.1655416392E+001 +3.9668726533E-001 -7.9286933905E+001 -7.1062654943E+001 -2.2382509678E+001 +1.7283694898E+001
575000000.000 -2.2947190217E+001 -1.5069130735E+002 -4.2212259911E+001 -3.5081242052E+001 -8.4217974454E+001 +1.6810160536E+002 -3.0644093076E+001 +2.2452811482E+001
707500000.000 -2.2349220843E+001 -1.4569580308E+002 -4.2414453828E+001 -7.0935878782E+001 -8.6954160648E+001 -9.0099818330E+001 -3.4515942848E+001 +8.4104624385E+001
840000000.000 -2.1724139452E+001 -1.4077360950E+002 -4.2498985854E+001 -1.0439451413E+002 -8.1035670504E+001 -3.1265640404E+001 -2.9676801298E+001 +1.2748089183E+002
972500000.000 -2.1090834051E+001 -1.3664038049E+002 -4.2557378291E+001 -1.3781092841E+002 -8.6114304176E+001 -7.4317779035E+001 -2.5973129069E+001 +1.3540425325E+002
1105000000.000 -2.0395759083E+001 -1.3347771353E+002 -4.2678098187E+001 -1.7325160096E+002 -8.6184478831E+001 +1.5771309260E+002 -2.4377874303E+001 +1.4093448468E+002
1237500000.000 -1.9772690493E+001 -1.3089228607E+002 -4.2686152193E+001 +1.5295303540E+002 -9.1241667149E+001 +2.9178642845E+001 -2.3407180238E+001 +1.5001954632E+002
1370000000.000 -1.9153565767E+001 -1.2883475996E+002 -4.2755029421E+001 +1.1872918349E+002 -7.9150768553E+001 +8.4824847849E+001 -2.2082431225E+001 +1.6002235196E+002
1502500000.000 -1.8588038822E+001 -1.2699771018E+002 -4.2735865585E+001 +8.5247705670E+001 -8.7833852541E+001 -5.0675620247E+001 -2.0867714094E+001 +1.6641013508E+002
1635000000.000 -1.8028615144E+001 -1.2508106429E+002 -4.2820028626E+001 +5.0924293549E+001 -8.1176320059E+001 -4.5210835904E+001 -2.0036976637E+001 +1.7332311892E+002
1767500000.000 -1.7466353384E+001 -1.2393142302E+002 -4.2793942803E+001 +1.6394219277E+001 -8.2089720282E+001 +7.1019001119E+001 -1.9027403508E+001 +1.7854988262E+002
1900000000.000 -1.7010190960E+001 -1.2296178150E+002 -4.2817626587E+001 -1.7687444537E+001 -9.6438210917E+001 +1.2547387360E+002 -1.8873473360E+001 -1.7826807510E+002
2032500000.000 -1.6554443420E+001 -1.2206396974E+002 -4.2853356560E+001 -5.2626558772E+001 -8.5171181389E+001 -4.4154134950E+001 -1.8694822917E+001 -1.6789998872E+002
2165000000.000 -1.6075930136E+001 -1.2102912833E+002 -4.2876489058E+001 -8.6516579928E+001 -8.0649906008E+001 +1.1258504870E+001 -1.7749806253E+001 -1.6094893391E+002
2297500000.000 -1.5673286681E+001 -1.2054783426E+002 -4.2989299785E+001 -1.2140763964E+002 -7.7742733704E+001 -5.6308106445E+001 -1.7238449986E+001 -1.5705618194E+002
2430000000.000 -1.5296603427E+001 -1.2010612024E+002 -4.2937618720E+001 -1.5472790785E+002 -7.7724095388E+001 +2.8860299665E+001 -1.6942380835E+001 -1.5286988747E+002
2562500000.000 -1.4893225713E+001 -1.1961025645E+002 -4.3053652080E+001 +1.7192563629E+002 -7.6979192262E+001 +5.7954509705E+001 -1.6850353687E+001 -1.5045583666E+002
2695000000.000 -1.4526030388E+001 -1.1985834328E+002 -4.3058902951E+001 +1.3604956787E+002 -8.0621556646E+001 -1.1285990109E+002 -1.7372616416E+001 -1.4709523568E+002
2827500000.000 -1.4225270611E+001 -1.2003017815E+002 -4.3346915496E+001 +1.0386090096E+002 -8.2156879189E+001 -1.3255574336E+002 -1.7858326363E+001 -1.4028059383E+002
2960000000.000 -1.3917631952E+001 -1.1961298455E+002 -4.3145257954E+001 +6.8774283609E+001 -7.9760034250E+001 +6.9447113902E+001 -1.8162746897E+001 -1.3546281935E+002
3092500000.000 -1.3549829398E+001 -1.1962903180E+002 -4.3281837357E+001 +3.5486470587E+001 -7.8616345848E+001 +1.2702824830E+002 -1.9084934550E+001 -1.2930158656E+002
3225000000.000 -1.3215544224E+001 -1.2005299223E+002 -4.3428518161E+001 +7.5005046384E-002 -7.5369071425E+001 -1.2556330098E+002 -1.9578743289E+001 -1.1975133789E+002
3357500000.000 -1.2980356235E+001 -1.2028181943E+002 -4.3313689141E+001 -3.2796168081E+001 -7.8428384110E+001 -2.2727556444E+001 -1.9963265902E+001 -1.1428490582E+002
3490000000.000 -1.2659984429E+001 -1.2018575089E+002 -4.3329765998E+001 -6.6115044682E+001 -7.8567171479E+001 +9.8278042024E+001 -2.1129358806E+001 -1.0849791984E+002
3622500000.000 -1.2352009229E+001 -1.2022186867E+002 -4.3374084807E+001 -1.0111713518E+002 -7.8955362219E+001 -1.5311924714E+002 -2.1938305033E+001 -9.8235583746E+001
3755000000.000 -1.2054847293E+001 -1.2052255024E+002 -4.3388921713E+001 -1.3500570760E+002 -7.9152132746E+001 +2.8599180878E+001 -2.2728722152E+001 -9.4799426387E+001
3887500000.000 -1.1811019123E+001 -1.2066092229E+002 -4.3430542780E+001 -1.6922253124E+002 -8.4290516091E+001 +1.7689758752E+002 -2.5048318361E+001 -8.7763829480E+001
4020000000.000 -1.1575786108E+001 -1.2079577921E+002 -4.3276206675E+001 +1.5636879735E+002 -7.8362131128E+001 -1.4407971217E+002 -2.6649583788E+001 -7.3350946503E+001
4152500000.000 -1.1320471570E+001 -1.2076393777E+002 -4.3413630537E+001 +1.2270105897E+002 -8.0810156873E+001 -1.1307244820E+002 -2.8860538597E+001 -6.5040052732E+001
4285000000.000 -1.1077395333E+001 -1.2099032572E+002 -4.3453023475E+001 +8.7767321666E+001 -8.1040470598E+001 +4.4595077548E+001 -3.3336386754E+001 -3.7446849876E+001
4417500000.000 -1.0850507982E+001 -1.2135751240E+002 -4.3442042214E+001 +5.3915455347E+001 -9.7045756933E+001 +1.4485257891E+002 -3.1759592833E+001 +8.1312993079E+000
4550000000.000 -1.0664366250E+001 -1.2142107709E+002 -4.3705765461E+001 +1.9630313045E+001 -8.8413023610E+001 -1.3986021587E+002 -3.0341723868E+001 +1.8284906653E+001
4682500000.000 -1.0444956236E+001 -1.2143287633E+002 -4.3710263979E+001 -1.3490276330E+001 -8.5871098128E+001 -1.3224701592E+002 -2.9683287307E+001 +3.8727198186E+001
4815000000.000 -1.0226576351E+001 -1.2170789157E+002 -4.3700157933E+001 -4.6680336324E+001 -8.6567814346E+001 +1.0429647655E+002 -2.7631886748E+001 +4.1327629706E+001
4947500000.000 -1.0059423399E+001 -1.2185460441E+002 -4.3749888803E+001 -8.0387935424E+001 -8.4057205329E+001 +1.7255229626E+002 -2.9386407819E+001 +3.5815246242E+001
5080000000.000 -9.8830559621E+000 -1.2184231091E+002 -4.3548248420E+001 -1.1377154270E+002 -8.4414668243E+001 -3.9146354329E+001 -3.2254072818E+001 +5.7020641524E+001
5212500000.000 -9.7000591908E+000 -1.2196829618E+002 -4.3504976752E+001 -1.4748583055E+002 -1.0734804314E+002 -6.1592605156E+001 -3.1578190982E+001 +6.9686003434E+001
5345000000.000 -9.5384937906E+000 -1.2230189280E+002 -4.3472853704E+001 +1.7824948376E+002 -9.4997622811E+001 -6.9934109500E+001 -3.5334576848E+001 +7.1132836561E+001
5477500000.000 -9.4194059887E+000 -1.2231649466E+002 -4.3422750042E+001 +1.4312929203E+002 -8.5920748277E+001 +2.6556558440E+001 -3.7292093241E+001 +1.3151410132E+002
5610000000.000 -9.2587978956E+000 -1.2236138340E+002 -4.3403273746E+001 +1.0944171663E+002 -8.4859531081E+001 +1.3273619959E+002 -3.3671599522E+001 +1.3573747309E+002
5742500000.000 -9.1094007278E+000 -1.2272668057E+002 -4.3498692698E+001 +7.4577295227E+001 -9.0810006943E+001 +1.7928682674E+002 -3.7710328116E+001 +1.5300126797E+002
5875000000.000 -9.0086518799E+000 -1.2315921785E+002 -4.3281407208E+001 +4.0310093492E+001 -8.5651978200E+001 +5.4605248041E+001 -3.3731830175E+001 -1.7051716092E+002
6007500000.000 -8.9026690976E+000 -1.2331365610E+002 -4.3285398416E+001 +6.4804620016E+000 -9.8248632464E+001 +1.3630626240E+002 -3.2703329248E+001 +1.7970043237E+002
6140000000.000 -8.7530690787E+000 -1.2345027649E+002 -4.3406735029E+001 -2.8356769511E+001 -8.4711747914E+001 +1.7334657788E+002 -3.6109512553E+001 -1.6912726414E+002
6272500000.000 -8.6075826970E+000 -1.2404867996E+002 -4.3462026476E+001 -6.2881612245E+001 -9.8691842812E+001 +1.5588852518E+001 -3.3890896248E+001 -1.4433688542E+002
6405000000.000 -8.5186280289E+000 -1.2465799961E+002 -4.3510233229E+001 -9.6943791959E+001 -8.9079966409E+001 +8.5268122489E+001 -3.3850347378E+001 -1.6194214286E+002
6537500000.000 -8.4165943304E+000 -1.2473041641E+002 -4.3484927183E+001 -1.3175638602E+002 -9.0071314836E+001 +4.5268427508E+000 -4.0188307573E+001 -1.6002333386E+002
6670000000.000 -8.2519373298E+000 -1.2488145434E+002 -4.3476328433E+001 -1.6556083927E+002 -8.1722106871E+001 -9.8499623945E+001 -3.9369762723E+001 -1.3740823322E+002
6802500000.000 -8.1076205596E+000 -1.2554594879E+002 -4.3667238103E+001 +1.6097004676E+002 -8.5966685874E+001 +6.3715747786E+001 -3.8902673167E+001 +1.7934023915E+002
6935000000.000 -8.0385095728E+000 -1.2610181146E+002 -4.3626184270E+001 +1.2641282194E+002 -9.0387984232E+001 +5.9012337319E+001 -3.8634433639E+001 +1.2263198518E+002
7067500000.000 -7.9464664902E+000 -1.2605577568E+002 -4.3671082033E+001 +9.1932764465E+001 -9.7655633874E+001 -8.2392165477E+001 -3.8986409521E+001 +1.1463047129E+002
7200000000.000 -7.7924453289E+000 -1.2626179156E+002 -4.3645768687E+001 +5.8302627221E+001 -9.2394136837E+001 +9.7835848364E+001 -3.2855225162E+001 +1.3130402431E+002
7332500000.000 -7.6676456689E+000 -1.2692062431E+002 -4.3724055983E+001 +2.4132211160E+001 -8.9966411999E+001 +1.7264772819E+002 -2.9079224099E+001 +1.1917158986E+002
7465000000.000 -7.5884337040E+000 -1.2723516748E+002 -4.3743277947E+001 -9.6302654971E+000 -8.6478220553E+001 -1.2173278898E+002 -2.8637336144E+001 +1.2241511716E+002
7597500000.000 -7.4825441802E+000 -1.2727667529E+002 -4.3780383211E+001 -4.3598233074E+001 -8.5868354171E+001 +7.4972795422E+001 -2.6151326554E+001 +1.3761317719E+002
7730000000.000 -7.3404430903E+000 -1.2749276395E+002 -4.3817081756E+001 -7.7230218441E+001 -1.0557433275E+002 -7.3905952414E+001 -2.3727217120E+001 +1.3788528300E+002
7862500000.000 -7.2385799270E+000 -1.2782028687E+002 -4.3858079751E+001 -1.1188288650E+002 -8.3966444872E+001 -1.1562010467E+002 -2.3272660757E+001 +1.4145860521E+002
7995000000.000 -7.1657478200E+000 -1.2797436548E+002 -4.3870612402E+001 -1.4571063971E+002 -9.7312475653E+001 -6.8334938657E+001 -2.1840334699E+001 +1.5427463073E+002
8127500000.000 -7.0454855289E+000 -1.2788361175E+002 -4.3874440602E+001 +1.7961588566E+002 -8.7475303104E+001 +1.0371246241E+002 -2.0026553143E+001 +1.5651209893E+002
8260000000.000 -6.9383398547E+000 -1.2822184434E+002 -4.3957974485E+001 +1.4624240689E+002 -8.3679114687E+001 +9.2837496143E+001 -1.9857417770E+001 +1.6016292981E+002
8392500000.000 -6.8758085243E+000 -1.2831327758E+002 -4.3866053209E+001 +1.1203735617E+002 -9.1432236591E+001 -1.7594514853E+002 -1.9072742107E+001 +1.7040850254E+002
8525000000.000 -6.8024241915E+000 -1.2825673172E+002 -4.3948347492E+001 +7.8268407106E+001 -9.4243359197E+001 +3.6495294928E+001 -1.8210751088E+001 +1.7295970541E+002
8657500000.000 -6.7101339179E+000 -1.2828789542E+002 -4.3903119894E+001 +4.4289952040E+001 -8.0330963640E+001 +1.6365012631E+002 -1.8568655697E+001 +1.7796061187E+002
8790000000.000 -6.6203555095E+000 -1.2851058407E+002 -4.3838478546E+001 +1.0004902156E+001 -9.2659563625E+001 -1.5170964457E+002 -1.8353913325E+001 -1.7170699303E+002
8922500000.000 -6.5812996246E+000 -1.2872825987E+002 -4.3839993832E+001 -2.4500949034E+001 -9.0329743464E+001 +1.5576985718E+002 -1.7986256384E+001 -1.6603312388E+002
9055000000.000 -6.5117604024E+000 -1.2875083092E+002 -4.3817561478E+001 -5.8138888537E+001 -8.5395793365E+001 +1.3746990822E+002 -1.8461447770E+001 -1.5838082125E+002
9187500000.000 -6.4430114403E+000 -1.2890864954E+002 -4.3745157408E+001 -9.2995217841E+001 -8.9677683600E+001 -1.2998773017E+002 -1.8389065248E+001 -1.4633460766E+002
9320000000.000 -6.3687293973E+000 -1.2945485680E+002 -4.3787346681E+001 -1.2656651794E+002 -8.4086898517E+001 +1.6202596373E+001 -1.8205675006E+001 -1.3965998032E+002
9452500000.000 -6.3278843389E+000 -1.2968681873E+002 -4.3738442389E+001 -1.6102959219E+002 -8.6996989295E+001 -1.5853122473E+002 -1.8854581146E+001 -1.3056617994E+002
9585000000.000 -6.2649044392E+000 -1.2988109718E+002 -4.3754542681E+001 +1.6498208559E+002 -8.3961374302E+001 -1.4031581398E+002 -1.8805805341E+001 -1.1817535178E+002
9717500000.000 -6.1624312065E+000 -1.3020744851E+002 -4.3836774600E+001 +1.3099584205E+002 -8.3662773071E+001 +4.6305899867E+001 -1.8807497337E+001 -1.1108388309E+002
9850000000.000 -6.1146653261E+000 -1.3085685771E+002 -4.3767607983E+001 +9.6236839622E+001 -8.2057927341E+001 +8.2302571698E+001 -1.9653758809E+001 -1.0063358914E+002
9982500000.000 -6.0727189279E+000 -1.3088558180E+002 -4.3866371576E+001 +6.1233853062E+001 -8.3852875543E+001 +1.3571498411E+002 -1.9712373248E+001 -8.6415751807E+001
10115000000.000 -5.9931794006E+000 -1.3104917467E+002 -4.3896864303E+001 +2.7002312794E+001 -8.9219401908E+001 -1.1673611579E+002 -1.9919784276E+001 -7.8994156247E+001
10247500000.000 -5.9067379443E+000 -1.3154325003E+002 -4.3890799656E+001 -6.1069244103E+000 -8.1097872091E+001 +9.3698558981E+001 -2.1142277391E+001 -6.5932976198E+001
10380000000.000 -5.8699299221E+000 -1.3192666749E+002 -4.3918938151E+001 -4.1387903781E+001 -8.5307201173E+001 -1.5310785442E+002 -2.1068062424E+001 -4.9846952025E+001
10512500000.000 -5.8207475813E+000 -1.3212794065E+002 -4.3885713368E+001 -7.5358450702E+001 -8.6302024530E+001 -3.2805832241E+001 -2.1501305361E+001 -4.1750263708E+001
10645000000.000 -5.7570541978E+000 -1.3233747292E+002 -4.3888932725E+001 -1.0948947771E+002 -8.9309237995E+001 +2.1479025734E+001 -2.2823215544E+001 -2.3981532586E+001
10777500000.000 -5.6809991899E+000 -1.3267488932E+002 -4.3906839783E+001 -1.4372428362E+002 -9.3612562905E+001 +1.3019986122E+002 -2.2222515618E+001 -5.8906487025E+000
10910000000.000 -5.6194981965E+000 -1.3301619641E+002 -4.3831158312E+001 -1.7754678658E+002 -8.6094454056E+001 -1.7279328021E+002 -2.2789581532E+001 +4.4160393472E+000
11042500000.000 -5.5577166458E+000 -1.3330001433E+002 -4.3918948704E+001 +1.4801871701E+002 -8.0454064039E+001 +7.2275548710E+001 -2.3446641194E+001 +2.7632744935E+001
11175000000.000 -5.4873081166E+000 -1.3339517018E+002 -4.3921773017E+001 +1.1346708284E+002 -8.1649931354E+001 +1.3541975516E+002 -2.2271979751E+001 +4.2795164301E+001
11307500000.000 -5.4371250928E+000 -1.3355129051E+002 -4.3930133088E+001 +7.9046821586E+001 -8.4095069003E+001 -1.2218120942E+002 -2.2750229711E+001 +5.3442084457E+001
11440000000.000 -5.3675341447E+000 -1.3382440224E+002 -4.4113552894E+001 +4.4925549652E+001 -7.9109095547E+001 -2.4163362637E+001 -2.2572856221E+001 +7.5869659660E+001
11572500000.000 -5.3172894435E+000 -1.3378214346E+002 -4.3883568277E+001 +1.0939584684E+001 -8.3946256304E+001 +9.2993526994E+001 -2.1171818303E+001 +8.7117234245E+001
11705000000.000 -5.2671709593E+000 -1.3385265034E+002 -4.4086779113E+001 -2.3653418757E+001 -8.2487943268E+001 -1.5327859786E+002 -2.1777395807E+001 +9.7198533423E+001
11837500000.000 -5.2084158708E+000 -1.3403832847E+002 -4.3952777817E+001 -5.7800149286E+001 -8.4642698888E+001 -1.2845756862E+002 -2.1125239971E+001 +1.1937117084E+002
11970000000.000 -5.1908964194E+000 -1.3420547813E+002 -4.4042152424E+001 -9.2402518267E+001 -8.4858001574E+001 -1.6669191535E+002 -1.9816971005E+001 +1.2550011201E+002
12102500000.000 -5.1682904579E+000 -1.3406742294E+002 -4.4008282131E+001 -1.2615690682E+002 -1.0122941386E+002 +7.5958620690E+000 -2.0753736800E+001 +1.3550568660E+002
12235000000.000 -5.1081487086E+000 -1.3450132381E+002 -4.4030827965E+001 -1.6068349921E+002 -8.1667448708E+001 -7.5182196685E+001 -1.9776568623E+001 +1.5465250688E+002
12367500000.000 -5.1023671627E+000 -1.3460510844E+002 -4.3964952996E+001 +1.6421306670E+002 -8.3181295867E+001 -2.9704978146E+001 -1.8882133277E+001 +1.5798519142E+002
12500000000.000 -5.0741199907E+000 -1.3497560750E+002 -4.4047361525E+001 +1.3014393739E+002 -7.9723671514E+001 +9.5578923391E+001 -2.0060865801E+001 +1.6817595650E+002
12632500000.000 -5.0298592511E+000 -1.3501764984E+002 -4.4050632866E+001 +9.5574946690E+001 -8.1582602293E+001 -1.0252297430E+002 -1.9181152035E+001 -1.7291495039E+002
12765000000.000 -4.9983821647E+000 -1.3526818731E+002 -4.4006740674E+001 +6.1435537558E+001 -9.6101649160E+001 +2.3316899357E+001 -1.8523889138E+001 -1.7126589511E+002
12897500000.000 -4.9828751157E+000 -1.3558479845E+002 -4.4122521084E+001 +2.6495330397E+001 -8.6492859278E+001 +1.3241589008E+002 -2.0126799766E+001 -1.5944655052E+002
13030000000.000 -4.9612971450E+000 -1.3576065920E+002 -4.4258665000E+001 -8.3266192402E+000 -8.8967603553E+001 +1.4930913474E+002 -1.8848412707E+001 -1.4153032992E+002
13162500000.000 -4.9188339030E+000 -1.3587785226E+002 -4.4106256967E+001 -4.1299733933E+001 -8.9638890362E+001 -3.6575158454E+000 -1.8647765067E+001 -1.4150437012E+002
13295000000.000 -4.8847679717E+000 -1.3605235497E+002 -4.4226314416E+001 -7.6555002679E+001 -8.4893762401E+001 +1.4879767855E+002 -2.0036405966E+001 -1.2786728364E+002
13427500000.000 -4.8684708291E+000 -1.3645653293E+002 -4.4136492414E+001 -1.1082323808E+002 -8.4750570040E+001 +1.7995758601E+002 -1.8862517121E+001 -1.1420116809E+002
13560000000.000 -4.8643383409E+000 -1.3650564205E+002 -4.4264888054E+001 -1.4520235824E+002 -7.9674312289E+001 +1.6336519103E+001 -1.9064765179E+001 -1.1463642507E+002
13692500000.000 -4.8222074164E+000 -1.3655869153E+002 -4.4224376379E+001 +1.7968451982E+002 -8.9442788579E+001 +1.3568375216E+002 -2.0821497439E+001 -1.0124349852E+002
13825000000.000 -4.7722711545E+000 -1.3686687611E+002 -4.4346376797E+001 +1.4603560073E+002 -9.0684485247E+001 -1.4120902815E+002 -1.9741668942E+001 -8.7699553539E+001
13957500000.000 -4.7634156508E+000 -1.3726854722E+002 -4.4406771644E+001 +1.1189451915E+002 -8.4607059134E+001 -5.8044773640E-001 -2.0406084875E+001 -9.0082449800E+001
14090000000.000 -4.7517261319E+000 -1.3734996291E+002 -4.4514530562E+001 +7.7093710882E+001 -8.6205504546E+001 +1.7184804222E+001 -2.2659306204E+001 -7.2515105492E+001
14222500000.000 -4.7081575760E+000 -1.3725628115E+002 -4.4357291275E+001 +4.2956128750E+001 -8.1288904477E+001 +1.4650220408E+002 -2.1287519573E+001 -5.9378812449E+001
14355000000.000 -4.6498116259E+000 -1.3762797329E+002 -4.4514778394E+001 +7.6054214698E+000 -8.0288102404E+001 -1.0729268789E+002 -2.2524696196E+001 -6.3798344892E+001
14487500000.000 -4.6256220215E+000 -1.3780935004E+002 -4.4495185974E+001 -2.6009475638E+001 -8.5294058725E+001 +2.7554552085E+001 -2.5593978289E+001 -4.0120761975E+001
14620000000.000 -4.6137492672E+000 -1.3772971204E+002 -4.4516689399E+001 -6.0974185392E+001 -8.2349752896E+001 +1.4900170020E+002 -2.3279308530E+001 -2.7275125151E+001
14752500000.000 -4.5334433113E+000 -1.3760757679E+002 -4.4517125196E+001 -9.6301874963E+001 -9.0810138520E+001 -1.1845582314E+002 -2.5375272980E+001 -3.6852852699E+001
14885000000.000 -4.4950674780E+000 -1.3770302408E+002 -4.4580383321E+001 -1.3011674875E+002 -8.4132278523E+001 -1.1296123422E+001 -2.9019681450E+001 +2.6155983381E+000
15017500000.000 -4.4780742947E+000 -1.3768219172E+002 -4.4558648788E+001 -1.6520496461E+002 -9.2021493270E+001 -1.3419735438E+002 -2.5395751573E+001 +9.3054981035E+000
15150000000.000 -4.4342516587E+000 -1.3749134255E+002 -4.4679360776E+001 +1.6123930016E+002 -8.0750387504E+001 -9.7268178290E+001 -2.9069283196E+001 -2.8388390951E+000
15282500000.000 -4.4014487152E+000 -1.3740183517E+002 -4.4701751447E+001 +1.2624412139E+002 -8.3055301366E+001 -8.6782161057E-001 -3.1279942507E+001 +5.8214496759E+001
