!  2-Port S-parameters saved by WinCal
! VAR MeasName=S-Parameters (CALIBRATED_DATA) read from VNA (C)
! VAR MeasDate=10/16/2015 12:52:01 PM
! VAR NAME=M6082_13_15_2_2_20C_10.4mA_-17.5dBm
! VAR FILENAME=M6082_13_15_2_2_20C_10.4mA_-17.5dBm.S2P
! VAR DATE=10/16/2015 12:52:01 PM
! VAR PHYS_PORTS=2,1
! VAR ObjTypeName=DATASET
! VAR IndexType=Frequency
!
# Hz S DB R 50
45000000.000 -2.3019306986E+001 -1.7935639334E+002 -4.3485210495E+001 +9.6862060009E+001 -5.7630288101E+001 +7.0613032026E+001 -3.0769962815E+001 +4.8581901308E+000
177500000.000 -2.3112382415E+001 -1.7662343831E+002 -4.4038362102E+001 +7.0792773041E+001 -7.3882714896E+001 +7.4438489675E+001 -3.2766502509E+001 +4.6142537708E+001
310000000.000 -2.3095736650E+001 -1.7325752029E+002 -4.3691642453E+001 +4.1467996715E+001 -7.7382370625E+001 -1.7577690313E+002 -2.3344957709E+001 +6.4718687090E+001
442500000.000 -2.3045282424E+001 -1.6972846341E+002 -4.2752295694E+001 +1.5642188438E+000 -7.5842729568E+001 +6.3942438481E+001 -2.2396302617E+001 +1.7281865041E+001
575000000.000 -2.2914616613E+001 -1.6601269305E+002 -4.3341492731E+001 -3.4470485262E+001 -8.5151082943E+001 +1.6205176138E+002 -3.0610205604E+001 +2.2424801192E+001
707500000.000 -2.2750760314E+001 -1.6318466728E+002 -4.3519078011E+001 -6.7852062257E+001 -8.8825205046E+001 +9.6582395189E+001 -3.4539979959E+001 +8.3645648117E+001
840000000.000 -2.2608699839E+001 -1.5957487172E+002 -4.3469207330E+001 -1.0265052872E+002 -8.3226066936E+001 -1.3670738279E+001 -2.9674236852E+001 +1.2737152748E+002
972500000.000 -2.2428899707E+001 -1.5646547123E+002 -4.3708864885E+001 -1.3647616254E+002 -8.9477888941E+001 +7.4770523974E+001 -2.5961331809E+001 +1.3532234868E+002
1105000000.000 -2.2149617360E+001 -1.5356389729E+002 -4.3683121460E+001 -1.7081977027E+002 -8.7354268425E+001 -1.6142968972E+002 -2.4366833488E+001 +1.4083059584E+002
1237500000.000 -2.1907021791E+001 -1.5106147277E+002 -4.3721120607E+001 +1.5609222095E+002 -8.3123711993E+001 -2.3378089744E+001 -2.3400507088E+001 +1.4999827319E+002
1370000000.000 -2.1636159703E+001 -1.4880997587E+002 -4.3676095896E+001 +1.2191208245E+002 -8.2452938499E+001 +1.2492574880E+001 -2.2090132442E+001 +1.5998316339E+002
1502500000.000 -2.1388543213E+001 -1.4651264658E+002 -4.3679153448E+001 +8.7549690819E+001 -8.4975873396E+001 -1.1039833293E+002 -2.0867886136E+001 +1.6641483050E+002
1635000000.000 -2.1117177842E+001 -1.4391012634E+002 -4.3803193891E+001 +5.5273790833E+001 -8.3645063324E+001 +2.3897698270E+001 -2.0026311670E+001 +1.7326954311E+002
1767500000.000 -2.0801774100E+001 -1.4194253428E+002 -4.3744940092E+001 +2.0845663929E+001 -9.6557237957E+001 +1.5033972092E+002 -1.9024631408E+001 +1.7844872839E+002
1900000000.000 -2.0585030010E+001 -1.4022466257E+002 -4.3781777634E+001 -1.3686499245E+001 -9.0561561585E+001 +8.9101704592E+001 -1.8870422919E+001 -1.7823796311E+002
2032500000.000 -2.0309117793E+001 -1.3865065855E+002 -4.3944739241E+001 -4.7002299245E+001 -8.2632697801E+001 -6.7210506301E+001 -1.8695738367E+001 -1.6788330431E+002
2165000000.000 -2.0039912790E+001 -1.3656678226E+002 -4.3851305299E+001 -8.1711279028E+001 -8.7761199735E+001 +2.3818182279E+000 -1.7746214914E+001 -1.6097851646E+002
2297500000.000 -1.9791305507E+001 -1.3522330364E+002 -4.3838905856E+001 -1.1525903860E+002 -9.3165666549E+001 -1.4222388363E+002 -1.7248088038E+001 -1.5704308477E+002
2430000000.000 -1.9538335400E+001 -1.3387589285E+002 -4.3871118709E+001 -1.4967170304E+002 -7.7957156851E+001 -7.9344566617E+000 -1.6946497024E+001 -1.5283523097E+002
2562500000.000 -1.9254811899E+001 -1.3255530114E+002 -4.4159682885E+001 +1.7636781778E+002 -8.1836751575E+001 -1.0619493283E+001 -1.6838765345E+001 -1.5042580283E+002
2695000000.000 -1.8982690564E+001 -1.3218489349E+002 -4.3970982556E+001 +1.4129436079E+002 -8.6905123390E+001 +1.2781902064E+002 -1.7382086306E+001 -1.4714722097E+002
2827500000.000 -1.8791005900E+001 -1.3170776379E+002 -4.3904294424E+001 +1.0783905628E+002 -7.2771046660E+001 -1.2269226413E+002 -1.7856040715E+001 -1.4027313756E+002
2960000000.000 -1.8574722558E+001 -1.3070571303E+002 -4.4049024272E+001 +7.5231835001E+001 -8.8698885009E+001 +6.3280331021E+001 -1.8162828775E+001 -1.3539027174E+002
3092500000.000 -1.8243851080E+001 -1.2978590995E+002 -4.4051601436E+001 +3.9897314309E+001 -7.3913357894E+001 +1.0741202627E+002 -1.9094506723E+001 -1.2931767274E+002
3225000000.000 -1.7937184742E+001 -1.2961357292E+002 -4.4183328318E+001 +6.8979232487E+000 -7.6843886214E+001 +1.5178468555E+002 -1.9597631598E+001 -1.1969285730E+002
3357500000.000 -1.7756653906E+001 -1.2948848089E+002 -4.4197872894E+001 -2.5975670362E+001 -8.4656282572E+001 +6.1939423865E+001 -1.9960228673E+001 -1.1434510168E+002
3490000000.000 -1.7490143013E+001 -1.2847648489E+002 -4.4093437617E+001 -6.0957086705E+001 -8.5972533557E+001 +9.6648205399E+001 -2.1144385170E+001 -1.0857845606E+002
3622500000.000 -1.7193306335E+001 -1.2768251782E+002 -4.4209814379E+001 -9.3444346012E+001 -7.9671196746E+001 -6.1145808148E+001 -2.1944236353E+001 -9.8097624387E+001
3755000000.000 -1.6883476203E+001 -1.2738623792E+002 -4.4173754349E+001 -1.2789261235E+002 -7.9699960599E+001 -6.7619640636E+001 -2.2703682517E+001 -9.4546082019E+001
3887500000.000 -1.6677156474E+001 -1.2694891392E+002 -4.4036228085E+001 -1.6162211387E+002 -8.5813855449E+001 +6.4460308880E+001 -2.5054490739E+001 -8.7754410696E+001
4020000000.000 -1.6469120259E+001 -1.2638459852E+002 -4.4101173794E+001 +1.6445537045E+002 -8.9014699143E+001 -1.4597818397E+002 -2.6675931535E+001 -7.3340714281E+001
4152500000.000 -1.6217945089E+001 -1.2565537805E+002 -4.4133846616E+001 +1.2936923008E+002 -7.6955077047E+001 -9.1608150832E+000 -2.8906621359E+001 -6.4615126466E+001
4285000000.000 -1.5975371639E+001 -1.2527231192E+002 -4.4075449642E+001 +9.5422007685E+001 -8.4876849881E+001 +1.0659565608E+002 -3.3385438938E+001 -3.7547590433E+001
4417500000.000 -1.5753821302E+001 -1.2512534155E+002 -4.4260594092E+001 +6.1853366321E+001 -8.9246944847E+001 -1.8216723114E+001 -3.1740704197E+001 +8.2991036318E+000
4550000000.000 -1.5586019703E+001 -1.2456825150E+002 -4.4316033172E+001 +2.8670130055E+001 -8.8825967594E+001 -1.4147073803E+001 -3.0329345722E+001 +1.8348683996E+001
4682500000.000 -1.5356730676E+001 -1.2390317556E+002 -4.4366055720E+001 -6.4608909122E+000 -8.4874759197E+001 -1.1280701013E+000 -2.9674615933E+001 +3.8909864691E+001
4815000000.000 -1.5128710430E+001 -1.2367830433E+002 -4.4430686287E+001 -3.8915630939E+001 -9.8981780651E+001 +3.4349525970E+001 -2.7635193466E+001 +4.1362597209E+001
4947500000.000 -1.4973569908E+001 -1.2327136642E+002 -4.4354167566E+001 -7.1931604523E+001 -8.8559400445E+001 -1.3934567684E+002 -2.9360574082E+001 +3.5908288391E+001
5080000000.000 -1.4805207725E+001 -1.2261535597E+002 -4.4249263401E+001 -1.0525922238E+002 -8.5560846248E+001 -1.1479082669E+000 -3.2217271784E+001 +5.7180345606E+001
5212500000.000 -1.4604344029E+001 -1.2222422227E+002 -4.4106910641E+001 -1.3848313695E+002 -8.4127017219E+001 +1.2180180110E+002 -3.1553999391E+001 +6.9731767542E+001
5345000000.000 -1.4443842487E+001 -1.2215447034E+002 -4.4240562640E+001 -1.7229548287E+002 -9.1818545636E+001 -1.7753186417E+002 -3.5349339506E+001 +7.1390051812E+001
5477500000.000 -1.4353003329E+001 -1.2158478119E+002 -4.4199294927E+001 +1.5300993432E+002 -8.6651627433E+001 -3.6055048672E+001 -3.7259675389E+001 +1.3179953396E+002
5610000000.000 -1.4178606298E+001 -1.2104621631E+002 -4.3989999888E+001 +1.1912391856E+002 -9.1503181558E+001 +5.3817455012E+001 -3.3619564332E+001 +1.3594253282E+002
5742500000.000 -1.4026438332E+001 -1.2108850163E+002 -4.3973068211E+001 +8.4405377891E+001 -8.2465665548E+001 -8.6237975192E+001 -3.7706607870E+001 +1.5312437258E+002
5875000000.000 -1.3957656131E+001 -1.2125913924E+002 -4.4000812480E+001 +5.0277320365E+001 -8.5275765317E+001 -5.1911102103E+001 -3.3720918435E+001 -1.7053724181E+002
6007500000.000 -1.3862260115E+001 -1.2084985298E+002 -4.3992888099E+001 +1.6178952932E+001 -8.5662641088E+001 +8.5012337845E+001 -3.2637679638E+001 +1.7959265761E+002
6140000000.000 -1.3685868815E+001 -1.2056839457E+002 -4.4051792707E+001 -1.8178049683E+001 -8.6276915331E+001 +9.8759366173E+001 -3.6081705399E+001 -1.6958558246E+002
6272500000.000 -1.3519819133E+001 -1.2109672118E+002 -4.4015419362E+001 -5.2513263563E+001 -8.3320692968E+001 -9.6669081095E+001 -3.3861129711E+001 -1.4451715009E+002
6405000000.000 -1.3463023186E+001 -1.2152182613E+002 -4.3937175712E+001 -8.5776863445E+001 -9.2423059820E+001 -1.9050690226E+001 -3.3776192730E+001 -1.6195497313E+002
6537500000.000 -1.3361433150E+001 -1.2103567033E+002 -4.4073557646E+001 -1.2025863750E+002 -8.3322227346E+001 -7.5247568852E+000 -4.0155025311E+001 -1.6019463382E+002
6670000000.000 -1.3140596084E+001 -1.2082353952E+002 -4.4073754503E+001 -1.5466639086E+002 -9.4887300273E+001 -1.5201079809E+002 -3.9385118063E+001 -1.3697121242E+002
6802500000.000 -1.2965099932E+001 -1.2146671852E+002 -4.4101283659E+001 +1.7143869120E+002 -9.6504025637E+001 +1.7205180282E+002 -3.8894492330E+001 +1.7999518887E+002
6935000000.000 -1.2915290069E+001 -1.2180410601E+002 -4.4179839730E+001 +1.3736382171E+002 -9.3413322869E+001 +1.1812248106E+002 -3.8607980003E+001 +1.2314651859E+002
7067500000.000 -1.2809790759E+001 -1.2129563162E+002 -4.4196998323E+001 +1.0367904249E+002 -8.5517212811E+001 +1.1222444902E+002 -3.9044607143E+001 +1.1465360145E+002
7200000000.000 -1.2591164877E+001 -1.2128227080E+002 -4.4262420395E+001 +6.8781614390E+001 -8.7966953676E+001 -6.1816449602E+001 -3.2903821206E+001 +1.3169367763E+002
7332500000.000 -1.2441081226E+001 -1.2182508633E+002 -4.4269389635E+001 +3.5523139801E+001 -8.9859181649E+001 +2.4195798929E+001 -2.9114049093E+001 +1.1905354321E+002
7465000000.000 -1.2359535268E+001 -1.2184503612E+002 -4.4145649671E+001 +1.5237106320E+000 -8.3525781715E+001 -1.1163843336E+002 -2.8647434860E+001 +1.2238737867E+002
7597500000.000 -1.2204284851E+001 -1.2157365316E+002 -4.4306859505E+001 -3.2298999100E+001 -8.5291481645E+001 -2.8153876211E+001 -2.6132457314E+001 +1.3762474132E+002
7730000000.000 -1.2020327817E+001 -1.2155847828E+002 -4.4313920772E+001 -6.6026799021E+001 -8.5403973062E+001 +1.1646280090E+002 -2.3743505181E+001 +1.3778117325E+002
7862500000.000 -1.1900142007E+001 -1.2162406983E+002 -4.4327917264E+001 -1.0058678430E+002 -8.3253343666E+001 -1.6184874479E+002 -2.3297356198E+001 +1.4155324465E+002
7995000000.000 -1.1809854595E+001 -1.2144933948E+002 -4.4274517177E+001 -1.3336441573E+002 -8.7824330509E+001 -3.8523596104E+001 -2.1838516958E+001 +1.5426841497E+002
8127500000.000 -1.1635402159E+001 -1.2098064131E+002 -4.4256048947E+001 -1.6703028562E+002 -7.9464042575E+001 +6.2352585620E+001 -2.0026511481E+001 +1.5646201043E+002
8260000000.000 -1.1498422441E+001 -1.2117447226E+002 -4.4291113551E+001 +1.5843140426E+002 -8.3527280130E+001 -1.7404649857E+002 -1.9880598643E+001 +1.6020623517E+002
8392500000.000 -1.1419955181E+001 -1.2090875975E+002 -4.4402421661E+001 +1.2509401153E+002 -8.6699415347E+001 -1.0307453682E+002 -1.9064728660E+001 +1.7044927438E+002
8525000000.000 -1.1327134567E+001 -1.2049061369E+002 -4.4348280907E+001 +9.0739201203E+001 -8.5944653601E+001 +7.5561428207E+001 -1.8205429522E+001 +1.7298015953E+002
8657500000.000 -1.1199504164E+001 -1.2026397685E+002 -4.4274604610E+001 +5.7225972010E+001 -8.9360011898E+001 +4.9728386493E+001 -1.8575337795E+001 +1.7794790444E+002
8790000000.000 -1.1081540694E+001 -1.2023716603E+002 -4.4200574948E+001 +2.2648156465E+001 -8.3172769976E+001 -4.6841229687E+001 -1.8353030810E+001 -1.7172976793E+002
8922500000.000 -1.1045488912E+001 -1.2016743883E+002 -4.4241443360E+001 -1.0893009885E+001 -8.5318022711E+001 +3.8436297987E+001 -1.7982180859E+001 -1.6601838395E+002
9055000000.000 -1.0951429222E+001 -1.1988051703E+002 -4.4227557697E+001 -4.5650631806E+001 -7.9829612630E+001 +1.2414633430E+002 -1.8459249540E+001 -1.5833930764E+002
9187500000.000 -1.0864264510E+001 -1.1984942757E+002 -4.4209835823E+001 -7.9000208749E+001 -9.2343210888E+001 -2.1782942466E+001 -1.8378841803E+001 -1.4633156073E+002
9320000000.000 -1.0788682675E+001 -1.2026177622E+002 -4.4263139971E+001 -1.1333777786E+002 -8.3018469875E+001 -2.4221408204E+001 -1.8207143865E+001 -1.3964941739E+002
9452500000.000 -1.0743030972E+001 -1.2024169625E+002 -4.4205424229E+001 -1.4623430711E+002 -8.6489279952E+001 +8.5112322632E+001 -1.8848598338E+001 -1.3056516594E+002
9585000000.000 -1.0661353595E+001 -1.2020189084E+002 -4.4283734740E+001 +1.7868457848E+002 -9.0748234496E+001 -1.2780610402E+002 -1.8788546264E+001 -1.1822658985E+002
9717500000.000 -1.0522405448E+001 -1.2050201648E+002 -4.4281359528E+001 +1.4485097283E+002 -7.9683396703E+001 -5.1560037371E+001 -1.8818822557E+001 -1.1111270715E+002
9850000000.000 -1.0478959208E+001 -1.2109151560E+002 -4.4238644199E+001 +1.1054797110E+002 -8.8730341102E+001 +8.8410640969E+001 -1.9659107886E+001 -1.0052476915E+002
9982500000.000 -1.0416751238E+001 -1.2084188361E+002 -4.4250350441E+001 +7.6986342850E+001 -8.4700542539E+001 +1.7344194385E+002 -1.9687633899E+001 -8.6444972162E+001
10115000000.000 -1.0302667394E+001 -1.2089895122E+002 -4.4348440704E+001 +4.2384051187E+001 -7.9985495878E+001 -5.9058535412E+001 -1.9923124942E+001 -7.9073724661E+001
10247500000.000 -1.0191083888E+001 -1.2143438864E+002 -4.4284677016E+001 +9.0805570554E+000 -8.7630565717E+001 +1.0307164170E+002 -2.1158424693E+001 -6.5871668298E+001
10380000000.000 -1.0133857353E+001 -1.2160272001E+002 -4.4268379810E+001 -2.5372622548E+001 -9.0317323892E+001 -6.2573146521E+001 -2.1050735027E+001 -4.9872279747E+001
10512500000.000 -1.0052139493E+001 -1.2171026862E+002 -4.4321644643E+001 -5.9555642746E+001 -8.4154448393E+001 -1.3290405588E+001 -2.1518449150E+001 -4.2000079799E+001
10645000000.000 -9.9644475965E+000 -1.2186616729E+002 -4.4286414696E+001 -9.2766755167E+001 -8.4447647266E+001 +3.6049239204E+001 -2.2835542880E+001 -2.3835453681E+001
10777500000.000 -9.8629022627E+000 -1.2207086473E+002 -4.4228652940E+001 -1.2798669019E+002 -8.9848599197E+001 +1.2580755518E+002 -2.2194786358E+001 -5.7954338151E+000
10910000000.000 -9.7731862396E+000 -1.2221379910E+002 -4.4296884315E+001 -1.6141981953E+002 -8.8331232946E+001 -1.2018427021E+002 -2.2787472027E+001 +4.3212989692E+000
11042500000.000 -9.6658362984E+000 -1.2248139417E+002 -4.4259796595E+001 +1.6419157319E+002 -8.6059668220E+001 +8.2608247431E+001 -2.3468798820E+001 +2.7714908103E+001
11175000000.000 -9.5611171600E+000 -1.2245869356E+002 -4.4182706406E+001 +1.3032166136E+002 -8.6244953378E+001 +1.4325713893E+002 -2.2246719157E+001 +4.2953805622E+001
11307500000.000 -9.4990555359E+000 -1.2244357061E+002 -4.4424613767E+001 +9.6710766539E+001 -9.8834522377E+001 +1.2691609149E+002 -2.2746242952E+001 +5.3263532900E+001
11440000000.000 -9.3877262395E+000 -1.2266386047E+002 -4.4408827363E+001 +6.1691098097E+001 -8.3570561971E+001 +7.5986350457E-001 -2.2577057457E+001 +7.5823256060E+001
11572500000.000 -9.2985691493E+000 -1.2241329763E+002 -4.4284466973E+001 +2.8198028021E+001 -8.5620855092E+001 +8.6138331576E+001 -2.1154525017E+001 +8.7187958540E+001
11705000000.000 -9.2281976696E+000 -1.2241939114E+002 -4.4317209035E+001 -6.2618301141E+000 -8.0942963447E+001 -1.1453236470E+002 -2.1767370465E+001 +9.7079494995E+001
11837500000.000 -9.1344094903E+000 -1.2253855909E+002 -4.4206501697E+001 -4.0849710912E+001 -9.2469779004E+001 +7.3188765420E+000 -2.1115711478E+001 +1.1938144498E+002
11970000000.000 -9.1057739809E+000 -1.2248630471E+002 -4.4338356541E+001 -7.3279410454E+001 -8.2547070005E+001 +6.4668797368E+001 -1.9819454042E+001 +1.2561706132E+002
12102500000.000 -9.0517716295E+000 -1.2208184235E+002 -4.4367373060E+001 -1.0821568306E+002 -8.5720420211E+001 -1.2851554348E+002 -2.0753999058E+001 +1.3550064472E+002
12235000000.000 -8.9662590666E+000 -1.2259468331E+002 -4.4318474112E+001 -1.4355817095E+002 -8.6569340596E+001 -7.0024080703E+001 -1.9758338759E+001 +1.5462237925E+002
12367500000.000 -8.9634513421E+000 -1.2242282809E+002 -4.4461508538E+001 -1.7624606735E+002 -8.3915760768E+001 -1.1390619227E+002 -1.8869560606E+001 +1.5803111157E+002
12500000000.000 -8.9145927718E+000 -1.2270473358E+002 -4.4484783630E+001 +1.4927259595E+002 -9.6242084191E+001 +1.5171225766E+002 -2.0064912971E+001 +1.6821760874E+002
12632500000.000 -8.8326434964E+000 -1.2261207719E+002 -4.4390369169E+001 +1.1595132152E+002 -8.1976205495E+001 -1.5838818242E+002 -1.9164371547E+001 -1.7294269749E+002
12765000000.000 -8.8073383559E+000 -1.2275158872E+002 -4.4426124458E+001 +8.0955617605E+001 -8.7097718125E+001 -1.5728336042E+001 -1.8527196842E+001 -1.7133532614E+002
12897500000.000 -8.7965217719E+000 -1.2299510963E+002 -4.4461890560E+001 +4.6545278803E+001 -8.8452289144E+001 +1.2357414775E+002 -2.0143315862E+001 -1.5930117725E+002
13030000000.000 -8.7538110505E+000 -1.2304967294E+002 -4.4426432660E+001 +1.2606008077E+001 -8.3463009913E+001 -1.2978948815E+002 -1.8837765605E+001 -1.4140528495E+002
13162500000.000 -8.6915070498E+000 -1.2312086828E+002 -4.4393473622E+001 -2.1284403959E+001 -8.2433271789E+001 -2.0871426187E+001 -1.8650139549E+001 -1.4161136531E+002
13295000000.000 -8.6363038037E+000 -1.2328766735E+002 -4.4507252020E+001 -5.4770494471E+001 -9.5153706086E+001 -1.7912033438E+002 -2.0055890056E+001 -1.2783080209E+002
13427500000.000 -8.6029935435E+000 -1.2376449370E+002 -4.4586673884E+001 -8.8869568059E+001 -8.2434570116E+001 -1.0298995853E+002 -1.8837828628E+001 -1.1404014022E+002
13560000000.000 -8.6031987977E+000 -1.2368615027E+002 -4.4447446392E+001 -1.2278343635E+002 -7.9071059907E+001 +8.4958897534E+001 -1.9041839143E+001 -1.1465114523E+002
13692500000.000 -8.5148549782E+000 -1.2358537178E+002 -4.4453872788E+001 -1.5695776508E+002 -8.5751956255E+001 +1.2840642604E+002 -2.0846097548E+001 -1.0121685013E+002
13825000000.000 -8.4291547430E+000 -1.2398827371E+002 -4.4512773520E+001 +1.6929498873E+002 -8.8063761333E+001 -1.4716904260E+002 -1.9741003400E+001 -8.7493767943E+001
13957500000.000 -8.4208229158E+000 -1.2436072007E+002 -4.4642651713E+001 +1.3543519953E+002 -8.6520402419E+001 +4.6806544549E+000 -2.0398458275E+001 -9.0020594353E+001
14090000000.000 -8.3882116338E+000 -1.2424737711E+002 -4.4575653651E+001 +9.9395006268E+001 -8.3507534538E+001 +1.0334704032E+002 -2.2698854548E+001 -7.2610929358E+001
14222500000.000 -8.2995496133E+000 -1.2398637888E+002 -4.4585761924E+001 +6.5865608212E+001 -8.6979519881E+001 +1.1824312309E+002 -2.1299229278E+001 -5.9235618638E+001
14355000000.000 -8.2261021181E+000 -1.2444525650E+002 -4.4532066163E+001 +3.2166660442E+001 -8.0815266165E+001 -5.4926735400E+001 -2.2507020029E+001 -6.3595404242E+001
14487500000.000 -8.1973507548E+000 -1.2460976199E+002 -4.4680208521E+001 -2.9702085483E+000 -8.1233247929E+001 +5.5839142233E+001 -2.5580880680E+001 -4.0322741884E+001
14620000000.000 -8.1579364825E+000 -1.2434692829E+002 -4.4537454109E+001 -3.6111194788E+001 -8.6860033153E+001 +1.4962290220E+002 -2.3306876802E+001 -2.7235899462E+001
14752500000.000 -8.0316654138E+000 -1.2432644376E+002 -4.4609027796E+001 -7.0772642163E+001 -8.9791452242E+001 +3.2536767301E+001 -2.5395243676E+001 -3.6679937467E+001
14885000000.000 -7.9758746200E+000 -1.2451371127E+002 -4.4650502642E+001 -1.0424224276E+002 -8.9413302081E+001 -2.8004110488E+001 -2.8942515892E+001 +2.3658184831E+000
15017500000.000 -7.9515753200E+000 -1.2438783867E+002 -4.4785087413E+001 -1.3903344322E+002 -8.1977871437E+001 +1.5554384514E+002 -2.5423355902E+001 +9.0728690661E+000
15150000000.000 -7.8615255702E+000 -1.2404434012E+002 -4.4612896387E+001 -1.7276691931E+002 -7.8148729609E+001 -1.7447578250E+002 -2.9160631285E+001 -2.4417170703E+000
15282500000.000 -7.7997693058E+000 -1.2392814633E+002 -4.4814457309E+001 +1.5303510355E+002 -7.8442171360E+001 -7.1533459013E+001 -3.1209563290E+001 +5.8075669355E+001
