!  2-Port S-parameters saved by WinCal
! VAR MeasName=S-Parameters (CALIBRATED_DATA) read from VNA (C)
! VAR MeasDate=10/16/2015 3:20:24 PM
! VAR NAME=M6082_10_15_2_2_20C_15.6mA_-17.5dBm
! VAR FILENAME=M6082_10_15_2_2_20C_15.6mA_-17.5dBm.S2P
! VAR DATE=10/16/2015 3:20:24 PM
! VAR PHYS_PORTS=2,1
! VAR ObjTypeName=DATASET
! VAR IndexType=Frequency
!
# Hz S DB R 50
45000000.000 -1.6734986554E+001 +1.7994897171E+002 -4.5604366683E+001 +1.0389665508E+002 -7.0867462283E+001 -1.5806175015E+002 -3.0473375805E+001 +5.0958041068E+000
177500000.000 -1.6784666674E+001 -1.7771107918E+002 -4.5070287886E+001 +6.9820010887E+001 -6.7796287699E+001 +7.0697200449E+001 -3.2769701858E+001 +4.6973543905E+001
310000000.000 -1.6824657115E+001 -1.7543381801E+002 -4.4700343911E+001 +4.0263506892E+001 -8.4355316151E+001 -3.1300095174E+001 -2.3354389475E+001 +6.4911417380E+001
442500000.000 -1.6827005503E+001 -1.7304807079E+002 -4.3523055074E+001 +1.4592927678E+000 -8.3941341980E+001 +8.7162931741E+001 -2.2399487735E+001 +1.7155684497E+001
575000000.000 -1.6775574527E+001 -1.7036464968E+002 -4.3849686985E+001 -3.4048891804E+001 -7.7569237572E+001 +1.0691435970E+002 -3.0632895874E+001 +2.2635590897E+001
707500000.000 -1.6698591058E+001 -1.6818415897E+002 -4.4335282396E+001 -6.7969186320E+001 -8.4376256241E+001 -1.1286646899E+002 -3.4575517223E+001 +8.3937387197E+001
840000000.000 -1.6630555910E+001 -1.6557676486E+002 -4.4394553283E+001 -1.0311909253E+002 -8.2779917359E+001 +4.4145678101E+001 -2.9680088425E+001 +1.2753741825E+002
972500000.000 -1.6529179597E+001 -1.6312442879E+002 -4.4230975537E+001 -1.3634274682E+002 -8.6083419916E+001 +1.0988593940E+002 -2.5970371029E+001 +1.3536724606E+002
1105000000.000 -1.6380871528E+001 -1.6075306521E+002 -4.4566637108E+001 -1.7087239042E+002 -8.1137417024E+001 -1.1154794397E+002 -2.4374267398E+001 +1.4085360009E+002
1237500000.000 -1.6228035838E+001 -1.5869231705E+002 -4.4394494992E+001 +1.5468130405E+002 -8.5889370344E+001 -2.2782560803E+001 -2.3412891349E+001 +1.5005573451E+002
1370000000.000 -1.6045372660E+001 -1.5674243252E+002 -4.4422603499E+001 +1.2114112056E+002 -8.6988038127E+001 +2.7374940924E+001 -2.2089413338E+001 +1.6003518222E+002
1502500000.000 -1.5880536755E+001 -1.5479525649E+002 -4.4593634873E+001 +8.6822484477E+001 -9.1118558151E+001 -1.3624462685E+002 -2.0871593832E+001 +1.6643377744E+002
1635000000.000 -1.5696461933E+001 -1.5261186553E+002 -4.4656408459E+001 +5.2514122785E+001 -8.4474746830E+001 -7.6068176348E+001 -2.0033401364E+001 +1.7331041557E+002
1767500000.000 -1.5475357919E+001 -1.5092950794E+002 -4.4823491521E+001 +1.9298358991E+001 -8.2055854594E+001 +5.9959256613E+001 -1.9026256354E+001 +1.7855984662E+002
1900000000.000 -1.5305670853E+001 -1.4940174163E+002 -4.4424913150E+001 -1.6086867445E+001 -8.4122325229E+001 -1.7238517895E+002 -1.8875439213E+001 -1.7825231398E+002
2032500000.000 -1.5102963693E+001 -1.4787069032E+002 -4.4765635175E+001 -5.0260730473E+001 -8.4023711713E+001 -5.0122984303E+001 -1.8690818340E+001 -1.6785758300E+002
2165000000.000 -1.4885509816E+001 -1.4618343708E+002 -4.4604926626E+001 -8.4303726765E+001 -8.9336375236E+001 +9.1241355017E+001 -1.7750579511E+001 -1.6092753890E+002
2297500000.000 -1.4686915167E+001 -1.4497612248E+002 -4.4943811654E+001 -1.1792086007E+002 -9.1947608652E+001 +1.6344839891E+002 -1.7245435776E+001 -1.5711616088E+002
2430000000.000 -1.4488012327E+001 -1.4375351294E+002 -4.4845523548E+001 -1.5265692163E+002 -7.5834460470E+001 -7.8903073567E+001 -1.6944545949E+001 -1.5278998253E+002
2562500000.000 -1.4257494104E+001 -1.4252979040E+002 -4.4926256085E+001 +1.7340498706E+002 -7.9734423012E+001 +4.2098924929E+001 -1.6841904887E+001 -1.5043151839E+002
2695000000.000 -1.4025685707E+001 -1.4193422384E+002 -4.5265876973E+001 +1.3817010410E+002 -7.7790464658E+001 +1.6213553017E+002 -1.7369956442E+001 -1.4710081749E+002
2827500000.000 -1.3841918227E+001 -1.4131062528E+002 -4.4710414717E+001 +1.0452973791E+002 -7.6568973491E+001 +1.5243044937E+002 -1.7854215214E+001 -1.4028536202E+002
2960000000.000 -1.3656093290E+001 -1.4031899355E+002 -4.4978678492E+001 +7.2581213163E+001 -8.1042599463E+001 +4.4443516477E+001 -1.8166207648E+001 -1.3542295946E+002
3092500000.000 -1.3395928128E+001 -1.3952638524E+002 -4.5320603941E+001 +3.7280748554E+001 -7.9443902759E+001 +1.4530206079E+002 -1.9096476820E+001 -1.2922399252E+002
3225000000.000 -1.3148734206E+001 -1.3915546524E+002 -4.4927363566E+001 +3.2972869848E+000 -7.8573067560E+001 -1.4909277206E+002 -1.9590104557E+001 -1.1972936520E+002
3357500000.000 -1.2984176025E+001 -1.3884249418E+002 -4.5093939035E+001 -3.0722024946E+001 -9.4887806593E+001 +6.2577815125E+001 -1.9954162679E+001 -1.1431746073E+002
3490000000.000 -1.2753915549E+001 -1.3796877016E+002 -4.4901356406E+001 -6.4962502898E+001 -8.1325243884E+001 +7.4725692137E+001 -2.1111235926E+001 -1.0851821153E+002
3622500000.000 -1.2513862393E+001 -1.3730751635E+002 -4.4949835433E+001 -9.7825427650E+001 -7.7734875593E+001 +1.4513084491E+002 -2.1957763981E+001 -9.8265251012E+001
3755000000.000 -1.2271954591E+001 -1.3690868714E+002 -4.4843693450E+001 -1.3342914358E+002 -8.3604875976E+001 +4.5028570746E+001 -2.2720130883E+001 -9.4686681333E+001
3887500000.000 -1.2086348303E+001 -1.3649530592E+002 -4.4879354268E+001 -1.6600210517E+002 -7.8903282402E+001 +9.1554104350E+001 -2.5046889439E+001 -8.7723134259E+001
4020000000.000 -1.1906247959E+001 -1.3609323316E+002 -4.4942977281E+001 +1.6039276644E+002 -8.0994973898E+001 -1.4848783383E+002 -2.6696185563E+001 -7.3525001148E+001
4152500000.000 -1.1703266997E+001 -1.3544001456E+002 -4.5107538794E+001 +1.2382512965E+002 -8.0581517419E+001 -9.4406757137E+001 -2.8880961841E+001 -6.4819574119E+001
4285000000.000 -1.1499671080E+001 -1.3510222666E+002 -4.5168189334E+001 +9.0750459467E+001 -8.1159232214E+001 +5.7120415624E+001 -3.3358698703E+001 -3.7463596592E+001
4417500000.000 -1.1303445997E+001 -1.3496933565E+002 -4.5271615962E+001 +5.6834074826E+001 -8.6516625332E+001 -1.4725703412E+002 -3.1713972558E+001 +8.0288942038E+000
4550000000.000 -1.1156390520E+001 -1.3457678564E+002 -4.5407205874E+001 +2.4139293731E+001 -8.5392719253E+001 -8.8502697673E+001 -3.0360347429E+001 +1.8268636836E+001
4682500000.000 -1.0970247397E+001 -1.3407202398E+002 -4.5656020996E+001 -1.0759665750E+001 -8.6001509528E+001 -2.9893926551E+000 -2.9671398831E+001 +3.8888465284E+001
4815000000.000 -1.0777568680E+001 -1.3385289050E+002 -4.5514206602E+001 -4.3817139288E+001 -7.9391199266E+001 +1.4884956624E+002 -2.7640945080E+001 +4.1387244280E+001
4947500000.000 -1.0635920783E+001 -1.3361266616E+002 -4.5460655870E+001 -7.7175297311E+001 -9.2187518791E+001 +2.8859579973E+001 -2.9384484992E+001 +3.5708897144E+001
5080000000.000 -1.0489803834E+001 -1.3317232865E+002 -4.5496403199E+001 -1.1066411796E+002 -8.1297255962E+001 +3.8322309153E+001 -3.2236397287E+001 +5.7013616491E+001
5212500000.000 -1.0324298122E+001 -1.3289820614E+002 -4.5509891281E+001 -1.4376485845E+002 -9.1356438926E+001 -2.6963802050E+001 -3.1564555776E+001 +6.9527255293E+001
5345000000.000 -1.0177437267E+001 -1.3286457711E+002 -4.5448575629E+001 -1.7769466796E+002 -9.0647152832E+001 +9.6700359827E+000 -3.5340051561E+001 +7.1248771097E+001
5477500000.000 -1.0080638315E+001 -1.3256341467E+002 -4.5328210722E+001 +1.4672484837E+002 -8.3750849058E+001 -8.7622677371E+001 -3.7190366437E+001 +1.3216517012E+002
5610000000.000 -9.9393816006E+000 -1.3223546061E+002 -4.5156600504E+001 +1.1349738223E+002 -8.8439216115E+001 +1.4305989008E+002 -3.3657047975E+001 +1.3603969782E+002
5742500000.000 -9.7987526483E+000 -1.3226841935E+002 -4.5296167429E+001 +7.8550568463E+001 -9.0733542583E+001 -1.2566531743E+002 -3.7789689438E+001 +1.5318012155E+002
5875000000.000 -9.7061183879E+000 -1.3246390146E+002 -4.5290663596E+001 +4.4391655417E+001 -9.6947910087E+001 +5.3693372225E+001 -3.3744815879E+001 -1.7032214637E+002
6007500000.000 -9.6120315269E+000 -1.3232562053E+002 -4.5305979781E+001 +1.0355485954E+001 -9.0970450604E+001 +1.2482785645E+002 -3.2698755792E+001 +1.7981611096E+002
6140000000.000 -9.4711093565E+000 -1.3216336059E+002 -4.5433737520E+001 -2.3940968996E+001 -8.8667033529E+001 +1.1527815849E+002 -3.6147939887E+001 -1.6928911206E+002
6272500000.000 -9.3192436520E+000 -1.3246318112E+002 -4.5442097791E+001 -5.7856979302E+001 -8.7206505940E+001 -2.9898742760E+001 -3.3857909057E+001 -1.4420081101E+002
6405000000.000 -9.2379274354E+000 -1.3286498544E+002 -4.5505518497E+001 -9.2289580957E+001 -8.7700205507E+001 -1.2126444324E+002 -3.3818659295E+001 -1.6177877712E+002
6537500000.000 -9.1444158315E+000 -1.3267866077E+002 -4.5577611770E+001 -1.2677487555E+002 -9.2194473765E+001 +5.7388515189E+001 -4.0187818355E+001 -1.6013734577E+002
6670000000.000 -8.9834536378E+000 -1.3249503743E+002 -4.5479472732E+001 -1.6116159502E+002 -8.7401927892E+001 +1.6639223938E+002 -3.9368583367E+001 -1.3700341196E+002
6802500000.000 -8.8288172433E+000 -1.3291026453E+002 -4.5565854290E+001 +1.6523492672E+002 -8.6468548117E+001 +3.8380774282E+001 -3.8893539225E+001 +1.7958868976E+002
6935000000.000 -8.7612836596E+000 -1.3328770768E+002 -4.5681827159E+001 +1.3163048443E+002 -8.6065498412E+001 +1.3735063900E+002 -3.8645406140E+001 +1.2273115321E+002
7067500000.000 -8.6786997468E+000 -1.3298976909E+002 -4.5729438830E+001 +9.7538251106E+001 -8.4556585501E+001 -1.0265399288E+002 -3.9057024415E+001 +1.1458067345E+002
7200000000.000 -8.5154092232E+000 -1.3293488961E+002 -4.5691570654E+001 +6.3272604941E+001 -9.4512226584E+001 +1.1799372302E+002 -3.2855837191E+001 +1.3144833675E+002
7332500000.000 -8.3852912433E+000 -1.3336351568E+002 -4.5662508117E+001 +2.8449556267E+001 -8.2253205150E+001 +1.3250203457E+002 -2.9074517328E+001 +1.1895880320E+002
7465000000.000 -8.3072740227E+000 -1.3352138495E+002 -4.5968564192E+001 -4.0825209450E+000 -9.1819026656E+001 -1.4067765637E+002 -2.8649535564E+001 +1.2240142526E+002
7597500000.000 -8.2039040820E+000 -1.3333372987E+002 -4.5914566386E+001 -3.9222943317E+001 -8.7219438358E+001 -1.0019066183E+002 -2.6167737823E+001 +1.3740256554E+002
7730000000.000 -8.0525115623E+000 -1.3331095243E+002 -4.5832560728E+001 -7.2335284355E+001 -9.4902460942E+001 +6.2206081231E+001 -2.3731653497E+001 +1.3791767201E+002
7862500000.000 -7.9498983764E+000 -1.3343891154E+002 -4.5972032041E+001 -1.0641039189E+002 -8.4697526033E+001 -1.6745489057E+002 -2.3274714083E+001 +1.4137851102E+002
7995000000.000 -7.8758999082E+000 -1.3341693591E+002 -4.5972176854E+001 -1.4066213420E+002 -8.7642965771E+001 -5.0966917605E+001 -2.1853163643E+001 +1.5418874940E+002
8127500000.000 -7.7545975346E+000 -1.3310965661E+002 -4.5980147247E+001 -1.7432079513E+002 -9.4895225837E+001 -2.0626485126E+001 -2.0033698909E+001 +1.5649399795E+002
8260000000.000 -7.6418241806E+000 -1.3326375380E+002 -4.6032807725E+001 +1.5269713391E+002 -8.9605839497E+001 -1.2522518743E+002 -1.9857909751E+001 +1.6010231573E+002
8392500000.000 -7.5787034068E+000 -1.3320084814E+002 -4.6008555006E+001 +1.1864094344E+002 -8.1028440832E+001 -1.0411666263E+002 -1.9070091110E+001 +1.7038755734E+002
8525000000.000 -7.5069932137E+000 -1.3298370655E+002 -4.6057338102E+001 +8.4708198666E+001 -8.5141935562E+001 -9.6417948050E+001 -1.8216736525E+001 +1.7297455620E+002
8657500000.000 -7.4110254058E+000 -1.3284034316E+002 -4.6015676920E+001 +5.0999253536E+001 -8.7533022405E+001 -1.6995464104E+002 -1.8568382396E+001 +1.7791059799E+002
8790000000.000 -7.3173023185E+000 -1.3291524382E+002 -4.6033641359E+001 +1.6564797793E+001 -8.9974741520E+001 +1.2017541433E+002 -1.8352995962E+001 -1.7174076405E+002
8922500000.000 -7.2771687124E+000 -1.3300635427E+002 -4.6211752518E+001 -1.8080790468E+001 -9.7560770735E+001 +1.6379749909E+002 -1.7994359165E+001 -1.6599657897E+002
9055000000.000 -7.2057633407E+000 -1.3289505854E+002 -4.6119785918E+001 -5.1395218050E+001 -9.4773502124E+001 +6.4818326396E+001 -1.8460448289E+001 -1.5841887413E+002
9187500000.000 -7.1346638439E+000 -1.3293051091E+002 -4.6088966336E+001 -8.6103314995E+001 -8.4540907867E+001 +1.6108858880E+002 -1.8380137235E+001 -1.4627572454E+002
9320000000.000 -7.0548515481E+000 -1.3335912711E+002 -4.6156069450E+001 -1.2046737401E+002 -8.6029691389E+001 +1.6753875419E+000 -1.8206721700E+001 -1.3966811140E+002
9452500000.000 -7.0107418734E+000 -1.3349219971E+002 -4.6208759095E+001 -1.5455874108E+002 -9.4005587491E+001 +9.8785226590E+001 -1.8854771415E+001 -1.3061770957E+002
9585000000.000 -6.9459492009E+000 -1.3357357552E+002 -4.6308286617E+001 +1.7166501256E+002 -8.8580891831E+001 -1.3644111203E+002 -1.8804305137E+001 -1.1819381963E+002
9717500000.000 -6.8352718361E+000 -1.3374513216E+002 -4.6373327621E+001 +1.3737375724E+002 -9.4016546176E+001 -3.2804936771E+001 -1.8808013203E+001 -1.1110153291E+002
9850000000.000 -6.7813378494E+000 -1.3432789999E+002 -4.6261626650E+001 +1.0386796941E+002 -8.8637301227E+001 +6.4705829160E+001 -1.9652916719E+001 -1.0065177745E+002
9982500000.000 -6.7358729726E+000 -1.3424279565E+002 -4.6354633306E+001 +6.9619078210E+001 -7.9579156746E+001 -1.1686151734E+002 -1.9716991454E+001 -8.6462595927E+001
10115000000.000 -6.6545188315E+000 -1.3428709832E+002 -4.6351395341E+001 +3.5231504941E+001 -8.5007396834E+001 -5.2777566484E+001 -1.9914403672E+001 -7.9038534845E+001
10247500000.000 -6.5578131971E+000 -1.3468827700E+002 -4.6263140510E+001 +1.1378979791E+000 -8.7075320560E+001 -7.5917526178E-001 -2.1143941176E+001 -6.6061814320E+001
10380000000.000 -6.5159696610E+000 -1.3497120289E+002 -4.6461532438E+001 -3.1506005906E+001 -8.4230274411E+001 +1.6143817537E+002 -2.1083752993E+001 -4.9889124000E+001
10512500000.000 -6.4623512422E+000 -1.3508455879E+002 -4.6437871749E+001 -6.6825122289E+001 -9.5689950439E+001 +2.8743470867E+001 -2.1514977025E+001 -4.1781997739E+001
10645000000.000 -6.3927731367E+000 -1.3520003175E+002 -4.6449256508E+001 -9.9990355038E+001 -8.8218236091E+001 +1.1151197487E+002 -2.2807536446E+001 -2.3998361302E+001
10777500000.000 -6.3078746273E+000 -1.3544473882E+002 -4.6535962715E+001 -1.3379555847E+002 -8.7532400094E+001 +1.7486950595E+002 -2.2224790137E+001 -5.9376183169E+000
10910000000.000 -6.2422715111E+000 -1.3568746562E+002 -4.6486827779E+001 -1.6768256180E+002 -8.3921343256E+001 -7.8265350435E+001 -2.2792560593E+001 +4.3963933632E+000
11042500000.000 -6.1732531289E+000 -1.3590099272E+002 -4.6509804825E+001 +1.5856571474E+002 -8.1915390578E+001 -5.8243967678E+001 -2.3446572869E+001 +2.7577492992E+001
11175000000.000 -6.0961463387E+000 -1.3589801853E+002 -4.6607714738E+001 +1.2428029015E+002 -1.0364374712E+002 +2.0249413547E+001 -2.2277104207E+001 +4.2892360350E+001
11307500000.000 -6.0413431251E+000 -1.3595434558E+002 -4.6562825274E+001 +9.0354786101E+001 -8.9383986998E+001 -1.3364385072E+002 -2.2752673838E+001 +5.3456275568E+001
11440000000.000 -5.9632059843E+000 -1.3613620894E+002 -4.6615458270E+001 +5.6469383413E+001 -1.0063034453E+002 -5.5196706434E+001 -2.2579671960E+001 +7.5891701663E+001
11572500000.000 -5.9059005466E+000 -1.3598595144E+002 -4.6573451100E+001 +2.2760070980E+001 -8.2786115396E+001 +4.6536300129E+001 -2.1180701052E+001 +8.7086703884E+001
11705000000.000 -5.8567664303E+000 -1.3600951278E+002 -4.6689484338E+001 -1.1912365819E+001 -9.4853597135E+001 -1.6395247125E+002 -2.1788555090E+001 +9.7129346441E+001
11837500000.000 -5.7899440913E+000 -1.3611617454E+002 -4.6670010675E+001 -4.6992726795E+001 -8.2199130701E+001 -7.6493893578E+001 -2.1122911182E+001 +1.1943390001E+002
11970000000.000 -5.7694658319E+000 -1.3619403984E+002 -4.6694150925E+001 -8.0035802859E+001 -8.3659940255E+001 +6.9903502127E+001 -1.9816707271E+001 +1.2557250593E+002
12102500000.000 -5.7463672818E+000 -1.3600634683E+002 -4.6769519993E+001 -1.1496130024E+002 -1.0577669650E+002 -1.2690932896E+002 -2.0751719369E+001 +1.3548534590E+002
12235000000.000 -5.6788150296E+000 -1.3637068982E+002 -4.6639977508E+001 -1.4721241631E+002 -8.8285071253E+001 +1.6184975380E+002 -1.9773816942E+001 +1.5469879639E+002
12367500000.000 -5.6715586651E+000 -1.3643251175E+002 -4.6840097161E+001 +1.7811115248E+002 -8.0905817177E+001 +1.2454803443E+001 -1.8885533303E+001 +1.5809220637E+002
12500000000.000 -5.6352497982E+000 -1.3673298195E+002 -4.6807488452E+001 +1.4366881511E+002 -8.0970889622E+001 +1.5096092868E+002 -2.0056368825E+001 +1.6814170640E+002
12632500000.000 -5.5878355344E+000 -1.3669530106E+002 -4.6988762243E+001 +1.0923758008E+002 -8.4125249768E+001 -7.1690944756E+001 -1.9185193239E+001 -1.7290361512E+002
12765000000.000 -5.5535601826E+000 -1.3690079915E+002 -4.6994826215E+001 +7.5754716410E+001 -8.8822441101E+001 +8.7317282744E+001 -1.8524291877E+001 -1.7122257125E+002
12897500000.000 -5.5331211038E+000 -1.3716885938E+002 -4.6918440524E+001 +4.1205447696E+001 -8.5052640749E+001 +1.4039220294E+002 -2.0131483433E+001 -1.5942785251E+002
13030000000.000 -5.5068758694E+000 -1.3729526788E+002 -4.7043600700E+001 +8.1540090999E+000 -8.6489258414E+001 -1.7692801116E+002 -1.8865694951E+001 -1.4153520196E+002
13162500000.000 -5.4617262429E+000 -1.3735297950E+002 -4.7226484965E+001 -2.6148122031E+001 -8.3888036090E+001 -5.4041496866E+001 -1.8655900836E+001 -1.4141855650E+002
13295000000.000 -5.4269616041E+000 -1.3746377185E+002 -4.7180037237E+001 -5.9375993341E+001 -8.1971102882E+001 +1.5531090311E+002 -2.0032781016E+001 -1.2780147921E+002
13427500000.000 -5.3996065830E+000 -1.3782245487E+002 -4.7078906792E+001 -9.4241068274E+001 -1.0579432886E+002 +3.4001521175E+001 -1.8866746892E+001 -1.1423264351E+002
13560000000.000 -5.3956179499E+000 -1.3784189339E+002 -4.7317667394E+001 -1.2841235623E+002 -8.4795949368E+001 -1.9678389259E+001 -1.9063951779E+001 -1.1458216299E+002
13692500000.000 -5.3479911719E+000 -1.3785269109E+002 -4.7293609885E+001 -1.6203020966E+002 -8.7049260710E+001 -1.6657566842E+002 -2.0829506612E+001 -1.0129814254E+002
13825000000.000 -5.2947876444E+000 -1.3809945993E+002 -4.7423338947E+001 +1.6447537337E+002 -8.1993029004E+001 -1.6962791204E+002 -1.9755480018E+001 -8.7640595307E+001
13957500000.000 -5.2790029774E+000 -1.3848498592E+002 -4.7183046479E+001 +1.3031604870E+002 -8.4272955253E+001 +1.3325951041E+002 -2.0417206292E+001 -9.0061916568E+001
14090000000.000 -5.2640682261E+000 -1.3851645903E+002 -4.7080095962E+001 +9.6163291414E+001 -8.4049524221E+001 +3.8490578351E+001 -2.2688128714E+001 -7.2664276296E+001
14222500000.000 -5.2184567675E+000 -1.3836023796E+002 -4.7505130131E+001 +6.3459591232E+001 -7.9029456013E+001 +1.4846827701E+002 -2.1296815632E+001 -5.9298231853E+001
14355000000.000 -5.1504687682E+000 -1.3868252825E+002 -4.7333426374E+001 +2.8485424699E+001 -9.0514568169E+001 -1.3747074571E+002 -2.2535075038E+001 -6.3718945313E+001
14487500000.000 -5.1212367103E+000 -1.3882430810E+002 -4.7431972597E+001 -5.3722254659E+000 -8.4531046861E+001 +3.0792921847E+001 -2.5596097247E+001 -4.0146156527E+001
14620000000.000 -5.1074521932E+000 -1.3871338509E+002 -4.7577873591E+001 -4.0373688955E+001 -8.0650978253E+001 +1.7621744941E+002 -2.3285012224E+001 -2.7289146808E+001
14752500000.000 -5.0207516983E+000 -1.3854505845E+002 -4.7421768834E+001 -7.5528502609E+001 -8.2628826812E+001 -5.3893935340E+001 -2.5354809717E+001 -3.6890951255E+001
14885000000.000 -4.9745152537E+000 -1.3858002654E+002 -4.7488501649E+001 -1.0837152103E+002 -8.2325941495E+001 +1.2245572015E+001 -2.9037783187E+001 +2.5746094809E+000
15017500000.000 -4.9556355794E+000 -1.3851854787E+002 -4.7544301108E+001 -1.4178461998E+002 -8.4605031596E+001 +1.7028605654E+002 -2.5412765822E+001 +9.5738889246E+000
15150000000.000 -4.9071093497E+000 -1.3827883356E+002 -4.7544153445E+001 -1.7625631333E+002 -8.3583517096E+001 -1.6339464572E+002 -2.9049069806E+001 -2.8353362341E+000
15282500000.000 -4.8744305656E+000 -1.3814821511E+002 -4.7913464918E+001 +1.4936048154E+002 -8.4517951777E+001 -8.0635078841E+001 -3.1317222315E+001 +5.8135083913E+001
