!  2-Port S-parameters saved by WinCal
! VAR MeasName=S-Parameters (CALIBRATED_DATA) read from VNA (C)
! VAR MeasDate=10/16/2015 10:59:38 AM
! VAR NAME=M6082_13_13_2_2_20C_6.4mA_-17.5dBm
! VAR FILENAME=M6082_13_13_2_2_20C_6.4mA_-17.5dBm_1_1.S2P
! VAR DATE=10/16/2015 10:59:38 AM
! VAR PHYS_PORTS=2,1
! VAR ObjTypeName=DATASET
! VAR IndexType=Frequency
!
# Hz S DB R 50
45000000.000 -1.4570282920E+001 +3.2519509326E-001 -4.1328517017E+001 +1.0849132643E+002 -5.7844548610E+001 +3.0449197819E+001 -3.0784145971E+001 +3.5614704329E+000
177500000.000 -1.4564624821E+001 -1.5830253562E+000 -4.3549128479E+001 +6.8046292738E+001 -8.8954021623E+001 +9.0014959733E+001 -3.2576275853E+001 +4.5738039940E+001
310000000.000 -1.4531672456E+001 -3.4468826504E+000 -4.3344128346E+001 +3.9999638234E+001 -7.4805698975E+001 -7.3512560831E+001 -2.3291291523E+001 +6.4592245843E+001
442500000.000 -1.4512465490E+001 -5.3389772992E+000 -4.2100254591E+001 +2.0180612556E-001 -8.7797241850E+001 -9.0049758641E+001 -2.2296068316E+001 +1.7721894662E+001
575000000.000 -1.4499881306E+001 -7.3650750293E+000 -4.2551922235E+001 -3.4740702802E+001 -8.1706015028E+001 +1.2316772444E+002 -3.0435292248E+001 +2.2582412621E+001
707500000.000 -1.4497037301E+001 -9.1137340864E+000 -4.2823940901E+001 -6.8136792641E+001 -8.3101804178E+001 -1.6213806704E+002 -3.4414863403E+001 +8.2579614139E+001
840000000.000 -1.4460621934E+001 -1.1022690299E+001 -4.3127450595E+001 -1.0287691043E+002 -8.2834705636E+001 -2.2208453056E+001 -2.9696422620E+001 +1.2700772148E+002
972500000.000 -1.4423250627E+001 -1.2763585285E+001 -4.3115454651E+001 -1.3607716815E+002 -8.5997994262E+001 -1.6425754749E+002 -2.5932195587E+001 +1.3504283567E+002
1105000000.000 -1.4411167970E+001 -1.4670255893E+001 -4.3036931637E+001 -1.7017768836E+002 -8.5019875510E+001 +1.7746549937E+002 -2.4335815427E+001 +1.4038252055E+002
1237500000.000 -1.4388888473E+001 -1.6341312119E+001 -4.3179538312E+001 +1.5656654751E+002 -8.7548787615E+001 -1.7116947402E+002 -2.3378407715E+001 +1.4980472814E+002
1370000000.000 -1.4355059143E+001 -1.8096462572E+001 -4.3254791628E+001 +1.2281378392E+002 -9.6233929117E+001 +5.1235399473E+001 -2.2043832030E+001 +1.5977022374E+002
1502500000.000 -1.4322455364E+001 -1.9809829607E+001 -4.3148105270E+001 +8.8547399343E+001 -8.3372979631E+001 -1.2832975180E+002 -2.0845217398E+001 +1.6616825407E+002
1635000000.000 -1.4251762109E+001 -2.1366695781E+001 -4.3239493233E+001 +5.4580609803E+001 -8.4144566797E+001 -2.0229955560E+001 -2.0019978218E+001 +1.7310458943E+002
1767500000.000 -1.4188235094E+001 -2.3269144542E+001 -4.3363822142E+001 +2.1240191329E+001 -8.1718142014E+001 +2.8169500039E+001 -1.9008363081E+001 +1.7831313738E+002
1900000000.000 -1.4135405110E+001 -2.4785398268E+001 -4.3177015020E+001 -1.3927822037E+001 -8.4478594396E+001 +1.7609901996E+002 -1.8864461291E+001 -1.7840225648E+002
2032500000.000 -1.4105351591E+001 -2.6177280151E+001 -4.3295952637E+001 -4.6932997082E+001 -8.8350531339E+001 -4.3369566879E+001 -1.8680117035E+001 -1.6794956584E+002
2165000000.000 -1.3996608377E+001 -2.7780572221E+001 -4.3276793249E+001 -8.1285037162E+001 -8.3166400083E+001 +4.8665327427E+001 -1.7731503846E+001 -1.6108490937E+002
2297500000.000 -1.3942033768E+001 -2.9234699147E+001 -4.3308475954E+001 -1.1449558034E+002 -8.0758384589E+001 +1.5848405278E+002 -1.7230890933E+001 -1.5716696245E+002
2430000000.000 -1.3904328807E+001 -3.0564642055E+001 -4.3414310900E+001 -1.4948017266E+002 -8.5157226665E+001 -1.3968125599E+002 -1.6919775354E+001 -1.5292895119E+002
2562500000.000 -1.3822429122E+001 -3.1957374318E+001 -4.3287531456E+001 +1.7670322724E+002 -7.7449330486E+001 +3.8903356347E+001 -1.6812851179E+001 -1.5061650904E+002
2695000000.000 -1.3814259710E+001 -3.3493790800E+001 -4.3324895817E+001 +1.4399147750E+002 -8.5285701411E+001 +1.6062415235E+002 -1.7351407110E+001 -1.4726225671E+002
2827500000.000 -1.3806344448E+001 -3.4570758525E+001 -4.3262955015E+001 +1.1099181698E+002 -8.4891619299E+001 -1.2120033396E+002 -1.7817219627E+001 -1.4047412321E+002
2960000000.000 -1.3739478004E+001 -3.5745536247E+001 -4.3384836362E+001 +7.7076740220E+001 -7.5539517457E+001 +5.0368750660E+001 -1.8117731133E+001 -1.3570682780E+002
3092500000.000 -1.3669352578E+001 -3.7416985290E+001 -4.3562363595E+001 +4.1858524517E+001 -8.3869777605E+001 +1.5710071569E+002 -1.9080812969E+001 -1.2965628697E+002
3225000000.000 -1.3666914646E+001 -3.8982175934E+001 -4.3523119653E+001 +7.0078337137E+000 -7.9027444866E+001 -1.6627802622E+002 -1.9580434640E+001 -1.1989935319E+002
3357500000.000 -1.3655970982E+001 -4.0020455883E+001 -4.3452805994E+001 -2.5723181942E+001 -8.0412917833E+001 +8.1949035413E+001 -1.9922443001E+001 -1.1456801566E+002
3490000000.000 -1.3550515921E+001 -4.1437796780E+001 -4.3726024472E+001 -5.8759579552E+001 -8.4327694577E+001 +1.3533161653E+002 -2.1121053879E+001 -1.0882342615E+002
3622500000.000 -1.3476985376E+001 -4.3023155808E+001 -4.3372001749E+001 -9.2697763502E+001 -7.4496904277E+001 -1.3462514620E+002 -2.1953752368E+001 -9.8313959148E+001
3755000000.000 -1.3420211058E+001 -4.4598586862E+001 -4.3323578878E+001 -1.2580193279E+002 -9.5044707146E+001 +2.3593241506E+000 -2.2682029672E+001 -9.4612371930E+001
3887500000.000 -1.3345853305E+001 -4.5898024473E+001 -4.3409214780E+001 -1.6087232356E+002 -8.1628015737E+001 +1.1113880030E+002 -2.5012273914E+001 -8.8096358472E+001
4020000000.000 -1.3286108760E+001 -4.7106625605E+001 -4.3412409849E+001 +1.6681474528E+002 -8.1171549711E+001 -1.6041945824E+002 -2.6669113321E+001 -7.3636642087E+001
4152500000.000 -1.3184540794E+001 -4.8374079937E+001 -4.3441879547E+001 +1.3202116720E+002 -8.3554964951E+001 -1.7032527648E+002 -2.8811000542E+001 -6.4699265376E+001
4285000000.000 -1.3094716145E+001 -4.9728866398E+001 -4.3382122146E+001 +9.8679322889E+001 -8.3999620873E+001 +2.6208786713E+001 -3.3203735803E+001 -3.8252797821E+001
4417500000.000 -1.3036004517E+001 -5.1075624370E+001 -4.3443358416E+001 +6.4250472637E+001 -8.8093524139E+001 +1.0743404143E+002 -3.1727483136E+001 +7.4351343722E+000
4550000000.000 -1.2940925655E+001 -5.2095590200E+001 -4.3485960073E+001 +3.0690784899E+001 -8.2719167680E+001 -9.4376988926E+001 -3.0207567215E+001 +1.7788562324E+001
4682500000.000 -1.2821278165E+001 -5.3335540850E+001 -4.3599214829E+001 -3.2289124996E+000 -8.1528808637E+001 +5.4435397641E+001 -2.9579184935E+001 +3.7612353545E+001
4815000000.000 -1.2745904477E+001 -5.4578274172E+001 -4.3538937035E+001 -3.5976353383E+001 -8.1851122928E+001 +1.6306875139E+002 -2.7601722275E+001 +4.0415581217E+001
4947500000.000 -1.2655247707E+001 -5.5404781419E+001 -4.3539026538E+001 -6.9438908494E+001 -8.7787981818E+001 -1.0832243885E+002 -2.9270224669E+001 +3.4531678251E+001
5080000000.000 -1.2525458455E+001 -5.6296087960E+001 -4.3337899619E+001 -1.0270636524E+002 -9.2206224779E+001 -3.8186550076E+001 -3.2182782613E+001 +5.5145935086E+001
5212500000.000 -1.2433847383E+001 -5.7408985092E+001 -4.3350846719E+001 -1.3636254109E+002 -8.4568726866E+001 +1.3528605895E+001 -3.1585948975E+001 +6.7766071653E+001
5345000000.000 -1.2378357720E+001 -5.8255313102E+001 -4.3192884278E+001 -1.7062038558E+002 -8.2392326769E+001 -1.1644687165E+002 -3.5267465080E+001 +6.8284501755E+001
5477500000.000 -1.2267081460E+001 -5.8720161321E+001 -4.3124549229E+001 +1.5523155842E+002 -9.2555001206E+001 -5.8218331653E+001 -3.7631131635E+001 +1.2959438829E+002
5610000000.000 -1.2152516852E+001 -5.9642212021E+001 -4.3095212784E+001 +1.2087375780E+002 -8.3551829891E+001 +1.0282605354E+002 -3.3806161821E+001 +1.3404836184E+002
5742500000.000 -1.2120677466E+001 -6.0517765838E+001 -4.3043963913E+001 +8.6456449756E+001 -9.1275293303E+001 -8.2045950286E+001 -3.8248385990E+001 +1.4916262594E+002
5875000000.000 -1.2096391173E+001 -6.1025383991E+001 -4.2964615307E+001 +5.1490254207E+001 -8.6648906716E+001 +8.1362678313E+000 -3.4109728790E+001 -1.7053585403E+002
6007500000.000 -1.1999967495E+001 -6.1590926740E+001 -4.2960949298E+001 +1.8187716101E+001 -8.5199852968E+001 +5.3409360604E+001 -3.2846008570E+001 +1.7855633777E+002
6140000000.000 -1.1912571738E+001 -6.2562741976E+001 -4.2973006429E+001 -1.5985822442E+001 -8.7635902722E+001 +5.9126672476E-001 -3.6545207041E+001 -1.7165574520E+002
6272500000.000 -1.1896769464E+001 -6.3736425867E+001 -4.3033704529E+001 -4.9758409220E+001 -8.7107034845E+001 -7.0299804215E+001 -3.4227672993E+001 -1.4456232501E+002
6405000000.000 -1.1898391140E+001 -6.4379586586E+001 -4.2931956720E+001 -8.3963836940E+001 -8.4320203006E+001 +1.1173101838E+002 -3.3928314411E+001 -1.6316365616E+002
6537500000.000 -1.1806789550E+001 -6.4782298973E+001 -4.2924403412E+001 -1.1851672470E+002 -8.5632782253E+001 -1.3887840246E+002 -4.0219121410E+001 -1.6542486182E+002
6670000000.000 -1.1675148060E+001 -6.5911215344E+001 -4.3054933819E+001 -1.5210182041E+002 -8.4739129627E+001 -6.6968024862E+001 -3.9952788134E+001 -1.4033863785E+002
6802500000.000 -1.1644781017E+001 -6.7250862372E+001 -4.3002364684E+001 +1.7344069522E+002 -9.1599912796E+001 +6.3924877039E+001 -3.8809764026E+001 +1.7721170820E+002
6935000000.000 -1.1659426018E+001 -6.7865795415E+001 -4.3010209610E+001 +1.3941525889E+002 -9.0314521514E+001 +1.6404066487E+002 -3.8167122365E+001 +1.2357348564E+002
7067500000.000 -1.1556969537E+001 -6.8213637803E+001 -4.2951959923E+001 +1.0551548266E+002 -8.7090283973E+001 -7.5662797340E+001 -3.8518629495E+001 +1.1559863848E+002
7200000000.000 -1.1438682943E+001 -6.9492834133E+001 -4.2968385741E+001 +7.1459872341E+001 -9.2496661289E+001 +4.3083058315E+001 -3.2667393848E+001 +1.3142480536E+002
7332500000.000 -1.1408130105E+001 -7.0657171939E+001 -4.2929293767E+001 +3.7906541952E+001 -9.4758212605E+001 +1.3097686801E+002 -2.9007586471E+001 +1.1964431989E+002
7465000000.000 -1.1371419502E+001 -7.1217982012E+001 -4.2960628063E+001 +3.4577129671E+000 -8.2927444901E+001 -1.6686733648E+002 -2.8585202834E+001 +1.2313422644E+002
7597500000.000 -1.1241874563E+001 -7.2040126326E+001 -4.2939950668E+001 -3.0417548100E+001 -8.2759888637E+001 -1.1922492134E+001 -2.6068601800E+001 +1.3765061781E+002
7730000000.000 -1.1140559763E+001 -7.3054653062E+001 -4.3055952522E+001 -6.3894396096E+001 -8.7484326415E+001 +1.6257725573E+002 -2.3712333355E+001 +1.3785424013E+002
7862500000.000 -1.1076511080E+001 -7.3793246335E+001 -4.2979398167E+001 -9.7989627765E+001 -8.2679168991E+001 -1.1799198370E+002 -2.3289146058E+001 +1.4186858846E+002
7995000000.000 -1.0989773367E+001 -7.4283998789E+001 -4.2978666808E+001 -1.3204243857E+002 -8.1351614275E+001 -5.2375453446E+001 -2.1804732494E+001 +1.5460212417E+002
8127500000.000 -1.0838568886E+001 -7.5013271785E+001 -4.2954629967E+001 -1.6562203810E+002 -8.5008426418E+001 -6.5129198938E+001 -2.0031757319E+001 +1.5638230390E+002
8260000000.000 -1.0762918842E+001 -7.5791715239E+001 -4.2922194482E+001 +1.5984550236E+002 -9.5812393103E+001 -1.1533308962E+002 -1.9888556681E+001 +1.6014833730E+002
8392500000.000 -1.0678198617E+001 -7.6157327517E+001 -4.2854068731E+001 +1.2630065876E+002 -8.9969613555E+001 -8.5077164986E+001 -1.9059877513E+001 +1.7041288571E+002
8525000000.000 -1.0584828991E+001 -7.6505992059E+001 -4.2864881573E+001 +9.2282257623E+001 -8.6128850648E+001 +1.4839094032E+002 -1.8189978906E+001 +1.7271012665E+002
8657500000.000 -1.0490427429E+001 -7.6888957499E+001 -4.2679164436E+001 +5.7439524252E+001 -8.2045253829E+001 +1.7383222006E+002 -1.8566829711E+001 +1.7769213186E+002
8790000000.000 -1.0401182550E+001 -7.7369755590E+001 -4.2893917057E+001 +2.4347251138E+001 -8.3543227546E+001 -7.5628251203E+001 -1.8355573183E+001 -1.7192284531E+002
8922500000.000 -1.0359166753E+001 -7.7735593527E+001 -4.2779585556E+001 -9.7236582796E+000 -1.1867616300E+002 -1.2074619794E+002 -1.7985611029E+001 -1.6629123189E+002
9055000000.000 -1.0293661343E+001 -7.8144922677E+001 -4.2746922941E+001 -4.4100126410E+001 -9.2473723128E+001 +1.5997146826E+002 -1.8466688747E+001 -1.5864866299E+002
9187500000.000 -1.0240335787E+001 -7.8471005840E+001 -4.2703100136E+001 -7.8040561292E+001 -9.0397410441E+001 -1.0691428788E+002 -1.8394187346E+001 -1.4672159961E+002
9320000000.000 -1.0206076015E+001 -7.9125914137E+001 -4.2627352187E+001 -1.1237742027E+002 -9.2977609455E+001 -1.9505576579E+001 -1.8218191755E+001 -1.4008364825E+002
9452500000.000 -1.0155790078E+001 -7.9530254122E+001 -4.2731700687E+001 -1.4694091661E+002 -9.1854000118E+001 +3.5408918105E+000 -1.8847647067E+001 -1.3088053592E+002
9585000000.000 -1.0096161738E+001 -8.0020197015E+001 -4.2428208792E+001 +1.7889607073E+002 -8.6725808421E+001 -3.2353832188E+001 -1.8776039450E+001 -1.1871348499E+002
9717500000.000 -1.0023628904E+001 -8.0902277405E+001 -4.2635653660E+001 +1.4516032152E+002 -8.2599002726E+001 -6.0009440865E+001 -1.8831095062E+001 -1.1168575663E+002
9850000000.000 -1.0017234463E+001 -8.1536900284E+001 -4.2619170293E+001 +1.1092069657E+002 -8.4184073235E+001 +5.3718205628E+001 -1.9659613615E+001 -1.0093609134E+002
9982500000.000 -9.9470481006E+000 -8.1822099036E+001 -4.2473201274E+001 +7.6420069359E+001 -8.9326244537E+001 +1.7727888803E+002 -1.9654858403E+001 -8.7137909458E+001
10115000000.000 -9.8735992025E+000 -8.2537697093E+001 -4.2581156681E+001 +4.1670950626E+001 -8.3817241682E+001 -3.1594048025E+001 -1.9930426666E+001 -7.9990512977E+001
10247500000.000 -9.8476001930E+000 -8.3321110547E+001 -4.2499196912E+001 +7.9029028943E+000 -8.0044066655E+001 +3.6054659791E+001 -2.1138064135E+001 -6.6525277925E+001
10380000000.000 -9.7850353031E+000 -8.3667850018E+001 -4.2467901512E+001 -2.6125128494E+001 -9.3017112630E+001 +1.1064605154E+002 -2.0978662451E+001 -5.0710937384E+001
10512500000.000 -9.7242962769E+000 -8.4439179900E+001 -4.2465624354E+001 -6.0141916329E+001 -8.3112625316E+001 -7.7453634073E+001 -2.1450632474E+001 -4.3051753567E+001
10645000000.000 -9.7018616867E+000 -8.5175128776E+001 -4.2431257197E+001 -9.4477575662E+001 -8.7198734261E+001 -2.0752314806E+001 -2.2829331362E+001 -2.4547426851E+001
10777500000.000 -9.6485625595E+000 -8.5585614968E+001 -4.2440529266E+001 -1.2872140444E+002 -9.6529840308E+001 -4.5349205886E+001 -2.2126165077E+001 -6.8282483626E+000
10910000000.000 -9.5493623231E+000 -8.6125337230E+001 -4.2417015168E+001 -1.6260184432E+002 -8.2448930765E+001 -7.5180680383E+001 -2.2756944708E+001 +2.6247823374E+000
11042500000.000 -9.4731707068E+000 -8.7204381825E+001 -4.2451201921E+001 +1.6276635560E+002 -9.1245004452E+001 +1.3294220572E+002 -2.3480468317E+001 +2.6417669676E+001
11175000000.000 -9.4110925695E+000 -8.7746664935E+001 -4.2334103470E+001 +1.2867739221E+002 -8.2782959397E+001 +4.6820727585E+001 -2.2189669153E+001 +4.1713997763E+001
11307500000.000 -9.3588186334E+000 -8.7968339528E+001 -4.2384317758E+001 +9.3730734099E+001 -8.4179142969E+001 -1.4827281876E+002 -2.2713470680E+001 +5.1663254131E+001
11440000000.000 -9.2526915876E+000 -8.8645250478E+001 -4.2322518263E+001 +5.9991900849E+001 -8.8829042951E+001 -1.4324069760E+002 -2.2635615492E+001 +7.4604409380E+001
11572500000.000 -9.1597216970E+000 -8.9016133446E+001 -4.2388965422E+001 +2.5919172808E+001 -8.6342429491E+001 +1.0993617489E+002 -2.1159049718E+001 +8.6043042390E+001
11705000000.000 -9.1062707991E+000 -8.9393863250E+001 -4.2287163899E+001 -9.0479409757E+000 -9.0053443232E+001 -1.3294662152E+002 -2.1747563841E+001 +9.5670168714E+001
11837500000.000 -9.0389328345E+000 -8.9873770788E+001 -4.2327086565E+001 -4.2902177547E+001 -8.2131733236E+001 +4.4742235315E-001 -2.1170428939E+001 +1.1810647037E+002
11970000000.000 -9.0041247843E+000 -9.0054234006E+001 -4.2319392435E+001 -7.7662002059E+001 -7.8862838292E+001 +6.2998652466E+001 -1.9830364353E+001 +1.2440166528E+002
12102500000.000 -8.9334096593E+000 -9.0036677901E+001 -4.2262342750E+001 -1.1172636551E+002 -9.2827352546E+001 -8.8158416618E+001 -2.0747631592E+001 +1.3434474799E+002
12235000000.000 -8.9189022646E+000 -9.0942311949E+001 -4.2339706453E+001 -1.4623652535E+002 -9.2080776742E+001 -3.7824960434E+001 -1.9774485083E+001 +1.5346542581E+002
12367500000.000 -8.9009983767E+000 -9.0852661582E+001 -4.2340573723E+001 +1.7868175170E+002 -8.6028418236E+001 +4.8205722709E+001 -1.8890644547E+001 +1.5675569229E+002
12500000000.000 -8.8631843892E+000 -9.1416638428E+001 -4.2281629232E+001 +1.4451477421E+002 -8.6540423795E+001 +1.4343964947E+002 -2.0052495775E+001 +1.6708218716E+002
12632500000.000 -8.7805029586E+000 -9.1903149455E+001 -4.2454773021E+001 +1.0999100260E+002 -8.2954247494E+001 -8.7368839277E+001 -1.9105457531E+001 -1.7398294390E+002
12765000000.000 -8.7900523821E+000 -9.2285515162E+001 -4.2396879813E+001 +7.5866395016E+001 -8.3016765402E+001 -1.5710094131E+000 -1.8492021983E+001 -1.7253223358E+002
12897500000.000 -8.7943070264E+000 -9.2640696227E+001 -4.2392975259E+001 +4.1407157670E+001 -8.5569486454E+001 +9.0768031968E+001 -2.0150874689E+001 -1.6027302174E+002
13030000000.000 -8.7325810439E+000 -9.2870757363E+001 -4.2277696222E+001 +6.6825552293E+000 -8.8257115351E+001 -7.5660936186E-001 -1.8755827070E+001 -1.4250242674E+002
13162500000.000 -8.6755945398E+000 -9.3296488185E+001 -4.2367356223E+001 -2.7169206437E+001 -8.7719683234E+001 +4.2222007810E+001 -1.8547759269E+001 -1.4304689086E+002
13295000000.000 -8.6386614154E+000 -9.3782158161E+001 -4.2360435515E+001 -6.2049515716E+001 -7.9100662467E+001 +1.2451635318E+002 -2.0014808618E+001 -1.2887009277E+002
13427500000.000 -8.6473856747E+000 -9.4402697536E+001 -4.2380375303E+001 -9.6930685328E+001 -9.6345938114E+001 +1.6594293746E+002 -1.8707036076E+001 -1.1473449473E+002
13560000000.000 -8.6452392045E+000 -9.4370766993E+001 -4.2418356324E+001 -1.3095029439E+002 -9.3503103890E+001 -1.6102033676E+002 -1.8891031474E+001 -1.1587249383E+002
13692500000.000 -8.5597287410E+000 -9.4579244532E+001 -4.2472569781E+001 -1.6487277096E+002 -8.2813418479E+001 +8.3381186785E+001 -2.0777930388E+001 -1.0236105302E+002
13825000000.000 -8.5205656783E+000 -9.5389486959E+001 -4.2496840193E+001 +1.5982631171E+002 -8.4386786911E+001 +1.6754964466E+002 -1.9601925914E+001 -8.7997437687E+001
13957500000.000 -8.5408128406E+000 -9.5935240279E+001 -4.2365060205E+001 +1.2500641974E+002 -8.8376311195E+001 -5.5905414361E+001 -2.0191135452E+001 -9.0853530233E+001
14090000000.000 -8.5069889971E+000 -9.6115751581E+001 -4.2458521300E+001 +9.1729828893E+001 -8.9359548100E+001 +1.1936945139E+002 -2.2522914791E+001 -7.3897250338E+001
14222500000.000 -8.4130849485E+000 -9.6411148598E+001 -4.2553304823E+001 +5.6948932055E+001 -7.8830959099E+001 +8.7516038752E+001 -2.1158455728E+001 -5.9782394020E+001
14355000000.000 -8.3877699798E+000 -9.7134700319E+001 -4.2478146938E+001 +2.2494487475E+001 -7.8020636245E+001 -4.6314785803E+001 -2.2286059834E+001 -6.3779594321E+001
14487500000.000 -8.3672991369E+000 -9.7554374300E+001 -4.2506620494E+001 -1.2674736546E+001 -7.9038402162E+001 +4.4058240092E+001 -2.5278291191E+001 -4.1144773769E+001
14620000000.000 -8.2894606386E+000 -9.7591942705E+001 -4.2684071649E+001 -4.7339935036E+001 -7.9975960173E+001 +1.6318474987E+002 -2.3160289035E+001 -2.8013105137E+001
14752500000.000 -8.1718686907E+000 -9.8178885736E+001 -4.2598617990E+001 -8.2925488058E+001 -9.0406128476E+001 -3.6922589746E+001 -2.5245008154E+001 -3.6253407879E+001
14885000000.000 -8.1429149787E+000 -9.8510233208E+001 -4.2745289962E+001 -1.1703852461E+002 -8.8791128342E+001 +7.1213742436E+000 -2.8480007141E+001 +1.6422110404E+000
15017500000.000 -8.1297037737E+000 -9.8413820539E+001 -4.2848911137E+001 -1.5060299309E+002 -7.7826565316E+001 +1.2037917545E+002 -2.5260918794E+001 +7.8689787829E+000
15150000000.000 -8.0106682309E+000 -9.8336262910E+001 -4.2818996993E+001 +1.7372471146E+002 -8.4857504849E+001 -1.2004545294E+002 -2.9046097918E+001 -1.5731708571E+000
15282500000.000 -7.9394622233E+000 -9.8503591538E+001 -4.2928761653E+001 +1.3944997831E+002 -9.8157075647E+001 -6.7066065016E+001 -3.0549192167E+001 +5.7385656087E+001
