!  2-Port S-parameters saved by WinCal
! VAR MeasName=S-Parameters (CALIBRATED_DATA) read from VNA (C)
! VAR MeasDate=10/16/2015 1:51:05 PM
! VAR NAME=M6082_13_17_2_2_20C_6.4mA_-17.5dBm
! VAR FILENAME=M6082_13_17_2_2_20C_6.4mA_-17.5dBm.S2P
! VAR DATE=10/16/2015 1:51:05 PM
! VAR PHYS_PORTS=2,1
! VAR ObjTypeName=DATASET
! VAR IndexType=Frequency
!
# Hz S DB R 50
45000000.000 -2.8156659259E+001 -1.7974565190E+002 -4.1269417051E+001 +9.2951462761E+001 -5.8248006228E+001 -2.2435855016E+001 -3.0917521729E+001 +4.0593463648E+000
177500000.000 -2.8071347443E+001 -1.7037296460E+002 -4.2696626415E+001 +6.9834772271E+001 -6.8204392644E+001 +1.2441353445E+002 -3.2605943876E+001 +4.6232136977E+001
310000000.000 -2.7828517548E+001 -1.6232935813E+002 -4.3271894525E+001 +3.8195581586E+001 -7.6587973670E+001 -1.4462464890E+002 -2.3340420462E+001 +6.4707962893E+001
442500000.000 -2.7355446149E+001 -1.5451671160E+002 -4.2066948792E+001 -3.8127300161E-001 -8.1837705849E+001 -2.8439546746E+001 -2.2369601513E+001 +1.7344432891E+001
575000000.000 -2.6667990809E+001 -1.4755680136E+002 -4.2585055372E+001 -3.5559276164E+001 -8.0349936218E+001 +1.2013407062E+002 -3.0610103921E+001 +2.2749763202E+001
707500000.000 -2.5982420129E+001 -1.4248248885E+002 -4.2853516746E+001 -6.8707349937E+001 -8.6039759880E+001 +1.2234732302E+002 -3.4493799226E+001 +8.3720309963E+001
840000000.000 -2.5291051372E+001 -1.3739079486E+002 -4.3025201735E+001 -1.0368375815E+002 -8.9953820386E+001 +8.0125421527E+001 -2.9686306406E+001 +1.2723955776E+002
972500000.000 -2.4640121513E+001 -1.3322252562E+002 -4.2899627271E+001 -1.3819142641E+002 -8.3842306271E+001 +1.0656051380E+002 -2.5959296429E+001 +1.3524400626E+002
1105000000.000 -2.3882456945E+001 -1.3001932114E+002 -4.3110972402E+001 -1.7153407876E+002 -8.2090912357E+001 -1.7277428049E+002 -2.4360007340E+001 +1.4078109011E+002
1237500000.000 -2.3231706194E+001 -1.2751707045E+002 -4.3246381868E+001 +1.5431031675E+002 -8.3696868714E+001 -3.5302605091E+001 -2.3396102813E+001 +1.4988998452E+002
1370000000.000 -2.2593564910E+001 -1.2541078596E+002 -4.3228034222E+001 +1.2065868382E+002 -8.7072773725E+001 +1.4558689875E+002 -2.2064950308E+001 +1.5991670667E+002
1502500000.000 -2.2007340653E+001 -1.2350599208E+002 -4.3326891776E+001 +8.5722384957E+001 -8.4260772988E+001 -3.0150672504E+001 -2.0865182246E+001 +1.6637193850E+002
1635000000.000 -2.1435182458E+001 -1.2139754253E+002 -4.3177791986E+001 +5.2206374619E+001 -9.4927199706E+001 +3.1836949261E+001 -2.0014881424E+001 +1.7324757029E+002
1767500000.000 -2.0855524584E+001 -1.2014845030E+002 -4.3163809164E+001 +1.7656426843E+001 -1.0204879038E+002 +5.4836136977E+001 -1.9012805956E+001 +1.7845279101E+002
1900000000.000 -2.0408681238E+001 -1.1901343839E+002 -4.3140795059E+001 -1.6588418271E+001 -8.9537725771E+001 +1.6345461729E+002 -1.8869736251E+001 -1.7827841957E+002
2032500000.000 -1.9947003195E+001 -1.1812743501E+002 -4.3452936673E+001 -5.0089535080E+001 -7.9222859780E+001 -6.4575842119E+001 -1.8681251977E+001 -1.6793068603E+002
2165000000.000 -1.9455763227E+001 -1.1679365652E+002 -4.3395334063E+001 -8.4220684995E+001 -7.8971082607E+001 +3.9788335337E+001 -1.7746588093E+001 -1.6101155296E+002
2297500000.000 -1.9051923070E+001 -1.1616804658E+002 -4.3494840286E+001 -1.1739273229E+002 -8.6302160937E+001 +1.7873436634E+002 -1.7237663678E+001 -1.5709290991E+002
2430000000.000 -1.8658052182E+001 -1.1547284605E+002 -4.3393803408E+001 -1.5268908385E+002 -7.6741133834E+001 -1.1950620029E+002 -1.6934088489E+001 -1.5289789817E+002
2562500000.000 -1.8236615034E+001 -1.1494996208E+002 -4.3251268250E+001 +1.7342511305E+002 -8.1781424376E+001 -9.6736625914E+001 -1.6834316916E+001 -1.5051572174E+002
2695000000.000 -1.7883253855E+001 -1.1516839315E+002 -4.3574100841E+001 +1.4043936464E+002 -8.3710608708E+001 +1.5654448717E+002 -1.7364815438E+001 -1.4715540505E+002
2827500000.000 -1.7599047718E+001 -1.1523041813E+002 -4.3656773743E+001 +1.0530932956E+002 -8.1094973070E+001 -3.5292526025E+001 -1.7834690243E+001 -1.4036781733E+002
2960000000.000 -1.7298316590E+001 -1.1469695998E+002 -4.3657842625E+001 +7.1810558822E+001 -8.2172591754E+001 -8.6925840854E+001 -1.8149626987E+001 -1.3549834193E+002
3092500000.000 -1.6888157191E+001 -1.1458630331E+002 -4.3712948567E+001 +3.8057226663E+001 -7.9165764500E+001 +5.5838299891E+001 -1.9082731361E+001 -1.2931002407E+002
3225000000.000 -1.6550244302E+001 -1.1503127268E+002 -4.3979653083E+001 +4.5428307903E+000 -8.5085652922E+001 -1.3436718889E+000 -1.9562274406E+001 -1.1971085508E+002
3357500000.000 -1.6323172120E+001 -1.1521300808E+002 -4.3852412192E+001 -3.0138000958E+001 -7.6409494120E+001 +3.2670420897E+001 -1.9935976437E+001 -1.1438236633E+002
3490000000.000 -1.5986286261E+001 -1.1486899831E+002 -4.3644677693E+001 -6.2988823129E+001 -7.8400147435E+001 +7.8637840563E+001 -2.1103963688E+001 -1.0855973841E+002
3622500000.000 -1.5640838742E+001 -1.1479898393E+002 -4.3775563088E+001 -9.7811441019E+001 -7.7899075522E+001 -1.1353504980E+002 -2.1918468581E+001 -9.8244209577E+001
3755000000.000 -1.5314271528E+001 -1.1508310286E+002 -4.3765420188E+001 -1.3009751402E+002 -8.0945364239E+001 +3.7033156096E+001 -2.2690527308E+001 -9.4584018500E+001
3887500000.000 -1.5054297922E+001 -1.1505156240E+002 -4.3660843606E+001 -1.6478907380E+002 -7.3928763471E+001 -1.4715805596E+002 -2.5023721585E+001 -8.7861810311E+001
4020000000.000 -1.4810968680E+001 -1.1505249364E+002 -4.3609833723E+001 +1.6093599921E+002 -7.8899037380E+001 +1.2754119166E+002 -2.6656342656E+001 -7.3254129891E+001
4152500000.000 -1.4526080138E+001 -1.1481805899E+002 -4.3732189315E+001 +1.2630056115E+002 -9.4717517412E+001 +5.1073832966E+000 -2.8834017471E+001 -6.4731006208E+001
4285000000.000 -1.4258074848E+001 -1.1492063343E+002 -4.3617168267E+001 +9.1267967181E+001 -8.8885442014E+001 +1.4232652562E+002 -3.3334793859E+001 -3.7685207969E+001
4417500000.000 -1.4009907564E+001 -1.1519657077E+002 -4.3842735777E+001 +5.7771946360E+001 -8.6074953869E+001 +1.4190574453E+002 -3.1713812781E+001 +7.9607304949E+000
4550000000.000 -1.3812497996E+001 -1.1506715019E+002 -4.3870556407E+001 +2.3891236379E+001 -7.8179351828E+001 -9.4067366104E+001 -3.0301705109E+001 +1.7932575574E+001
4682500000.000 -1.3558248132E+001 -1.1491940535E+002 -4.4016990281E+001 -9.1563367888E+000 -9.8044981804E+001 -1.5022552473E+002 -2.9644639050E+001 +3.8593494624E+001
4815000000.000 -1.3321929051E+001 -1.1507418361E+002 -4.3917510134E+001 -4.1288209048E+001 -8.5217013522E+001 -1.3139826095E+002 -2.7609537840E+001 +4.1139017477E+001
4947500000.000 -1.3142324775E+001 -1.1505586408E+002 -4.3931704975E+001 -7.5401085895E+001 -8.5747049363E+001 -1.3279110657E+002 -2.9338519289E+001 +3.5558711279E+001
5080000000.000 -1.2947480230E+001 -1.1481756873E+002 -4.3805294302E+001 -1.0887412172E+002 -8.8540905273E+001 +1.1584543065E+002 -3.2210534130E+001 +5.6642486694E+001
5212500000.000 -1.2734366522E+001 -1.1482011162E+002 -4.3734306607E+001 -1.4278489304E+002 -8.6930858598E+001 -1.5338300824E+002 -3.1578039310E+001 +6.9363435204E+001
5345000000.000 -1.2566393359E+001 -1.1504135670E+002 -4.3667197444E+001 -1.7683542638E+002 -8.2605590774E+001 -1.0292162583E+002 -3.5298397608E+001 +7.0773587217E+001
5477500000.000 -1.2442971370E+001 -1.1479330295E+002 -4.3730344682E+001 +1.4877419996E+002 -8.4734130650E+001 +6.3780670184E+001 -3.7241687152E+001 +1.3157656067E+002
5610000000.000 -1.2254070482E+001 -1.1465824811E+002 -4.3671714170E+001 +1.1441462418E+002 -8.6454899380E+001 +1.4062739132E+002 -3.3653396169E+001 +1.3546425098E+002
5742500000.000 -1.2096004952E+001 -1.1495874678E+002 -4.3520301982E+001 +7.9823972112E+001 -8.6972238499E+001 +1.4636409600E+002 -3.7825694360E+001 +1.5232001919E+002
5875000000.000 -1.2003023150E+001 -1.1528970342E+002 -4.3552194595E+001 +4.5206465144E+001 -8.9147877133E+001 +8.8766937229E+001 -3.3823561080E+001 -1.7062502827E+002
6007500000.000 -1.1885975278E+001 -1.1521611594E+002 -4.3513112239E+001 +1.1284239661E+001 -9.1873854048E+001 -4.2083846446E-001 -3.2709961150E+001 +1.7930360846E+002
6140000000.000 -1.1709856644E+001 -1.1523265632E+002 -4.3474699364E+001 -2.3547808738E+001 -8.4928029662E+001 +1.6755162656E+002 -3.6219393796E+001 -1.7002817192E+002
6272500000.000 -1.1548983291E+001 -1.1587861056E+002 -4.3610516158E+001 -5.7437039533E+001 -8.3204505827E+001 -6.8273680230E+001 -3.3927114542E+001 -1.4451251713E+002
6405000000.000 -1.1474739082E+001 -1.1642805556E+002 -4.3626550708E+001 -9.0964414483E+001 -8.1388346714E+001 +3.7130353981E+001 -3.3835291095E+001 -1.6251340696E+002
6537500000.000 -1.1358052955E+001 -1.1628098163E+002 -4.3564723102E+001 -1.2573396759E+002 -8.6317477761E+001 +1.7919602549E+002 -4.0257871835E+001 -1.6094026411E+002
6670000000.000 -1.1156429955E+001 -1.1636448004E+002 -4.3577159717E+001 -1.5964814295E+002 -8.8394448635E+001 -8.0650667970E+001 -3.9444126312E+001 -1.3746704102E+002
6802500000.000 -1.0989371775E+001 -1.1712621318E+002 -4.3677065872E+001 +1.6683652180E+002 -9.4668104502E+001 -4.5473811857E+001 -3.8942352509E+001 +1.7923319917E+002
6935000000.000 -1.0928642112E+001 -1.1762456172E+002 -4.3641597282E+001 +1.3268860526E+002 -8.2987192034E+001 +1.1729344511E+002 -3.8524853664E+001 +1.2265932025E+002
7067500000.000 -1.0818982852E+001 -1.1737211457E+002 -4.3588769059E+001 +9.8019425793E+001 -8.9402918434E+001 -1.0356705488E+002 -3.8981850443E+001 +1.1470759584E+002
7200000000.000 -1.0616460176E+001 -1.1759777411E+002 -4.3713882983E+001 +6.3698205699E+001 -8.6379186507E+001 -1.4004604549E+002 -3.2852149864E+001 +1.3152294333E+002
7332500000.000 -1.0474653077E+001 -1.1827465092E+002 -4.3722808372E+001 +2.9873632718E+001 -8.4781110497E+001 +1.3717010952E+002 -2.9066698005E+001 +1.1915393636E+002
7465000000.000 -1.0393457145E+001 -1.1851372548E+002 -4.3705577764E+001 -4.1474976889E+000 -8.8203669387E+001 -1.2657295988E+002 -2.8625502660E+001 +1.2262267200E+002
7597500000.000 -1.0250211030E+001 -1.1843855013E+002 -4.3753396724E+001 -3.8325892583E+001 -8.6802135912E+001 -3.1434768897E+001 -2.6119429150E+001 +1.3768809359E+002
7730000000.000 -1.0072949258E+001 -1.1861401975E+002 -4.3873530590E+001 -7.1023223387E+001 -8.7806173892E+001 +1.2718081737E+002 -2.3735024147E+001 +1.3792475280E+002
7862500000.000 -9.9546072046E+000 -1.1890260784E+002 -4.3801210787E+001 -1.0594626788E+002 -8.8046030345E+001 -4.0243796257E+001 -2.3279768778E+001 +1.4168178234E+002
7995000000.000 -9.8663353065E+000 -1.1891551512E+002 -4.3726360615E+001 -1.3980897627E+002 -8.4857771649E+001 -1.6133007403E+002 -2.1826030686E+001 +1.5436492686E+002
8127500000.000 -9.7074233329E+000 -1.1873888801E+002 -4.3930087908E+001 -1.7333796654E+002 -8.5600930397E+001 -6.4688824980E+000 -2.0024499433E+001 +1.5650842586E+002
8260000000.000 -9.5763785824E+000 -1.1905869603E+002 -4.3815395793E+001 +1.5244343020E+002 -8.0794553633E+001 -1.7247521706E+002 -1.9870555458E+001 +1.6020031323E+002
8392500000.000 -9.4961059796E+000 -1.1901355439E+002 -4.3667733165E+001 +1.1848323792E+002 -8.1606584564E+001 -4.3262224725E+000 -1.9068886505E+001 +1.7044664969E+002
8525000000.000 -9.4030082598E+000 -1.1883725376E+002 -4.3822237546E+001 +8.4723569419E+001 -8.4506411799E+001 +5.9478728924E+001 -1.8210483468E+001 +1.7295992342E+002
8657500000.000 -9.2861519466E+000 -1.1880231474E+002 -4.3584735762E+001 +4.9608021453E+001 -8.6361630295E+001 +8.9926743135E+001 -1.8567922698E+001 +1.7798118468E+002
8790000000.000 -9.1735267710E+000 -1.1894449000E+002 -4.3663767405E+001 +1.5432131184E+001 -8.7112747819E+001 -1.3891380471E+002 -1.8356947616E+001 -1.7173149552E+002
8922500000.000 -9.1294608742E+000 -1.1904998862E+002 -4.3720209814E+001 -1.7884038470E+001 -1.0069118258E+002 +1.3636475417E+002 -1.7989315701E+001 -1.6603525110E+002
9055000000.000 -9.0395800144E+000 -1.1895458975E+002 -4.3616110868E+001 -5.2417515330E+001 -8.5801219548E+001 +9.9042846106E+001 -1.8461184844E+001 -1.5839135491E+002
9187500000.000 -8.9555535282E+000 -1.1905008012E+002 -4.3757481530E+001 -8.6403703175E+001 -8.8733403427E+001 -1.2806593280E+001 -1.8384252258E+001 -1.4637536099E+002
9320000000.000 -8.8762091775E+000 -1.1955385791E+002 -4.3574731427E+001 -1.2117801277E+002 -9.0361147028E+001 -1.1479160353E+002 -1.8209848386E+001 -1.3970891395E+002
9452500000.000 -8.8257907361E+000 -1.1968796597E+002 -4.3662306278E+001 -1.5429178354E+002 -9.4207718680E+001 -1.5508520489E+002 -1.8855054568E+001 -1.3062435941E+002
9585000000.000 -8.7484827674E+000 -1.1979535430E+002 -4.3666046688E+001 +1.7096033015E+002 -9.3902830637E+001 -1.6097042819E+002 -1.8797497194E+001 -1.1827343045E+002
9717500000.000 -8.6275357471E+000 -1.2015567540E+002 -4.3639054611E+001 +1.3609710350E+002 -8.3860614137E+001 -2.7708057356E+000 -1.8812250734E+001 -1.1116137451E+002
9850000000.000 -8.5784248367E+000 -1.2080353971E+002 -4.3634089797E+001 +1.0222508887E+002 -8.5424954587E+001 +1.0380084360E+002 -1.9656084161E+001 -1.0057448715E+002
9982500000.000 -8.5174651841E+000 -1.2075189439E+002 -4.3532738313E+001 +6.7899520911E+001 -8.4850829142E+001 -1.5537417407E+002 -1.9699182230E+001 -8.6480426960E+001
10115000000.000 -8.4155870176E+000 -1.2091476688E+002 -4.3664791260E+001 +3.4022846241E+001 -8.7215202701E+001 -1.9634713439E+001 -1.9922417784E+001 -7.9072418903E+001
10247500000.000 -8.3124656504E+000 -1.2148535821E+002 -4.3664471513E+001 +3.6660799741E-001 -9.0535363629E+001 -4.9289288407E+000 -2.1145669114E+001 -6.6032193622E+001
10380000000.000 -8.2623497661E+000 -1.2178825572E+002 -4.3694312650E+001 -3.4625752206E+001 -8.2759192941E+001 +9.2390705260E+001 -2.1059259671E+001 -4.9931398700E+001
10512500000.000 -8.1910893616E+000 -1.2197635221E+002 -4.3678878714E+001 -6.8487624115E+001 -8.8089383472E+001 -1.3457099830E+002 -2.1508961200E+001 -4.1931547262E+001
10645000000.000 -8.1052452187E+000 -1.2220660209E+002 -4.3540826359E+001 -1.0287917698E+002 -8.5950928678E+001 -2.3860584819E+001 -2.2816179743E+001 -2.3884841652E+001
10777500000.000 -8.0138350754E+000 -1.2252601916E+002 -4.3607202396E+001 -1.3740476658E+002 -9.4620588505E+001 +1.5356469332E+002 -2.2201032270E+001 -5.9723041656E+000
10910000000.000 -7.9351081390E+000 -1.2279651832E+002 -4.3682915140E+001 -1.7195373585E+002 -9.1133444534E+001 +1.0924177553E+002 -2.2783601822E+001 +4.2589739113E+000
11042500000.000 -7.8488326266E+000 -1.2312800424E+002 -4.3592196255E+001 +1.5494279773E+002 -9.7001062768E+001 +4.1179183816E+000 -2.3443307352E+001 +2.7562580240E+001
11175000000.000 -7.7559026559E+000 -1.2322222675E+002 -4.3600220545E+001 +1.2042015213E+002 -8.4136992647E+001 +1.6724996193E+002 -2.2251758526E+001 +4.2745172898E+001
11307500000.000 -7.6933803103E+000 -1.2330789750E+002 -4.3470488009E+001 +8.5319924428E+001 -9.0062555993E+001 -9.3973485001E+001 -2.2740495040E+001 +5.3110325764E+001
11440000000.000 -7.5979208239E+000 -1.2362202929E+002 -4.3611517124E+001 +5.1348921669E+001 -8.4666805169E+001 +1.4375912298E+002 -2.2577681417E+001 +7.5767612155E+001
11572500000.000 -7.5229273948E+000 -1.2352172227E+002 -4.3526446412E+001 +1.7257528684E+001 -8.4341409153E+001 +1.1789635645E+002 -2.1170505306E+001 +8.6997465433E+001
11705000000.000 -7.4564403777E+000 -1.2362084005E+002 -4.3516935787E+001 -1.7641608583E+001 -8.9609612223E+001 -1.7945471113E+002 -2.1765639097E+001 +9.6997116781E+001
11837500000.000 -7.3777685267E+000 -1.2381763570E+002 -4.3563462810E+001 -5.1280062518E+001 -8.2716557511E+001 -9.9246916538E+001 -2.1125035792E+001 +1.1923632301E+002
11970000000.000 -7.3467669771E+000 -1.2388441041E+002 -4.3612855013E+001 -8.6436194459E+001 -8.0064562238E+001 +2.3531489994E+001 -1.9821969843E+001 +1.2541321610E+002
12102500000.000 -7.3023947168E+000 -1.2367151920E+002 -4.3617667307E+001 -1.1993401460E+002 -1.0057395993E+002 +8.3564749749E+001 -2.0744730400E+001 +1.3533677258E+002
12235000000.000 -7.2257203468E+000 -1.2418480568E+002 -4.3596141346E+001 -1.5478908659E+002 -8.1900232846E+001 -5.4952704000E+001 -1.9770738670E+001 +1.5447744081E+002
12367500000.000 -7.2187582130E+000 -1.2414878025E+002 -4.3665895450E+001 +1.7084866650E+002 -8.7566954140E+001 -8.3616560266E+000 -1.8879945236E+001 +1.5781685025E+002
12500000000.000 -7.1768436023E+000 -1.2449340021E+002 -4.3612739234E+001 +1.3650678097E+002 -7.9321345915E+001 +1.3125649101E+002 -2.0054636936E+001 +1.6800248216E+002
12632500000.000 -7.1111840930E+000 -1.2448075144E+002 -4.3600480331E+001 +1.0177343386E+002 -9.0708205341E+001 -1.1916627500E+002 -1.9163539571E+001 -1.7307736744E+002
12765000000.000 -7.0809426359E+000 -1.2470377476E+002 -4.3564418149E+001 +6.7322162630E+001 -9.0395191475E+001 +8.7477385643E+001 -1.8510889343E+001 -1.7143736795E+002
12897500000.000 -7.0635761032E+000 -1.2500639555E+002 -4.3680100402E+001 +3.3428468565E+001 -8.6544489841E+001 +1.3000963612E+002 -2.0125691235E+001 -1.5951558809E+002
13030000000.000 -7.0291643755E+000 -1.2513794044E+002 -4.3781423566E+001 -6.3760220867E-001 -8.4477499967E+001 -6.2867524168E+001 -1.8837009712E+001 -1.4165100113E+002
13162500000.000 -6.9741299683E+000 -1.2528905253E+002 -4.3841325880E+001 -3.5726974352E+001 -9.0349673829E+001 -1.6998756895E+001 -1.8631962468E+001 -1.4170382055E+002
13295000000.000 -6.9287981346E+000 -1.2551827049E+002 -4.3708467442E+001 -6.9846792437E+001 -7.9329932980E+001 +1.0068058936E+002 -2.0031437792E+001 -1.2795578756E+002
13427500000.000 -6.8984004438E+000 -1.2596607427E+002 -4.3697886214E+001 -1.0405196498E+002 -8.7666505755E+001 -1.2610793077E+001 -1.8836300480E+001 -1.1426818830E+002
13560000000.000 -6.8896114425E+000 -1.2599327383E+002 -4.3719211734E+001 -1.3861156065E+002 -8.2570527095E+001 -6.5045687323E+001 -1.9029474268E+001 -1.1475357124E+002
13692500000.000 -6.8210023352E+000 -1.2603315289E+002 -4.3804009617E+001 -1.7329374933E+002 -8.2040847502E+001 +8.3126132450E+001 -2.0815834907E+001 -1.0145401445E+002
13825000000.000 -6.7512343729E+000 -1.2640619149E+002 -4.3661439254E+001 +1.5270299439E+002 -8.2243870219E+001 -1.3098873126E+002 -1.9702664344E+001 -8.7728890233E+001
13957500000.000 -6.7408515354E+000 -1.2680758744E+002 -4.3899271922E+001 +1.1801420171E+002 -9.2725453921E+001 -1.1944153635E+002 -2.0364797853E+001 -9.0241618262E+001
14090000000.000 -6.7155433181E+000 -1.2679640368E+002 -4.3801478411E+001 +8.3314887996E+001 -9.6928957213E+001 -4.1808412679E+001 -2.2642386666E+001 -7.2764395074E+001
14222500000.000 -6.6451978294E+000 -1.2666434605E+002 -4.3733320259E+001 +4.7737185845E+001 -9.0960916635E+001 +3.6500471461E+001 -2.1269629859E+001 -5.9427999669E+001
14355000000.000 -6.5815041827E+000 -1.2709334532E+002 -4.3873781928E+001 +1.4731290235E+001 -9.5659892554E+001 -1.1967300034E+002 -2.2485801839E+001 -6.3732954982E+001
14487500000.000 -6.5515619544E+000 -1.2731042555E+002 -4.4035011944E+001 -1.9648998682E+001 -7.8567436800E+001 -5.6871652570E+001 -2.5536038242E+001 -4.0446593053E+001
14620000000.000 -6.5221003769E+000 -1.2717666570E+002 -4.4114574163E+001 -5.4009400579E+001 -7.7975849018E+001 +1.7471403410E+002 -2.3269982556E+001 -2.7446006029E+001
14752500000.000 -6.4229149754E+000 -1.2717977578E+002 -4.3967958214E+001 -8.9864105589E+001 -8.5308668027E+001 +1.7148138882E+002 -2.5343410162E+001 -3.6670554635E+001
14885000000.000 -6.3708534510E+000 -1.2735669925E+002 -4.3899551687E+001 -1.2452108833E+002 -8.8074973800E+001 -1.2214124120E+002 -2.8913848544E+001 +2.3549664792E+000
15017500000.000 -6.3464602141E+000 -1.2733681658E+002 -4.4259104909E+001 -1.5888577884E+002 -8.3322667202E+001 +1.2422770821E+002 -2.5364019204E+001 +9.2014570511E+000
15150000000.000 -6.2750634059E+000 -1.2713781472E+002 -4.4322781181E+001 +1.6684774257E+002 -8.6817602058E+001 +3.7681281695E+001 -2.9067984488E+001 -2.3412303750E+000
15282500000.000 -6.2239488772E+000 -1.2705390450E+002 -4.4397111425E+001 +1.3259230728E+002 -7.6796338024E+001 -3.3039956105E+001 -3.1112198525E+001 +5.7827656719E+001
