!  2-Port S-parameters saved by WinCal
! VAR MeasName=S-Parameters (CALIBRATED_DATA) read from VNA (C)
! VAR MeasDate=10/16/2015 3:51:27 PM
! VAR NAME=M6082_10_17_2_2_20C_4.8mA_-17.5dBm
! VAR FILENAME=M6082_10_17_2_2_20C_4.8mA_-17.5dBm.S2P
! VAR DATE=10/16/2015 3:51:27 PM
! VAR PHYS_PORTS=2,1
! VAR ObjTypeName=DATASET
! VAR IndexType=Frequency
!
# Hz S DB R 50
45000000.000 -2.7108378372E+001 -1.7810207158E+002 -4.0799457698E+001 +9.9664228337E+001 -6.0872690485E+001 -5.9769870975E+000 -3.0848831824E+001 +6.3711213770E+000
177500000.000 -2.6802508521E+001 -1.6243782306E+002 -4.2840889901E+001 +6.8833268798E+001 -7.0742806089E+001 +6.9954078551E+001 -3.2788474812E+001 +4.7180070486E+001
310000000.000 -2.5944096836E+001 -1.4911835620E+002 -4.2557837014E+001 +3.8490836041E+001 -7.7295377807E+001 -1.0233278749E+002 -2.3359709722E+001 +6.4740302066E+001
442500000.000 -2.4747221289E+001 -1.3929121639E+002 -4.1592220511E+001 -1.3686143988E+000 -8.6309978328E+001 -8.7293527210E+001 -2.2407166871E+001 +1.7264916404E+001
575000000.000 -2.3400676919E+001 -1.3187330406E+002 -4.1981246038E+001 -3.7043560209E+001 -8.5566611641E+001 +1.7321820948E+002 -3.0638989552E+001 +2.2495256542E+001
707500000.000 -2.2185276730E+001 -1.2716729299E+002 -4.2264154875E+001 -7.1104775209E+001 -8.3123855077E+001 +1.3246686172E+002 -3.4474546915E+001 +8.3757546553E+001
840000000.000 -2.1045610148E+001 -1.2324699902E+002 -4.2371376379E+001 -1.0560097251E+002 -8.6006101192E+001 -8.1356388456E+001 -2.9671184112E+001 +1.2721395835E+002
972500000.000 -2.0021083356E+001 -1.2040200331E+002 -4.2557230642E+001 -1.4066634014E+002 -8.7305594144E+001 +8.1094660730E+001 -2.5958585123E+001 +1.3526393498E+002
1105000000.000 -1.9046751330E+001 -1.1860623945E+002 -4.2569920111E+001 -1.7469451163E+002 -8.4960811978E+001 -1.5726183778E+002 -2.4355080642E+001 +1.4077267146E+002
1237500000.000 -1.8205655878E+001 -1.1741575863E+002 -4.2680712961E+001 +1.5099290767E+002 -8.5775353404E+001 -2.3780035059E+001 -2.3395122983E+001 +1.4991427203E+002
1370000000.000 -1.7422481675E+001 -1.1655124812E+002 -4.2655775021E+001 +1.1632452312E+002 -8.1488727531E+001 +4.6630437441E+001 -2.2070774634E+001 +1.5994105122E+002
1502500000.000 -1.6717978964E+001 -1.1591659402E+002 -4.2732818507E+001 +8.2807214831E+001 -8.9224278237E+001 -1.3493343413E+002 -2.0858156317E+001 +1.6638565238E+002
1635000000.000 -1.6048174217E+001 -1.1515093413E+002 -4.2762324204E+001 +4.8015020355E+001 -8.0666874676E+001 -4.2929812369E+001 -2.0021380440E+001 +1.7325573056E+002
1767500000.000 -1.5416815680E+001 -1.1502857877E+002 -4.2803624490E+001 +1.3876107790E+001 -9.9320197884E+001 -1.3582520874E+002 -1.9017088077E+001 +1.7848717295E+002
1900000000.000 -1.4890231480E+001 -1.1496043752E+002 -4.2780752974E+001 -2.1558937179E+001 -8.4278181706E+001 -1.1094422124E+002 -1.8864837917E+001 -1.7828898423E+002
2032500000.000 -1.4380353714E+001 -1.1496490070E+002 -4.2821110723E+001 -5.5972307185E+001 -7.9103538272E+001 +4.8321291937E-001 -1.8688671419E+001 -1.6792598234E+002
2165000000.000 -1.3873139490E+001 -1.1478328361E+002 -4.3000209684E+001 -9.0609773425E+001 -1.0367853520E+002 -2.8629322099E+001 -1.7741815911E+001 -1.6095642899E+002
2297500000.000 -1.3435014976E+001 -1.1502433462E+002 -4.2991702345E+001 -1.2414613572E+002 -8.0186233391E+001 -1.6893854398E+002 -1.7236212463E+001 -1.5708659787E+002
2430000000.000 -1.3032480811E+001 -1.1518881440E+002 -4.3009618765E+001 -1.5975415241E+002 -7.4122757971E+001 -4.4393904799E+001 -1.6943593563E+001 -1.5284505704E+002
2562500000.000 -1.2619313488E+001 -1.1538902234E+002 -4.3090847550E+001 +1.6796884117E+002 -7.5106060141E+001 -1.0300499458E+001 -1.6836782832E+001 -1.5038432678E+002
2695000000.000 -1.2248987696E+001 -1.1609171521E+002 -4.3147302049E+001 +1.3272070499E+002 -7.8280718042E+001 +1.5035655166E+002 -1.7375823625E+001 -1.4718157533E+002
2827500000.000 -1.1936836795E+001 -1.1668403573E+002 -4.3438084031E+001 +9.8754339747E+001 -7.8908660272E+001 -1.1842837671E+002 -1.7843675085E+001 -1.4031647214E+002
2960000000.000 -1.1627645695E+001 -1.1691996239E+002 -4.3416870014E+001 +6.4727006821E+001 -8.1346383870E+001 -2.4331952820E+001 -1.8157842144E+001 -1.3544255515E+002
3092500000.000 -1.1267164243E+001 -1.1736334756E+002 -4.3462341703E+001 +3.0581934582E+001 -8.5285401503E+001 -1.7825229597E+002 -1.9067181207E+001 -1.2928954499E+002
3225000000.000 -1.0944552481E+001 -1.1815045020E+002 -4.3548840839E+001 -3.7971208318E+000 -7.5506085677E+001 -1.1365400146E+002 -1.9565201910E+001 -1.1968118955E+002
3357500000.000 -1.0708402732E+001 -1.1876558708E+002 -4.3686778349E+001 -3.7597495592E+001 -8.1292780755E+001 -5.5412000408E+001 -1.9948687846E+001 -1.1426539213E+002
3490000000.000 -1.0402410229E+001 -1.1906135437E+002 -4.3646985320E+001 -7.1338914210E+001 -8.0828042867E+001 +1.3357869198E+002 -2.1110649361E+001 -1.0845144315E+002
3622500000.000 -1.0111819977E+001 -1.1950450901E+002 -4.3607127100E+001 -1.0585785076E+002 -8.6506541274E+001 +1.1646006590E+002 -2.1921740907E+001 -9.8247337719E+001
3755000000.000 -9.8361614828E+000 -1.2014902955E+002 -4.3588236441E+001 -1.3952053818E+002 -7.4826689860E+001 -7.4098886373E+001 -2.2708823112E+001 -9.4533804257E+001
3887500000.000 -9.6087856503E+000 -1.2059525774E+002 -4.3627219540E+001 -1.7409087100E+002 -7.8406027714E+001 +1.2723409847E+002 -2.5041386202E+001 -8.7695264145E+001
4020000000.000 -9.3851804918E+000 -1.2103090034E+002 -4.3483981218E+001 +1.5136430299E+002 -7.7037318868E+001 -1.5055478442E+002 -2.6644243883E+001 -7.3430091899E+001
4152500000.000 -9.1488970506E+000 -1.2134377399E+002 -4.3645620571E+001 +1.1749833056E+002 -8.5762632316E+001 -8.3742637970E+001 -2.8871562757E+001 -6.4909037424E+001
4285000000.000 -8.9288866931E+000 -1.2181420024E+002 -4.3846209143E+001 +8.2688722633E+001 -8.3377617898E+001 +9.3021228225E+001 -3.3361717805E+001 -3.7504517915E+001
4417500000.000 -8.7206978289E+000 -1.2240348196E+002 -4.3838730152E+001 +4.8509592598E+001 -8.2950824817E+001 -1.6239935074E+002 -3.1730288679E+001 +8.0802978436E+000
4550000000.000 -8.5471327559E+000 -1.2277344959E+002 -4.3847032672E+001 +1.3844317538E+001 -7.8143040088E+001 -3.8639619752E+001 -3.0350694992E+001 +1.8300681642E+001
4682500000.000 -8.3538747305E+000 -1.2305311448E+002 -4.4059012360E+001 -1.9437253838E+001 -8.2341598719E+001 -1.7246995193E+000 -2.9652226564E+001 +3.8833515361E+001
4815000000.000 -8.1597694378E+000 -1.2348720204E+002 -4.3958398828E+001 -5.2251820616E+001 -7.6857903494E+001 +1.4869615113E+002 -2.7634370106E+001 +4.1394643468E+001
4947500000.000 -8.0026204981E+000 -1.2391488472E+002 -4.3970048254E+001 -8.6424742310E+001 -8.7640543998E+001 -9.8636034499E+000 -2.9342188719E+001 +3.5684415924E+001
5080000000.000 -7.8505393003E+000 -1.2412830883E+002 -4.3998224206E+001 -1.1963614550E+002 -8.1219913605E+001 +2.0067887744E+001 -3.2201619085E+001 +5.6824928521E+001
5212500000.000 -7.6854889779E+000 -1.2445725522E+002 -4.3882132837E+001 -1.5364222293E+002 -8.4051568961E+001 +1.3712884465E+002 -3.1546587374E+001 +6.9364209546E+001
5345000000.000 -7.5411644274E+000 -1.2495021080E+002 -4.3895813660E+001 +1.7150837193E+002 -8.6791124190E+001 -6.1943154078E+001 -3.5268146327E+001 +7.1060966353E+001
5477500000.000 -7.4340979932E+000 -1.2520305777E+002 -4.3900759842E+001 +1.3696189425E+002 -9.5340044271E+001 +6.0413616328E+001 -3.7253923862E+001 +1.3151247497E+002
5610000000.000 -7.2963838914E+000 -1.2543997784E+002 -4.3750397921E+001 +1.0273302717E+002 -9.3625555163E+001 +4.6779868568E+001 -3.3647882248E+001 +1.3557739204E+002
5742500000.000 -7.1605249335E+000 -1.2593678516E+002 -4.3761279091E+001 +6.8033922071E+001 -1.2004018041E+002 -1.5461127284E+002 -3.7719988925E+001 +1.5263802461E+002
5875000000.000 -7.0683247450E+000 -1.2653848380E+002 -4.3815074301E+001 +3.3882285207E+001 -8.8327034826E+001 -2.5810645982E+001 -3.3789257435E+001 -1.7060271270E+002
6007500000.000 -6.9746538362E+000 -1.2683906346E+002 -4.3688991121E+001 +7.5199492439E-002 -8.1525202804E+001 +1.1683698137E+002 -3.2712204599E+001 +1.7935773989E+002
6140000000.000 -6.8446563816E+000 -1.2713405566E+002 -4.3795803664E+001 -3.5410582943E+001 -8.2761060539E+001 +1.2805879278E+002 -3.6141431964E+001 -1.6970173554E+002
6272500000.000 -6.7180547977E+000 -1.2778774012E+002 -4.3775248913E+001 -7.0023742814E+001 -8.5987068208E+001 -1.4621204147E+002 -3.3909731257E+001 -1.4470712466E+002
6405000000.000 -6.6377609753E+000 -1.2851087111E+002 -4.3954456472E+001 -1.0364082184E+002 -8.2916244933E+001 +8.1313692218E+000 -3.3829856465E+001 -1.6247119694E+002
6537500000.000 -6.5492572987E+000 -1.2872104275E+002 -4.3984282968E+001 -1.3821229539E+002 -9.2965882877E+001 -1.7875582255E+002 -4.0156899379E+001 -1.6035272546E+002
6670000000.000 -6.4141366678E+000 -1.2899268693E+002 -4.3950732193E+001 -1.7236737331E+002 -8.3569470918E+001 -2.6252635238E+001 -3.9353541265E+001 -1.3738937822E+002
6802500000.000 -6.2903475164E+000 -1.2970211087E+002 -4.3992156571E+001 +1.5323373872E+002 -8.8507290679E+001 +1.5976235340E+001 -3.8836509771E+001 +1.7888639423E+002
6935000000.000 -6.2272163437E+000 -1.3032394733E+002 -4.4040348573E+001 +1.1924981319E+002 -8.4744143115E+001 +1.1361597746E+002 -3.8569098551E+001 +1.2263220196E+002
7067500000.000 -6.1544457851E+000 -1.3042602868E+002 -4.4002974988E+001 +8.4888512630E+001 -8.5471770984E+001 -8.8785642815E+001 -3.9030704702E+001 +1.1444233692E+002
7200000000.000 -6.0277195943E+000 -1.3070588004E+002 -4.4168959231E+001 +5.0354125181E+001 -8.6821984839E+001 -1.3938029365E+001 -3.2856271545E+001 +1.3157911226E+002
7332500000.000 -5.9230262946E+000 -1.3136158774E+002 -4.4175548093E+001 +1.6714691433E+001 -8.6666305307E+001 +1.2789353537E+002 -2.9072265434E+001 +1.1904645937E+002
7465000000.000 -5.8574548108E+000 -1.3177918005E+002 -4.4188727197E+001 -1.7653382695E+001 -8.6346260274E+001 -6.1220467252E+001 -2.8623367679E+001 +1.2234270939E+002
7597500000.000 -5.7743550570E+000 -1.3192783538E+002 -4.4286045045E+001 -5.1212645913E+001 -8.8142026500E+001 -3.1796550587E+001 -2.6160154714E+001 +1.3761111988E+002
7730000000.000 -5.6562660799E+000 -1.3216642830E+002 -4.4265249634E+001 -8.5466218657E+001 -8.5300499566E+001 -7.1445767978E+001 -2.3717049578E+001 +1.3798873705E+002
7862500000.000 -5.5731391791E+000 -1.3257196393E+002 -4.4223166935E+001 -1.1959940281E+002 -8.3160165952E+001 -1.1844011573E+002 -2.3258576999E+001 +1.4152845243E+002
7995000000.000 -5.5148759220E+000 -1.3280067449E+002 -4.4271878178E+001 -1.5413827244E+002 -8.4143785707E+001 -1.1216481224E+002 -2.1841373551E+001 +1.5430131620E+002
8127500000.000 -5.4216039303E+000 -1.3280338936E+002 -4.4289944950E+001 +1.7220610095E+002 -8.5761500267E+001 -5.2768794726E+001 -2.0027085827E+001 +1.5659182682E+002
8260000000.000 -5.3287324035E+000 -1.3318434162E+002 -4.4266672699E+001 +1.3793280330E+002 -9.6236879103E+001 -1.7469875383E+002 -1.9856904375E+001 +1.6019157575E+002
8392500000.000 -5.2809077638E+000 -1.3337607010E+002 -4.4223007060E+001 +1.0430238774E+002 -8.8824474184E+001 -3.0772670205E+001 -1.9075769266E+001 +1.7038519781E+002
8525000000.000 -5.2247392808E+000 -1.3340685491E+002 -4.4248675786E+001 +6.9693499508E+001 -8.1365870841E+001 +7.5611160386E+001 -1.8216727873E+001 +1.7300325773E+002
8657500000.000 -5.1514046696E+000 -1.3351313457E+002 -4.4370131879E+001 +3.4936494055E+001 -8.9041966370E+001 +1.7693685593E+002 -1.8560455603E+001 +1.7795141894E+002
8790000000.000 -5.0760787872E+000 -1.3379886475E+002 -4.4173146816E+001 +8.6360126613E-001 -8.8399660588E+001 -1.2311318198E+002 -1.8357214094E+001 -1.7171844369E+002
8922500000.000 -5.0472822733E+000 -1.3406374413E+002 -4.4276210273E+001 -3.3249954538E+001 -8.5079074951E+001 -3.8600644240E+000 -1.7985625321E+001 -1.6597342522E+002
9055000000.000 -4.9900584924E+000 -1.3416433794E+002 -4.4289934323E+001 -6.7587111774E+001 -8.3341235696E+001 +1.5360603701E+002 -1.8460284620E+001 -1.5832674672E+002
9187500000.000 -4.9304215425E+000 -1.3438382283E+002 -4.4203453581E+001 -1.0237447375E+002 -7.9796875803E+001 -7.5347283379E+001 -1.8384637435E+001 -1.4627117695E+002
9320000000.000 -4.8722564456E+000 -1.3492958681E+002 -4.4193066353E+001 -1.3643084433E+002 -8.5960828499E+001 -7.2437195285E+001 -1.8204186602E+001 -1.3965665810E+002
9452500000.000 -4.8392476087E+000 -1.3522878476E+002 -4.4198000523E+001 -1.6954062706E+002 -8.4223273506E+001 +7.4065093029E+001 -1.8853038523E+001 -1.3062809342E+002
9585000000.000 -4.7864964558E+000 -1.3547625604E+002 -4.4187368520E+001 +1.5494287908E+002 -7.9477475325E+001 -8.0610368426E+001 -1.8801388167E+001 -1.1818134729E+002
9717500000.000 -4.7061880134E+000 -1.3578115623E+002 -4.4191964655E+001 +1.2021517214E+002 -8.5881530629E+001 -5.8134890174E+001 -1.8812001182E+001 -1.1102793071E+002
9850000000.000 -4.6661203136E+000 -1.3644732480E+002 -4.4272974606E+001 +8.6031218689E+001 -9.0125853699E+001 +1.2664390698E+002 -1.9655421711E+001 -1.0062068761E+002
9982500000.000 -4.6328698072E+000 -1.3655459227E+002 -4.4209809381E+001 +5.1611067192E+001 -8.0997404213E+001 -1.0845311921E+002 -1.9717170974E+001 -8.6379851633E+001
10115000000.000 -4.5734335524E+000 -1.3674293264E+002 -4.4277739239E+001 +1.6663916123E+001 -8.4885759933E+001 -3.2459843662E+001 -1.9915604790E+001 -7.8988491400E+001
10247500000.000 -4.5011057233E+000 -1.3721037715E+002 -4.4157277650E+001 -1.6975654833E+001 -8.8483726082E+001 +1.2041740458E+002 -2.1151041548E+001 -6.6087424201E+001
10380000000.000 -4.4694990485E+000 -1.3762881307E+002 -4.4207613906E+001 -5.1721469985E+001 -8.8068049583E+001 -6.3425282524E+001 -2.1083662515E+001 -4.9792431053E+001
10512500000.000 -4.4371555618E+000 -1.3785422415E+002 -4.4207341733E+001 -8.6434454045E+001 -8.7853301001E+001 -5.1205582766E+001 -2.1496738500E+001 -4.1705995449E+001
10645000000.000 -4.3869887657E+000 -1.3806652204E+002 -4.4310212835E+001 -1.1968727272E+002 -8.8736655473E+001 -1.0109933767E+002 -2.2817579801E+001 -2.3908771703E+001
10777500000.000 -4.3222894050E+000 -1.3840121157E+002 -4.4291628448E+001 -1.5580767897E+002 -9.1371619717E+001 +8.9596877073E+001 -2.2230047344E+001 -5.7935298007E+000
10910000000.000 -4.2763479510E+000 -1.3876226864E+002 -4.4296065576E+001 +1.7022391105E+002 -8.5750296251E+001 -1.4268194508E+002 -2.2780454528E+001 +4.5291510645E+000
11042500000.000 -4.2308847204E+000 -1.3905221076E+002 -4.4254964135E+001 +1.3599640272E+002 -8.9742091381E+001 -6.2267169678E+001 -2.3441483595E+001 +2.7585617380E+001
11175000000.000 -4.1764349843E+000 -1.3912508306E+002 -4.4321525020E+001 +1.0133636895E+002 -8.8284096720E+001 +1.7396997179E+002 -2.2275211160E+001 +4.2880761865E+001
11307500000.000 -4.1362106119E+000 -1.3933153208E+002 -4.4358210179E+001 +6.6854438351E+001 -8.1195891549E+001 -1.1680166892E+002 -2.2739105770E+001 +5.3481532275E+001
11440000000.000 -4.0825620285E+000 -1.3960641934E+002 -4.4273103881E+001 +3.2211419207E+001 -9.2513492607E+001 +9.3170329120E+001 -2.2570369766E+001 +7.5864698030E+001
11572500000.000 -4.0479607239E+000 -1.3957521759E+002 -4.4241384302E+001 -2.2555557647E+000 -8.0252007626E+001 +3.8433668066E+001 -2.1178903681E+001 +8.7149971076E+001
11705000000.000 -4.0107211178E+000 -1.3968551517E+002 -4.4336552809E+001 -3.6737564670E+001 -8.3520924339E+001 +1.3841564386E+002 -2.1788144879E+001 +9.7193961500E+001
11837500000.000 -3.9635186766E+000 -1.3986370775E+002 -4.4320191411E+001 -7.1356207856E+001 -9.1089179023E+001 -1.0015291764E+002 -2.1118318820E+001 +1.1937116015E+002
11970000000.000 -3.9541361360E+000 -1.4005801316E+002 -4.4329938635E+001 -1.0618572292E+002 -8.7403384330E+001 +6.3345406752E+001 -1.9820479225E+001 +1.2557451210E+002
12102500000.000 -3.9431708081E+000 -1.3999103261E+002 -4.4393953916E+001 -1.4105537458E+002 -8.5936726183E+001 -1.6437981979E+002 -2.0741438671E+001 +1.3553527022E+002
12235000000.000 -3.8923987902E+000 -1.4038454911E+002 -4.4478653223E+001 -1.7526827521E+002 -8.2363554821E+001 -1.0748239623E+002 -1.9771943958E+001 +1.5469757149E+002
12367500000.000 -3.8888839329E+000 -1.4054561643E+002 -4.4516591178E+001 +1.5019640994E+002 -9.6172459957E+001 +1.5600612745E+002 -1.8871530942E+001 +1.5810449598E+002
12500000000.000 -3.8692603678E+000 -1.4091620475E+002 -4.4547165667E+001 +1.1487675928E+002 -8.0322595566E+001 +1.1816617682E+002 -2.0059491177E+001 +1.6817560625E+002
12632500000.000 -3.8423771588E+000 -1.4097234266E+002 -4.4582081218E+001 +7.9738016492E+001 -8.8214269158E+001 -5.9711522092E+001 -1.9181864774E+001 -1.7287226964E+002
12765000000.000 -3.8183147223E+000 -1.4122787548E+002 -4.4610473363E+001 +4.5029562688E+001 -8.2269268413E+001 +6.5799426088E+001 -1.8520522609E+001 -1.7117044986E+002
12897500000.000 -3.8056366195E+000 -1.4152725378E+002 -4.4731696284E+001 +1.1320094576E+001 -8.4753124141E+001 +7.7520411504E+001 -2.0122234805E+001 -1.5941048732E+002
13030000000.000 -3.7946885127E+000 -1.4175019815E+002 -4.4724407316E+001 -2.4189009049E+001 -1.0563515070E+002 +1.4659661780E+002 -1.8864036458E+001 -1.4148754448E+002
13162500000.000 -3.7658954647E+000 -1.4185837882E+002 -4.4843358528E+001 -5.8910631818E+001 -8.3030790202E+001 +4.1630524113E+001 -1.8651373547E+001 -1.4144715652E+002
13295000000.000 -3.7394369813E+000 -1.4201557256E+002 -4.4933884399E+001 -9.4123575900E+001 -8.3193837389E+001 +1.1035397509E+002 -2.0028529627E+001 -1.2785190456E+002
13427500000.000 -3.7248627856E+000 -1.4242666077E+002 -4.5015599848E+001 -1.2887264167E+002 -8.7556632011E+001 +1.5953548436E+002 -1.8878458634E+001 -1.1416844980E+002
13560000000.000 -3.7312616133E+000 -1.4249922833E+002 -4.4945210595E+001 -1.6272618479E+002 -8.1683102210E+001 -5.4334924173E+001 -1.9069262477E+001 -1.1452910796E+002
13692500000.000 -3.6998667430E+000 -1.4254648253E+002 -4.5131305811E+001 +1.6191755935E+002 -8.3746741321E+001 -4.8753648334E+001 -2.0826930190E+001 -1.0126042943E+002
13825000000.000 -3.6612478752E+000 -1.4283799161E+002 -4.5145450555E+001 +1.2721721240E+002 -9.1922389965E+001 -1.3626257813E+002 -1.9753385425E+001 -8.7666679636E+001
13957500000.000 -3.6571493340E+000 -1.4321854636E+002 -4.5240010476E+001 +9.1463551797E+001 -7.5863228010E+001 -5.0239918713E+001 -2.0409219198E+001 -8.9995417804E+001
14090000000.000 -3.6509017475E+000 -1.4330579857E+002 -4.5234077993E+001 +5.8553044210E+001 -8.8949784469E+001 -4.8053639003E+000 -2.2678377867E+001 -7.2578355620E+001
14222500000.000 -3.6214343446E+000 -1.4324524453E+002 -4.5461742282E+001 +2.2975567094E+001 -1.0416350067E+002 +9.5143129341E+001 -2.1293546975E+001 -5.9346422368E+001
14355000000.000 -3.5765017569E+000 -1.4357404628E+002 -4.5585924183E+001 -1.0320652137E+001 -8.1759051855E+001 -2.9373699053E+001 -2.2526395563E+001 -6.3649367370E+001
14487500000.000 -3.5571564156E+000 -1.4369420352E+002 -4.5644499128E+001 -4.6668014284E+001 -7.7461123898E+001 +6.2609714046E+001 -2.5589686891E+001 -4.0083323704E+001
14620000000.000 -3.5540829941E+000 -1.4366662416E+002 -4.5609884969E+001 -8.1062054744E+001 -8.1504057440E+001 +1.0686090127E+002 -2.3267579961E+001 -2.7188727696E+001
14752500000.000 -3.4965020550E+000 -1.4352290204E+002 -4.5677505560E+001 -1.1669542078E+002 -8.4284235624E+001 -8.5978758934E+001 -2.5382233952E+001 -3.7075413749E+001
14885000000.000 -3.4563908182E+000 -1.4359502260E+002 -4.5798334203E+001 -1.5054447218E+002 -9.0572251172E+001 +1.7805713456E+001 -2.9054237839E+001 +2.5732898861E+000
15017500000.000 -3.4464147162E+000 -1.4362413132E+002 -4.6072932694E+001 +1.7353536062E+002 -8.1368082904E+001 +1.1858234349E+002 -2.5394258054E+001 +9.5265120158E+000
15150000000.000 -3.4234587788E+000 -1.4344544405E+002 -4.6287360038E+001 +1.3866102107E+002 -7.9263193157E+001 -1.4468798651E+002 -2.9029027367E+001 -2.6864762275E+000
15282500000.000 -3.3954403900E+000 -1.4331828383E+002 -4.6180936694E+001 +1.0473350570E+002 -9.0041134520E+001 -7.8149413052E+001 -3.1302774267E+001 +5.8080799794E+001
