!  2-Port S-parameters saved by WinCal
! VAR MeasName=S-Parameters (CALIBRATED_DATA) read from VNA (C)
! VAR MeasDate=10/16/2015 3:02:39 PM
! VAR NAME=M6082_10_15_2_2_20C_1.4mA_-17.5dBm
! VAR FILENAME=M6082_10_15_2_2_20C_1.4mA_-17.5dBm.S2P
! VAR DATE=10/16/2015 3:02:39 PM
! VAR PHYS_PORTS=2,1
! VAR ObjTypeName=DATASET
! VAR IndexType=Frequency
!
# Hz S DB R 50
45000000.000 -1.3718625241E+001 -3.3573684875E+000 -4.8690249281E+001 +8.2308873763E+001 -6.9795350056E+001 +2.0232282666E+001 -3.1170148133E+001 +4.1397081899E+000
177500000.000 -1.4194696974E+001 -1.0973788905E+001 -4.8669124588E+001 +6.5186291324E+001 -8.7900834614E+001 -7.1239029533E+001 -3.2732139303E+001 +4.6382410015E+001
310000000.000 -1.4361757903E+001 -1.9352995441E+001 -4.6672642878E+001 +3.1233972373E+001 -7.3848814650E+001 -7.8248435480E+001 -2.3367275512E+001 +6.4559917479E+001
442500000.000 -1.4455694695E+001 -2.5258758208E+001 -4.7841172663E+001 -6.7810886722E+000 -8.2775135500E+001 -6.1757011180E+000 -2.2395278485E+001 +1.7177254239E+001
575000000.000 -1.4651073329E+001 -3.1064190083E+001 -4.8351997851E+001 -4.6255852940E+001 -8.0670744025E+001 +1.5625430445E+002 -3.0647186701E+001 +2.2481391789E+001
707500000.000 -1.4580713328E+001 -3.6841789666E+001 -4.8420464707E+001 -8.3053669426E+001 -7.8895594282E+001 -1.3639167189E+002 -3.4544858074E+001 +8.3618591982E+001
840000000.000 -1.4507403163E+001 -4.1603256362E+001 -4.8551065726E+001 -1.1906010831E+002 -8.9068570938E+001 +6.5963080702E+000 -2.9674930982E+001 +1.2729966120E+002
972500000.000 -1.4292117667E+001 -4.6339520710E+001 -4.8715009862E+001 -1.5598341524E+002 -9.0929005701E+001 -1.5096089973E+002 -2.5967612916E+001 +1.3532719023E+002
1105000000.000 -1.4091238280E+001 -5.0660744996E+001 -4.8830232425E+001 +1.6660750225E+002 -9.1613083514E+001 -3.4299238411E+001 -2.4375720213E+001 +1.4092272194E+002
1237500000.000 -1.3795462578E+001 -5.4805853463E+001 -4.8882538388E+001 +1.3023256656E+002 -8.7571830566E+001 +1.0650517693E+002 -2.3397287651E+001 +1.4992280567E+002
1370000000.000 -1.3522785277E+001 -5.8663528480E+001 -4.9001285496E+001 +9.3168723327E+001 -8.4034178547E+001 +1.6212781990E+002 -2.2083042104E+001 +1.6004157704E+002
1502500000.000 -1.3348428871E+001 -6.1673088945E+001 -4.8794555280E+001 +5.7793542036E+001 -9.2708998642E+001 -1.1009417525E+002 -2.0860059355E+001 +1.6642730072E+002
1635000000.000 -1.2936818618E+001 -6.4939191848E+001 -4.9176067019E+001 +2.0396481304E+001 -8.3405032221E+001 -7.5321715164E+001 -2.0024987988E+001 +1.7334561124E+002
1767500000.000 -1.2650318681E+001 -6.8300636867E+001 -4.9483280098E+001 -1.6165122388E+001 -8.0222290148E+001 +7.5457615729E+001 -1.9026188946E+001 +1.7854226749E+002
1900000000.000 -1.2586899970E+001 -7.0800195042E+001 -4.8412958106E+001 -5.2031440484E+001 -8.1195652695E+001 -1.4258583038E+002 -1.8877605793E+001 -1.7821728856E+002
2032500000.000 -1.2381396760E+001 -7.3177618631E+001 -4.8432736558E+001 -8.7886045144E+001 -8.0582046628E+001 -3.9541689283E+001 -1.8695558772E+001 -1.6787778738E+002
2165000000.000 -1.2079088338E+001 -7.5083741572E+001 -4.8255687768E+001 -1.2510941399E+002 -9.3644046625E+001 +1.0508536260E+002 -1.7757385837E+001 -1.6093344620E+002
2297500000.000 -1.1889708578E+001 -7.6498452162E+001 -4.7314251179E+001 -1.6345048598E+002 -9.6043923954E+001 -1.5362260222E+002 -1.7246822541E+001 -1.5703970504E+002
2430000000.000 -1.1621439970E+001 -7.7833331752E+001 -4.6942175202E+001 +1.5912999578E+002 -7.1522590665E+001 -1.0342215511E+002 -1.6951804520E+001 -1.5289680164E+002
2562500000.000 -1.1218523524E+001 -7.9569110759E+001 -4.7119661682E+001 +1.2025465167E+002 -7.6779886235E+001 +9.8963508225E+000 -1.6836610075E+001 -1.5038846783E+002
2695000000.000 -1.0923756455E+001 -8.1198899414E+001 -4.6397987149E+001 +8.1889267142E+001 -8.6228984840E+001 +5.2458467605E+001 -1.7383929894E+001 -1.4707966152E+002
2827500000.000 -1.0619431066E+001 -8.2831896927E+001 -4.6256171583E+001 +4.0585004850E+001 -7.4250405337E+001 -8.2115921059E+001 -1.7853887347E+001 -1.4026940217E+002
2960000000.000 -1.0261512864E+001 -8.4996197766E+001 -4.6620901119E+001 +1.3058107503E+000 -8.4670092884E+001 +2.5151333882E+001 -1.8175976714E+001 -1.3533448780E+002
3092500000.000 -9.8968361028E+000 -8.7206765190E+001 -4.6970535369E+001 -3.9560893927E+001 -8.3142815327E+001 +7.3062670579E+001 -1.9084502054E+001 -1.2919003652E+002
3225000000.000 -9.6203727202E+000 -8.9404541260E+001 -4.6842012152E+001 -8.0563843853E+001 -8.1379258090E+001 +1.5814377181E+002 -1.9594965536E+001 -1.1970684557E+002
3357500000.000 -9.4011175097E+000 -9.1687870578E+001 -4.7137554860E+001 -1.1913925285E+002 -7.5930731990E+001 -1.0808421826E+001 -1.9970991174E+001 -1.1421950132E+002
3490000000.000 -9.1423627802E+000 -9.3752261721E+001 -4.7509436145E+001 -1.5867191941E+002 -8.1373471114E+001 +1.1359187113E+002 -2.1132944303E+001 -1.0841919957E+002
3622500000.000 -8.8961857588E+000 -9.5657779284E+001 -4.7382688764E+001 +1.6334912186E+002 -8.2758739083E+001 +1.7270803753E+002 -2.1947694563E+001 -9.8169942388E+001
3755000000.000 -8.7055347316E+000 -9.7752829466E+001 -4.8116668442E+001 +1.2315377023E+002 -8.1544311381E+001 -4.1225502185E+001 -2.2730847620E+001 -9.4629416124E+001
3887500000.000 -8.5679433351E+000 -9.9596064535E+001 -4.8885685570E+001 +8.5591823425E+001 -7.7997663550E+001 +3.3039429144E+001 -2.5064238566E+001 -8.7697026653E+001
4020000000.000 -8.4158137093E+000 -1.0114186244E+002 -4.9310965369E+001 +4.6762369329E+001 -8.4040565623E+001 +1.5299416229E+002 -2.6683359932E+001 -7.3249691633E+001
4152500000.000 -8.2548140541E+000 -1.0254695892E+002 -4.9409799206E+001 +9.1624113122E+000 -8.0642777097E+001 -2.5260576211E+001 -2.8900539179E+001 -6.4644265058E+001
4285000000.000 -8.1341170254E+000 -1.0400432984E+002 -5.0188652610E+001 -2.8525901232E+001 -8.3238873187E+001 +1.0136098522E+002 -3.3402608055E+001 -3.6780929910E+001
4417500000.000 -8.0161212450E+000 -1.0547394081E+002 -5.0806960434E+001 -6.4413353589E+001 -9.1088818464E+001 -1.7829355322E+002 -3.1718635806E+001 +8.3907051422E+000
4550000000.000 -7.9087288700E+000 -1.0650150613E+002 -5.1017910819E+001 -1.0189478653E+002 -7.9927240379E+001 +2.6109738840E+001 -3.0375470458E+001 +1.8602121185E+001
4682500000.000 -7.8014400181E+000 -1.0747989266E+002 -5.2092739217E+001 -1.3905335580E+002 -8.6842245390E+001 +1.4012343910E+001 -2.9670051347E+001 +3.9449874561E+001
4815000000.000 -7.6886342791E+000 -1.0854750880E+002 -5.2471715942E+001 -1.7365093118E+002 -8.6357100059E+001 +1.1236504956E+002 -2.7657936083E+001 +4.1828813175E+001
4947500000.000 -7.5920043681E+000 -1.0942225233E+002 -5.2711583494E+001 +1.5392594166E+002 -9.2489106188E+001 -1.4661660408E+002 -2.9390258555E+001 +3.6253924333E+001
5080000000.000 -7.4984166390E+000 -1.1009290472E+002 -5.3238337087E+001 +1.1899399333E+002 -9.2195378469E+001 -9.0256374687E+001 -3.2248924897E+001 +5.7765396931E+001
5212500000.000 -7.3989493127E+000 -1.1087743778E+002 -5.3762200573E+001 +8.5542284001E+001 -9.2543167051E+001 +1.0168646739E+002 -3.1558629045E+001 +7.0165096252E+001
5345000000.000 -7.3073159581E+000 -1.1166585546E+002 -5.3785929347E+001 +5.2022199362E+001 -1.0906575604E+002 +6.5391286858E+001 -3.5344142561E+001 +7.2259591109E+001
5477500000.000 -7.2461303166E+000 -1.1216558614E+002 -5.4324029160E+001 +1.8929926377E+001 -8.5449071133E+001 +8.7049854627E+000 -3.7089937410E+001 +1.3248967821E+002
5610000000.000 -7.1559221927E+000 -1.1271949928E+002 -5.5012486272E+001 -1.3221799044E+001 -8.6575913751E+001 +1.5035022776E+002 -3.3588099563E+001 +1.3633071708E+002
5742500000.000 -7.0715163454E+000 -1.1343931569E+002 -5.5424873352E+001 -4.3769233684E+001 -8.3083417660E+001 -1.4454512668E+002 -3.7572555481E+001 +1.5369272404E+002
5875000000.000 -7.0185757612E+000 -1.1418195550E+002 -5.5513536488E+001 -7.2030231708E+001 -9.3672076928E+001 -4.2424228603E+001 -3.3659470013E+001 -1.7056451807E+002
6007500000.000 -6.9609967541E+000 -1.1472438023E+002 -5.5681812500E+001 -1.0448061051E+002 -8.4638183451E+001 +1.0566208996E+002 -3.2647083855E+001 +1.7981017093E+002
6140000000.000 -6.8614193228E+000 -1.1526673914E+002 -5.5995762550E+001 -1.3845606825E+002 -8.4082135176E+001 +1.1440580018E+002 -3.5995206961E+001 -1.6895530666E+002
6272500000.000 -6.7735167010E+000 -1.1617021407E+002 -5.6143809923E+001 -1.7140857198E+002 -8.1390845390E+001 -6.8382804228E+001 -3.3771696593E+001 -1.4409579001E+002
6405000000.000 -6.7284166176E+000 -1.1704437834E+002 -5.6466518240E+001 +1.5645121011E+002 -8.6174834267E+001 +3.9117887840E+001 -3.3766419506E+001 -1.6155493480E+002
6537500000.000 -6.6617120427E+000 -1.1744483639E+002 -5.6632791301E+001 +1.2245323920E+002 -8.6558245696E+001 -1.0999765662E+002 -4.0087713822E+001 -1.6000180317E+002
6670000000.000 -6.5468746079E+000 -1.1800582661E+002 -5.6505383996E+001 +8.6201421105E+001 -8.7413587804E+001 -5.9396357105E+001 -3.9221617719E+001 -1.3640433017E+002
6802500000.000 -6.4490024786E+000 -1.1896700058E+002 -5.7045884124E+001 +4.8947373766E+001 -9.0413638806E+001 +1.1646940127E+001 -3.8882883155E+001 -1.7951471883E+002
6935000000.000 -6.4174268957E+000 -1.1973761677E+002 -5.7239037401E+001 +1.5082055757E+001 -9.4785855773E+001 +1.2992046087E+002 -3.8715525110E+001 +1.2271030663E+002
7067500000.000 -6.3564614643E+000 -1.2000931003E+002 -5.7546000495E+001 -2.1416071274E+001 -8.2745699773E+001 -8.6410880669E+001 -3.9199818990E+001 +1.1451097266E+002
7200000000.000 -6.2407661750E+000 -1.2057129633E+002 -5.7084358231E+001 -6.0038612150E+001 -8.6624288206E+001 +5.5033659778E+001 -3.2931735571E+001 +1.3159211145E+002
7332500000.000 -6.1643989240E+000 -1.2139973337E+002 -5.7201843138E+001 -9.1418057542E+001 -8.3747150599E+001 -1.7113242791E+002 -2.9114228104E+001 +1.1890971372E+002
7465000000.000 -6.1198019708E+000 -1.2194745417E+002 -5.8404319200E+001 -1.2713903270E+002 -8.4326356358E+001 -1.5042001480E+002 -2.8663085703E+001 +1.2224077150E+002
7597500000.000 -6.0381302132E+000 -1.2234487786E+002 -5.8452367894E+001 -1.7151586525E+002 -9.6706123050E+001 -1.2587943014E+002 -2.6160128818E+001 +1.3754508331E+002
7730000000.000 -5.9409998961E+000 -1.2276885074E+002 -5.8405444869E+001 +1.5244850319E+002 -8.5400463673E+001 +9.6116773883E+001 -2.3732035069E+001 +1.3786786098E+002
7862500000.000 -5.8800534783E+000 -1.2328590066E+002 -5.8712072604E+001 +1.2068097132E+002 -8.3732782023E+001 +1.7160175476E+002 -2.3282400884E+001 +1.4144205191E+002
7995000000.000 -5.8302812377E+000 -1.2366112643E+002 -5.8521101769E+001 +8.3934003438E+001 -8.7063357102E+001 -9.3231494349E+001 -2.1842601051E+001 +1.5424342698E+002
8127500000.000 -5.7419502340E+000 -1.2383471795E+002 -5.8219089652E+001 +4.3889462161E+001 -8.3756525205E+001 +9.8235233814E+001 -2.0028077338E+001 +1.5650772930E+002
8260000000.000 -5.6713558698E+000 -1.2434226068E+002 -5.9740946734E+001 +1.3676878298E+001 -9.4451836570E+001 -7.0896883138E+001 -1.9861037603E+001 +1.6016574724E+002
8392500000.000 -5.6335086311E+000 -1.2461403060E+002 -5.9346940427E+001 -2.5120616223E+001 -8.6268312516E+001 -9.1309038522E+001 -1.9072402809E+001 +1.7041884122E+002
8525000000.000 -5.5821833555E+000 -1.2472249081E+002 -6.0133999319E+001 -5.6559065991E+001 -9.1059225217E+001 +1.6983786370E+002 -1.8215520185E+001 +1.7301140770E+002
8657500000.000 -5.5193470153E+000 -1.2495267335E+002 -6.0489687974E+001 -8.9891605150E+001 -9.3440557874E+001 +7.8480572098E+001 -1.8569666925E+001 +1.7799190882E+002
8790000000.000 -5.4530813767E+000 -1.2530252557E+002 -6.0976434077E+001 -1.2581665578E+002 -8.5707081693E+001 -1.5378205780E+002 -1.8351087822E+001 -1.7171701655E+002
8922500000.000 -5.4356998805E+000 -1.2561862867E+002 -6.0465908905E+001 -1.5911732143E+002 -8.5044659684E+001 -6.1638703726E+000 -1.7984605402E+001 -1.6598225097E+002
9055000000.000 -5.3861349996E+000 -1.2578311707E+002 -6.0886652468E+001 +1.6959502167E+002 -8.4562252100E+001 +1.0296959450E+002 -1.8458168663E+001 -1.5833623144E+002
9187500000.000 -5.3377791209E+000 -1.2606040963E+002 -6.1973055462E+001 +1.3181310917E+002 -8.6274909526E+001 -1.6855903307E+002 -1.8379067695E+001 -1.4625862689E+002
9320000000.000 -5.2903700469E+000 -1.2670496404E+002 -6.1870691027E+001 +9.9740520793E+001 -8.5320918850E+001 -8.7703250837E+001 -1.8201938247E+001 -1.3960628598E+002
9452500000.000 -5.2695341302E+000 -1.2703539830E+002 -6.2407727631E+001 +6.8283101204E+001 -8.3368350194E+001 +7.7929409550E+001 -1.8859086422E+001 -1.3056387496E+002
9585000000.000 -5.2261349607E+000 -1.2732020696E+002 -6.2390797465E+001 +2.9091951108E+001 -9.1852523503E+001 -1.3319943364E+002 -1.8799043606E+001 -1.1809320064E+002
9717500000.000 -5.1515001346E+000 -1.2773942070E+002 -6.2107713760E+001 +2.5342708507E+000 -8.6702418584E+001 -2.6980118493E+001 -1.8805115662E+001 -1.1104516921E+002
9850000000.000 -5.1258013599E+000 -1.2848786034E+002 -6.2549763966E+001 -3.7305943413E+001 -8.5170605875E+001 +9.3501481531E+001 -1.9654105220E+001 -1.0055282167E+002
9982500000.000 -5.0992149729E+000 -1.2862198732E+002 -6.3049734879E+001 -6.5999333713E+001 -8.7130862278E+001 +1.6351053927E+002 -1.9710778757E+001 -8.6316848630E+001
10115000000.000 -5.0426348617E+000 -1.2887916110E+002 -6.3060466313E+001 -1.0698469366E+002 -8.9262424419E+001 -1.2284484401E+002 -1.9908552113E+001 -7.8841066551E+001
10247500000.000 -4.9779965452E+000 -1.2947140361E+002 -6.3559526225E+001 -1.4273239646E+002 -8.2891382004E+001 +2.1172187562E+001 -2.1151743156E+001 -6.5883198273E+001
10380000000.000 -4.9551044536E+000 -1.2990557676E+002 -6.3648689569E+001 -1.7171148128E+002 -8.1393329123E+001 +1.3106688276E+002 -2.1087971118E+001 -4.9661228674E+001
10512500000.000 -4.9257066366E+000 -1.3018431116E+002 -6.4325806647E+001 +1.5996552264E+002 -8.2211473524E+001 +5.9662037185E+000 -2.1532313326E+001 -4.1559486687E+001
10645000000.000 -4.8781443410E+000 -1.3048257052E+002 -6.4463567419E+001 +1.1870774097E+002 -8.3484757071E+001 -4.0962646521E+001 -2.2816947379E+001 -2.3655861001E+001
10777500000.000 -4.8209602551E+000 -1.3086758035E+002 -6.4820643591E+001 +8.5841058903E+001 -8.4980062637E+001 +1.5797250695E+002 -2.2234344394E+001 -5.5947055945E+000
10910000000.000 -4.7824682731E+000 -1.3126309086E+002 -6.4717807184E+001 +5.3347620685E+001 -8.8846294494E+001 -8.2844928101E+001 -2.2795573349E+001 +4.8608065689E+000
11042500000.000 -4.7392919146E+000 -1.3161086149E+002 -6.5719770680E+001 +1.4021041829E+001 -8.2459770526E+001 +1.3806050106E+001 -2.3444963786E+001 +2.8005392085E+001
11175000000.000 -4.6876467673E+000 -1.3176269700E+002 -6.6599741420E+001 -2.0275971211E+001 -8.3888057900E+001 +6.6817414812E+001 -2.2286289923E+001 +4.3162762980E+001
11307500000.000 -4.6551915328E+000 -1.3199698590E+002 -6.6870543023E+001 -5.0973460945E+001 -8.6286504627E+001 -8.0551064656E+001 -2.2739147503E+001 +5.3706540191E+001
11440000000.000 -4.6028006993E+000 -1.3234522090E+002 -6.7832458454E+001 -8.4274963973E+001 -8.5826885732E+001 -4.1616551459E+001 -2.2561919433E+001 +7.6138898411E+001
11572500000.000 -4.5672641516E+000 -1.3235816195E+002 -6.6509119081E+001 -1.1003912678E+002 -8.1644845466E+001 +1.5802607612E+001 -2.1169199813E+001 +8.7438541452E+001
11705000000.000 -4.5340517336E+000 -1.3250592131E+002 -6.6849605646E+001 -1.4518342255E+002 -9.5061523362E+001 -1.4373633311E+002 -2.1771825432E+001 +9.7545228175E+001
11837500000.000 -4.4850995623E+000 -1.3276984722E+002 -6.9332620467E+001 +1.7672045472E+002 -9.4638502064E+001 -9.9682835104E+001 -2.1105423962E+001 +1.1972271313E+002
11970000000.000 -4.4797812895E+000 -1.3296911512E+002 -6.6705677867E+001 +1.5234498364E+002 -7.9254335468E+001 +5.1723512126E+001 -1.9824499228E+001 +1.2589698091E+002
12102500000.000 -4.4689107901E+000 -1.3290439456E+002 -6.6649832870E+001 +1.2137526071E+002 -9.2745912852E+001 -9.7040890492E+001 -2.0748212246E+001 +1.3575469052E+002
12235000000.000 -4.4208682471E+000 -1.3334092440E+002 -6.7973652863E+001 +7.9761895023E+001 -8.2383826180E+001 -1.0288704827E+002 -1.9767295443E+001 +1.5497770742E+002
12367500000.000 -4.4248444127E+000 -1.3346985524E+002 -6.7114362210E+001 +4.1378134692E+001 -8.0744959850E+001 +2.0333394700E+001 -1.8880498843E+001 +1.5831454627E+002
12500000000.000 -4.4094088587E+000 -1.3386707291E+002 -6.9146991912E+001 +5.9602002136E+000 -9.4017375178E+001 -1.1752502492E+002 -2.0050101048E+001 +1.6847364332E+002
12632500000.000 -4.3805228215E+000 -1.3393124163E+002 -7.0520947636E+001 -1.8594501228E+001 -8.9562625905E+001 -1.5414178098E+002 -1.9178468705E+001 -1.7264857486E+002
12765000000.000 -4.3622573331E+000 -1.3419298423E+002 -6.7685043031E+001 -4.0803415499E+001 -8.7834684921E+001 -2.5129868284E+001 -1.8522436599E+001 -1.7098931992E+002
12897500000.000 -4.3611397581E+000 -1.3454344110E+002 -6.7207133417E+001 -8.9324650523E+001 -8.1143120025E+001 +5.7220888317E+001 -2.0122640106E+001 -1.5911081940E+002
13030000000.000 -4.3511309731E+000 -1.3476841454E+002 -6.9625592713E+001 -1.3891065187E+002 -8.9212455421E+001 -1.4242238726E+002 -1.8867528693E+001 -1.4118169387E+002
13162500000.000 -4.3226296593E+000 -1.3492678639E+002 -6.9802778003E+001 -1.5690364220E+002 -8.2664990309E+001 -1.9370681395E+001 -1.8679760045E+001 -1.4118918842E+002
13295000000.000 -4.2967445317E+000 -1.3515815761E+002 -6.9550296153E+001 +1.6944223569E+002 -8.1795622102E+001 +7.6532850599E+001 -2.0053600442E+001 -1.2753010906E+002
13427500000.000 -4.2846453571E+000 -1.3558923782E+002 -6.9778788394E+001 +1.3481761296E+002 -9.5567028505E+001 -2.0940693133E+001 -1.8881590208E+001 -1.1397146397E+002
13560000000.000 -4.2912438144E+000 -1.3568290466E+002 -7.1242100172E+001 +8.4114906581E+001 -8.2426070268E+001 -9.8146865308E+001 -1.9088650216E+001 -1.1437131513E+002
13692500000.000 -4.2559672988E+000 -1.3577197039E+002 -6.8492018768E+001 +7.7376909335E+001 -8.2561581208E+001 -2.7057332524E+001 -2.0856172223E+001 -1.0101616876E+002
13825000000.000 -4.2161703067E+000 -1.3606781158E+002 -7.3685044866E+001 +1.6754580499E+001 -7.7578975031E+001 -9.4226014048E+001 -1.9765041792E+001 -8.7378214981E+001
13957500000.000 -4.2179362986E+000 -1.3645190716E+002 -7.4193525876E+001 -5.6644439282E+000 -9.0976515877E+001 -1.0585280272E+002 -2.0451996053E+001 -8.9806597259E+001
14090000000.000 -4.2170344580E+000 -1.3652611955E+002 -7.2501933625E+001 -2.0375229573E+001 -8.0388349981E+001 +1.3568183494E+002 -2.2726304247E+001 -7.2331345996E+001
14222500000.000 -4.1850465975E+000 -1.3642339129E+002 -7.2241316472E+001 -6.7114134477E+001 -9.0344857232E+001 -1.7784868620E+002 -2.1325030609E+001 -5.9178578836E+001
14355000000.000 -4.1381291719E+000 -1.3677821938E+002 -7.1567404367E+001 -1.1277396807E+002 -7.6570112743E+001 -6.3819547543E+001 -2.2587652442E+001 -6.3658785040E+001
14487500000.000 -4.1274315195E+000 -1.3698692655E+002 -7.6904056000E+001 -1.1855845740E+002 -9.3751131230E+001 +9.4842200853E+001 -2.5650239015E+001 -4.0042896514E+001
14620000000.000 -4.1244571201E+000 -1.3692060926E+002 -7.0274484966E+001 -1.3695401955E+002 -9.6819835347E+001 +7.9249783326E+000 -2.3330197433E+001 -2.7115072617E+001
14752500000.000 -4.0580766313E+000 -1.3686058517E+002 -7.1298149448E+001 -1.7338595278E+002 -8.4093766435E+001 -1.3060945453E+002 -2.5435270673E+001 -3.6956530430E+001
14885000000.000 -4.0211505605E+000 -1.3701582204E+002 -7.4493297549E+001 +1.3407923423E+002 -7.9014018056E+001 +6.5782332560E+001 -2.9103447429E+001 +2.6191214305E+000
15017500000.000 -4.0136402060E+000 -1.3702782607E+002 -7.4568493821E+001 +1.1429461050E+002 -7.9189035953E+001 +6.9004782740E+001 -2.5439609824E+001 +9.6162433739E+000
15150000000.000 -3.9751652723E+000 -1.3688591320E+002 -7.2294387696E+001 +7.1828014270E+001 -8.0815612082E+001 -1.5305118619E+002 -2.9121372972E+001 -2.9497500900E+000
15282500000.000 -3.9450669570E+000 -1.3680925149E+002 -7.4119668339E+001 +1.1898712714E+001 -8.2475833665E+001 +2.1347062915E+001 -3.1373537725E+001 +5.8294113462E+001
