!  2-Port S-parameters saved by WinCal
! VAR MeasName=S-Parameters (CALIBRATED_DATA) read from VNA (C)
! VAR MeasDate=10/16/2015 3:06:08 PM
! VAR NAME=M6082_10_15_2_2_20C_2.5mA_-17.5dBm
! VAR FILENAME=M6082_10_15_2_2_20C_2.5mA_-17.5dBm.S2P
! VAR DATE=10/16/2015 3:06:08 PM
! VAR PHYS_PORTS=2,1
! VAR ObjTypeName=DATASET
! VAR IndexType=Frequency
!
# Hz S DB R 50
45000000.000 -2.7235499697E+001 -2.7712687322E+000 -4.3338544427E+001 +9.5900842391E+001 -5.9866500514E+001 -1.2549964330E+001 -3.1251906442E+001 +3.5828081086E+000
177500000.000 -2.7083392179E+001 -1.8008448880E+001 -4.4266681956E+001 +6.6491553470E+001 -7.5558983251E+001 +8.4163054533E+001 -3.2717006130E+001 +4.6675794970E+001
310000000.000 -2.6188000490E+001 -3.0736005327E+001 -4.3973385719E+001 +3.6524551490E+001 -7.7178033820E+001 -1.4209728528E+002 -2.3348761600E+001 +6.4621492990E+001
442500000.000 -2.5081077981E+001 -4.1719225070E+001 -4.3224900371E+001 -2.2560239068E+000 -7.5281534474E+001 -3.3496127373E+001 -2.2426408110E+001 +1.7059383125E+001
575000000.000 -2.3877495833E+001 -5.0596323032E+001 -4.3850808708E+001 -3.9433902672E+001 -7.6332717231E+001 +7.1706653062E+001 -3.0683498061E+001 +2.2439109969E+001
707500000.000 -2.2841520891E+001 -5.7501837004E+001 -4.3950926167E+001 -7.3627589901E+001 -8.7321004854E+001 -1.3345013728E+002 -3.4565907053E+001 +8.4061676839E+001
840000000.000 -2.1737478722E+001 -6.2908427036E+001 -4.4060448021E+001 -1.0774757862E+002 -8.9587800964E+001 +8.9644280465E+000 -2.9716982436E+001 +1.2764262624E+002
972500000.000 -2.0785239768E+001 -6.7081628299E+001 -4.4146395134E+001 -1.4208021420E+002 -8.1381408790E+001 +1.4666319865E+002 -2.5977210213E+001 +1.3549978946E+002
1105000000.000 -1.9862476590E+001 -7.1154140712E+001 -4.4231663640E+001 -1.7711039033E+002 -8.3854370350E+001 +1.6058404593E+002 -2.4376664440E+001 +1.4092465399E+002
1237500000.000 -1.9067629404E+001 -7.4423240109E+001 -4.4266160415E+001 +1.4856609554E+002 -9.8604844666E+001 -8.9584194814E+001 -2.3413132932E+001 +1.5012018440E+002
1370000000.000 -1.8319446665E+001 -7.7381910692E+001 -4.4425122034E+001 +1.1459411185E+002 -8.1116621327E+001 +6.2378699952E+001 -2.2080704439E+001 +1.6002353726E+002
1502500000.000 -1.7618679557E+001 -8.0026863328E+001 -4.4478100446E+001 +7.9594079423E+001 -8.3140873516E+001 +5.2781999621E+001 -2.0867788167E+001 +1.6642244103E+002
1635000000.000 -1.6964349537E+001 -8.1941814261E+001 -4.4477535973E+001 +4.4912658940E+001 -8.4474228651E+001 -2.5854033592E+001 -2.0034276155E+001 +1.7330311064E+002
1767500000.000 -1.6363034491E+001 -8.4195261304E+001 -4.4418319219E+001 +1.0204465622E+001 -9.1074588048E+001 -1.1104039022E+002 -1.9031431430E+001 +1.7859614523E+002
1900000000.000 -1.5810128708E+001 -8.6122023083E+001 -4.4423269306E+001 -2.4451103584E+001 -9.0816214224E+001 -1.5162994245E+002 -1.8875877852E+001 -1.7822148581E+002
2032500000.000 -1.5309596569E+001 -8.7831668064E+001 -4.4650495756E+001 -5.8222663906E+001 -8.6045854262E+001 +7.0671463834E+001 -1.8700432860E+001 -1.6783045356E+002
2165000000.000 -1.4785445239E+001 -8.9225358569E+001 -4.4696286977E+001 -9.2675098175E+001 -8.7115692115E+001 +4.5582114952E+001 -1.7755833005E+001 -1.6092448404E+002
2297500000.000 -1.4345135820E+001 -9.0957500484E+001 -4.4793667060E+001 -1.2746532341E+002 -8.2062581298E+001 -1.7819444994E+002 -1.7247711430E+001 -1.5703722079E+002
2430000000.000 -1.3960323126E+001 -9.2399653413E+001 -4.4998111766E+001 -1.6227087256E+002 -9.7584105076E+001 -1.0119028085E+002 -1.6957781045E+001 -1.5284547003E+002
2562500000.000 -1.3553626263E+001 -9.3636049641E+001 -4.5058054806E+001 +1.6595723224E+002 -8.1807394460E+001 -4.0388065967E+001 -1.6851536459E+001 -1.5043567619E+002
2695000000.000 -1.3214557569E+001 -9.5343557526E+001 -4.4890827887E+001 +1.3033355566E+002 -7.5904357043E+001 +1.4567450457E+002 -1.7372471276E+001 -1.4709970253E+002
2827500000.000 -1.2927414175E+001 -9.6791172027E+001 -4.4932726950E+001 +9.7010207883E+001 -7.9904326327E+001 -1.4588017095E+002 -1.7861071354E+001 -1.4030774756E+002
2960000000.000 -1.2629865055E+001 -9.7709883680E+001 -4.5019712517E+001 +6.2643338262E+001 -8.8845397100E+001 +7.2902267516E+001 -1.8158687852E+001 -1.3536007872E+002
3092500000.000 -1.2280356272E+001 -9.8949360224E+001 -4.5092504778E+001 +2.7978322516E+001 -7.7097539816E+001 +9.3244421286E+001 -1.9087303791E+001 -1.2924828917E+002
3225000000.000 -1.1995932365E+001 -1.0047754075E+002 -4.5077435271E+001 -5.2203910456E+000 -8.5418437354E+001 -1.2985886236E+002 -1.9585514662E+001 -1.1968569280E+002
3357500000.000 -1.1789784608E+001 -1.0156111418E+002 -4.5002262200E+001 -4.0069702562E+001 -7.7113267346E+001 +2.5387390577E+001 -1.9967330350E+001 -1.1427311784E+002
3490000000.000 -1.1490331101E+001 -1.0230061121E+002 -4.4852810240E+001 -7.3749826483E+001 -7.5503886331E+001 +1.0767712085E+002 -2.1139137433E+001 -1.0854842439E+002
3622500000.000 -1.1203489852E+001 -1.0327143114E+002 -4.4658018350E+001 -1.0780793083E+002 -8.6122138748E+001 -4.4239521760E+001 -2.1925714263E+001 -9.8256651034E+001
3755000000.000 -1.0937074571E+001 -1.0429243663E+002 -4.4720130631E+001 -1.4081634662E+002 -7.4514580528E+001 +2.2010074163E+001 -2.2721755664E+001 -9.4591565660E+001
3887500000.000 -1.0706836336E+001 -1.0500733936E+002 -4.4411909296E+001 -1.7722704124E+002 -8.0903730338E+001 +5.5594552533E+001 -2.5049674848E+001 -8.7792819660E+001
4020000000.000 -1.0482796846E+001 -1.0575831421E+002 -4.4436956379E+001 +1.4866843225E+002 -7.9914612631E+001 -1.7765329880E+002 -2.6668741429E+001 -7.3379478850E+001
4152500000.000 -1.0234636222E+001 -1.0642256032E+002 -4.4326270366E+001 +1.1296777225E+002 -8.9918638905E+001 -3.0227798481E+001 -2.8863156174E+001 -6.4847932883E+001
4285000000.000 -9.9968788049E+000 -1.0718684936E+002 -4.4334329840E+001 +7.7865327931E+001 -8.7162621220E+001 +1.0232340600E+001 -3.3420574415E+001 -3.7328983692E+001
4417500000.000 -9.7820592799E+000 -1.0809390654E+002 -4.4370913939E+001 +4.2713093644E+001 -8.6675587787E+001 -1.7227774898E+002 -3.1737641453E+001 +8.2620320140E+000
4550000000.000 -9.6006239889E+000 -1.0869128726E+002 -4.4395561078E+001 +8.3819742577E+000 -9.0192845643E+001 -9.9835875901E+001 -3.0383281932E+001 +1.8333869969E+001
4682500000.000 -9.3810053841E+000 -1.0923282056E+002 -4.4562839396E+001 -2.6899760012E+001 -8.0931598400E+001 +4.2959868613E+001 -2.9679266733E+001 +3.9009607694E+001
4815000000.000 -9.1766360234E+000 -1.0995474770E+002 -4.4346330706E+001 -5.9955534197E+001 -9.2177156560E+001 -1.5509417771E+002 -2.7658165358E+001 +4.1579185685E+001
4947500000.000 -9.0140075721E+000 -1.1057308773E+002 -4.4281586094E+001 -9.4053431276E+001 -8.8613991664E+001 +2.9962565314E+001 -2.9407164991E+001 +3.6021915141E+001
5080000000.000 -8.8452287340E+000 -1.1095861425E+002 -4.4161188863E+001 -1.2824542742E+002 -8.5146155324E+001 +2.1526519731E+001 -3.2236346679E+001 +5.7359594845E+001
5212500000.000 -8.6661290919E+000 -1.1152489908E+002 -4.3967118106E+001 -1.6370856420E+002 -1.0090084358E+002 +1.6356269176E+002 -3.1583663965E+001 +6.9789784242E+001
5345000000.000 -8.5198145207E+000 -1.1219409521E+002 -4.3944892799E+001 +1.6158546050E+002 -8.4935858416E+001 -1.0595238259E+002 -3.5360990824E+001 +7.1762569656E+001
5477500000.000 -8.4018445581E+000 -1.1252750955E+002 -4.3700749070E+001 +1.2645489999E+002 -8.2911264882E+001 +2.4248836706E+001 -3.7149112607E+001 +1.3203094258E+002
5610000000.000 -8.2443437041E+000 -1.1290793817E+002 -4.3573953238E+001 +9.1055491924E+001 -8.7840499121E+001 +1.2413900473E+002 -3.3643324002E+001 +1.3600459699E+002
5742500000.000 -8.1090717499E+000 -1.1354928425E+002 -4.3518807929E+001 +5.5902595097E+001 -8.5200819940E+001 -1.4647530412E+002 -3.7703659523E+001 +1.5301660880E+002
5875000000.000 -8.0211870481E+000 -1.1424591336E+002 -4.3393918991E+001 +2.0830648068E+001 -8.5632876088E+001 -1.3197037102E+002 -3.3723892601E+001 -1.7055817593E+002
6007500000.000 -7.9063976768E+000 -1.1462249502E+002 -4.3292502302E+001 -1.4773426394E+001 -8.6360563102E+001 +9.6446082485E+001 -3.2668830693E+001 +1.7999765056E+002
6140000000.000 -7.7552003195E+000 -1.1499896505E+002 -4.3114017444E+001 -5.1665982257E+001 -8.0065250239E+001 +1.7396521693E+002 -3.6072992757E+001 -1.6869518136E+002
6272500000.000 -7.6313128542E+000 -1.1587318638E+002 -4.3152407663E+001 -8.5811549021E+001 -8.7278021087E+001 -6.0019511218E+001 -3.3837557531E+001 -1.4426766360E+002
6405000000.000 -7.5458773585E+000 -1.1667410420E+002 -4.3124862558E+001 -1.2163250930E+002 -8.6077409018E+001 -8.7241109758E+000 -3.3826858307E+001 -1.6183161232E+002
6537500000.000 -7.4185361164E+000 -1.1688285772E+002 -4.2995265749E+001 -1.5989381371E+002 -8.6247869469E+001 +1.2971720370E+002 -4.0133824675E+001 -1.5953877601E+002
6670000000.000 -7.2718935413E+000 -1.1735531882E+002 -4.3012606913E+001 +1.6632651075E+002 -8.2340950718E+001 -1.5800034858E+002 -3.9325884924E+001 -1.3667343777E+002
6802500000.000 -7.1362293691E+000 -1.1824487349E+002 -4.2972794939E+001 +1.3088608643E+002 -9.0613459634E+001 -5.9996220329E+000 -3.8838018803E+001 +1.7968452148E+002
6935000000.000 -7.0235472530E+000 -1.1885464393E+002 -4.2953273126E+001 +8.9412706201E+001 -8.7023534368E+001 +5.4791502240E+001 -3.8668681594E+001 +1.2250426884E+002
7067500000.000 -6.9370791576E+000 -1.1907460961E+002 -4.2874486308E+001 +5.5445341290E+001 -9.2585221697E+001 -1.3556561194E+002 -3.9057516882E+001 +1.1457946405E+002
7200000000.000 -6.8200673877E+000 -1.1962812745E+002 -4.2980388280E+001 +2.3592447922E+001 -9.5420810180E+001 +3.6590206987E+001 -3.2877699850E+001 +1.3178543235E+002
7332500000.000 -6.6751628134E+000 -1.2041956469E+002 -4.2971120892E+001 -1.5882259645E+001 -9.1313489632E+001 +1.8970639844E+001 -2.9091415885E+001 +1.1897252349E+002
7465000000.000 -6.5799043546E+000 -1.2092761747E+002 -4.2922188619E+001 -5.3683551140E+001 -8.8299925983E+001 -1.2407334206E+002 -2.8647760007E+001 +1.2225399416E+002
7597500000.000 -6.5181521624E+000 -1.2125050454E+002 -4.3011768398E+001 -8.3013267260E+001 -8.6308712906E+001 -4.2573201819E+001 -2.6168709897E+001 +1.3758064724E+002
7730000000.000 -6.3562972687E+000 -1.2167036793E+002 -4.2944924745E+001 -1.2253016200E+002 -9.4109077603E+001 +1.4100098723E+002 -2.3728333637E+001 +1.3797360792E+002
7862500000.000 -6.2130626942E+000 -1.2230857877E+002 -4.3034746278E+001 -1.6511937373E+002 -8.5540333895E+001 +1.6530002263E+002 -2.3270167037E+001 +1.4147374172E+002
7995000000.000 -6.1679902975E+000 -1.2258017681E+002 -4.2887554433E+001 +1.6480736122E+002 -9.2544024408E+001 -1.0311412656E+002 -2.1844914155E+001 +1.5427507358E+002
8127500000.000 -6.0566717139E+000 -1.2271412705E+002 -4.2713827268E+001 +1.2897938485E+002 -8.1179051174E+001 +5.0750672018E+001 -2.0032262137E+001 +1.5656030319E+002
8260000000.000 -5.9204961427E+000 -1.2343263016E+002 -4.3134981247E+001 +8.7559310716E+001 -9.7542678089E+001 -3.5960261914E+001 -1.9865639730E+001 +1.6015479406E+002
8392500000.000 -5.8666803608E+000 -1.2368720891E+002 -4.3070790823E+001 +5.3642519708E+001 -9.5088762652E+001 -2.1148948244E+001 -1.9073121349E+001 +1.7037620160E+002
8525000000.000 -5.7959688092E+000 -1.2372362025E+002 -4.2694451024E+001 +1.9243803017E+001 -7.9462470400E+001 +1.1136363609E+002 -1.8217329289E+001 +1.7300635778E+002
8657500000.000 -5.6992480099E+000 -1.2418872614E+002 -4.3143917102E+001 -2.0353525815E+001 -8.5154147178E+001 -1.6977100601E+002 -1.8564394314E+001 +1.7795234325E+002
8790000000.000 -5.6095795737E+000 -1.2468966880E+002 -4.3347043736E+001 -5.8622603747E+001 -8.6445118916E+001 -9.9218022647E+001 -1.8347882719E+001 -1.7174748460E+002
8922500000.000 -5.5745790969E+000 -1.2494874833E+002 -4.3039996032E+001 -9.2355923554E+001 -8.7342257094E+001 -1.1407933831E+000 -1.7986071486E+001 -1.6597090332E+002
9055000000.000 -5.5061347936E+000 -1.2527445600E+002 -4.3277506148E+001 -1.3017084536E+002 -9.6319116547E+001 +1.0397863808E+002 -1.8456994704E+001 -1.5830189217E+002
9187500000.000 -5.4454435938E+000 -1.2570299551E+002 -4.3453013940E+001 -1.6632960043E+002 -1.0334678030E+002 +1.1770702598E+002 -1.8383641980E+001 -1.4624501181E+002
9320000000.000 -5.3849945349E+000 -1.2636479567E+002 -4.3465908495E+001 +1.5793281435E+002 -8.1453113186E+001 -7.9513484870E+001 -1.8203570656E+001 -1.3961345774E+002
9452500000.000 -5.3538481563E+000 -1.2681030633E+002 -4.3621628886E+001 +1.2244019282E+002 -8.8347498197E+001 +1.3822152627E+002 -1.8853853264E+001 -1.3053938159E+002
9585000000.000 -5.3048594025E+000 -1.2728662669E+002 -4.4109358994E+001 +8.4737288609E+001 -8.2747443691E+001 -7.3803989460E+001 -1.8803254681E+001 -1.1807349512E+002
9717500000.000 -5.2255104197E+000 -1.2771335100E+002 -4.3951864680E+001 +5.1661985977E+001 -8.5360240371E+001 -1.2404669045E+002 -1.8805758368E+001 -1.1104475948E+002
9850000000.000 -5.1966941502E+000 -1.2854630666E+002 -4.4385759308E+001 +1.4284365897E+001 -8.3376099353E+001 +8.4067293668E+001 -1.9654794214E+001 -1.0058571970E+002
9982500000.000 -5.1663242559E+000 -1.2877637863E+002 -4.4792826100E+001 -2.1724329219E+001 -8.6839079847E+001 -1.2008727764E+002 -1.9714564433E+001 -8.6342792358E+001
10115000000.000 -5.1097382949E+000 -1.2909011665E+002 -4.5037869427E+001 -5.6843165463E+001 -8.7402189839E+001 -2.4297118785E+001 -1.9910702898E+001 -7.8913228385E+001
10247500000.000 -5.0476720654E+000 -1.2971209975E+002 -4.5031069212E+001 -9.1192219959E+001 -8.7937066325E+001 +9.7449660266E+000 -2.1150729621E+001 -6.5959983685E+001
10380000000.000 -5.0279628428E+000 -1.3025110409E+002 -4.5779885692E+001 -1.2737481028E+002 -1.0564469306E+002 +9.2139063977E+001 -2.1088203863E+001 -4.9728145336E+001
10512500000.000 -4.9990882135E+000 -1.3056133367E+002 -4.5839637220E+001 -1.6238499328E+002 -8.9853634527E+001 -1.1758613386E+002 -2.1512351047E+001 -4.1672424936E+001
10645000000.000 -4.9539099150E+000 -1.3088376481E+002 -4.5995935252E+001 +1.6363398231E+002 -8.9498750624E+001 -7.4272877512E+000 -2.2820480036E+001 -2.3798212558E+001
10777500000.000 -4.8986012099E+000 -1.3133467257E+002 -4.6559422598E+001 +1.2794930282E+002 -8.5037735133E+001 +9.3156146621E+001 -2.2229700784E+001 -5.8160169155E+000
10910000000.000 -4.8627208429E+000 -1.3178883756E+002 -4.7039393179E+001 +9.2685980794E+001 -8.7261609135E+001 +5.8976280630E+001 -2.2795553223E+001 +4.6066254935E+000
11042500000.000 -4.8186667788E+000 -1.3215979917E+002 -4.7148602446E+001 +5.8301294966E+001 -8.7042741140E+001 -2.0753598648E+001 -2.3437762556E+001 +2.7765270064E+001
11175000000.000 -4.7673747739E+000 -1.3234261834E+002 -4.7466921828E+001 +2.4309482656E+001 -9.0396094648E+001 +1.0217000258E+002 -2.2278260965E+001 +4.3021742717E+001
11307500000.000 -4.7359378901E+000 -1.3261161423E+002 -4.7862569524E+001 -1.2006769111E+001 -9.1345174972E+001 -9.9088565033E+001 -2.2743944901E+001 +5.3504510669E+001
11440000000.000 -4.6863358004E+000 -1.3295629454E+002 -4.8089529737E+001 -4.4577119890E+001 -8.7013074632E+001 -4.6673591812E+001 -2.2563470581E+001 +7.5985119080E+001
11572500000.000 -4.6510774807E+000 -1.3296669058E+002 -4.8570822066E+001 -8.0338877151E+001 -8.9338782079E+001 +1.4697914797E+002 -2.1169898470E+001 +8.7215522171E+001
11705000000.000 -4.6222141581E+000 -1.3313772971E+002 -4.8750954313E+001 -1.1390133136E+002 -8.5854768188E+001 +1.6846131766E+002 -2.1775507356E+001 +9.7275344506E+001
11837500000.000 -4.5781078448E+000 -1.3337975274E+002 -4.9277940939E+001 -1.4944597415E+002 -8.0245350317E+001 -6.6673983237E+001 -2.1114181204E+001 +1.1951557859E+002
11970000000.000 -4.5757267146E+000 -1.3357708768E+002 -4.9325608301E+001 +1.7701882984E+002 -8.3303298100E+001 +1.4526172044E+001 -1.9825452824E+001 +1.2562433784E+002
12102500000.000 -4.5695399259E+000 -1.3353624073E+002 -4.9643741772E+001 +1.4226392904E+002 -9.1732171847E+001 +1.5026814872E+002 -2.0753129557E+001 +1.3557307353E+002
12235000000.000 -4.5210354797E+000 -1.3398976779E+002 -4.9838388312E+001 +1.0799715508E+002 -9.0352168595E+001 -4.1883373789E+001 -1.9776646349E+001 +1.5475828713E+002
12367500000.000 -4.5258135268E+000 -1.3413496057E+002 -5.0229573049E+001 +7.6525314218E+001 -8.0661006036E+001 -7.8903697324E+000 -1.8883760662E+001 +1.5816111384E+002
12500000000.000 -4.5101429436E+000 -1.3455424469E+002 -5.0636810816E+001 +4.0882885620E+001 -8.2356322025E+001 +1.5367408676E+002 -2.0059901141E+001 +1.6818853077E+002
12632500000.000 -4.4819152425E+000 -1.3462819009E+002 -5.0921239156E+001 +5.4453412194E+000 -8.5206262840E+001 -9.2311349147E+001 -1.9187135304E+001 -1.7281375784E+002
12765000000.000 -4.4627960286E+000 -1.3490699416E+002 -5.1095850952E+001 -2.7017630643E+001 -8.4185523034E+001 +2.0438543583E+001 -1.8523908910E+001 -1.7112218767E+002
12897500000.000 -4.4606849720E+000 -1.3525518805E+002 -5.1302618302E+001 -6.1653696137E+001 -8.4539226032E+001 +1.3686599213E+002 -2.0126559161E+001 -1.5938555223E+002
13030000000.000 -4.4492251189E+000 -1.3545708534E+002 -5.1711727562E+001 -9.6823551690E+001 -8.5218899291E+001 -6.1116473842E+001 -1.8873774016E+001 -1.4143883686E+002
13162500000.000 -4.4215458285E+000 -1.3559551318E+002 -5.1989283841E+001 -1.3037845242E+002 -8.5634829378E+001 -2.4885655070E+001 -1.8663624931E+001 -1.4132029047E+002
13295000000.000 -4.3981280572E+000 -1.3579701984E+002 -5.2412821503E+001 -1.6355285043E+002 -1.0286864610E+002 +4.3556161130E+001 -2.0049622963E+001 -1.2777646617E+002
13427500000.000 -4.3900579026E+000 -1.3620318003E+002 -5.2723551401E+001 +1.6216131549E+002 -8.4283768569E+001 -1.0237280502E+002 -1.8878001108E+001 -1.1413762436E+002
13560000000.000 -4.4006944137E+000 -1.3627854645E+002 -5.2963789949E+001 +1.2513874833E+002 -8.3051741433E+001 -4.3662694231E+001 -1.9079625101E+001 -1.1445013738E+002
13692500000.000 -4.3665242411E+000 -1.3636961996E+002 -5.3197315669E+001 +9.1576321075E+001 -8.4101725210E+001 +7.6341051993E+001 -2.0827110999E+001 -1.0114303281E+002
13825000000.000 -4.3308725392E+000 -1.3669390059E+002 -5.4188739385E+001 +5.8959747146E+001 -7.8713015296E+001 -1.7480823717E+002 -1.9770956649E+001 -8.7587380680E+001
13957500000.000 -4.3311815478E+000 -1.3709419817E+002 -5.3775209329E+001 +2.0313984260E+001 -7.7391782927E+001 -3.1551786714E+001 -2.0422426227E+001 -8.9967875818E+001
14090000000.000 -4.3285821521E+000 -1.3719845274E+002 -5.4122026127E+001 -5.9855648931E+000 -8.4818446902E+001 -1.2515828688E+002 -2.2689034352E+001 -7.2425096849E+001
14222500000.000 -4.2927066801E+000 -1.3711434530E+002 -5.4573864654E+001 -4.5103435875E+001 -7.7975192871E+001 +1.6233706083E+002 -2.1307860981E+001 -5.9266755259E+001
14355000000.000 -4.2464127458E+000 -1.3748946536E+002 -5.5093841879E+001 -7.7283157762E+001 -7.8865725495E+001 -6.2225232650E+001 -2.2544649976E+001 -6.3648508284E+001
14487500000.000 -4.2325835968E+000 -1.3767892162E+002 -5.4813287287E+001 -1.0969276637E+002 -8.1419795725E+001 +4.6174868978E+001 -2.5636752677E+001 -4.0148557694E+001
14620000000.000 -4.2265318286E+000 -1.3760557609E+002 -5.5068973098E+001 -1.4499069419E+002 -9.0290686228E+001 +7.0801932480E+001 -2.3321362771E+001 -2.7137438299E+001
14752500000.000 -4.1595522114E+000 -1.3750663197E+002 -5.5276901116E+001 -1.7632361266E+002 -8.1527949305E+001 -8.2581100203E+001 -2.5387977205E+001 -3.7045473988E+001
14885000000.000 -4.1233482423E+000 -1.3760860905E+002 -5.5439146995E+001 +1.4548128135E+002 -7.8625731512E+001 +7.4735138775E+000 -2.9091695807E+001 +2.4691366461E+000
15017500000.000 -4.1162013412E+000 -1.3757366040E+002 -5.5874061822E+001 +1.1842028632E+002 -8.9430786431E+001 +1.6342548734E+002 -2.5418064439E+001 +9.4267868277E+000
15150000000.000 -4.0792582692E+000 -1.3740734858E+002 -5.5515613657E+001 +7.9134100428E+001 -7.9000031241E+001 +1.3547753224E+002 -2.9092324374E+001 -2.8495026971E+000
15282500000.000 -4.0546997722E+000 -1.3730976194E+002 -5.6100429589E+001 +4.5701344605E+001 -8.4591986278E+001 -7.8362297325E+001 -3.1349721388E+001 +5.8262911996E+001
