!  2-Port S-parameters saved by WinCal
! VAR MeasName=S-Parameters (CALIBRATED_DATA) read from VNA (C)
! VAR MeasDate=10/16/2015 12:49:38 PM
! VAR NAME=M6082_13_15_2_2_20C_8.3mA_-17.5dBm
! VAR FILENAME=M6082_13_15_2_2_20C_8.3mA_-17.5dBm.S2P
! VAR DATE=10/16/2015 12:49:38 PM
! VAR PHYS_PORTS=2,1
! VAR ObjTypeName=DATASET
! VAR IndexType=Frequency
!
# Hz S DB R 50
45000000.000 -2.8011628916E+001 +1.7897191489E+002 -4.3819909749E+001 +1.0046815428E+002 -6.4194056472E+001 -6.6247972443E+001 -3.0836234780E+001 +4.7942932243E+000
177500000.000 -2.8206590201E+001 -1.7255768432E+002 -4.3332978778E+001 +6.8812925053E+001 -7.4242785348E+001 +7.1402941658E+001 -3.2662095955E+001 +4.6084055737E+001
310000000.000 -2.8058521120E+001 -1.6620371640E+002 -4.3750202730E+001 +3.9991149707E+001 -7.7235560344E+001 -1.4997222215E+002 -2.3345390885E+001 +6.4751085283E+001
442500000.000 -2.7758341375E+001 -1.5949957445E+002 -4.2370760669E+001 +1.1415281062E+000 -9.2827713966E+001 +1.3905983550E+002 -2.2382138618E+001 +1.7252822724E+001
575000000.000 -2.7281619944E+001 -1.5337617930E+002 -4.2961576781E+001 -3.4280960921E+001 -8.5449078092E+001 +1.3115189641E+002 -3.0629237840E+001 +2.2446523379E+001
707500000.000 -2.6795761778E+001 -1.4887641044E+002 -4.3272222354E+001 -6.8150526697E+001 -8.2749552620E+001 -1.2811288721E+002 -3.4533833487E+001 +8.3623789763E+001
840000000.000 -2.6298307505E+001 -1.4366900314E+002 -4.3258177254E+001 -1.0198008043E+002 -8.9892984125E+001 +1.1293588589E+001 -2.9692889194E+001 +1.2752872837E+002
972500000.000 -2.5784686454E+001 -1.3944300282E+002 -4.3330097024E+001 -1.3775907355E+002 -8.5285613986E+001 -5.5189860863E+001 -2.5942085585E+001 +1.3526190248E+002
1105000000.000 -2.5164619722E+001 -1.3608261500E+002 -4.3354096508E+001 -1.7016165682E+002 -8.6475917743E+001 +1.4810190856E+002 -2.4374763051E+001 +1.4090921130E+002
1237500000.000 -2.4626583308E+001 -1.3346101773E+002 -4.3499069780E+001 +1.5567748600E+002 -8.2281326084E+001 -4.4787463693E+000 -2.3400342419E+001 +1.4998023292E+002
1370000000.000 -2.4089808770E+001 -1.3107792908E+002 -4.3468523169E+001 +1.2201963068E+002 -8.3448808256E+001 +9.5456285276E+001 -2.2077033738E+001 +1.5997325275E+002
1502500000.000 -2.3598837866E+001 -1.2881684699E+002 -4.3534508199E+001 +8.7873587116E+001 -8.3159605382E+001 +1.6538429373E+002 -2.0863861490E+001 +1.6643862917E+002
1635000000.000 -2.3089088780E+001 -1.2630313769E+002 -4.3579624630E+001 +5.4520111213E+001 -9.1883751704E+001 +2.8858546107E+001 -2.0029399308E+001 +1.7331130309E+002
1767500000.000 -2.2551871940E+001 -1.2467939103E+002 -4.3569279837E+001 +2.0224961181E+001 -1.0117264811E+002 -1.6490697971E+001 -1.9026135953E+001 +1.7852859502E+002
1900000000.000 -2.2166439720E+001 -1.2318519314E+002 -4.3521759007E+001 -1.4529239301E+001 -8.0336607553E+001 -1.4455337057E+002 -1.8880198263E+001 -1.7821098956E+002
2032500000.000 -2.1734734298E+001 -1.2194144905E+002 -4.3534967254E+001 -4.8964654723E+001 -8.1418923149E+001 -8.5143690676E+001 -1.8692253317E+001 -1.6787477755E+002
2165000000.000 -2.1294578579E+001 -1.2018101775E+002 -4.3510974507E+001 -8.2095934165E+001 -9.0541419956E+001 +7.0132585955E+001 -1.7745414906E+001 -1.6098390230E+002
2297500000.000 -2.0933714466E+001 -1.1927396769E+002 -4.3532248585E+001 -1.1654211452E+002 -8.3704019135E+001 -1.7704959117E+002 -1.7245180595E+001 -1.5703046432E+002
2430000000.000 -2.0565935715E+001 -1.1838481067E+002 -4.3654875812E+001 -1.5055939329E+002 -8.1770799350E+001 -1.2162310446E+002 -1.6938564212E+001 -1.5282753269E+002
2562500000.000 -2.0164937075E+001 -1.1743277060E+002 -4.3750308579E+001 +1.7464044415E+002 -8.2000161090E+001 +7.1053495310E+001 -1.6841514946E+001 -1.5040851918E+002
2695000000.000 -1.9828804937E+001 -1.1755702452E+002 -4.3777403715E+001 +1.4323223827E+002 -1.0048592084E+002 +1.6357749912E+002 -1.7384750683E+001 -1.4714164559E+002
2827500000.000 -1.9589559145E+001 -1.1752074696E+002 -4.3934358849E+001 +1.0802045860E+002 -8.1472258621E+001 -1.2404774946E+002 -1.7851566381E+001 -1.4027768600E+002
2960000000.000 -1.9291059198E+001 -1.1669927739E+002 -4.3877696000E+001 +7.4456920070E+001 -8.6742463812E+001 +2.8036058685E+001 -1.8160080254E+001 -1.3547268133E+002
3092500000.000 -1.8884772688E+001 -1.1627189934E+002 -4.3960887923E+001 +3.9131391356E+001 -7.5659028359E+001 +1.4674162156E+002 -1.9092426522E+001 -1.2925048132E+002
3225000000.000 -1.8540771853E+001 -1.1675923140E+002 -4.3826609668E+001 +5.6436521854E+000 -8.7672607303E+001 -1.4311564559E+002 -1.9592378604E+001 -1.1972832646E+002
3357500000.000 -1.8331247942E+001 -1.1692318547E+002 -4.3992811463E+001 -2.5690463015E+001 -7.8703121170E+001 -1.2367092532E+001 -1.9960614567E+001 -1.1436058318E+002
3490000000.000 -1.7993024276E+001 -1.1627490131E+002 -4.3969915900E+001 -6.0224075977E+001 -8.6589180117E+001 -1.3758068473E+002 -2.1141179908E+001 -1.0850037023E+002
3622500000.000 -1.7631989707E+001 -1.1588482461E+002 -4.3855881168E+001 -9.4583090962E+001 -9.0831175829E+001 -2.9077869918E+001 -2.1946289314E+001 -9.8118887073E+001
3755000000.000 -1.7290046378E+001 -1.1601197333E+002 -4.3785651224E+001 -1.2840019338E+002 -8.5782246124E+001 -8.5763912013E+001 -2.2728984599E+001 -9.4520347390E+001
3887500000.000 -1.7040067783E+001 -1.1587958130E+002 -4.3924344323E+001 -1.6232793620E+002 -8.1182290188E+001 +5.3269016357E+001 -2.5054161531E+001 -8.7699698361E+001
4020000000.000 -1.6802917921E+001 -1.1563555119E+002 -4.3902428238E+001 +1.6414458862E+002 -7.9438340092E+001 +1.4624445225E+002 -2.6677015642E+001 -7.3200734075E+001
4152500000.000 -1.6507517661E+001 -1.1524547901E+002 -4.3748595869E+001 +1.2939462405E+002 -7.7366386081E+001 -1.6131783033E+002 -2.8874162679E+001 -6.4703062482E+001
4285000000.000 -1.6234646703E+001 -1.1514305810E+002 -4.3914765667E+001 +9.4939189173E+001 -8.4133329309E+001 -1.5922342589E+002 -3.3397815392E+001 -3.7352823476E+001
4417500000.000 -1.5991069926E+001 -1.1527606126E+002 -4.3983719321E+001 +6.0296396145E+001 -8.8907108443E+001 +1.6626328203E+002 -3.1708508162E+001 +8.2511782964E+000
4550000000.000 -1.5787277895E+001 -1.1496161192E+002 -4.4105081742E+001 +2.7174630729E+001 -9.5940342144E+001 -1.7716664951E+002 -3.0337098989E+001 +1.8484936205E+001
4682500000.000 -1.5526193444E+001 -1.1458725931E+002 -4.4132725951E+001 -6.0037128535E+000 -7.9341720775E+001 +4.0417741992E+000 -2.9676631244E+001 +3.9081261385E+001
4815000000.000 -1.5278372111E+001 -1.1465654163E+002 -4.4102485887E+001 -3.8962939596E+001 -8.7190052095E+001 +1.6017796285E+002 -2.7643124062E+001 +4.1559916914E+001
4947500000.000 -1.5101309650E+001 -1.1443798581E+002 -4.4203384464E+001 -7.2343731821E+001 -8.1028107211E+001 -1.4508238219E+002 -2.9376253912E+001 +3.5885963044E+001
5080000000.000 -1.4904934148E+001 -1.1400890110E+002 -4.4005934603E+001 -1.0524960827E+002 -8.0633174685E+001 +5.2824754280E+001 -3.2239992324E+001 +5.7463632630E+001
5212500000.000 -1.4683358851E+001 -1.1382290897E+002 -4.3951813368E+001 -1.4030717774E+002 -9.9150938993E+001 +1.0289360196E+002 -3.1592203200E+001 +6.9895070374E+001
5345000000.000 -1.4512190554E+001 -1.1394408418E+002 -4.3721788355E+001 -1.7374548187E+002 -9.1919930851E+001 -1.5897095163E+002 -3.5399359105E+001 +7.1516216090E+001
5477500000.000 -1.4398837695E+001 -1.1348201149E+002 -4.3670605770E+001 +1.5225097352E+002 -9.5042804115E+001 -3.1256342286E+000 -3.7181232720E+001 +1.3262388110E+002
5610000000.000 -1.4201930992E+001 -1.1314941920E+002 -4.3842358304E+001 +1.1813789533E+002 -8.9678777328E+001 +1.1754177926E+002 -3.3622812969E+001 +1.3599110060E+002
5742500000.000 -1.4039082766E+001 -1.1336474853E+002 -4.3622372729E+001 +8.3082474606E+001 -9.0805370510E+001 -1.7493362861E+002 -3.7701188982E+001 +1.5297077877E+002
5875000000.000 -1.3967773994E+001 -1.1361675443E+002 -4.3730513269E+001 +4.8814074834E+001 -8.4074794416E+001 -3.7359199549E+001 -3.3720682609E+001 -1.7025778434E+002
6007500000.000 -1.3855863487E+001 -1.1334571864E+002 -4.3728168962E+001 +1.4565524379E+001 -8.2172057122E+001 +1.4238511775E+002 -3.2664137284E+001 +1.7977927145E+002
6140000000.000 -1.3662005486E+001 -1.1324977882E+002 -4.3750347032E+001 -1.9561277157E+001 -8.7251033076E+001 -1.1716556084E+002 -3.6086411260E+001 -1.6941874062E+002
6272500000.000 -1.3497939895E+001 -1.1393876419E+002 -4.3754487377E+001 -5.3661753403E+001 -8.6949000213E+001 -3.6138786895E+001 -3.3829157404E+001 -1.4387983841E+002
6405000000.000 -1.3443784196E+001 -1.1444718609E+002 -4.3641069245E+001 -8.7942950760E+001 -9.0170173284E+001 +3.6613152818E+001 -3.3817251197E+001 -1.6176771867E+002
6537500000.000 -1.3323170939E+001 -1.1408183658E+002 -4.3736204272E+001 -1.2183329224E+002 -8.2194440455E+001 -1.3840822176E+002 -4.0067766868E+001 -1.6083275143E+002
6670000000.000 -1.3095917936E+001 -1.1409739713E+002 -4.3814074531E+001 -1.5609711297E+002 -8.5497935120E+001 -1.1218992161E+002 -3.9370735438E+001 -1.3667311542E+002
6802500000.000 -1.2921813920E+001 -1.1489718404E+002 -4.3785069209E+001 +1.7014495932E+002 -8.5068590679E+001 +7.4975060401E+001 -3.8947873955E+001 +1.7986203730E+002
6935000000.000 -1.2871586909E+001 -1.1530874728E+002 -4.3757737213E+001 +1.3621792516E+002 -9.0510849570E+001 +1.1674593070E+002 -3.8634498793E+001 +1.2351264970E+002
7067500000.000 -1.2753154096E+001 -1.1490888787E+002 -4.3956748113E+001 +1.0232902511E+002 -8.2059195011E+001 -1.2511214951E+002 -3.9080846186E+001 +1.1493151906E+002
7200000000.000 -1.2527889004E+001 -1.1509442735E+002 -4.3827308453E+001 +6.8090995523E+001 -8.7138793473E+001 -4.1745230411E+001 -3.2899645839E+001 +1.3151752815E+002
7332500000.000 -1.2381549546E+001 -1.1576238209E+002 -4.3851457363E+001 +3.4149316471E+001 -8.5736902961E+001 +1.4537997344E+002 -2.9099150288E+001 +1.1903463303E+002
7465000000.000 -1.2297058365E+001 -1.1591270965E+002 -4.3908985890E+001 +8.5698293813E-002 -8.7854570544E+001 -1.7825455387E+002 -2.8645954996E+001 +1.2228669741E+002
7597500000.000 -1.2129792241E+001 -1.1577267375E+002 -4.3952546787E+001 -3.3687081536E+001 -8.1637195361E+001 -5.3506886851E+001 -2.6144943485E+001 +1.3750140232E+002
7730000000.000 -1.1943090896E+001 -1.1591401715E+002 -4.3967517924E+001 -6.6547359899E+001 -9.4064795802E+001 +1.7351935086E+001 -2.3742407453E+001 +1.3778320218E+002
7862500000.000 -1.1819289858E+001 -1.1609245652E+002 -4.3964409695E+001 -1.0100800908E+002 -8.6538043451E+001 -1.5593009077E+002 -2.3292174831E+001 +1.4147432986E+002
7995000000.000 -1.1722727321E+001 -1.1598686620E+002 -4.3887904913E+001 -1.3521157873E+002 -8.5725546619E+001 -3.9284906825E+001 -2.1837574723E+001 +1.5428040333E+002
8127500000.000 -1.1539764653E+001 -1.1569701091E+002 -4.3977550137E+001 -1.6913347660E+002 -8.2983173458E+001 +3.3158847571E+001 -2.0033050671E+001 +1.5640730555E+002
8260000000.000 -1.1402418473E+001 -1.1597873788E+002 -4.3906661278E+001 +1.5788397839E+002 -8.6250225948E+001 +1.7379437332E+002 -1.9868945772E+001 +1.6018354087E+002
8392500000.000 -1.1315230229E+001 -1.1581987114E+002 -4.3956132331E+001 +1.2328439923E+002 -8.2214178089E+001 -1.1403184075E+002 -1.9068698288E+001 +1.7048667735E+002
8525000000.000 -1.1213777629E+001 -1.1547373341E+002 -4.3876676130E+001 +8.9588037595E+001 -8.0385579603E+001 +3.4302128388E+001 -1.8210701089E+001 +1.7301530335E+002
8657500000.000 -1.1076727647E+001 -1.1535153478E+002 -4.3867949303E+001 +5.5859273560E+001 -8.4517513263E+001 +1.4631043039E+002 -1.8572554526E+001 +1.7800608535E+002
8790000000.000 -1.0959738681E+001 -1.1541887417E+002 -4.3893086368E+001 +2.1258145830E+001 -8.3865481524E+001 -5.3304306781E+001 -1.8353721117E+001 -1.7171083262E+002
8922500000.000 -1.0918317965E+001 -1.1539821118E+002 -4.3834935520E+001 -1.2787788666E+001 -8.8264380597E+001 +1.6340569594E+001 -1.7989768733E+001 -1.6596838289E+002
9055000000.000 -1.0818279687E+001 -1.1522133425E+002 -4.3865672520E+001 -4.6578457797E+001 -8.2585875042E+001 +1.6951543230E+002 -1.8457182695E+001 -1.5835456590E+002
9187500000.000 -1.0729656815E+001 -1.1525649872E+002 -4.3830272340E+001 -7.9728575654E+001 -8.5420475955E+001 -1.7609476377E+002 -1.8381206412E+001 -1.4631898863E+002
9320000000.000 -1.0657290341E+001 -1.1572886078E+002 -4.3832540986E+001 -1.1505858981E+002 -8.7352390668E+001 +1.4805994833E+000 -1.8210523043E+001 -1.3962346919E+002
9452500000.000 -1.0606524081E+001 -1.1574566774E+002 -4.3808621491E+001 -1.4986765372E+002 -8.5996187253E+001 +8.0398411902E+001 -1.8856081688E+001 -1.3050154329E+002
9585000000.000 -1.0520782944E+001 -1.1577734949E+002 -4.3770288570E+001 +1.7623992392E+002 -8.2476005187E+001 -1.2606232860E+002 -1.8786198894E+001 -1.1820318183E+002
9717500000.000 -1.0384345233E+001 -1.1616183946E+002 -4.3710463347E+001 +1.4272008495E+002 -8.6642777222E+001 +2.3680319436E+001 -1.8823158525E+001 -1.1113398555E+002
9850000000.000 -1.0342470126E+001 -1.1679398100E+002 -4.3723195657E+001 +1.0786395311E+002 -8.7510177700E+001 +5.9364751778E+001 -1.9662265623E+001 -1.0048160058E+002
9982500000.000 -1.0274175439E+001 -1.1661226490E+002 -4.3888719143E+001 +7.4061356972E+001 -9.1170457332E+001 +1.1489394836E+002 -1.9691538218E+001 -8.6485640271E+001
10115000000.000 -1.0159020324E+001 -1.1676023385E+002 -4.3869878372E+001 +4.0425477405E+001 -8.7544110839E+001 -6.4190308779E+001 -1.9923561949E+001 -7.9020207077E+001
10247500000.000 -1.0054021360E+001 -1.1737748221E+002 -4.3821824902E+001 +5.5084031262E+000 -8.2398555064E+001 +3.3946773622E+001 -2.1156935735E+001 -6.5758364217E+001
10380000000.000 -9.9962185803E+000 -1.1756985536E+002 -4.3885037926E+001 -2.7070515989E+001 -7.9595610711E+001 +1.0033017576E+002 -2.1062746174E+001 -4.9721286766E+001
10512500000.000 -9.9095600763E+000 -1.1774834623E+002 -4.3771395405E+001 -6.1489005353E+001 -9.3431188149E+001 -1.6808386358E+002 -2.1516727529E+001 -4.1823742859E+001
10645000000.000 -9.8221270396E+000 -1.1799457408E+002 -4.3787706098E+001 -9.5482496842E+001 -8.2236658210E+001 +6.5286381297E+001 -2.2834036380E+001 -2.3797955965E+001
10777500000.000 -9.7235252854E+000 -1.1825160163E+002 -4.3792756362E+001 -1.2943204771E+002 -7.9718601274E+001 +1.2476873210E+002 -2.2187963313E+001 -5.6806564333E+000
10910000000.000 -9.6327666878E+000 -1.1845224987E+002 -4.3847976020E+001 -1.6392105524E+002 -8.6407517682E+001 -1.3608890221E+002 -2.2794097820E+001 +4.4606777128E+000
11042500000.000 -9.5260309422E+000 -1.1879118176E+002 -4.3742444748E+001 +1.6211936766E+002 -8.3978807275E+001 -1.5588237690E+001 -2.3451844752E+001 +2.7871233798E+001
11175000000.000 -9.4190672302E+000 -1.1884840478E+002 -4.3774185347E+001 +1.2798081068E+002 -8.4791658978E+001 -1.1030904386E+002 -2.2233333858E+001 +4.3091946208E+001
11307500000.000 -9.3546397837E+000 -1.1889355628E+002 -4.3680928062E+001 +9.3610701763E+001 -8.4950827067E+001 -1.1325582953E+002 -2.2736537996E+001 +5.3328078075E+001
11440000000.000 -9.2440878917E+000 -1.1920327692E+002 -4.3746853173E+001 +5.9509399847E+001 -8.2097365729E+001 -4.3006061250E+001 -2.2578703696E+001 +7.5926663118E+001
11572500000.000 -9.1528373325E+000 -1.1900954283E+002 -4.3794950634E+001 +2.5038609682E+001 -8.2394370721E+001 +1.1528478519E+002 -2.1155038440E+001 +8.7257776877E+001
11705000000.000 -9.0797044397E+000 -1.1905025652E+002 -4.3697556317E+001 -8.8738159595E+000 -8.2431634653E+001 -1.6165703298E+002 -2.1757246280E+001 +9.7203341363E+001
11837500000.000 -8.9867896756E+000 -1.1923525984E+002 -4.3863593958E+001 -4.3072120323E+001 -9.0770669764E+001 -1.5261749541E+001 -2.1113171014E+001 +1.1947184527E+002
11970000000.000 -8.9571087448E+000 -1.1921297209E+002 -4.3622260794E+001 -7.7660279908E+001 -8.6896189289E+001 +3.7582410415E+001 -1.9819397850E+001 +1.2568001984E+002
12102500000.000 -8.8985967956E+000 -1.1888121402E+002 -4.3862729408E+001 -1.1163361925E+002 -8.8225534787E+001 +8.6955689192E+001 -2.0738753434E+001 +1.3562260937E+002
12235000000.000 -8.8165554967E+000 -1.1944803789E+002 -4.3869376397E+001 -1.4623599408E+002 -8.5964750610E+001 -1.4795415288E+002 -1.9751668670E+001 +1.5472313140E+002
12367500000.000 -8.8101486547E+000 -1.1929695177E+002 -4.3834893946E+001 -1.7982368624E+002 -8.3094406703E+001 +1.2191879813E+002 -1.8882921493E+001 +1.5804941190E+002
12500000000.000 -8.7617061020E+000 -1.1961345146E+002 -4.3704875686E+001 +1.4521405170E+002 -8.9653416156E+001 -1.4492562436E+002 -2.0052589769E+001 +1.6831315542E+002
12632500000.000 -8.6807031035E+000 -1.1957342841E+002 -4.3823148970E+001 +1.1120459183E+002 -9.1023005390E+001 -8.4058958648E+001 -1.9158071381E+001 -1.7288187315E+002
12765000000.000 -8.6543879500E+000 -1.1975839154E+002 -4.3813731929E+001 +7.7767007390E+001 -8.3282541099E+001 +3.5567548665E+001 -1.8526793950E+001 -1.7133013314E+002
12897500000.000 -8.6432053332E+000 -1.2002441934E+002 -4.3875233843E+001 +4.3711145418E+001 -7.8001850790E+001 +8.7716845527E+001 -2.0135188793E+001 -1.5927870593E+002
13030000000.000 -8.6015985923E+000 -1.2012175456E+002 -4.3884609218E+001 +9.2027619181E+000 -8.0705550356E+001 -1.3207015329E+002 -1.8830527787E+001 -1.4139449034E+002
13162500000.000 -8.5367588225E+000 -1.2022297492E+002 -4.3847716657E+001 -2.5350021160E+001 -8.7908499382E+001 -8.3553765837E+001 -1.8648444518E+001 -1.4162738110E+002
13295000000.000 -8.4834742860E+000 -1.2044094193E+002 -4.3794256521E+001 -6.0237285564E+001 -8.3111238948E+001 -2.7533388362E+001 -2.0059268277E+001 -1.2775898599E+002
13427500000.000 -8.4526227921E+000 -1.2095621798E+002 -4.3946331479E+001 -9.3591366860E+001 -7.8035869707E+001 -1.2391482422E+002 -1.8843369622E+001 -1.1399570606E+002
13560000000.000 -8.4482813578E+000 -1.2086897681E+002 -4.3851290894E+001 -1.2712103463E+002 -8.2858416052E+001 -2.6457601818E+001 -1.9053828308E+001 -1.1465727128E+002
13692500000.000 -8.3629117983E+000 -1.2086479883E+002 -4.3903514452E+001 -1.6206135527E+002 -8.4169084722E+001 +4.3097185596E+001 -2.0850878488E+001 -1.0115675832E+002
13825000000.000 -8.2784821218E+000 -1.2129003744E+002 -4.3961731898E+001 +1.6326256065E+002 -8.3465981747E+001 -1.2256463735E+002 -1.9725899690E+001 -8.7400611168E+001
13957500000.000 -8.2723252627E+000 -1.2169048598E+002 -4.3939798544E+001 +1.2986200520E+002 -8.0032175426E+001 -2.1219778738E+001 -2.0389788036E+001 -9.0045719572E+001
14090000000.000 -8.2376116032E+000 -1.2160513652E+002 -4.3832165669E+001 +9.4591871967E+001 -7.9331380974E+001 +2.4039142022E+001 -2.2684654850E+001 -7.2630878692E+001
14222500000.000 -8.1505860724E+000 -1.2142437537E+002 -4.3964061422E+001 +6.0963824637E+001 -8.7111523155E+001 -1.1960229877E+002 -2.1285941869E+001 -5.9157945745E+001
14355000000.000 -8.0779660688E+000 -1.2190015692E+002 -4.4093486252E+001 +2.6779388186E+001 -8.6351313951E+001 +1.7215744185E+002 -2.2526445619E+001 -6.3525161851E+001
14487500000.000 -8.0519780045E+000 -1.2210350395E+002 -4.4016091465E+001 -7.4214954979E+000 -9.0616188743E+001 +2.2827766927E+001 -2.5570108316E+001 -4.0300578241E+001
14620000000.000 -8.0109523649E+000 -1.2186693664E+002 -4.4010787469E+001 -4.2198447793E+001 -8.1055497458E+001 +1.5511022156E+002 -2.3317086472E+001 -2.7164366544E+001
14752500000.000 -7.8869168300E+000 -1.2191324535E+002 -4.4068530854E+001 -7.6539066173E+001 -7.7428422931E+001 -8.8745803237E+001 -2.5389919058E+001 -3.6638588870E+001
14885000000.000 -7.8314553824E+000 -1.2213551868E+002 -4.3998578062E+001 -1.1071160564E+002 -8.0784245845E+001 +9.0740570488E+001 -2.8980616355E+001 +2.4469699155E+000
15017500000.000 -7.8074206725E+000 -1.2203611957E+002 -4.3985597382E+001 -1.4450101655E+002 -8.3485067558E+001 +7.8503119271E+001 -2.5417259738E+001 +9.1944897539E+000
15150000000.000 -7.7174038205E+000 -1.2174467618E+002 -4.4124189183E+001 -1.7961785810E+002 -1.0119369900E+002 +1.5865106730E+002 -2.9195893104E+001 -2.3728292970E+000
15282500000.000 -7.6520976676E+000 -1.2166030214E+002 -4.3994580896E+001 +1.4595527399E+002 -8.9177240309E+001 -9.2853053917E+001 -3.1160147616E+001 +5.7968659654E+001
