!  2-Port S-parameters saved by WinCal
! VAR MeasName=S-Parameters (CALIBRATED_DATA) read from VNA (C)
! VAR MeasDate=9/29/2015 2:55:37 PM
! VAR NAME=M6082_18_15_2_2_20C_3.4mA_-16.5dBm
! VAR FILENAME=M6082_18_15_2_2_20C_3.4mA_-16.5dBm.S2P
! VAR DATE=9/29/2015 2:55:38 PM
! VAR PHYS_PORTS=2,1
! VAR ObjTypeName=DATASET
! VAR IndexType=Frequency
!
# Hz S RI R 50
45000000.000 +9.9201202393E-002 -1.4152526855E-003 -8.3303451538E-004 +3.1895637512E-003 +2.7474761009E-004 -5.9321522713E-004 +2.5627136230E-002 +3.1881332397E-003
177500000.000 +9.7839355469E-002 -8.4304809570E-003 +6.5344572067E-004 +1.6880035400E-003 +2.5428831577E-004 +1.7298758030E-004 +1.6431808472E-002 +1.6819000244E-002
310000000.000 +9.7564697266E-002 -1.4949798584E-002 +1.3995766640E-003 +1.3355016708E-003 -8.6270272732E-005 +4.5057386160E-005 +2.9531478882E-002 +6.1321258545E-002
442500000.000 +9.6782684326E-002 -2.1099090576E-002 +2.1036863327E-003 +4.2676925659E-005 +1.0126829147E-004 -7.1674585342E-006 +7.2540283203E-002 +2.1999359131E-002
575000000.000 +9.6141815186E-002 -2.8003692627E-002 +1.5735030174E-003 -1.2018084526E-003 +4.0620565414E-005 -3.0504539609E-005 +2.7247428894E-002 +1.1067390442E-002
707500000.000 +9.5001220703E-002 -3.4023284912E-002 +6.7764520645E-004 -1.8512010574E-003 -5.0373375416E-005 -1.3934448361E-005 +2.0809173584E-003 +1.8334388733E-002
840000000.000 +9.4486236572E-002 -4.0508270264E-002 -5.0771236420E-004 -1.8550753593E-003 +3.1124800444E-005 -6.3847750425E-005 -2.0148277283E-002 +2.5984764099E-002
972500000.000 +9.4039916992E-002 -4.6772003174E-002 -1.4994144440E-003 -1.2028217316E-003 -2.6312656701E-005 +9.2107802629E-007 -3.5755157471E-002 +3.5842895508E-002
1105000000.000 +9.2510223389E-002 -5.3691864014E-002 -1.8269419670E-003 -1.6587972641E-004 +2.5309622288E-005 -2.8452835977E-005 -4.6682357788E-002 +3.8141250610E-002
1237500000.000 +9.1388702393E-002 -5.9249877930E-002 -1.6438364983E-003 +9.4366073608E-004 +4.7266483307E-005 -4.1257590055E-006 -5.8689117432E-002 +3.3750534058E-002
1370000000.000 +9.0133666992E-002 -6.5547943115E-002 -8.8930130005E-004 +1.6199350357E-003 -3.2551586628E-005 +2.5106593966E-005 -7.4142456055E-002 +2.7248382568E-002
1502500000.000 +8.9057922363E-002 -7.1166992188E-002 +2.2077560425E-004 +1.8234252930E-003 -2.5701709092E-005 -2.6366673410E-005 -8.8039398193E-002 +2.1629333496E-002
1635000000.000 +8.8390350342E-002 -7.7400207520E-002 +1.1472702026E-003 +1.3609528542E-003 +7.3146075010E-005 -2.6918947697E-005 -9.9174499512E-002 +1.1871337891E-002
1767500000.000 +8.6593627930E-002 -8.4033966064E-002 +1.7033815384E-003 +5.3578615189E-004 -2.1738931537E-005 +5.6153163314E-005 -1.1203002930E-001 +3.2615661621E-003
1900000000.000 +8.5048675537E-002 -8.9111328125E-002 +1.6885995865E-003 -5.4919719696E-004 +9.8384916782E-006 +4.4139102101E-005 -1.1390686035E-001 -3.1890869141E-003
2032500000.000 +8.3606719971E-002 -9.4799041748E-002 +1.1227726936E-003 -1.3816952705E-003 +2.0150095224E-005 -5.9900805354E-005 -1.1392974854E-001 -2.4124145508E-002
2165000000.000 +8.3095550537E-002 -1.0113143921E-001 +1.6188621521E-004 -1.7823576927E-003 +1.6237050295E-004 +2.8245151043E-005 -1.2282943726E-001 -4.1809082031E-002
2297500000.000 +8.1409454346E-002 -1.0639572144E-001 -8.2105398178E-004 -1.5332698822E-003 -2.4043023586E-005 +6.6090375185E-005 -1.2659454346E-001 -5.3306579590E-002
2430000000.000 +8.0142974854E-002 -1.1087799072E-001 -1.6685724258E-003 -8.8292360306E-004 -5.5573880672E-005 -2.1391361952E-004 -1.2722778320E-001 -6.4697265625E-002
2562500000.000 +7.8651428223E-002 -1.1691665649E-001 -1.6958713531E-003 +1.4120340347E-004 +1.1634454131E-004 -5.2850693464E-005 -1.2593078613E-001 -7.0259094238E-002
2695000000.000 +7.5546264648E-002 -1.2170791626E-001 -1.3031959534E-003 +1.1062026024E-003 -3.2790005207E-005 -2.5639310479E-005 -1.1357498169E-001 -7.2769165039E-002
2827500000.000 +7.3173522949E-002 -1.2485122681E-001 -5.1701068878E-004 +1.6729831696E-003 +3.2354146242E-005 -6.9182366133E-005 -9.8915100098E-002 -8.1989288330E-002
2960000000.000 +7.2021484375E-002 -1.3005065918E-001 +3.8343667984E-004 +1.7005801201E-003 +3.3725053072E-005 -7.6446682215E-005 -8.9027404785E-002 -8.6326599121E-002
3092500000.000 +6.9488525391E-002 -1.3612365723E-001 +1.3713240623E-003 +1.1386871338E-003 -1.7881393433E-005 -7.2091817856E-005 -7.0655822754E-002 -8.5113525391E-002
3225000000.000 +6.5284729004E-002 -1.4089202881E-001 +1.8159747124E-003 +7.0750713348E-005 -5.0535425544E-005 -5.2371993661E-005 -5.1914215088E-002 -9.1289520264E-002
3357500000.000 +6.3468933105E-002 -1.4413452148E-001 +1.5720129013E-003 -9.9837779999E-004 +4.6085566282E-005 -9.0733170509E-005 -4.2457580566E-002 -9.2048645020E-002
3490000000.000 +6.1286926270E-002 -1.4983367920E-001 +7.8159570694E-004 -1.4753937721E-003 +4.3481588364E-005 +4.2350962758E-005 -2.8827667236E-002 -8.2859039307E-002
3622500000.000 +5.8349609375E-002 -1.5619659424E-001 -1.6433000565E-004 -1.8888115883E-003 -8.4359198809E-005 -2.8599053621E-005 -1.1558532715E-002 -7.8907012939E-002
3755000000.000 +5.5007934570E-002 -1.6131591797E-001 -1.1141896248E-003 -1.3940930367E-003 +1.1816620827E-005 -7.5347721577E-005 -6.3629150391E-003 -7.3589324951E-002
3887500000.000 +5.2520751953E-002 -1.6590118408E-001 -1.8382072449E-003 -3.9279460907E-004 +2.3150816560E-005 +5.7447701693E-005 +1.0375976563E-003 -5.5988311768E-002
4020000000.000 +5.0575256348E-002 -1.7008209229E-001 -1.6901493073E-003 +7.2252750397E-004 -1.4301389456E-004 -2.5503337383E-005 +1.2865066528E-002 -4.4155120850E-002
4152500000.000 +4.8316955566E-002 -1.7610168457E-001 -1.1021494865E-003 +1.4985203743E-003 -1.0264106095E-005 +2.4009495974E-006 +1.5380859375E-002 -3.3088684082E-002
4285000000.000 +4.5547485352E-002 -1.8154907227E-001 -1.0162591934E-004 +1.8646717072E-003 +1.1395663023E-005 +4.6569854021E-005 +1.6397476196E-002 -1.3717651367E-002
4417500000.000 +4.2449951172E-002 -1.8550872803E-001 +1.0090470314E-003 +1.5507340431E-003 -4.7134235501E-005 +2.0466744900E-005 +2.5216102600E-002 +3.3330917358E-003
4550000000.000 +4.1412353516E-002 -1.8999481201E-001 +1.6317367554E-003 +7.1430206299E-004 +3.1059607863E-005 -5.6579709053E-005 +2.9025077820E-002 +9.0265274048E-003
4682500000.000 +3.9627075195E-002 -1.9571685791E-001 +1.8413662910E-003 -3.4081935883E-004 +3.7707388401E-005 -2.1521002054E-005 +2.5622367859E-002 +1.9873619080E-002
4815000000.000 +3.5781860352E-002 -2.0040130615E-001 +1.3523101807E-003 -1.2413859367E-003 -5.1906332374E-005 +5.3340569139E-005 +3.1236648560E-002 +2.6736259460E-002
4947500000.000 +3.4469604492E-002 -2.0439147949E-001 +4.2605400085E-004 -1.7898082733E-003 -4.0113925934E-005 -5.3791329265E-005 +2.7873992920E-002 +1.9134521484E-002
5080000000.000 +3.3660888672E-002 -2.0930480957E-001 -6.6184997559E-004 -1.7137527466E-003 +5.7872384787E-006 -5.0801783800E-005 +1.3602256775E-002 +1.9910812378E-002
5212500000.000 +3.0815124512E-002 -2.1479797363E-001 -1.5810132027E-003 -1.0762810707E-003 -3.3365562558E-005 -4.4181942940E-006 +9.6578598022E-003 +2.4277687073E-002
5345000000.000 +2.8327941895E-002 -2.1804046631E-001 -1.8707513809E-003 -4.4465065002E-005 +1.8475577235E-005 -1.1867843568E-005 +6.1349868774E-003 +1.5570640564E-002
5477500000.000 +2.7938842773E-002 -2.2179412842E-001 -1.5575885773E-003 +1.1578798294E-003 -1.2814998627E-006 +7.0884823799E-005 -8.8605880737E-003 +9.6626281738E-003
5610000000.000 +2.6435852051E-002 -2.2698211670E-001 -6.8289041519E-004 +1.8219351768E-003 -1.9341707230E-005 +3.3039599657E-005 -1.4404773712E-002 +1.4519214630E-002
5742500000.000 +2.3292541504E-002 -2.3052215576E-001 +5.0252676010E-004 +1.8745064735E-003 +2.4974346161E-005 -6.4354389906E-007 -1.0687828064E-002 +5.8093070984E-003
5875000000.000 +2.1102905273E-002 -2.3293304443E-001 +1.4993548393E-003 +1.3056397438E-003 +4.4533982873E-005 -4.2235478759E-005 -1.9660949707E-002 -3.7374496460E-003
6007500000.000 +2.0050048828E-002 -2.3583984375E-001 +1.9039511681E-003 +2.2846460342E-004 +9.3360431492E-006 +8.7423250079E-006 -2.2920608521E-002 +1.1634826660E-004
6140000000.000 +1.7898559570E-002 -2.4080657959E-001 +1.7746090889E-003 -9.3430280685E-004 -6.6764652729E-005 -7.0869922638E-005 -1.4863014221E-002 -2.4051666260E-003
6272500000.000 +1.3610839844E-002 -2.4427795410E-001 +9.1528892517E-004 -1.7649531364E-003 +3.6444514990E-005 -3.0959025025E-005 -1.5729904175E-002 -1.1592864990E-002
6405000000.000 +1.0025024414E-002 -2.4542999268E-001 -2.4831295013E-004 -1.9685029984E-003 +5.7206489146E-006 -1.5227124095E-005 -1.9104957581E-002 -6.3171386719E-003
6537500000.000 +9.5367431641E-003 -2.4900054932E-001 -1.3760328293E-003 -1.5662908554E-003 -5.4666306823E-006 +6.6682696342E-007 -9.4146728516E-003 -2.8543472290E-003
6670000000.000 +6.4239501953E-003 -2.5448608398E-001 -1.9324421883E-003 -5.0622224808E-004 -2.0572915673E-006 -2.8201378882E-005 -7.6465606689E-003 -6.6215991974E-003
6802500000.000 +6.2561035156E-004 -2.5860595703E-001 -1.8910169601E-003 +6.5475702286E-004 +4.6066939831E-005 +2.5080516934E-005 -1.0855674744E-002 +2.4080276489E-004
6935000000.000 -2.3956298828E-003 -2.5923156738E-001 -1.1482834816E-003 +1.7076134682E-003 -4.5942142606E-005 -3.1709671021E-005 -6.6475868225E-003 +9.7851753235E-003
7067500000.000 -3.1890869141E-003 -2.6338195801E-001 -3.8623809814E-005 +2.0748376846E-003 +9.9427998066E-006 -9.3590468168E-005 -5.1226615906E-003 +1.0971069336E-002
7200000000.000 -7.0343017578E-003 -2.6921081543E-001 +1.1833906174E-003 +1.6949772835E-003 +2.2524967790E-005 -2.6701949537E-005 -1.4655113220E-002 +1.7747879028E-002
7332500000.000 -1.2741088867E-002 -2.7217102051E-001 +1.9590854645E-003 +7.2336196899E-004 +5.4810196161E-005 +4.9499794841E-005 -1.6973495483E-002 +3.0406951904E-002
7465000000.000 -1.4953613281E-002 -2.7445983887E-001 +2.0686388016E-003 -4.7218799591E-004 -2.6897527277E-005 +5.9297308326E-006 -2.0748138428E-002 +3.1284332275E-002
7597500000.000 -1.7181396484E-002 -2.7909851074E-001 +1.4056563377E-003 -1.5683174133E-003 +7.2926282883E-005 -4.8082321882E-005 -3.6636352539E-002 +3.4126281738E-002
7730000000.000 -2.1041870117E-002 -2.8471374512E-001 +3.4260749817E-004 -2.0532608032E-003 -2.6255846024E-005 +3.0144117773E-005 -4.7828674316E-002 +4.3609619141E-002
7862500000.000 -2.4520874023E-002 -2.8811645508E-001 -9.5266103745E-004 -1.9145607948E-003 -6.7278742790E-005 +3.6135315895E-005 -5.4260253906E-002 +4.2093276978E-002
7995000000.000 -2.6123046875E-002 -2.9069519043E-001 -1.8668174744E-003 -1.0337829590E-003 +1.8923543394E-005 +1.5531666577E-005 -7.3501586914E-002 +3.5629272461E-002
8127500000.000 -2.8244018555E-002 -2.9750061035E-001 -2.1935701370E-003 +1.6331672668E-004 +3.6854296923E-005 +2.2783875465E-005 -9.1106414795E-002 +3.9947509766E-002
8260000000.000 -3.2608032227E-002 -3.0055236816E-001 -1.6291141510E-003 +1.3690590858E-003 -1.7591752112E-005 +2.0412728190E-005 -9.5706939697E-002 +3.4004211426E-002
8392500000.000 -3.3798217773E-002 -3.0395507813E-001 -5.8281421661E-004 +2.0942687988E-003 -2.5334767997E-005 -1.9362196326E-006 -1.1019515991E-001 +1.8703460693E-002
8525000000.000 -3.4805297852E-002 -3.0799865723E-001 +6.9057941437E-004 +2.1531581879E-003 +7.5679272413E-006 +1.0689720511E-005 -1.2176132202E-001 +1.5213012695E-002
8657500000.000 -3.7521362305E-002 -3.1304931641E-001 +1.9049048424E-003 +1.3145208359E-003 +3.7098303437E-005 -1.0740011930E-005 -1.1805343628E-001 +4.0321350098E-003
8790000000.000 -4.0130615234E-002 -3.1669616699E-001 +2.3274421692E-003 -3.3259391785E-005 -1.6356818378E-005 -1.2254342437E-005 -1.1977767944E-001 -1.6937255859E-002
8922500000.000 -4.1778564453E-002 -3.1838989258E-001 +1.9458532333E-003 -1.3459920883E-003 +8.0823898315E-005 -5.5059790611E-006 -1.2177276611E-001 -3.0414581299E-002
9055000000.000 -4.2678833008E-002 -3.2266235352E-001 +7.3838233948E-004 -2.2147893906E-003 -2.7242116630E-005 -2.0755454898E-005 -1.1127853394E-001 -4.4639587402E-002
9187500000.000 -4.5364379883E-002 -3.2571411133E-001 -6.7174434662E-004 -2.2068023682E-003 +2.0824372768E-006 +4.6914443374E-005 -1.0084152222E-001 -6.6272735596E-002
9320000000.000 -5.0170898438E-002 -3.2759094238E-001 -1.9064545631E-003 -1.5014410019E-003 -5.0291419029E-006 +3.7619844079E-005 -9.2952728271E-002 -7.9051971436E-002
9452500000.000 -5.1971435547E-002 -3.2969665527E-001 -2.4065971375E-003 -1.1312961578E-004 +1.6475096345E-005 +5.3625553846E-005 -7.4100494385E-002 -8.7398529053E-002
9585000000.000 -5.4351806641E-002 -3.3337402344E-001 -1.9932985306E-003 +1.3754367828E-003 -5.7481229305E-005 +3.2110139728E-005 -5.5393218994E-002 -1.0104370117E-001
9717500000.000 -5.9356689453E-002 -3.3709716797E-001 -9.1409683228E-004 +2.3413896561E-003 +4.0333718061E-005 +9.6376985312E-005 -4.1152954102E-002 -1.0595703125E-001
9850000000.000 -6.4865112305E-002 -3.3752441406E-001 +5.6076049805E-004 +2.3827552795E-003 -7.7895820141E-006 +9.7516924143E-005 -1.8367767334E-002 -1.0289382935E-001
9982500000.000 -6.6406250000E-002 -3.4046936035E-001 +1.8669366837E-003 +1.5938878059E-003 -4.6202912927E-005 -4.2412430048E-006 +5.5313110352E-003 -1.0413360596E-001
10115000000.000 -6.9931030273E-002 -3.4448242188E-001 +2.3643970490E-003 +2.2268295288E-004 +5.3424388170E-005 -2.1541491151E-005 +1.8501281738E-002 -9.8487854004E-002
10247500000.000 -7.6446533203E-002 -3.4707641602E-001 +2.0644664764E-003 -1.2876987457E-003 +3.7646386772E-006 +6.8526715040E-006 +3.6544799805E-002 -7.9853057861E-002
10380000000.000 -8.1054687500E-002 -3.4809875488E-001 +9.0253353119E-004 -2.2532939911E-003 -3.3389776945E-005 +1.6713514924E-005 +5.7079315186E-002 -6.8656921387E-002
10512500000.000 -8.3969116211E-002 -3.5011291504E-001 -6.3765048981E-004 -2.3590326309E-003 +2.6719644666E-006 +2.9024668038E-005 +6.1695098877E-002 -5.6207656860E-002
10645000000.000 -8.7478637695E-002 -3.5336303711E-001 -1.8387436867E-003 -1.6697049141E-003 +2.5779940188E-005 -1.8905848265E-007 +6.6303253174E-002 -2.8800964355E-002
10777500000.000 -9.3521118164E-002 -3.5591125488E-001 -2.4019479752E-003 -2.8669834137E-004 -4.4183805585E-005 +1.6264617443E-005 +7.7838897705E-002 -8.4648132324E-003
10910000000.000 -9.8693847656E-002 -3.5787963867E-001 -2.0319223404E-003 +1.2452602386E-003 -2.2862106562E-005 -9.4808638096E-005 +7.2120666504E-002 +4.8713684082E-003
11042500000.000 -1.0269165039E-001 -3.5978698730E-001 -9.8609924316E-004 +2.1934509277E-003 -2.5037676096E-005 -5.6173652411E-005 +5.9469223022E-002 +3.1499862671E-002
11175000000.000 -1.0644531250E-001 -3.6363220215E-001 +4.4023990631E-004 +2.3313760757E-003 -1.7045997083E-005 -4.0847808123E-006 +5.7090759277E-002 +5.2406311035E-002
11307500000.000 -1.1030578613E-001 -3.6566162109E-001 +1.6911625862E-003 +1.5553236008E-003 -4.0363520384E-005 -6.3739717007E-005 +4.3764114380E-002 +5.8048248291E-002
11440000000.000 -1.1553955078E-001 -3.6714172363E-001 +2.2443532944E-003 +2.4616718292E-004 +2.4491921067E-005 -3.5600736737E-005 +1.8405914307E-002 +7.2200775146E-002
11572500000.000 -1.1775207520E-001 -3.7141418457E-001 +1.9002556801E-003 -9.6040964127E-004 +6.4894556999E-005 +6.1511993408E-005 +4.8751831055E-003 +8.7162017822E-002
11705000000.000 -1.2132263184E-001 -3.7298583984E-001 +9.6732378006E-004 -1.9478797913E-003 -2.8347596526E-005 +1.2849457562E-005 -1.0036468506E-002 +8.0863952637E-002
11837500000.000 -1.2509155273E-001 -3.7538146973E-001 -4.0209293365E-004 -2.0927190781E-003 +7.0527195930E-005 -8.8475644588E-006 -4.2617797852E-002 +7.7297210693E-002
11970000000.000 -1.2695312500E-001 -3.7594604492E-001 -1.5316605568E-003 -1.5428662300E-003 +5.5311247706E-005 +4.7981739044E-005 -5.8345794678E-002 +8.2946777344E-002
12102500000.000 -1.2837219238E-001 -3.7756347656E-001 -2.0223855972E-003 -3.7360191345E-004 -3.7861987948E-005 -4.7296285629E-005 -6.5761566162E-002 +6.3903808594E-002
12235000000.000 -1.3258361816E-001 -3.7959289551E-001 -1.7993450165E-003 +9.4389915466E-004 -2.4102628231E-006 -1.8547289073E-005 -9.3284606934E-002 +4.5299530029E-002
12367500000.000 -1.3423156738E-001 -3.7916564941E-001 -9.1135501862E-004 +1.7625093460E-003 +1.5629455447E-005 +1.6643665731E-005 -1.0422134399E-001 +4.3472290039E-002
12500000000.000 -1.3819885254E-001 -3.7858581543E-001 +2.8359889984E-004 +1.9595623016E-003 -4.3680891395E-005 -1.4077872038E-005 -9.7236633301E-002 +1.9275665283E-002
12632500000.000 -1.4007568359E-001 -3.8063049316E-001 +1.2692809105E-003 +1.4025568962E-003 -1.0047107935E-005 -5.6112185121E-005 -1.1082077026E-001 -1.2760162354E-002
12765000000.000 -1.4294433594E-001 -3.8162231445E-001 +1.8213987350E-003 +4.4637918472E-004 +1.0108575225E-005 -3.4281983972E-006 -1.1659240723E-001 -1.6380310059E-002
12897500000.000 -1.4590454102E-001 -3.7986755371E-001 +1.6745924950E-003 -6.9564580917E-004 -5.4540112615E-005 +4.7203153372E-005 -9.1384887695E-002 -3.5434722900E-002
13030000000.000 -1.4804077148E-001 -3.7989807129E-001 +9.2130899429E-004 -1.4762282372E-003 -9.2014670372E-006 -3.6632642150E-005 -9.0991973877E-002 -7.1575164795E-002
13162500000.000 -1.5126037598E-001 -3.8121032715E-001 -1.1748075485E-004 -1.6511082649E-003 +2.3640692234E-005 -5.7427212596E-005 -9.2308044434E-002 -7.1117401123E-002
13295000000.000 -1.5419006348E-001 -3.8197326660E-001 -1.0444521904E-003 -1.2424588203E-003 -8.9582055807E-005 +4.9244612455E-005 -6.0115814209E-002 -7.8624725342E-002
13427500000.000 -1.5817260742E-001 -3.8090515137E-001 -1.4656186104E-003 -4.8077106476E-004 -4.7570094466E-005 -4.0568411350E-005 -4.7550201416E-002 -1.0541152954E-001
13560000000.000 -1.5731811523E-001 -3.8056945801E-001 -1.3970136642E-003 +4.6443939209E-004 +7.1603804827E-005 +1.1771917343E-006 -4.7569274902E-002 -1.0106658936E-001
13692500000.000 -1.6094970703E-001 -3.8261413574E-001 -9.1481208801E-004 +9.9396705627E-004 +6.4220279455E-005 +7.3347240686E-005 -1.7574310303E-002 -8.8912963867E-002
13825000000.000 -1.6517639160E-001 -3.8320922852E-001 -9.5367431641E-006 +1.3514757156E-003 -6.1202794313E-005 +3.9022415876E-005 +4.2228698730E-003 -1.0380554199E-001
13957500000.000 -1.6822814941E-001 -3.8095092773E-001 +7.6335668564E-004 +1.1603832245E-003 +2.2873282433E-005 -1.2326054275E-005 -4.7683715820E-004 -9.5855712891E-002
14090000000.000 -1.6850280762E-001 -3.8177490234E-001 +1.0693669319E-003 +5.3226947784E-004 +5.9932470322E-005 -2.2109597921E-006 +2.2132873535E-002 -7.0594787598E-002
14222500000.000 -1.7045593262E-001 -3.8417053223E-001 +1.1554956436E-003 -1.4072656631E-004 -1.3684853911E-005 +1.2213364244E-005 +4.3594360352E-002 -7.4718475342E-002
14355000000.000 -1.7651367188E-001 -3.8479614258E-001 +8.3056092262E-004 -7.8478455544E-004 +5.1911920309E-006 +5.8237463236E-005 +3.3607482910E-002 -6.6638946533E-002
14487500000.000 -1.7837524414E-001 -3.8420104980E-001 +3.1352043152E-004 -1.0911226273E-003 +1.2956559658E-005 +1.9748695195E-005 +4.1332244873E-002 -3.4879684448E-002
14620000000.000 -1.7820739746E-001 -3.8607788086E-001 -4.1133165359E-004 -1.0111331940E-003 -1.2365169823E-005 +2.4054199457E-005 +6.0138702393E-002 -3.2558441162E-002
14752500000.000 -1.8156433105E-001 -3.8990783691E-001 -1.0588765144E-003 -7.3844194412E-004 -1.4482066035E-005 -2.7525238693E-005 +4.2879104614E-002 -3.1127929688E-002
14885000000.000 -1.8518066406E-001 -3.9016723633E-001 -1.0450482368E-003 -8.8214874268E-005 +6.4387917519E-005 +6.9476664066E-006 +3.7584304810E-002 +1.6803741455E-003
15017500000.000 -1.8469238281E-001 -3.9273071289E-001 -9.3787908554E-004 +5.8728456497E-004 +3.9320439100E-005 +2.4935230613E-005 +5.3466796875E-002 +6.9179534912E-003
15150000000.000 -1.8562316895E-001 -3.9602661133E-001 -2.8783082962E-004 +1.0228157043E-003 -1.0045245290E-004 +1.9967556000E-005 +3.3910751343E-002 -9.2506408691E-004
15282500000.000 -1.8670654297E-001 -3.9773559570E-001 +1.7374753952E-004 +1.0067820549E-003 -3.7066638470E-006 -3.8735568523E-005 +1.5873908997E-002 +2.5133132935E-002
