!  2-Port S-parameters saved by WinCal
! VAR MeasName=S-Parameters (CALIBRATED_DATA) read from VNA (C)
! VAR MeasDate=9/29/2015 3:17:41 PM
! VAR NAME=M6082_18_15_2_2_20C_6.2mA_-17.5dBm
! VAR FILENAME=M6082_18_15_2_2_20C_6.2mA_-17.5dBm.S2P
! VAR DATE=9/29/2015 3:17:41 PM
! VAR PHYS_PORTS=2,1
! VAR ObjTypeName=DATASET
! VAR IndexType=Frequency
!
# Hz S RI R 50
45000000.000 +1.1279582977E-002 -3.5762786865E-004 -1.0917782784E-003 +1.5366077423E-003 +5.9142708778E-005 -4.7001242638E-004 +2.9115676880E-002 +2.1028518677E-003
177500000.000 +1.2818813324E-002 -5.9027671814E-003 +7.6508522034E-004 +1.6940236092E-003 -2.8528273106E-005 -1.9505620003E-004 +1.6471862793E-002 +1.6646385193E-002
310000000.000 +1.1624336243E-002 -1.1115550995E-002 +1.5590786934E-003 +1.1472105980E-003 +3.7487596273E-005 +6.3259154558E-005 +2.9455184937E-002 +6.1244964600E-002
442500000.000 +1.1601448059E-002 -1.6100883484E-002 +1.9528865814E-003 +2.9027462006E-005 -4.3064355850E-005 +5.7704746723E-005 +7.2563171387E-002 +2.1980285645E-002
575000000.000 +1.1121749878E-002 -2.1914482117E-002 +1.5303492546E-003 -1.0653734207E-003 -2.1774321795E-005 -5.3551048040E-006 +2.7278900146E-002 +1.1028289795E-002
707500000.000 +1.0379791260E-002 -2.6699066162E-002 +6.3997507095E-004 -1.6945004463E-003 -2.2053718567E-005 -8.7682157755E-005 +2.0418167114E-003 +1.8324851990E-002
840000000.000 +1.0149002075E-002 -3.2314300537E-002 -3.2144784927E-004 -1.7603039742E-003 +7.8693032265E-005 -7.9330056906E-005 -2.0264625549E-002 +2.5939941406E-002
972500000.000 +1.0103225708E-002 -3.7216186523E-002 -1.4140605927E-003 -1.2301206589E-003 +3.9830803871E-005 +5.2543357015E-005 -3.5785675049E-002 +3.5821914673E-002
1105000000.000 +9.1743469238E-003 -4.2713165283E-002 -1.8016695976E-003 -2.4890899658E-004 -7.1417540312E-005 -2.5842338800E-005 -4.6680450439E-002 +3.8106918335E-002
1237500000.000 +8.4209442139E-003 -4.7359466553E-002 -1.4923810959E-003 +7.7593326569E-004 +3.0983937904E-006 +1.9634608179E-006 -5.8700561523E-002 +3.3744812012E-002
1370000000.000 +9.1876983643E-003 -5.2295684814E-002 -8.5365772247E-004 +1.4524459839E-003 -9.5367431641E-007 +5.3413212299E-005 -7.4104309082E-002 +2.7153015137E-002
1502500000.000 +8.7642669678E-003 -5.6756973267E-002 +1.9961595535E-004 +1.7243027687E-003 -3.7387013435E-005 -3.5922974348E-005 -8.7970733643E-002 +2.1511077881E-002
1635000000.000 +8.8920593262E-003 -6.2057495117E-002 +1.0857582092E-003 +1.3571977615E-003 +5.1777809858E-005 +7.0985406637E-006 -9.9063873291E-002 +1.1783599854E-002
1767500000.000 +8.1062316895E-003 -6.7501068115E-002 +1.6281008720E-003 +5.2231550217E-004 -5.7388097048E-005 -1.5446916223E-005 -1.1195755005E-001 +3.2081604004E-003
1900000000.000 +5.2604675293E-003 -7.2002410889E-002 +1.6962289810E-003 -4.5341253281E-004 +3.0709430575E-005 -1.7601996660E-006 -1.1388778687E-001 -3.2463073730E-003
2032500000.000 +7.1716308594E-003 -7.6370239258E-002 +1.0688304901E-003 -1.4381408691E-003 -2.1331943572E-006 +1.4228746295E-005 -1.1398696899E-001 -2.4158477783E-002
2165000000.000 +4.3945312500E-003 -8.1966400146E-002 +5.4419040680E-005 -1.6989111900E-003 +7.6320022345E-005 +5.0619244576E-005 -1.2261962891E-001 -4.1873931885E-002
2297500000.000 +3.1509399414E-003 -8.6250305176E-002 -8.5729360580E-004 -1.5160441399E-003 -2.0237639546E-005 -2.7505680919E-005 -1.2670898438E-001 -5.3245544434E-002
2430000000.000 +6.0005187988E-003 -9.0473175049E-002 -1.3852715492E-003 -6.5952539444E-004 -2.4028122425E-005 -1.2484192848E-004 -1.2721252441E-001 -6.4704895020E-002
2562500000.000 +1.9264221191E-003 -9.5561981201E-002 -1.6537308693E-003 +2.8270483017E-004 +1.8603168428E-005 +2.1121464670E-005 -1.2580871582E-001 -7.0198059082E-002
2695000000.000 -6.3705444336E-004 -9.9555969238E-002 -1.1095404625E-003 +1.0656714439E-003 -8.1464648247E-005 -1.0756775737E-004 -1.1368942261E-001 -7.2765350342E-002
2827500000.000 -2.3841857910E-003 -1.0242080688E-001 -4.6181678772E-004 +1.7159581184E-003 -2.3458153009E-005 -1.0929629207E-004 -9.8781585693E-002 -8.2000732422E-002
2960000000.000 -2.8686523438E-003 -1.0681152344E-001 +5.0920248032E-004 +1.5416145325E-003 -1.2859702110E-005 -3.6822631955E-005 -8.9134216309E-002 -8.6452484131E-002
3092500000.000 -7.5149536133E-004 -1.1504745483E-001 +1.3229846954E-003 +9.2184543610E-004 -2.7999281883E-005 +1.1480599642E-004 -7.0568084717E-002 -8.5079193115E-002
3225000000.000 -8.0223083496E-003 -1.1619186401E-001 +1.6598701477E-003 +2.4163722992E-004 -2.7133151889E-005 -2.5585293770E-005 -5.1883697510E-002 -9.1175079346E-002
3357500000.000 -9.4490051270E-003 -1.1891937256E-001 +1.4004707336E-003 -8.5002183914E-004 +2.2419728339E-005 +1.9134953618E-005 -4.2163848877E-002 -9.1850280762E-002
3490000000.000 -1.0856628418E-002 -1.2413406372E-001 +6.9969892502E-004 -1.5696287155E-003 -5.5458396673E-005 +5.4011121392E-005 -2.8835296631E-002 -8.2748413086E-002
3622500000.000 -1.3069152832E-002 -1.2975311279E-001 -2.1058320999E-004 -1.7034411430E-003 -6.4864754677E-005 -6.4384192228E-005 -1.1421203613E-002 -7.8956604004E-002
3755000000.000 -1.5846252441E-002 -1.3456726074E-001 -1.0833740234E-003 -1.3725161552E-003 +5.8729201555E-005 -7.2721391916E-005 -6.4125061035E-003 -7.3612213135E-002
3887500000.000 -1.7875671387E-002 -1.3871002197E-001 -1.7434954643E-003 -3.3247470856E-004 -1.0427087545E-004 +5.8602541685E-005 +1.1425018311E-003 -5.6007385254E-002
4020000000.000 -1.9271850586E-002 -1.4244079590E-001 -1.6192793846E-003 +6.5237283707E-004 -4.1577965021E-005 +5.1733106375E-005 +1.2882232666E-002 -4.4134140015E-002
4152500000.000 -2.0736694336E-002 -1.4807891846E-001 -9.4026327133E-004 +1.4552474022E-003 +3.1216070056E-005 -4.6674162149E-005 +1.5336990356E-002 -3.3039093018E-002
4285000000.000 -2.3056030273E-002 -1.5319061279E-001 -3.1590461731E-005 +1.7662048340E-003 -1.0430812836E-005 +4.7691166401E-005 +1.6511917114E-002 -1.3800621033E-002
4417500000.000 -2.5657653809E-002 -1.5676116943E-001 +9.4336271286E-004 +1.3833045959E-003 -5.2023679018E-005 -7.3678791523E-005 +2.5280952454E-002 +3.4408569336E-003
4550000000.000 -2.6268005371E-002 -1.6078186035E-001 +1.5408992767E-003 +6.8187713623E-004 -3.1342729926E-005 -3.2274052501E-005 +2.9035568237E-002 +9.1047286987E-003
4682500000.000 -2.7633666992E-002 -1.6610717773E-001 +1.6589760780E-003 -1.8668174744E-004 +7.4870884418E-005 +4.7367066145E-005 +2.5733947754E-002 +1.9833564758E-002
4815000000.000 -3.0960083008E-002 -1.7054748535E-001 +1.2543797493E-003 -1.0992884636E-003 -4.5467168093E-006 +3.3881515265E-005 +3.1250000000E-002 +2.6796340942E-002
4947500000.000 -3.1448364258E-002 -1.7787170410E-001 +2.5397539139E-004 -1.3778209686E-003 -3.7143006921E-005 -2.8470531106E-005 +2.7780532837E-002 +1.9157409668E-002
5080000000.000 -3.1730651855E-002 -1.8260955811E-001 -5.7661533356E-004 -1.3058781624E-003 +8.1084668636E-005 -5.5879354477E-007 +1.3507843018E-002 +1.9867897034E-002
5212500000.000 -3.4339904785E-002 -1.8800354004E-001 -1.1942982674E-003 -8.2421302795E-004 -1.3418495655E-005 +5.7448633015E-006 +9.6664428711E-003 +2.4289131165E-002
5345000000.000 -3.6666870117E-002 -1.8646240234E-001 -1.7031431198E-003 -1.3577938080E-004 +9.5283612609E-006 -6.3027255237E-006 +6.1683654785E-003 +1.5582561493E-002
5477500000.000 -3.6788940430E-002 -1.8974304199E-001 -1.5481710434E-003 +8.8715553284E-004 +3.9325095713E-006 -1.3010576367E-005 -8.9149475098E-003 +9.7646713257E-003
5610000000.000 -3.7689208984E-002 -1.9447326660E-001 -7.9721212387E-004 +1.5460252762E-003 +7.0519745350E-006 +7.9773366451E-005 -1.4456272125E-002 +1.4530181885E-002
5742500000.000 -4.0283203125E-002 -1.9757843018E-001 +2.4783611298E-004 +1.7632842064E-003 +2.1914020181E-005 -3.2801181078E-005 -1.0781764984E-002 +5.7477951050E-003
5875000000.000 -4.2068481445E-002 -1.9965362549E-001 +1.1774897575E-003 +1.3248920441E-003 +2.2328458726E-005 -2.0990148187E-005 -1.9653320313E-002 -3.6659240723E-003
6007500000.000 -4.6600341797E-002 -2.0541381836E-001 +1.3628005981E-003 +4.7308206558E-004 -7.8529119492E-006 +4.6227127314E-005 -2.3019790649E-002 +1.7642974854E-004
6140000000.000 -4.8614501953E-002 -2.0887756348E-001 +1.4249086380E-003 -3.4719705582E-004 -6.1993487179E-006 +5.3846742958E-006 -1.4841556549E-002 -2.3655891418E-003
6272500000.000 -5.2604675293E-002 -2.1170043945E-001 +9.3108415604E-004 -1.1021494865E-003 +8.4377825260E-006 -7.1752816439E-005 -1.5824317932E-002 -1.1644363403E-002
6405000000.000 -5.5847167969E-002 -2.1166229248E-001 +1.3333559036E-004 -1.5118718147E-003 +3.0776485801E-005 +2.2247433662E-005 -1.9013404846E-002 -6.4468383789E-003
6537500000.000 -5.1338195801E-002 -2.1343994141E-001 -1.0364651680E-003 -1.6150474548E-003 -2.6106834412E-005 +5.1431357861E-005 -9.3331336975E-003 -2.9048919678E-003
6670000000.000 -5.3817749023E-002 -2.1856689453E-001 -1.7496347427E-003 -7.4958801270E-004 -1.5264376998E-005 -3.4753233194E-005 -7.5604915619E-003 -6.6533088684E-003
6802500000.000 -5.9074401855E-002 -2.2211456299E-001 -1.8068552017E-003 +3.7032365799E-004 +4.0596351027E-005 -1.9930303097E-007 -1.0824680328E-002 +2.8514862061E-004
6935000000.000 -6.1683654785E-002 -2.2219085693E-001 -1.2686252594E-003 +1.3114809990E-003 +2.0986422896E-005 +5.7226046920E-005 -6.5155029297E-003 +9.6917152405E-003
7067500000.000 -6.1859130859E-002 -2.2612762451E-001 -3.2526254654E-004 +1.7444491386E-003 +6.1560422182E-006 -4.0819868445E-005 -5.1236152649E-003 +1.0863780975E-002
7200000000.000 -6.5101623535E-002 -2.3158264160E-001 +7.8815221786E-004 +1.6252994537E-003 -4.5660883188E-005 +1.5910714865E-005 -1.4533996582E-002 +1.7776489258E-002
7332500000.000 -7.3928833008E-002 -2.3297882080E-001 +1.1352300644E-003 +1.0363459587E-003 +3.1525269151E-005 -3.5911798477E-005 -1.6850471497E-002 +3.0385017395E-002
7465000000.000 -7.2036743164E-002 -2.3588562012E-001 +1.7729997635E-003 -6.5922737122E-005 -5.0643458962E-005 -5.9952959418E-005 -2.0626068115E-002 +3.1354904175E-002
7597500000.000 -7.3623657227E-002 -2.4027252197E-001 +1.4767050743E-003 -1.1215806007E-003 +4.0657818317E-005 -1.6003847122E-005 -3.6436080933E-002 +3.4179687500E-002
7730000000.000 -8.0497741699E-002 -2.4377441406E-001 +8.0686807632E-004 -1.3520717621E-003 +3.6824494600E-006 +5.6236982346E-005 -4.7771453857E-002 +4.3651580811E-002
7862500000.000 -8.2695007324E-002 -2.4665069580E-001 -1.1390447617E-004 -1.4908313751E-003 -1.9444152713E-005 +1.0933727026E-005 -5.4122924805E-002 +4.2245864868E-002
7995000000.000 -8.3976745605E-002 -2.4873352051E-001 -9.8359584808E-004 -1.2673139572E-003 +1.0974705219E-005 -6.6164880991E-005 -7.3383331299E-002 +3.5713195801E-002
8127500000.000 -8.5617065430E-002 -2.5506591797E-001 -1.4664530754E-003 -5.0657987595E-004 +2.1941959858E-005 +7.7296048403E-005 -9.1144561768E-002 +4.0027618408E-002
8260000000.000 -8.8745117188E-002 -2.5756835938E-001 -1.5529394150E-003 +4.8238039017E-004 -5.6885182858E-006 +2.3921020329E-005 -9.5710754395E-002 +3.4160614014E-002
8392500000.000 -8.9355468750E-002 -2.6060485840E-001 -1.1085271835E-003 +1.1866092682E-003 +5.6032091379E-005 +1.3379380107E-005 -1.1002349854E-001 +1.8852233887E-002
8525000000.000 -8.7387084961E-002 -2.6644897461E-001 +1.3732910156E-004 +1.8287897110E-003 +3.2002106309E-005 +5.1800161600E-006 -1.2171936035E-001 +1.5239715576E-002
8657500000.000 -8.9584350586E-002 -2.7073669434E-001 +1.1152625084E-003 +1.4297962189E-003 -2.0870938897E-005 +3.5116448998E-005 -1.1790847778E-001 +4.0893554688E-003
8790000000.000 -9.1674804688E-002 -2.7388000488E-001 +1.6772150993E-003 +5.6427717209E-004 +5.0948932767E-005 -2.2897496819E-005 -1.1985015869E-001 -1.6902923584E-002
8922500000.000 -9.2803955078E-002 -2.7510070801E-001 +1.7548203468E-003 -5.3364038467E-004 +9.3467533588E-005 -3.3237040043E-005 -1.2184143066E-001 -3.0288696289E-002
9055000000.000 -9.2987060547E-002 -2.7888488770E-001 +1.1932849884E-003 -1.4445781708E-003 +2.5503337383E-005 +7.3801726103E-005 -1.1132049561E-001 -4.4513702393E-002
9187500000.000 -9.5062255859E-002 -2.8131103516E-001 +1.9526481628E-004 -1.8203854561E-003 +1.9339844584E-005 -5.7967379689E-005 -1.0099411011E-001 -6.6188812256E-002
9320000000.000 -1.0015869141E-001 -2.7986145020E-001 -5.7625770569E-004 -1.6869306564E-003 +4.2047351599E-005 -4.6437606215E-005 -9.3090057373E-002 -7.9120635986E-002
9452500000.000 -1.0107421875E-001 -2.8131103516E-001 -1.4866590500E-003 -1.0401606560E-003 +2.3132190108E-005 +2.7433969080E-005 -7.4096679688E-002 -8.7486267090E-002
9585000000.000 -1.0197448730E-001 -2.8453063965E-001 -1.8419623375E-003 -2.2113323212E-005 -6.1679631472E-005 -1.5076249838E-005 -5.5393218994E-002 -1.0107040405E-001
9717500000.000 -1.0614013672E-001 -2.8784179688E-001 -1.6155242920E-003 +1.0089278221E-003 +1.1749565601E-005 -8.0622732639E-005 -4.1126251221E-002 -1.0596847534E-001
9850000000.000 -1.1050415039E-001 -2.8750610352E-001 -6.3771009445E-004 +1.7490983009E-003 +1.0667368770E-005 +4.6215951443E-005 -1.8432617188E-002 -1.0288238525E-001
9982500000.000 -1.1061096191E-001 -2.9022216797E-001 +4.3141841888E-004 +1.8846988678E-003 +8.1695616245E-006 +3.3872202039E-005 +5.6953430176E-003 -1.0398864746E-001
10115000000.000 -1.1329650879E-001 -2.9635620117E-001 +1.5190243721E-003 +1.0616183281E-003 +3.5524368286E-005 -6.7763030529E-006 +1.8703460693E-002 -9.8453521729E-002
10247500000.000 -1.1872863770E-001 -2.9873657227E-001 +1.7497539520E-003 -6.4373016357E-006 +2.3311004043E-005 -1.1151656508E-005 +3.6487579346E-002 -7.9891204834E-002
10380000000.000 -1.2190246582E-001 -2.9905700684E-001 +1.4736652374E-003 -1.0285377502E-003 -6.6943466663E-005 +3.9935112000E-005 +5.7052612305E-002 -6.8458557129E-002
10512500000.000 -1.2377929688E-001 -3.0111694336E-001 +6.3306093216E-004 -1.7048120499E-003 -1.1390075088E-004 -3.2551586628E-005 +6.1758041382E-002 -5.6123733521E-002
10645000000.000 -1.2625122070E-001 -3.0453491211E-001 -4.0125846863E-004 -1.8551945686E-003 +1.3496726751E-005 -6.7193061113E-005 +6.6280364990E-002 -2.8816223145E-002
10777500000.000 -1.2950134277E-001 -3.0487060547E-001 -1.2677907944E-003 -1.5224814415E-003 -1.1347234249E-005 +3.6902725697E-005 +7.7796936035E-002 -8.5029602051E-003
10910000000.000 -1.3479614258E-001 -3.0876159668E-001 -1.8143653870E-003 -3.5578012466E-004 -2.8594397008E-005 -1.5058554709E-005 +7.2158813477E-002 +4.8942565918E-003
11042500000.000 -1.3586425781E-001 -3.0905151367E-001 -2.0169019699E-003 +6.3931941986E-004 +3.6401674151E-005 -8.3465129137E-006 +5.9465408325E-002 +3.1436920166E-002
11175000000.000 -1.3827514648E-001 -3.1346130371E-001 -1.2766122818E-003 +1.6049742699E-003 -4.9715861678E-005 +3.0748546124E-005 +5.6961059570E-002 +5.2389144897E-002
11307500000.000 -1.4097595215E-001 -3.1645202637E-001 -5.7935714722E-005 +2.0843744278E-003 -3.7204474211E-005 -1.9270926714E-005 +4.3649673462E-002 +5.8095932007E-002
11440000000.000 -1.4498901367E-001 -3.1820678711E-001 +1.1478066444E-003 +1.7498731613E-003 +4.2309984565E-005 -1.5862286091E-005 +1.8482208252E-002 +7.2097778320E-002
11572500000.000 -1.4593505859E-001 -3.2296752930E-001 +1.9892454147E-003 +8.5055828094E-004 -6.3564628363E-005 +5.5860728025E-005 +5.0468444824E-003 +8.7078094482E-002
11705000000.000 -1.5057373047E-001 -3.2600402832E-001 +1.8579959869E-003 -4.8106908798E-004 -4.6249479055E-005 +3.4494325519E-005 -1.0120391846E-002 +8.0833435059E-002
11837500000.000 -1.5344238281E-001 -3.2911682129E-001 +1.2411475182E-003 -1.4254450798E-003 +2.3074448109E-005 -1.2133270502E-005 -4.2751312256E-002 +7.7312469482E-002
11970000000.000 -1.5444946289E-001 -3.3003234863E-001 +2.0825862885E-004 -1.9401907921E-003 -2.3455359042E-005 +1.0039657354E-005 -5.8452606201E-002 +8.2958221436E-002
12102500000.000 -1.5496826172E-001 -3.3236694336E-001 -9.3239545822E-004 -1.7000436783E-003 -4.7879293561E-006 -2.1045096219E-005 -6.5814971924E-002 +6.3755035400E-002
12235000000.000 -1.5829467773E-001 -3.3518981934E-001 -1.7173886299E-003 -9.3382596970E-004 +4.4744461775E-005 -1.9958242774E-005 -9.3227386475E-002 +4.5074462891E-002
12367500000.000 -1.5940856934E-001 -3.3532714844E-001 -1.9353628159E-003 +1.8483400345E-004 +4.4617801905E-005 +7.1685761213E-005 -1.0414123535E-001 +4.3342590332E-002
12500000000.000 -1.6258239746E-001 -3.3534240723E-001 -1.4422535896E-003 +1.3089776039E-003 -1.1341646314E-005 +2.8643757105E-005 -9.7270965576E-002 +1.9409179688E-002
12632500000.000 -1.6369628906E-001 -3.3815002441E-001 -3.8081407547E-004 +1.8774271011E-003 +1.0724645108E-005 +4.8526562750E-006 -1.1063003540E-001 -1.2767791748E-002
12765000000.000 -1.6436767578E-001 -3.4150695801E-001 +9.9718570709E-004 +1.9108057022E-003 +8.0887228251E-005 -5.8244913816E-005 -1.1657333374E-001 -1.6510009766E-002
12897500000.000 -1.6847229004E-001 -3.3898925781E-001 +1.6241073608E-003 +1.0848641396E-003 -2.8267502785E-005 +1.9125640392E-005 -9.1480255127E-002 -3.5430908203E-002
13030000000.000 -1.6891479492E-001 -3.4169006348E-001 +2.1547079086E-003 -3.3092498779E-004 -8.6322426796E-005 +1.6868114471E-005 -9.0965270996E-002 -7.1548461914E-002
13162500000.000 -1.7219543457E-001 -3.4391784668E-001 +1.5956163406E-003 -1.5364289284E-003 +1.2923032045E-005 -4.5724213123E-005 -9.2163085938E-002 -7.1262359619E-002
13295000000.000 -1.7504882813E-001 -3.4564208984E-001 +4.0483474731E-004 -2.0924806595E-003 -1.1259689927E-005 +1.2083444744E-005 -6.0211181641E-002 -7.8754425049E-002
13427500000.000 -1.7904663086E-001 -3.4548950195E-001 -8.5413455963E-004 -1.9847154617E-003 +1.9887462258E-005 +3.8383528590E-005 -4.7554016113E-002 -1.0522842407E-001
13560000000.000 -1.7866516113E-001 -3.4587097168E-001 -1.8519759178E-003 -9.3513727188E-004 +3.8584694266E-005 +1.1792406440E-005 -4.7473907471E-002 -1.0107803345E-001
13692500000.000 -1.8145751953E-001 -3.4614562988E-001 -1.8053650856E-003 -1.9282102585E-004 -6.8955123425E-006 +9.4834715128E-005 -1.7368316650E-002 -8.9103698730E-002
13825000000.000 -1.8724060059E-001 -3.4974670410E-001 -1.3900399208E-003 +1.2418031693E-003 -6.4089894295E-005 +1.8849968910E-006 +4.2266845703E-003 -1.0378646851E-001
13957500000.000 -1.9030761719E-001 -3.4796142578E-001 -3.4916400909E-004 +1.7802715302E-003 -7.2333961725E-005 -3.9830803871E-005 -5.3405761719E-004 -9.5882415771E-002
14090000000.000 -1.9070434570E-001 -3.4886169434E-001 +6.1845779419E-004 +1.6717314720E-003 +4.2242929339E-005 -1.8920749426E-005 +2.2041320801E-002 -7.0655822754E-002
14222500000.000 -1.9021606445E-001 -3.5046386719E-001 +1.1944174767E-003 +1.4229416847E-003 +1.8320046365E-005 -6.9662928581E-006 +4.3521881104E-002 -7.4611663818E-002
14355000000.000 -1.9641113281E-001 -3.5163879395E-001 +1.7934441566E-003 +4.5019388199E-004 -2.6057474315E-005 +2.0770356059E-005 +3.3325195313E-002 -6.6673278809E-002
14487500000.000 -1.9839477539E-001 -3.5145568848E-001 +1.7855763435E-003 -5.9455633163E-004 +8.2992017269E-005 -2.3286789656E-005 +4.1273117065E-002 -3.4830093384E-002
14620000000.000 -1.9807434082E-001 -3.5406494141E-001 +1.0161399841E-003 -1.4556646347E-003 -3.6694109440E-006 +2.6151537895E-005 +6.0293197632E-002 -3.2415390015E-002
14752500000.000 -2.0161437988E-001 -3.5830688477E-001 +6.0915946960E-005 -1.8613934517E-003 -6.1869621277E-005 -3.3002346754E-005 +4.2839050293E-002 -3.1211853027E-002
14885000000.000 -2.0523071289E-001 -3.5917663574E-001 -1.1370778084E-003 -1.5422105789E-003 -2.1905638278E-005 +4.0587037802E-006 +3.7445068359E-002 +1.7299652100E-003
15017500000.000 -2.0491027832E-001 -3.6227416992E-001 -1.7125606537E-003 -4.7791004181E-004 +2.7837231755E-005 +3.5602599382E-005 +5.3298950195E-002 +6.9828033447E-003
15150000000.000 -2.0829772949E-001 -3.6572265625E-001 -1.4224648476E-003 +7.2395801544E-004 -4.4526532292E-005 -1.4824792743E-005 +3.3857345581E-002 -9.5367431641E-004
15282500000.000 -2.0935058594E-001 -3.6772155762E-001 -7.2288513184E-004 +1.4957785606E-003 -6.8023800850E-006 -1.1953338981E-004 +1.5619277954E-002 +2.4954795837E-002
