!  2-Port S-parameters saved by WinCal
! VAR MeasName=S-Parameters (CALIBRATED_DATA) read from VNA (C)
! VAR MeasDate=9/29/2015 3:13:44 PM
! VAR NAME=M6082_18_15_2_2_20C_3.4mA_-17.5dBm
! VAR FILENAME=M6082_18_15_2_2_20C_3.4mA_-17.5dBm.S2P
! VAR DATE=9/29/2015 3:13:44 PM
! VAR PHYS_PORTS=2,1
! VAR ObjTypeName=DATASET
! VAR IndexType=Frequency
!
# Hz S RI R 50
45000000.000 +1.0000228882E-001 -1.1901855469E-003 +1.8626451492E-004 +1.4772415161E-003 +6.9230794907E-004 +1.0467171669E-003 +2.9023170471E-002 +3.8623809814E-003
177500000.000 +9.9407196045E-002 -8.2931518555E-003 +6.0039758682E-004 +1.7610788345E-003 -9.6112489700E-005 +4.0015578270E-004 +1.6074180603E-002 +1.7020225525E-002
310000000.000 +9.8819732666E-002 -1.4598846436E-002 +1.5445947647E-003 +9.9050998688E-004 +1.3509392738E-004 -1.8815696239E-004 +2.9445648193E-002 +6.1017990112E-002
442500000.000 +9.8419189453E-002 -2.0915985107E-002 +1.8447637558E-003 +3.1530857086E-005 +2.9787421227E-005 -5.9135258198E-005 +7.2437286377E-002 +2.2033691406E-002
575000000.000 +9.7705841064E-002 -2.7927398682E-002 +1.4383196831E-003 -1.0591149330E-003 -2.5965273380E-006 +8.6054205894E-005 +2.7210235596E-002 +1.1058807373E-002
707500000.000 +9.6576690674E-002 -3.4015655518E-002 +5.5462121964E-004 -1.5810728073E-003 -4.1168183088E-005 -6.4376741648E-005 +2.1371841431E-003 +1.8341064453E-002
840000000.000 +9.5848083496E-002 -4.0557861328E-002 -4.8184394836E-004 -1.6658902168E-003 +4.4913962483E-005 +4.7542154789E-005 -2.0249366760E-002 +2.6048660278E-002
972500000.000 +9.5348358154E-002 -4.6623229980E-002 -1.2348294258E-003 -1.0422468185E-003 -6.7196786404E-005 +7.9609453678E-006 -3.5781860352E-002 +3.5766601563E-002
1105000000.000 +9.4100952148E-002 -5.3436279297E-002 -1.6351342201E-003 -1.5872716904E-004 +5.0803646445E-005 -3.1948089600E-005 -4.6709060669E-002 +3.8238525391E-002
1237500000.000 +9.2872619629E-002 -5.9074401855E-002 -1.4035105705E-003 +7.2616338730E-004 +1.2200791389E-005 -9.7304582596E-006 -5.8656692505E-002 +3.3761978149E-002
1370000000.000 +9.1579437256E-002 -6.5406799316E-002 -8.0311298370E-004 +1.3840198517E-003 +2.5354325771E-005 +1.0769814253E-005 -7.4123382568E-002 +2.7149200439E-002
1502500000.000 +9.0419769287E-002 -7.1086883545E-002 +1.5127658844E-004 +1.5761852264E-003 -2.3153610528E-005 -1.2694858015E-005 -8.7909698486E-002 +2.1499633789E-002
1635000000.000 +8.9748382568E-002 -7.7239990234E-002 +1.0293126106E-003 +1.2170076370E-003 -4.3636187911E-005 -6.0688704252E-005 -9.9090576172E-002 +1.1711120605E-002
1767500000.000 +8.8138580322E-002 -8.3873748779E-002 +1.4705061913E-003 +4.4822692871E-004 +3.8539990783E-005 +1.9092112780E-005 -1.1194992065E-001 +3.1509399414E-003
1900000000.000 +8.6784362793E-002 -8.8832855225E-002 +1.4882087708E-003 -4.3731927872E-004 -7.8476965427E-005 -4.4863671064E-005 -1.1387634277E-001 -3.2196044922E-003
2032500000.000 +8.5243225098E-002 -9.4127655029E-002 +9.6309185028E-004 -1.1823177338E-003 -1.8307939172E-005 +1.1958181858E-006 -1.1397171021E-001 -2.4208068848E-002
2165000000.000 +8.4663391113E-002 -1.0062408447E-001 +8.2433223724E-005 -1.5299320221E-003 +1.6551464796E-005 +5.9306621552E-005 -1.2272262573E-001 -4.1851043701E-002
2297500000.000 +8.2736968994E-002 -1.0589599609E-001 -8.0376863480E-004 -1.2353658676E-003 +7.8221783042E-006 +1.7339363694E-005 -1.2657928467E-001 -5.3253173828E-002
2430000000.000 +8.1375122070E-002 -1.1063003540E-001 -1.4514923096E-003 -7.3313713074E-004 -1.8760561943E-005 -1.5763193369E-004 -1.2711334229E-001 -6.4682006836E-002
2562500000.000 +8.0150604248E-002 -1.1641311646E-001 -1.5201568604E-003 +2.4801492691E-004 +1.0237470269E-004 +2.1114945412E-005 -1.2580871582E-001 -7.0167541504E-002
2695000000.000 +7.6869964600E-002 -1.2163925171E-001 -1.1668205261E-003 +1.0105967522E-003 -3.4827739000E-005 +4.6074390411E-005 -1.1374282837E-001 -7.2875976563E-002
2827500000.000 +7.4497222900E-002 -1.2477111816E-001 -4.3267011642E-004 +1.4148950577E-003 -2.8893351555E-005 -9.1321766376E-005 -9.8720550537E-002 -8.1951141357E-002
2960000000.000 +7.3509216309E-002 -1.2985992432E-001 +4.8327445984E-004 +1.4357566833E-003 +1.1418014765E-004 +2.4676322937E-005 -8.9046478271E-002 -8.6444854736E-002
3092500000.000 +7.0968627930E-002 -1.3587188721E-001 +1.2182593346E-003 +9.4461441040E-004 -5.7302415371E-005 +1.0094046593E-004 -7.0529937744E-002 -8.5121154785E-002
3225000000.000 +6.7115783691E-002 -1.4055633545E-001 +1.6430020332E-003 +1.0341405869E-004 -9.3694776297E-005 -2.4400651455E-005 -5.2013397217E-002 -9.1239929199E-002
3357500000.000 +6.5055847168E-002 -1.4375305176E-001 +1.2343525887E-003 -8.4745883942E-004 +4.1790306568E-005 +7.4934214354E-005 -4.2354583740E-002 -9.2113494873E-002
3490000000.000 +6.3217163086E-002 -1.4965057373E-001 +6.5863132477E-004 -1.3636946678E-003 -1.0308250785E-004 -3.4995377064E-005 -2.8881072998E-002 -8.2847595215E-002
3622500000.000 +6.0081481934E-002 -1.5586090088E-001 -1.6814470291E-004 -1.4764070511E-003 -9.9070370197E-005 -1.0811910033E-004 -1.1505126953E-002 -7.8941345215E-002
3755000000.000 +5.6838989258E-002 -1.6118621826E-001 -1.1073350906E-003 -1.1599063873E-003 -2.3132190108E-005 -2.4637207389E-005 -6.4201354980E-003 -7.3570251465E-002
3887500000.000 +5.4290771484E-002 -1.6569519043E-001 -1.4397501945E-003 -4.2551755905E-004 -6.6831707954E-005 -2.5577843189E-005 +1.1310577393E-003 -5.6003570557E-002
4020000000.000 +5.2398681641E-002 -1.7012786865E-001 -1.4010667801E-003 +6.4456462860E-004 -7.3388218880E-005 +4.3932348490E-005 +1.3021469116E-002 -4.4332504272E-002
4152500000.000 +5.0155639648E-002 -1.7615509033E-001 -8.1348419189E-004 +1.3287663460E-003 +7.4170529842E-005 +5.9790909290E-006 +1.5390396118E-002 -3.3185958862E-002
4285000000.000 +4.7264099121E-002 -1.8168640137E-001 +5.7458877563E-005 +1.6178488731E-003 -6.1001628637E-005 +6.3478946686E-005 +1.6397476196E-002 -1.3718605042E-002
4417500000.000 +4.4059753418E-002 -1.8583679199E-001 +9.3567371368E-004 +1.3908743858E-003 -7.8331679106E-005 +4.2732805014E-005 +2.5237083435E-002 +3.3092498779E-003
4550000000.000 +4.3075561523E-002 -1.9022369385E-001 +1.4989376068E-003 +5.6064128876E-004 -1.2852251530E-005 +5.0244852901E-007 +2.9031753540E-002 +9.1142654419E-003
4682500000.000 +4.1313171387E-002 -1.9596862793E-001 +1.4304518700E-003 -2.3943185806E-004 +5.5238604546E-005 +1.7989426851E-005 +2.5657653809E-002 +1.9871711731E-002
4815000000.000 +3.7513732910E-002 -2.0078277588E-001 +1.1540651321E-003 -1.1513829231E-003 -3.0493363738E-005 +4.5774504542E-005 +3.1305313110E-002 +2.6702880859E-002
4947500000.000 +3.6163330078E-002 -2.0479583740E-001 +3.2722949982E-004 -1.5309453011E-003 +1.0311603546E-005 -4.3069943786E-005 +2.7817726135E-002 +1.9180297852E-002
5080000000.000 +3.5255432129E-002 -2.0967102051E-001 -5.6594610214E-004 -1.5041232109E-003 +7.4720010161E-006 +1.1869706213E-005 +1.3571739197E-002 +1.9993782043E-002
5212500000.000 +3.2470703125E-002 -2.1508026123E-001 -1.3390183449E-003 -9.2703104019E-004 -1.3308599591E-005 +5.9837475419E-005 +9.7131729126E-003 +2.4258613586E-002
5345000000.000 +2.9899597168E-002 -2.1839904785E-001 -1.6995072365E-003 -2.6464462280E-005 -4.1646882892E-005 +3.0919909477E-006 +6.0176849365E-003 +1.5645980835E-002
5477500000.000 +2.9449462891E-002 -2.2216033936E-001 -1.5080571175E-003 +9.5570087433E-004 +4.5385211706E-005 -9.1008841991E-006 -8.8572502136E-003 +9.7236633301E-003
5610000000.000 +2.8038024902E-002 -2.2737121582E-001 -6.0564279556E-004 +1.6201138496E-003 +1.7487443984E-005 +6.2808394432E-006 -1.4509677887E-002 +1.4503955841E-002
5742500000.000 +2.4871826172E-002 -2.3089599609E-001 +3.5119056702E-004 +1.7527937889E-003 +1.3809185475E-006 +8.5227657109E-007 -1.0719299316E-002 +5.8078765869E-003
5875000000.000 +2.2743225098E-002 -2.3334503174E-001 +1.3060569763E-003 +1.2170076370E-003 +1.3900920749E-005 +7.1264803410E-006 -1.9724845886E-002 -3.7679672241E-003
6007500000.000 +2.1575927734E-002 -2.3619079590E-001 +1.7634630203E-003 +2.3221969604E-004 -2.2473745048E-005 +2.3038126528E-005 -2.3017883301E-002 +8.2015991211E-005
6140000000.000 +1.9500732422E-002 -2.4104309082E-001 +1.6365051270E-003 -8.3613395691E-004 -7.6312571764E-005 -1.1783093214E-005 -1.4893054962E-002 -2.3941993713E-003
6272500000.000 +1.5083312988E-002 -2.4465179443E-001 +9.3954801559E-004 -1.6039609909E-003 +1.6622245312E-005 -6.4939260483E-005 -1.5737533569E-002 -1.1631011963E-002
6405000000.000 +1.1558532715E-002 -2.4584197998E-001 -2.7519464493E-004 -1.8441677094E-003 +4.7504901886E-005 -1.1067837477E-005 -1.9137382507E-002 -6.3066482544E-003
6537500000.000 +1.1108398438E-002 -2.4929046631E-001 -1.1690258980E-003 -1.3715624809E-003 -3.7560239434E-005 +3.5224482417E-005 -9.3712806702E-003 -2.8581619263E-003
6670000000.000 +7.9498291016E-003 -2.5476074219E-001 -1.8062591553E-003 -5.2803754807E-004 -3.8547441363E-005 +3.2279640436E-006 -7.5562000275E-003 -6.6964626312E-003
6802500000.000 +2.2277832031E-003 -2.5888061523E-001 -1.6977787018E-003 +7.0905685425E-004 +4.8745423555E-005 -3.9711594582E-006 -1.0866641998E-002 +2.7751922607E-004
6935000000.000 -7.1716308594E-004 -2.5952148438E-001 -1.0299682617E-003 +1.5406012535E-003 -4.5765191317E-006 +2.0772218704E-005 -6.5965652466E-003 +9.7355842590E-003
7067500000.000 -1.4953613281E-003 -2.6374816895E-001 +4.9471855164E-006 +1.8206238747E-003 +3.2968819141E-005 -7.7690929174E-006 -5.1755905151E-003 +1.0886192322E-002
7200000000.000 -5.3558349609E-003 -2.6948547363E-001 +1.1138319969E-003 +1.5141963959E-003 +4.4517219067E-005 +7.8845769167E-006 -1.4595985413E-002 +1.7720222473E-002
7332500000.000 -1.1001586914E-002 -2.7247619629E-001 +1.7946958542E-003 +6.9260597229E-004 -7.0560723543E-005 +6.1493366957E-005 -1.6890525818E-002 +3.0370712280E-002
7465000000.000 -1.3198852539E-002 -2.7470397949E-001 +1.8348097801E-003 -3.9482116699E-004 +9.2615373433E-006 -3.6396086216E-006 -2.0591735840E-002 +3.1259536743E-002
7597500000.000 -1.5289306641E-002 -2.7925109863E-001 +1.2444257736E-003 -1.4007091522E-003 +4.3984502554E-005 -5.9107318521E-005 -3.6489486694E-002 +3.4164428711E-002
7730000000.000 -1.9393920898E-002 -2.8506469727E-001 +1.9097328186E-004 -1.8453001976E-003 +1.6063451767E-005 +1.0212883353E-004 -4.7695159912E-002 +4.3622970581E-002
7862500000.000 -2.2766113281E-002 -2.8846740723E-001 -8.2999467850E-004 -1.6335844994E-003 -2.7284026146E-005 +1.6704201698E-005 -5.4101943970E-002 +4.2133331299E-002
7995000000.000 -2.4246215820E-002 -2.9101562500E-001 -1.6455054283E-003 -9.2750787735E-004 -1.4756806195E-006 -1.3624317944E-005 -7.3394775391E-002 +3.5728454590E-002
8127500000.000 -2.6473999023E-002 -2.9794311523E-001 -1.9121170044E-003 +2.0712614059E-004 -5.3618103266E-005 +3.8724392653E-006 -9.1011047363E-002 +4.0039062500E-002
8260000000.000 -3.0883789063E-002 -3.0101013184E-001 -1.4792680740E-003 +1.2714862823E-003 -7.2829425335E-005 +7.6442956924E-006 -9.5687866211E-002 +3.4057617188E-002
8392500000.000 -3.1997680664E-002 -3.0444335938E-001 -5.3125619888E-004 +1.8950700760E-003 -2.3158267140E-005 -3.1830742955E-005 -1.1011123657E-001 +1.8810272217E-002
8525000000.000 -3.2913208008E-002 -3.0863952637E-001 +7.8094005585E-004 +1.8676519394E-003 +1.1134147644E-004 -1.1321157217E-005 -1.2162780762E-001 +1.5262603760E-002
8657500000.000 -3.5827636719E-002 -3.1367492676E-001 +1.6909241676E-003 +1.1268854141E-003 -1.3151206076E-005 +2.3141503334E-005 -1.1798477173E-001 +4.0969848633E-003
8790000000.000 -3.8421630859E-002 -3.1724548340E-001 +2.0655393600E-003 -2.3841857910E-007 -6.2685459852E-005 -7.8618526459E-005 -1.1977005005E-001 -1.6921997070E-002
8922500000.000 -4.0069580078E-002 -3.1893920898E-001 +1.6782283783E-003 -1.2913346291E-003 +2.1558254957E-005 +4.5061111450E-005 -1.2183380127E-001 -3.0315399170E-002
9055000000.000 -4.0878295898E-002 -3.2331848145E-001 +5.5491924286E-004 -2.0520687103E-003 -9.3327835202E-006 -2.2531487048E-005 -1.1129379272E-001 -4.4563293457E-002
9187500000.000 -4.3640136719E-002 -3.2635498047E-001 -5.9497356415E-004 -1.9878149033E-003 +3.5060569644E-005 -5.5752694607E-005 -1.0089874268E-001 -6.6219329834E-002
9320000000.000 -4.8446655273E-002 -3.2830810547E-001 -1.6843676567E-003 -1.2937188148E-003 +5.1606446505E-005 -2.0451843739E-006 -9.3063354492E-002 -7.9078674316E-002
9452500000.000 -5.0369262695E-002 -3.3039855957E-001 -2.1662712097E-003 -3.6597251892E-005 +9.1623514891E-006 +3.2132491469E-005 -7.4104309082E-002 -8.7451934814E-002
9585000000.000 -5.2642822266E-002 -3.3399963379E-001 -1.8348097801E-003 +1.3106465340E-003 +1.8667429686E-005 -5.1101669669E-005 -5.5416107178E-002 -1.0119628906E-001
9717500000.000 -5.7785034180E-002 -3.3789062500E-001 -6.7412853241E-004 +2.0514726639E-003 +1.2970529497E-005 -2.3112632334E-005 -4.1156768799E-002 -1.0597991943E-001
9850000000.000 -6.3476562500E-002 -3.3824157715E-001 +6.3180923462E-004 +2.0868778229E-003 +1.0408461094E-005 +1.8464401364E-005 -1.8394470215E-002 -1.0282897949E-001
9982500000.000 -6.4819335938E-002 -3.4115600586E-001 +1.7926692963E-003 +1.2530088425E-003 +2.5671906769E-005 +2.2561289370E-005 +5.6610107422E-003 -1.0395431519E-001
10115000000.000 -6.8450927734E-002 -3.4510803223E-001 +2.3221969604E-003 -8.0823898315E-005 +5.9472396970E-005 -2.4382025003E-005 +1.8726348877E-002 -9.8426818848E-002
10247500000.000 -7.5012207031E-002 -3.4783935547E-001 +1.8038153648E-003 -1.3043880463E-003 +3.1564384699E-005 -6.1038881540E-006 +3.6506652832E-002 -7.9765319824E-002
10380000000.000 -7.9589843750E-002 -3.4873962402E-001 +6.4980983734E-004 -2.0987987518E-003 -6.6462904215E-005 +5.9865415096E-006 +5.7090759277E-002 -6.8511962891E-002
10512500000.000 -8.2565307617E-002 -3.5070800781E-001 -6.0367584229E-004 -2.0315647125E-003 +1.1518597603E-005 +6.6068023443E-005 +6.1710357666E-002 -5.6131362915E-002
10645000000.000 -8.5968017578E-002 -3.5412597656E-001 -1.6677379608E-003 -1.3421773911E-003 +1.0907649994E-005 +6.9990754128E-005 +6.6402435303E-002 -2.8762817383E-002
10777500000.000 -9.2102050781E-002 -3.5664367676E-001 -2.0442008972E-003 -1.2135505676E-004 -5.3109601140E-005 +3.2223761082E-007 +7.7835083008E-002 -8.4877014160E-003
10910000000.000 -9.7366333008E-002 -3.5847473145E-001 -1.7720460892E-003 +1.1019706726E-003 -2.2673048079E-006 -7.9367309809E-006 +7.2139739990E-002 +5.0163269043E-003
11042500000.000 -1.0119628906E-001 -3.6035156250E-001 -7.6758861542E-004 +1.9812583923E-003 -3.7560239434E-005 +1.6579404473E-005 +5.9438705444E-002 +3.1490325928E-002
11175000000.000 -1.0485839844E-001 -3.6425781250E-001 +5.2082538605E-004 +2.0109415054E-003 -2.0809471607E-005 +5.4165720940E-005 +5.7010650635E-002 +5.2305221558E-002
11307500000.000 -1.0894775391E-001 -3.6633300781E-001 +1.4942884445E-003 +1.3095140457E-003 +1.4407560229E-006 -2.1643936634E-005 +4.3609619141E-002 +5.8053970337E-002
11440000000.000 -1.1422729492E-001 -3.6769104004E-001 +1.9897222519E-003 +2.0480155945E-004 +8.6087733507E-005 -2.8725713491E-005 +1.8356323242E-002 +7.2189331055E-002
11572500000.000 -1.1640930176E-001 -3.7197875977E-001 +1.6924142838E-003 -1.0033249855E-003 +1.1596828699E-005 +1.0261777788E-005 +4.8980712891E-003 +8.7162017822E-002
11705000000.000 -1.1988830566E-001 -3.7348937988E-001 +7.7098608017E-004 -1.7275214195E-003 +6.1895698309E-006 +5.1030889153E-005 -1.0181427002E-002 +8.0898284912E-002
11837500000.000 -1.2382507324E-001 -3.7596130371E-001 -3.8135051727E-004 -1.9088387489E-003 +4.5351684093E-005 -8.5264444351E-005 -4.2888641357E-002 +7.7217102051E-002
11970000000.000 -1.2556457520E-001 -3.7638854980E-001 -1.3431906700E-003 -1.3606548309E-003 -1.4051795006E-005 +6.2774866819E-005 -5.8525085449E-002 +8.2916259766E-002
12102500000.000 -1.2699890137E-001 -3.7809753418E-001 -1.7874836922E-003 -2.6232004166E-004 -1.5222001821E-005 +7.6340511441E-006 -6.5849304199E-002 +6.3835144043E-002
12235000000.000 -1.3114929199E-001 -3.8031005859E-001 -1.6767978668E-003 +7.6627731323E-004 +4.7693029046E-006 -2.6683323085E-005 -9.3376159668E-002 +4.5066833496E-002
12367500000.000 -1.3294982910E-001 -3.7983703613E-001 -8.5961818695E-004 +1.6066431999E-003 -2.0191073418E-005 +7.3116272688E-005 -1.0424423218E-001 +4.3403625488E-002
12500000000.000 -1.3690185547E-001 -3.7911987305E-001 +2.8026103973E-004 +1.6630291939E-003 +1.2116506696E-006 -2.2544525564E-005 -9.7305297852E-002 +1.9149780273E-002
12632500000.000 -1.3856506348E-001 -3.8125610352E-001 +1.2010335922E-003 +1.2617111206E-003 +1.1734664440E-005 -7.0799142122E-005 -1.1076736450E-001 -1.2802124023E-002
12765000000.000 -1.4158630371E-001 -3.8230895996E-001 +1.6333460808E-003 +3.6406517029E-004 +1.1878088117E-005 +1.1241063476E-005 -1.1655426025E-001 -1.6578674316E-002
12897500000.000 -1.4466857910E-001 -3.8049316406E-001 +1.5332102776E-003 -5.6344270706E-004 -4.2730942369E-005 +1.0473653674E-005 -9.1419219971E-002 -3.5598754883E-002
13030000000.000 -1.4668273926E-001 -3.8056945801E-001 +7.8219175339E-004 -1.3524293900E-003 -2.1259300411E-005 +7.1777030826E-006 -9.0820312500E-002 -7.1601867676E-002
13162500000.000 -1.4997863770E-001 -3.8175964355E-001 -9.0956687927E-005 -1.5704631805E-003 +3.6265701056E-005 -3.3466145396E-005 -9.2109680176E-002 -7.1250915527E-002
13295000000.000 -1.5303039551E-001 -3.8261413574E-001 -9.1606378555E-004 -1.2281537056E-003 -1.5015713871E-005 +2.7434900403E-005 -6.0123443604E-002 -7.8769683838E-002
13427500000.000 -1.5682983398E-001 -3.8151550293E-001 -1.3291239738E-003 -4.3976306915E-004 -1.2625008821E-005 -4.5273452997E-005 -4.7451019287E-002 -1.0536575317E-001
13560000000.000 -1.5597534180E-001 -3.8127136230E-001 -1.3901591301E-003 +3.9148330688E-004 +4.8696994781E-005 +3.7252902985E-008 -4.7557830811E-002 -1.0101699829E-001
13692500000.000 -1.5960693359E-001 -3.8330078125E-001 -9.3251466751E-004 +9.8395347595E-004 +6.9949775934E-005 +1.4808028936E-005 -1.7425537109E-002 -8.8932037354E-002
13825000000.000 -1.6378784180E-001 -3.8385009766E-001 -1.6188621521E-004 +1.3332366943E-003 -1.5984475613E-004 -9.0472400188E-005 +4.2152404785E-003 -1.0382080078E-001
13957500000.000 -1.6677856445E-001 -3.8171386719E-001 +6.7037343979E-004 +1.2047886848E-003 +5.0915405154E-005 -9.1493129730E-006 -5.0735473633E-004 -9.5687866211E-002
14090000000.000 -1.6712951660E-001 -3.8235473633E-001 +1.0486245155E-003 +5.3918361664E-004 +2.5935471058E-005 +7.8078359365E-005 +2.2094726563E-002 -7.0705413818E-002
14222500000.000 -1.6893005371E-001 -3.8500976563E-001 +1.2193918228E-003 -1.8811225891E-004 +9.4622373581E-007 +4.9583613873E-005 +4.3617248535E-002 -7.4592590332E-002
14355000000.000 -1.7521667480E-001 -3.8557434082E-001 +9.4243884087E-004 -8.0704689026E-004 +4.1771680117E-005 +2.8729438782E-005 +3.3473968506E-002 -6.6677093506E-002
14487500000.000 -1.7700195313E-001 -3.8488769531E-001 +1.9818544388E-004 -1.1445879936E-003 -4.2494386435E-005 +7.1376562119E-005 +4.1233062744E-002 -3.4809112549E-002
14620000000.000 -1.7668151855E-001 -3.8679504395E-001 -3.5995244980E-004 -1.0066628456E-003 -5.6508928537E-005 +6.2137842178E-006 +6.0256958008E-002 -3.2436370850E-002
14752500000.000 -1.8028259277E-001 -3.9053344727E-001 -9.1961026192E-004 -5.2759051323E-004 -5.1047652960E-005 -6.5270811319E-005 +4.2921066284E-002 -3.1208038330E-002
14885000000.000 -1.8367004395E-001 -3.9088439941E-001 -1.1538863182E-003 +4.1484832764E-005 +2.6818364859E-005 +4.7080218792E-005 +3.7300109863E-002 +1.6784667969E-003
15017500000.000 -1.8342590332E-001 -3.9358520508E-001 -8.4307789803E-004 +7.0059299469E-004 -2.6335939765E-005 +5.9062615037E-005 +5.3237915039E-002 +6.9732666016E-003
15150000000.000 -1.8443298340E-001 -3.9662170410E-001 -3.7217140198E-004 +1.0613203049E-003 -5.6039541960E-005 +1.6234815121E-005 +3.3761978149E-002 -1.0509490967E-003
15282500000.000 -1.8528747559E-001 -3.9834594727E-001 +2.2062659264E-004 +9.6011161804E-004 +3.7984922528E-005 +1.6897916794E-005 +1.5662193298E-002 +2.5029182434E-002
