!  2-Port S-parameters saved by WinCal
! VAR MeasName=S-Parameters (CALIBRATED_DATA) read from VNA (C)
! VAR MeasDate=9/29/2015 3:44:09 PM
! VAR NAME=M6082_18_15_2_2_20C_10.0mA_-17.5dBm 4
! VAR FILENAME=M6082_18_15_2_2_20C_10.0mA_-17.5dBm 4.S2P
! VAR DATE=9/29/2015 3:44:09 PM
! VAR PHYS_PORTS=2,1
! VAR ObjTypeName=DATASET
! VAR IndexType=Frequency
!
# Hz S RI R 50
45000000.000 -5.2917480469E-002 -7.6293945313E-004 -6.8429112434E-004 +2.7018785477E-004 +3.1033158302E-004 +1.3801455498E-004 +3.0295372009E-002 +2.9344558716E-003
177500000.000 -5.2455902100E-002 -4.2934417725E-003 +3.5959482193E-004 +1.2881755829E-003 -1.2467056513E-004 +2.0646303892E-004 +1.5971183777E-002 +1.6717910767E-002
310000000.000 -5.4643630981E-002 -8.2397460938E-003 +1.3130307198E-003 +8.9234113693E-004 +2.8688460588E-005 +1.0595843196E-004 +2.9409408569E-002 +6.1281204224E-002
442500000.000 -5.4386138916E-002 -1.2332916260E-002 +1.9089579582E-003 -1.1146068573E-005 +8.0082565546E-005 -5.2899122238E-007 +7.2559356689E-002 +2.2132873535E-002
575000000.000 -5.1546096802E-002 -1.8032073975E-002 +1.4027953148E-003 -1.0037422180E-003 +2.5089830160E-006 +4.4810585678E-006 +2.7195930481E-002 +1.1127471924E-002
707500000.000 -5.1998138428E-002 -2.1924972534E-002 +6.8825483322E-004 -1.5666484833E-003 -9.4841234386E-006 -2.9192306101E-006 +2.0122528076E-003 +1.8450737000E-002
840000000.000 -5.1792144775E-002 -2.6960372925E-002 -3.8683414459E-004 -1.7378926277E-003 +1.3760291040E-005 +1.8498860300E-005 -2.0200729370E-002 +2.6044845581E-002
972500000.000 -5.1717758179E-002 -3.1274795532E-002 -1.2858510017E-003 -1.1544823647E-003 +2.7306377888E-006 +6.9681555033E-005 -3.5842895508E-002 +3.5717010498E-002
1105000000.000 -5.2257537842E-002 -3.6237716675E-002 -1.6479492188E-003 -2.3037195206E-004 +3.6787241697E-006 -1.9509345293E-005 -4.6695709229E-002 +3.8166046143E-002
1237500000.000 -5.2782058716E-002 -4.0208816528E-002 -1.4502406120E-003 +6.8271160126E-004 +2.0478852093E-005 +5.1520764828E-006 -5.8666229248E-002 +3.3693313599E-002
1370000000.000 -5.6087493896E-002 -4.3542861938E-002 -8.7881088257E-004 +1.4428496361E-003 +3.7353485823E-005 +6.4119696617E-005 -7.4096679688E-002 +2.7175903320E-002
1502500000.000 -5.3533554077E-002 -4.8835754395E-002 +1.2177228928E-004 +1.6211271286E-003 -4.7309324145E-005 +1.8589198589E-005 -8.7936401367E-002 +2.1415710449E-002
1635000000.000 -5.6324005127E-002 -5.2343368530E-002 +9.2160701752E-004 +1.4613270760E-003 +9.9902972579E-006 -2.5439076126E-005 -9.9082946777E-002 +1.1688232422E-002
1767500000.000 -5.4382324219E-002 -5.8637619019E-002 +1.6044974327E-003 +5.0175189972E-004 -3.2061710954E-005 -2.8489157557E-005 -1.1198425293E-001 +3.1127929688E-003
1900000000.000 -5.4653167725E-002 -6.2332153320E-002 +1.4377236366E-003 -4.7075748444E-004 -2.6458874345E-005 -3.3130869269E-005 -1.1394500732E-001 -3.3149719238E-003
2032500000.000 -5.5099487305E-002 -6.6444396973E-002 +1.0012388229E-003 -1.1479258537E-003 -3.6107376218E-006 -1.6789883375E-005 -1.1400985718E-001 -2.4200439453E-002
2165000000.000 -5.5072784424E-002 -7.1643829346E-002 +1.6504526138E-004 -1.6048550606E-003 +2.6976689696E-005 +1.9213184714E-005 -1.2266540527E-001 -4.1881561279E-002
2297500000.000 -5.5946350098E-002 -7.5256347656E-002 -7.1966648102E-004 -1.3139247894E-003 -3.6269426346E-005 +9.5985829830E-005 -1.2664794922E-001 -5.3314208984E-002
2430000000.000 -5.5923461914E-002 -7.8701019287E-002 -1.3229250908E-003 -7.9470872879E-004 +1.1640042067E-004 -4.4729560614E-005 -1.2722778320E-001 -6.4956665039E-002
2562500000.000 -5.6289672852E-002 -8.3526611328E-002 -1.5738606453E-003 -6.3776969910E-006 -3.0718743801E-005 +1.4850497246E-004 -1.2565612793E-001 -7.0373535156E-002
2695000000.000 -5.8574676514E-002 -8.6906433105E-002 -1.3170242310E-003 +8.2194805145E-004 -1.3291090727E-004 +6.9975852966E-005 -1.1351776123E-001 -7.2780609131E-002
2827500000.000 -6.2065124512E-002 -8.6265563965E-002 -4.5746564865E-004 +1.5000700951E-003 -9.9994242191E-005 -5.7071447372E-006 -9.8903656006E-002 -8.1783294678E-002
2960000000.000 -6.2206268311E-002 -9.0152740479E-002 +4.3123960495E-004 +1.6788244247E-003 +8.2693994045E-005 +1.9490718842E-005 -8.9015960693E-002 -8.6410522461E-002
3092500000.000 -6.1782836914E-002 -9.8213195801E-002 +1.1431574821E-003 +1.0123848915E-003 -4.3500214815E-005 +1.9060447812E-005 -7.0457458496E-002 -8.5193634033E-002
3225000000.000 -6.6707611084E-002 -9.8533630371E-002 +1.6159415245E-003 +2.3221969604E-004 +3.7603080273E-005 -1.3242661953E-004 -5.1780700684E-002 -9.1274261475E-002
3357500000.000 -6.7848205566E-002 -1.0075759888E-001 +1.4660358429E-003 -8.2725286484E-004 +1.3870000839E-004 -3.5867094994E-005 -4.2224884033E-002 -9.1918945313E-002
3490000000.000 -6.7569732666E-002 -1.0904693604E-001 +6.0689449310E-004 -1.4005899429E-003 +1.5743076801E-005 +8.5502862930E-005 -2.8873443604E-002 -8.2569122314E-002
3622500000.000 -6.9538116455E-002 -1.1423110962E-001 -2.7883052826E-004 -1.5848875046E-003 +6.2771141529E-006 -6.6589564085E-005 -1.1417388916E-002 -7.8968048096E-002
3755000000.000 -7.2193145752E-002 -1.1865997314E-001 -1.1018514633E-003 -1.1059045792E-003 +4.4958665967E-005 -2.8282403946E-005 -6.2408447266E-003 -7.3688507080E-002
3887500000.000 -7.4077606201E-002 -1.2212753296E-001 -1.5205740929E-003 -3.4803152084E-004 -5.2526593208E-007 +7.1562826633E-005 +1.1577606201E-003 -5.6013107300E-002
4020000000.000 -7.5218200684E-002 -1.2538146973E-001 -1.3666749001E-003 +5.8597326279E-004 -1.1172145605E-004 -3.9026141167E-005 +1.3015747070E-002 -4.4218063354E-002
4152500000.000 -7.6385498047E-002 -1.3062286377E-001 -8.4918737411E-004 +1.1413693428E-003 +6.3509214669E-006 +2.4877954274E-006 +1.5373229980E-002 -3.3103942871E-002
4285000000.000 -7.8529357910E-002 -1.3514709473E-001 -6.3180923462E-006 +1.5468001366E-003 +1.0167062283E-004 -4.5895576477E-006 +1.6517639160E-002 -1.3564109802E-002
4417500000.000 -8.0764770508E-002 -1.3800048828E-001 +7.0548057556E-004 +1.1814236641E-003 -3.4363940358E-005 -2.0842999220E-005 +2.5328636169E-002 +3.4694671631E-003
4550000000.000 -8.0787658691E-002 -1.3796997070E-001 +1.4419555664E-003 +7.0816278458E-004 -4.0467828512E-005 +1.1848285794E-005 +2.8915405273E-002 +9.1028213501E-003
4682500000.000 -8.1817626953E-002 -1.4647674561E-001 +1.3650059700E-003 -2.3603439331E-004 +3.1707808375E-005 -3.3266842365E-005 +2.5686264038E-002 +1.9976615906E-002
4815000000.000 -8.4899902344E-002 -1.5051269531E-001 +1.0165572166E-003 -8.9418888092E-004 -5.2370131016E-005 +1.6365200281E-005 +3.1231880188E-002 +2.6871681213E-002
4947500000.000 -8.5464477539E-002 -1.5366363525E-001 +3.3360719681E-004 -1.2735128403E-003 -2.7424655855E-005 -2.2422522306E-005 +2.7742385864E-002 +1.9343376160E-002
5080000000.000 -8.5731506348E-002 -1.5788269043E-001 -5.0455331802E-004 -1.2596845627E-003 +6.2000006437E-005 -1.0676681995E-005 +1.3519287109E-002 +2.0054817200E-002
5212500000.000 -8.7501525879E-002 -1.6278839111E-001 -1.0614991188E-003 -7.8648328781E-004 -6.1564147472E-005 +6.6038221121E-005 +9.6330642700E-003 +2.4454116821E-002
5345000000.000 -8.9271545410E-002 -1.6538238525E-001 -1.3204216957E-003 -1.4483928680E-004 -3.8765370846E-005 +3.1685456634E-005 +5.9995651245E-003 +1.5681266785E-002
5477500000.000 -8.8172912598E-002 -1.6418457031E-001 -1.4526247978E-003 +6.9957971573E-004 +1.3185665011E-005 -2.8278678656E-005 -8.9650154114E-003 +9.8390579224E-003
5610000000.000 -9.0232849121E-002 -1.7300415039E-001 -6.1875581741E-004 +1.1180043221E-003 +1.7488375306E-005 +4.6864151955E-005 -1.4608860016E-002 +1.4613628387E-002
5742500000.000 -9.0751647949E-002 -1.7140197754E-001 +1.5598535538E-004 +1.6698241234E-003 -1.7872080207E-005 +8.8168308139E-006 -1.0845661163E-002 +5.8345794678E-003
5875000000.000 -9.4787597656E-002 -1.7710876465E-001 +8.1211328506E-004 +1.0296106339E-003 +4.0382146835E-005 -1.6231089830E-005 -1.9886016846E-002 -3.7136077881E-003
6007500000.000 -9.2353820801E-002 -1.7507934570E-001 +1.6137361526E-003 +5.1259994507E-004 +4.0467828512E-005 +1.7553567886E-005 -2.3105621338E-002 +2.3555755615E-004
6140000000.000 -9.3406677246E-002 -1.7927551270E-001 +1.6846060753E-003 -5.5021047592E-004 +9.1744586825E-006 -1.1111143976E-005 -1.5011787415E-002 -2.3851394653E-003
6272500000.000 -1.0085296631E-001 -1.8470764160E-001 +9.6973776817E-004 -9.2676281929E-004 +1.3286247849E-005 -6.0139223933E-005 -1.5895843506E-002 -1.1689186096E-002
6405000000.000 -1.0390472412E-001 -1.8436431885E-001 +3.2430887222E-004 -1.3168454170E-003 +2.0664185286E-005 +1.9998289645E-005 -1.9166946411E-002 -6.3447952271E-003
6537500000.000 -1.0389709473E-001 -1.8638610840E-001 -4.6288967133E-004 -1.3430118561E-003 -4.0914863348E-005 +1.1179596186E-005 -9.4137191772E-003 -2.9897689819E-003
6670000000.000 -1.0604095459E-001 -1.9078063965E-001 -1.0646581650E-003 -8.3184242249E-004 -7.0113688707E-005 -8.7302178144E-005 -7.6506137848E-003 -6.7818164825E-003
6802500000.000 -1.0581207275E-001 -1.9336700439E-001 -1.6784667969E-003 +2.8389692307E-004 +6.7213550210E-006 -2.0950101316E-005 -1.0894298553E-002 +2.1076202393E-004
6935000000.000 -1.0797119141E-001 -1.9303894043E-001 -1.1621117592E-003 +1.1155009270E-003 -4.0028244257E-005 +7.3369592428E-006 -6.5870285034E-003 +9.7045898438E-003
7067500000.000 -1.0767364502E-001 -1.9681549072E-001 -3.0374526978E-004 +1.6399025917E-003 -7.6144933701E-005 +6.5974891186E-006 -5.1121711731E-003 +1.0846614838E-002
7200000000.000 -1.1510467529E-001 -2.0109558105E-001 +1.9776821136E-004 +1.4640092850E-003 +3.0403025448E-005 +6.9290399551E-007 -1.4647483826E-002 +1.7614364624E-002
7332500000.000 -1.1934661865E-001 -2.0282745361E-001 +9.6386671066E-004 +1.1540651321E-003 +2.5920569897E-005 +4.6370550990E-005 -1.6870498657E-002 +3.0335426331E-002
7465000000.000 -1.1628723145E-001 -2.0594024658E-001 +1.6437172890E-003 +6.9320201874E-005 -2.9233284295E-005 +1.5698373318E-005 -2.0555496216E-002 +3.1322479248E-002
7597500000.000 -1.2152099609E-001 -2.0821380615E-001 +1.4134049416E-003 -3.9780139923E-004 +8.4936618805E-007 -8.8844448328E-005 -3.6544799805E-002 +3.4078598022E-002
7730000000.000 -1.2419128418E-001 -2.1282196045E-001 +1.0189414024E-003 -1.1667609215E-003 -2.5062821805E-005 +8.8671222329E-006 -4.7824859619E-002 +4.3506622314E-002
7862500000.000 -1.2583923340E-001 -2.1529388428E-001 +1.0520219803E-004 -1.5953779221E-003 -1.5167985111E-005 +1.1368189007E-005 -5.4098129272E-002 +4.2169570923E-002
7995000000.000 -1.2654113770E-001 -2.1728515625E-001 -7.5572729111E-004 -1.3642311096E-003 -8.4936618805E-006 -4.6601518989E-005 -7.3383331299E-002 +3.5686492920E-002
8127500000.000 -1.2738800049E-001 -2.2306823730E-001 -1.4410614967E-003 -7.3379278183E-004 +4.0013343096E-005 +1.2621283531E-005 -9.1003417969E-002 +3.9913177490E-002
8260000000.000 -1.2785339355E-001 -2.2830963135E-001 -1.4941692352E-003 +5.4377317429E-004 -4.1229650378E-005 +1.8725171685E-005 -9.5798492432E-002 +3.3977508545E-002
8392500000.000 -1.2792205811E-001 -2.3138427734E-001 -9.8323822021E-004 +1.3092756271E-003 +1.3229437172E-005 +9.9386088550E-006 -1.1017227173E-001 +1.8600463867E-002
8525000000.000 -1.2810516357E-001 -2.3506164551E-001 -7.2538852692E-005 +1.6919374466E-003 +4.7173351049E-005 -1.3502314687E-005 -1.2165832520E-001 +1.5026092529E-002
8657500000.000 -1.3146209717E-001 -2.3607635498E-001 +5.7303905487E-004 +1.5786290169E-003 -3.5949051380E-006 +5.5998563766E-005 -1.1790847778E-001 +3.9367675781E-003
8790000000.000 -1.3281250000E-001 -2.3907470703E-001 +1.3722777367E-003 +9.9062919617E-004 -5.1725655794E-005 -5.7555735111E-006 -1.1979293823E-001 -1.7074584961E-002
8922500000.000 -1.3332366943E-001 -2.3986053467E-001 +1.7380118370E-003 +4.9710273743E-005 +1.4739111066E-005 -3.8868747652E-006 -1.2181854248E-001 -3.0487060547E-002
9055000000.000 -1.3294219971E-001 -2.4367523193E-001 +1.4562606812E-003 -9.3019008636E-004 -9.0394169092E-006 +5.6222081184E-005 -1.1119842529E-001 -4.4620513916E-002
9187500000.000 -1.3426208496E-001 -2.4600982666E-001 +6.4885616302E-004 -1.7063021660E-003 +2.3153610528E-005 -8.0298632383E-006 -1.0070037842E-001 -6.6432952881E-002
9320000000.000 -1.3731384277E-001 -2.5042724609E-001 -6.6858530045E-004 -1.5513300896E-003 +3.0994415283E-005 +2.5287270546E-005 -9.2849731445E-002 -7.9288482666E-002
9452500000.000 -1.3812255859E-001 -2.4835205078E-001 -1.3098716736E-003 -1.2904405594E-003 -1.4028511941E-005 +6.9462694228E-006 -7.3932647705E-002 -8.7593078613E-002
9585000000.000 -1.3883972168E-001 -2.5436401367E-001 -1.6742348671E-003 -4.4703483582E-006 +3.1106173992E-006 -6.4644962549E-005 -5.5080413818E-002 -1.0120391846E-001
9717500000.000 -1.4233398438E-001 -2.5465393066E-001 -1.6788840294E-003 +7.2365999222E-004 +3.4149736166E-005 +4.9825757742E-006 -4.0977478027E-002 -1.0600280762E-001
9850000000.000 -1.4682006836E-001 -2.5718688965E-001 -5.4979324341E-004 +1.5935301781E-003 -7.1069225669E-006 -1.1564232409E-005 -1.8173217773E-002 -1.0285568237E-001
9982500000.000 -1.4593505859E-001 -2.5665283203E-001 +1.8090009689E-004 +1.8557906151E-003 -7.0523470640E-005 -5.3644180298E-007 +5.9127807617E-003 -1.0396575928E-001
10115000000.000 -1.4776611328E-001 -2.6040649414E-001 +1.1486411095E-003 +1.3745427132E-003 -2.4940818548E-006 -4.5135617256E-005 +1.9058227539E-002 -9.8335266113E-002
10247500000.000 -1.5240478516E-001 -2.6278686523E-001 +1.8713474274E-003 +4.8786401749E-004 -1.3206154108E-005 +6.0981139541E-005 +3.6670684814E-002 -7.9696655273E-002
10380000000.000 -1.5527343750E-001 -2.6321411133E-001 +1.7646551132E-003 -6.4319372177E-004 +8.2468613982E-006 -2.0626001060E-005 +5.7212829590E-002 -6.8168640137E-002
10512500000.000 -1.5638732910E-001 -2.6516723633E-001 +1.0947585106E-003 -1.4727115631E-003 +1.2574717402E-005 -4.0547922254E-005 +6.1878204346E-002 -5.5723190308E-002
10645000000.000 -1.5771484375E-001 -2.6879882813E-001 +6.1750411987E-005 -1.9134283066E-003 +5.6084245443E-006 -1.9143335521E-005 +6.6425323486E-002 -2.8541564941E-002
10777500000.000 -1.6392517090E-001 -2.7334594727E-001 -9.4234943390E-004 -1.2623667717E-003 -2.3024156690E-005 +1.0563060641E-005 +7.7713012695E-002 -8.1062316895E-003
10910000000.000 -1.6737365723E-001 -2.7502441406E-001 -1.4536976814E-003 -5.5664777756E-004 +1.0677613318E-005 -2.0745210350E-005 +7.2067260742E-002 +5.4168701172E-003
11042500000.000 -1.6758728027E-001 -2.7560424805E-001 -2.0129680634E-003 +3.6752223969E-004 +4.9270689487E-005 +7.3432922363E-005 +5.9305191040E-002 +3.1793594360E-002
11175000000.000 -1.7173767090E-001 -2.8118896484E-001 -1.1048316956E-003 +1.2623071671E-003 -4.0287151933E-005 +2.3975968361E-005 +5.6663513184E-002 +5.2608489990E-002
11307500000.000 -1.7192077637E-001 -2.8268432617E-001 -3.1965970993E-004 +1.9021630287E-003 -4.3433159590E-005 -1.3101845980E-005 +4.3289184570E-002 +5.8498382568E-002
11440000000.000 -1.7550659180E-001 -2.8451538086E-001 +8.4573030472E-004 +1.7832517624E-003 +4.9181282520E-005 +4.3859705329E-005 +1.7990112305E-002 +7.2547912598E-002
11572500000.000 -1.7605590820E-001 -2.8930664063E-001 +1.8121600151E-003 +9.4914436340E-004 +8.8464468718E-005 -6.6421926022E-006 +4.5204162598E-003 +8.7329864502E-002
11705000000.000 -1.7807006836E-001 -2.9167175293E-001 +1.9865036011E-003 -2.3746490479E-004 +6.0778111219E-006 -3.3294782043E-005 -1.0627746582E-002 +8.0856323242E-002
11837500000.000 -1.8289184570E-001 -2.9516601563E-001 +1.3784766197E-003 -1.0464787483E-003 +4.1689723730E-005 -1.8658116460E-005 -4.3148040771E-002 +7.7217102051E-002
11970000000.000 -1.8104553223E-001 -2.9652404785E-001 +4.6992301941E-004 -2.0364522934E-003 -1.0475516319E-005 -3.0828639865E-005 -5.8856964111E-002 +8.2859039307E-002
12102500000.000 -1.8339538574E-001 -2.9850769043E-001 -5.4985284805E-004 -1.6416907310E-003 +2.6006251574E-005 +7.0724636316E-006 -6.6116333008E-002 +6.3636779785E-002
12235000000.000 -1.8424987793E-001 -3.0201721191E-001 -1.7088055611E-003 -1.0971426964E-003 -7.5353309512E-006 -2.2298656404E-005 -9.3563079834E-002 +4.4834136963E-002
12367500000.000 -1.8699645996E-001 -3.0148315430E-001 -1.6087293625E-003 -1.1938810349E-004 +1.6927719116E-005 +4.5875087380E-005 -1.0451507568E-001 +4.2984008789E-002
12500000000.000 -1.8774414063E-001 -3.0284118652E-001 -1.5305280685E-003 +1.2441277504E-003 -4.4237822294E-005 +4.0605664253E-006 -9.7492218018E-002 +1.8905639648E-002
12632500000.000 -1.9021606445E-001 -3.0422973633E-001 -7.2830915451E-004 +1.4573931694E-003 -1.1339783669E-005 -3.4505501390E-005 -1.1062622070E-001 -1.3187408447E-002
12765000000.000 -1.9071960449E-001 -3.0775451660E-001 +5.8758258820E-004 +1.8174648285E-003 +4.5817345381E-005 -3.1463801861E-005 -1.1661911011E-001 -1.6937255859E-002
12897500000.000 -1.9302368164E-001 -3.0702209473E-001 +1.4928579330E-003 +1.1245012283E-003 +2.1670013666E-005 +8.1025063992E-008 -9.1495513916E-002 -3.5854339600E-002
13030000000.000 -1.9432067871E-001 -3.0760192871E-001 +1.7042160034E-003 +6.7889690399E-005 -1.6163103282E-006 +6.7453365773E-006 -9.0652465820E-002 -7.1853637695E-002
13162500000.000 -1.9711303711E-001 -3.0993652344E-001 +1.5514492989E-003 -8.8101625443E-004 +3.0919909477E-006 +3.8729980588E-005 -9.1724395752E-002 -7.1598052979E-002
13295000000.000 -1.9924926758E-001 -3.1167602539E-001 +6.9135427475E-004 -1.5914440155E-003 -2.4959445000E-006 -1.5459023416E-005 -5.9951782227E-002 -7.8941345215E-002
13427500000.000 -2.0254516602E-001 -3.1170654297E-001 -3.4445524216E-004 -1.7547607422E-003 -3.1799077988E-005 +6.1336904764E-005 -4.7145843506E-002 -1.0512542725E-001
13560000000.000 -2.0159912109E-001 -3.1001281738E-001 -7.6794624329E-004 -1.2881755829E-003 +7.3447823524E-005 -1.0689347982E-004 -4.6989440918E-002 -1.0095214844E-001
13692500000.000 -2.0448303223E-001 -3.1486511230E-001 -1.5902519226E-003 -2.1672248840E-004 +4.8935413361E-005 +6.5613538027E-005 -1.7143249512E-002 -8.9008331299E-002
13825000000.000 -2.0787048340E-001 -3.1427001953E-001 -1.6821622849E-003 +2.4652481079E-004 +2.9767863452E-005 -1.4024786651E-005 +4.3258666992E-003 -1.0348510742E-001
13957500000.000 -2.1090698242E-001 -3.1469726563E-001 -8.5955858231E-004 +1.3367533684E-003 +7.7523291111E-005 +6.7755579948E-005 -1.7166137695E-004 -9.5508575439E-002
14090000000.000 -2.1009826660E-001 -3.1431579590E-001 -2.1225214005E-004 +1.5740394592E-003 +7.0620328188E-005 +3.4678727388E-005 +2.2338867188E-002 -7.0404052734E-002
14222500000.000 -2.1151733398E-001 -3.1776428223E-001 +6.9975852966E-004 +1.5638470650E-003 -9.8571181297E-006 +1.2350082397E-004 +4.3663024902E-002 -7.4459075928E-002
14355000000.000 -2.1806335449E-001 -3.2069396973E-001 +1.5844106674E-003 +6.5141916275E-004 -6.4261257648E-005 +1.5791505575E-005 +3.3393859863E-002 -6.6341400146E-002
14487500000.000 -2.1984863281E-001 -3.2073974609E-001 +1.6454458237E-003 -3.6352872849E-004 -5.0280243158E-005 +4.4874846935E-005 +4.1221618652E-002 -3.4631729126E-002
14620000000.000 -2.1903991699E-001 -3.2337951660E-001 +1.0260939598E-003 -1.1693239212E-003 -2.3065134883E-005 +4.9162656069E-005 +6.0049057007E-002 -3.2266616821E-002
14752500000.000 -2.2251892090E-001 -3.2766723633E-001 +1.4603137970E-004 -1.5154480934E-003 -2.4007633328E-005 -3.9806589484E-005 +4.2707443237E-002 -3.1280517578E-002
14885000000.000 -2.2570800781E-001 -3.2875061035E-001 -6.9409608841E-004 -1.3214349747E-003 +4.6934932470E-005 +8.8177621365E-006 +3.7113189697E-002 +1.7871856689E-003
15017500000.000 -2.2546386719E-001 -3.3209228516E-001 -1.4690160751E-003 -7.1686506271E-004 -2.1725893021E-005 +4.0315091610E-005 +5.3163528442E-002 +7.1544647217E-003
15150000000.000 -2.2503662109E-001 -3.3436584473E-001 -1.6521215439E-003 -1.1795759201E-004 -2.2364780307E-005 -3.9687380195E-005 +3.3739089966E-002 -1.1100769043E-003
15282500000.000 -2.2572326660E-001 -3.3674621582E-001 -1.3501644135E-003 +7.3635578156E-004 +6.4581632614E-005 +3.8001686335E-005 +1.5692710876E-002 +2.4754524231E-002
