!  2-Port S-parameters saved by WinCal
! VAR MeasName=S-Parameters (CALIBRATED_DATA) read from VNA (C)
! VAR MeasDate=9/29/2015 2:58:34 PM
! VAR NAME=M6082_18_15_2_2_20C_6.2mA_-16.5dBm
! VAR FILENAME=M6082_18_15_2_2_20C_6.2mA_-16.5dBm.S2P
! VAR DATE=9/29/2015 2:58:34 PM
! VAR PHYS_PORTS=2,1
! VAR ObjTypeName=DATASET
! VAR IndexType=Frequency
!
# Hz S RI R 50
45000000.000 +9.9472999573E-003 -1.5311241150E-003 +1.1634826660E-004 +2.3491382599E-003 +1.7464905977E-004 -6.3732266426E-005 +2.7913093567E-002 +4.2848587036E-003
177500000.000 +9.3569755554E-003 -5.7034492493E-003 +6.0862302780E-004 +1.6798973083E-003 -1.7387792468E-005 +3.4738332033E-005 +1.6247749329E-002 +1.6720771790E-002
310000000.000 +9.4738006592E-003 -1.1106491089E-002 +1.6640424728E-003 +1.3386011124E-003 +5.6304037571E-005 +4.2358413339E-005 +2.9533386230E-002 +6.1450958252E-002
442500000.000 +9.2859268188E-003 -1.6149520874E-002 +2.4172067642E-003 +1.4150142670E-004 +1.9498914480E-004 +6.1795115471E-005 +7.2738647461E-002 +2.2018432617E-002
575000000.000 +9.3622207642E-003 -2.1561622620E-002 +1.7134547234E-003 -1.2000203133E-003 +4.8449262977E-005 +2.8455629945E-005 +2.7394294739E-002 +1.1029243469E-002
707500000.000 +8.1291198730E-003 -2.6696205139E-002 +7.8070163727E-004 -2.0234584808E-003 +3.2132491469E-005 -9.1269612312E-006 +2.1104812622E-003 +1.8446922302E-002
840000000.000 +7.8563690186E-003 -3.2279968262E-002 -5.4264068604E-004 -2.0666122437E-003 -1.7780810595E-005 -6.6492706537E-005 -2.0128250122E-002 +2.6168823242E-002
972500000.000 +7.8907012939E-003 -3.7055969238E-002 -1.5542507172E-003 -1.4461874962E-003 -2.4631619453E-005 +3.1642615795E-005 -3.5766601563E-002 +3.5837173462E-002
1105000000.000 +7.0266723633E-003 -4.2615890503E-002 -2.0802021027E-003 -3.4022331238E-004 -1.6992911696E-005 +1.0545365512E-005 -4.6724319458E-002 +3.8284301758E-002
1237500000.000 +6.2656402588E-003 -4.7298431396E-002 -1.8985271454E-003 +8.4185600281E-004 -3.0551105738E-005 -2.8200447559E-006 -5.8671951294E-002 +3.3777236938E-002
1370000000.000 +5.3272247314E-003 -5.2471160889E-002 -1.0817646980E-003 +1.6866922379E-003 +4.6264380217E-005 +2.8161332011E-005 -7.4096679688E-002 +2.7275085449E-002
1502500000.000 +4.7931671143E-003 -5.7262420654E-002 +1.2779235840E-004 +2.0768642426E-003 -2.9980204999E-005 -3.5557895899E-006 -8.7997436523E-002 +2.1572113037E-002
1635000000.000 +4.5433044434E-003 -6.2488555908E-002 +1.2640357018E-003 +1.5820860863E-003 +2.4820677936E-005 -8.5709616542E-006 -9.9113464355E-002 +1.1779785156E-002
1767500000.000 +3.5514831543E-003 -6.7951202393E-002 +2.0021200180E-003 +6.2501430511E-004 +2.5134533644E-005 +7.0806592703E-005 -1.1212921143E-001 +3.2234191895E-003
1900000000.000 +2.9525756836E-003 -7.1880340576E-002 +1.9727945328E-003 -4.9257278442E-004 +2.4631619453E-005 -2.2717751563E-005 -1.1387252808E-001 -3.1890869141E-003
2032500000.000 +4.7378540039E-003 -7.5458526611E-002 +1.2103915215E-003 -1.4743804932E-003 -5.3707510233E-005 -7.2296708822E-005 -1.1407470703E-001 -2.4074554443E-002
2165000000.000 +4.8370361328E-003 -8.1367492676E-002 +1.9717216492E-004 -1.8996596336E-003 -9.9837779999E-007 +6.3076615334E-005 -1.2284088135E-001 -4.1866302490E-002
2297500000.000 +8.7738037109E-004 -8.6051940918E-002 -7.3015689850E-004 -1.9840002060E-003 +2.2379681468E-005 -2.9617920518E-005 -1.2667083740E-001 -5.3321838379E-002
2430000000.000 +1.2969970703E-004 -9.0045928955E-002 -1.7048716545E-003 -1.1441111565E-003 +3.0525028706E-005 -1.6860663891E-005 -1.2725830078E-001 -6.4796447754E-002
2562500000.000 +3.1929016113E-003 -9.5500946045E-002 -1.8540620804E-003 +2.4497509003E-004 +1.2179464102E-004 +2.8360635042E-005 -1.2590026855E-001 -7.0205688477E-002
2695000000.000 +1.0986328125E-003 -9.9761962891E-002 -1.4739632607E-003 +1.1670589447E-003 -8.4966421127E-005 +1.4103949070E-004 -1.1357879639E-001 -7.2723388672E-002
2827500000.000 -4.6157836914E-003 -1.0200500488E-001 -7.6460838318E-004 +1.9334554672E-003 -6.0286372900E-005 +3.5166740417E-006 -9.8838806152E-002 -8.1783294678E-002
2960000000.000 -5.0354003906E-003 -1.0641098022E-001 +4.8601627350E-004 +2.0494461060E-003 +4.9930065870E-005 +5.8766454458E-005 -8.9050292969E-002 -8.6372375488E-002
3092500000.000 -7.0037841797E-003 -1.1196136475E-001 +1.3069510460E-003 +1.3046264648E-003 -9.9744647741E-005 +8.2958489656E-005 -7.0716857910E-002 -8.5227966309E-002
3225000000.000 -1.0425567627E-002 -1.1597061157E-001 +2.0861625671E-003 +2.6786327362E-004 -9.5944851637E-005 -8.0280005932E-005 -5.2143096924E-002 -9.1217041016E-002
3357500000.000 -1.1634826660E-002 -1.1862945557E-001 +1.8446445465E-003 -1.0038018227E-003 +8.6642801762E-005 -8.5197389126E-005 -4.2369842529E-002 -9.2102050781E-002
3490000000.000 -1.3076782227E-002 -1.2386703491E-001 +1.1233687401E-003 -1.7066001892E-003 +5.7805329561E-005 +5.1790848374E-005 -2.8800964355E-002 -8.2901000977E-002
3622500000.000 -1.5312194824E-002 -1.2947845459E-001 -1.0085105896E-004 -2.1586418152E-003 -2.9204413295E-005 -2.4247914553E-005 -1.1356353760E-002 -7.8956604004E-002
3755000000.000 -1.7944335938E-002 -1.3426208496E-001 -1.2798309326E-003 -1.6235113144E-003 +8.2116574049E-005 -1.4901161194E-005 -6.3705444336E-003 -7.3749542236E-002
3887500000.000 -2.0065307617E-002 -1.3832855225E-001 -1.9523501396E-003 -6.4486265182E-004 +8.3338469267E-005 +8.6612999439E-006 +1.0776519775E-003 -5.6121826172E-002
4020000000.000 -2.0538330078E-002 -1.4683532715E-001 -1.5801787376E-003 +7.0202350616E-004 -3.4375116229E-005 +4.1244551539E-005 +1.2969970703E-002 -4.4267654419E-002
4152500000.000 -2.2315979004E-002 -1.5202331543E-001 -8.4012746811E-004 +1.4247298241E-003 +1.8334016204E-005 +1.0869465768E-005 +1.5399932861E-002 -3.3292770386E-002
4285000000.000 -2.4856567383E-002 -1.5713500977E-001 +9.9182128906E-005 +1.6811490059E-003 +5.2550807595E-005 +1.4185905457E-005 +1.6550064087E-002 -1.3703346252E-002
4417500000.000 -2.7793884277E-002 -1.5638732910E-001 +1.0455250740E-003 +1.7207264900E-003 -2.5792978704E-005 -5.3076073527E-006 +2.5268554688E-002 +3.3369064331E-003
4550000000.000 -2.8450012207E-002 -1.6040802002E-001 +1.7980337143E-003 +9.0223550797E-004 +2.8594397008E-005 -9.8422169685E-006 +2.9080390930E-002 +9.0732574463E-003
4682500000.000 -2.9815673828E-002 -1.6573333740E-001 +2.0148754120E-003 -2.6583671570E-004 +3.4556724131E-006 +4.5597553253E-006 +2.5758743286E-002 +1.9851684570E-002
4815000000.000 -3.2493591309E-002 -1.7385101318E-001 +1.2300610542E-003 -1.1415481567E-003 -2.0341016352E-005 +3.1925737858E-006 +3.1239509583E-002 +2.6768684387E-002
4947500000.000 -3.3988952637E-002 -1.7359161377E-001 +4.2784214020E-004 -1.8856525421E-003 +7.9916790128E-006 -2.4426728487E-005 +2.7820587158E-002 +1.9150733948E-002
5080000000.000 -3.4484863281E-002 -1.7810821533E-001 -5.7715177536E-004 -1.7740726471E-003 +2.9942020774E-005 -3.4896656871E-005 +1.3532638550E-002 +1.9978523254E-002
5212500000.000 -3.6834716797E-002 -1.8315124512E-001 -1.6230344772E-003 -1.2359619141E-003 -1.5214085579E-005 -1.2673903257E-005 +9.6788406372E-003 +2.4284362793E-002
5345000000.000 -3.8757324219E-002 -1.8595123291E-001 -1.9756555557E-003 -1.1897087097E-004 -5.1774084568E-005 -9.0319663286E-005 +6.1368942261E-003 +1.5669822693E-002
5477500000.000 -3.8825988770E-002 -1.8929290771E-001 -1.6854405403E-003 +9.7507238388E-004 +4.9995258451E-005 -2.6872381568E-005 -8.8682174683E-003 +9.7522735596E-003
5610000000.000 -3.9794921875E-002 -1.9402313232E-001 -9.4163417816E-004 +1.8274188042E-003 +2.9127113521E-007 +4.0698796511E-006 -1.4427185059E-002 +1.4523983002E-002
5742500000.000 -4.2427062988E-002 -1.9712829590E-001 +2.7793645859E-004 +1.9387006760E-003 +1.6422942281E-005 +7.3583796620E-006 -1.0666370392E-002 +5.8650970459E-003
5875000000.000 -4.4128417969E-002 -1.9917297363E-001 +1.3334751129E-003 +1.3483166695E-003 +2.4601817131E-005 -7.6692551374E-005 -1.9650459290E-002 -3.7012100220E-003
6007500000.000 -4.4799804688E-002 -2.0147705078E-001 +1.8652081490E-003 +5.3834915161E-004 +3.1109899282E-005 +2.0524486899E-005 -2.2958755493E-002 +2.2506713867E-004
6140000000.000 -4.6432495117E-002 -2.0607757568E-001 +1.8711686134E-003 -7.1424245834E-004 -5.6166201830E-005 -2.1494925022E-006 -1.4890193939E-002 -2.3503303528E-003
6272500000.000 -5.0209045410E-002 -2.0919036865E-001 +1.1144280434E-003 -1.6175508499E-003 +3.2823532820E-005 -4.3995678425E-006 -1.5737533569E-002 -1.1622428894E-002
6405000000.000 -5.3337097168E-002 -2.0982360840E-001 -3.8623809814E-005 -1.9925832748E-003 +3.0545517802E-005 +7.9628080130E-006 -1.9079208374E-002 -6.2961578369E-003
6537500000.000 -5.7540893555E-002 -2.1365356445E-001 -7.8642368317E-004 -1.5874505043E-003 -3.9422884583E-005 +2.1455809474E-005 -9.3855857849E-003 -2.9034614563E-003
6670000000.000 -5.5923461914E-002 -2.1797180176E-001 -1.7965435982E-003 -7.2550773621E-004 -1.6197562218E-005 -3.2735988498E-005 -7.6520442963E-003 -6.5650939941E-003
6802500000.000 -6.5093994141E-002 -2.2172546387E-001 -1.7076730728E-003 +1.6492605209E-004 +1.4187768102E-005 +3.2220035791E-005 -1.0822772980E-002 +2.6512145996E-004
6935000000.000 -6.6909790039E-002 -2.2161102295E-001 -1.3465881348E-003 +1.1624693871E-003 -7.2130933404E-006 +2.8708949685E-005 -6.5793991089E-003 +9.7880363464E-003
7067500000.000 -6.7207336426E-002 -2.2538757324E-001 -4.4429302216E-004 +1.6474723816E-003 -6.2201172113E-005 -9.0062618256E-005 -5.1641464233E-003 +1.0885238647E-002
7200000000.000 -7.0663452148E-002 -2.3071289063E-001 +5.8871507645E-004 +1.5964508057E-003 +4.2075291276E-005 +6.1895698309E-006 -1.4671325684E-002 +1.7707824707E-002
7332500000.000 -7.5500488281E-002 -2.3289489746E-001 +1.3700723648E-003 +1.0505914688E-003 -9.8440796137E-006 -3.0888244510E-005 -1.6948699951E-002 +3.0277252197E-002
7465000000.000 -7.7003479004E-002 -2.3470306396E-001 +1.7994046211E-003 +1.6659498215E-004 -2.4709850550E-005 -8.2973390818E-005 -2.0692825317E-002 +3.1257629395E-002
7597500000.000 -7.5553894043E-002 -2.3964691162E-001 +1.6116499901E-003 -1.0505914688E-003 +2.6751309633E-005 -9.7561627626E-005 -3.6615371704E-002 +3.4179687500E-002
7730000000.000 -8.1817626953E-002 -2.4389648438E-001 +8.4596872330E-004 -1.6241669655E-003 -2.4605542421E-005 +5.9494748712E-005 -4.7790527344E-002 +4.3609619141E-002
7862500000.000 -8.1878662109E-002 -2.4756622314E-001 -3.1322240829E-004 -1.8172264099E-003 +8.3958730102E-006 -2.0692124963E-005 -5.4258346558E-002 +4.2142868042E-002
7995000000.000 -8.5494995117E-002 -2.4896240234E-001 -1.0762214661E-003 -1.3411045074E-003 -3.1981617212E-006 -4.5867636800E-005 -7.3497772217E-002 +3.5598754883E-002
8127500000.000 -8.4518432617E-002 -2.5648498535E-001 -1.9035935402E-003 -3.3479928970E-004 +1.0088086128E-005 +8.8620930910E-005 -9.1079711914E-002 +3.9974212646E-002
8260000000.000 -8.8439941406E-002 -2.5874328613E-001 -1.7398595810E-003 +7.2121620178E-004 -3.2920390368E-005 -3.0156224966E-006 -9.5767974854E-002 +3.4027099609E-002
8392500000.000 -8.9004516602E-002 -2.6193237305E-001 -1.0751485825E-003 +1.5261173248E-003 +1.3260170817E-005 -2.3539178073E-005 -1.1008834839E-001 +1.8779754639E-002
8525000000.000 -8.9462280273E-002 -2.6568603516E-001 -2.5272369385E-005 +2.0089149475E-003 +5.5190175772E-006 +1.9296072423E-005 -1.2168502808E-001 +1.5083312988E-002
8657500000.000 -9.1583251953E-002 -2.6998901367E-001 +1.0976195335E-003 +1.6321539879E-003 -8.7060034275E-006 +6.5922737122E-005 -1.1791610718E-001 +4.0054321289E-003
8790000000.000 -9.3566894531E-002 -2.7316284180E-001 +1.9077658653E-003 +8.1294775009E-004 -2.1182000637E-005 -7.6480209827E-005 -1.1973571777E-001 -1.7089843750E-002
8922500000.000 -9.4802856445E-002 -2.7452087402E-001 +2.0349025726E-003 -4.4262409210E-004 +5.6797638535E-005 -2.1569430828E-005 -1.2180328369E-001 -3.0387878418E-002
9055000000.000 -9.6130371094E-002 -2.7604675293E-001 +1.5243887901E-003 -1.3400316238E-003 +6.6282227635E-006 +1.2691598386E-005 -1.1129379272E-001 -4.4525146484E-002
9187500000.000 -9.7885131836E-002 -2.7859497070E-001 +5.2243471146E-004 -1.9506216049E-003 +2.3940578103E-005 -4.6741217375E-005 -1.0084533691E-001 -6.6310882568E-002
9320000000.000 -1.0110473633E-001 -2.8193664551E-001 -8.3339214325E-004 -1.9446611404E-003 +3.1378120184E-005 +7.6144933701E-006 -9.3006134033E-002 -7.9090118408E-002
9452500000.000 -1.0231018066E-001 -2.8346252441E-001 -1.8413066864E-003 -1.1312365532E-003 -5.0600618124E-005 +2.5535002351E-005 -7.4043273926E-002 -8.7520599365E-002
9585000000.000 -1.0391235352E-001 -2.8431701660E-001 -2.0934343338E-003 -5.6505203247E-005 +3.0082650483E-005 +1.3783574104E-007 -5.5248260498E-002 -1.0117340088E-001
9717500000.000 -1.0804748535E-001 -2.8758239746E-001 -1.7225742340E-003 +1.2147426605E-003 +1.4650169760E-005 -5.2759423852E-006 -4.1107177734E-002 -1.0589981079E-001
9850000000.000 -1.1236572266E-001 -2.8738403320E-001 -8.1646442413E-004 +2.0177364349E-003 +4.6778470278E-005 +7.1305781603E-005 -1.8280029297E-002 -1.0279083252E-001
9982500000.000 -1.1277770996E-001 -2.9183959961E-001 +6.7174434662E-004 +2.0637512207E-003 -4.6266242862E-005 +3.9674341679E-007 +5.6495666504E-003 -1.0403823853E-001
10115000000.000 -1.1528015137E-001 -2.9550170898E-001 +1.6843080521E-003 +1.3799071312E-003 +7.7113509178E-006 -8.6143612862E-005 +1.8680572510E-002 -9.8354339600E-002
10247500000.000 -1.2062072754E-001 -2.9785156250E-001 +2.0948648453E-003 +1.4901161194E-004 +3.3855438232E-005 +1.0415539145E-004 +3.6560058594E-002 -7.9860687256E-002
10380000000.000 -1.2364196777E-001 -2.9827880859E-001 +1.8555521965E-003 -1.0491609573E-003 +1.3555400074E-005 +6.1606988311E-007 +5.7064056396E-002 -6.8557739258E-002
10512500000.000 -1.2571716309E-001 -3.0041503906E-001 +9.0849399567E-004 -1.9363760948E-003 -1.1827796698E-005 +1.0258518159E-005 +6.1700820923E-002 -5.6047439575E-002
10645000000.000 -1.2710571289E-001 -3.0128479004E-001 -1.2981891632E-004 -2.2047758102E-003 +3.3395364881E-005 +2.6326626539E-005 +6.6318511963E-002 -2.8694152832E-002
10777500000.000 -1.3150024414E-001 -3.0427551270E-001 -1.3626813889E-003 -1.7454028130E-003 -1.9206665456E-005 -2.5359913707E-005 +7.7842712402E-002 -8.3618164063E-003
10910000000.000 -1.3536071777E-001 -3.0644226074E-001 -2.1467208862E-003 -7.2944164276E-004 -1.4173798263E-005 -1.0374002159E-005 +7.2177886963E-002 +4.9514770508E-003
11042500000.000 -1.3960266113E-001 -3.1015014648E-001 -2.0041465759E-003 +8.7416172028E-004 +3.0871480703E-005 -6.4779073000E-005 +5.9412002563E-002 +3.1576156616E-002
11175000000.000 -1.4047241211E-001 -3.1288146973E-001 -1.4730095863E-003 +1.8253922462E-003 -2.8814189136E-005 -1.1024065316E-005 +5.6909561157E-002 +5.2446365356E-002
11307500000.000 -1.4318847656E-001 -3.1559753418E-001 -6.0200691223E-005 +2.2561550140E-003 -1.1189840734E-005 -1.5087425709E-007 +4.3655395508E-002 +5.8177947998E-002
11440000000.000 -1.4721679688E-001 -3.1747436523E-001 +1.2370347977E-003 +1.9578933716E-003 +7.7277421951E-005 -1.4159828424E-005 +1.8386840820E-002 +7.2139739990E-002
11572500000.000 -1.5003967285E-001 -3.2296752930E-001 +1.9707679749E-003 +6.9236755371E-004 -2.4093315005E-006 -3.1910603866E-006 +4.8942565918E-003 +8.7261199951E-002
11705000000.000 -1.5258789063E-001 -3.2504272461E-001 +2.1768808365E-003 -5.1486492157E-004 -4.0685757995E-005 -2.3268163204E-005 -1.0284423828E-002 +8.0913543701E-002
11837500000.000 -1.5545654297E-001 -3.2814025879E-001 +1.3840794563E-003 -1.7508864403E-003 +3.6653131247E-005 -3.4922733903E-005 -4.2873382568E-002 +7.7358245850E-002
11970000000.000 -1.5632629395E-001 -3.2908630371E-001 +2.0003318787E-004 -2.1443367004E-003 +5.4560601711E-005 +8.2880258560E-005 -5.8555603027E-002 +8.2977294922E-002
12102500000.000 -1.5689086914E-001 -3.3140563965E-001 -1.0697245598E-003 -1.9175410271E-003 +1.3696029782E-005 -1.7412006855E-005 -6.5860748291E-002 +6.3865661621E-002
12235000000.000 -1.6026306152E-001 -3.3424377441E-001 -2.0104646683E-003 -9.4032287598E-004 +1.0351836681E-004 -5.9254467487E-005 -9.3284606934E-002 +4.5093536377E-002
12367500000.000 -1.6125488281E-001 -3.3436584473E-001 -2.1451711655E-003 +3.1554698944E-004 -1.1698342860E-005 +7.0519745350E-006 -1.0418701172E-001 +4.3357849121E-002
12500000000.000 -1.6445922852E-001 -3.3432006836E-001 -1.4376044273E-003 +1.4603137970E-003 -2.9616057873E-005 +8.9678913355E-005 -9.7240447998E-002 +1.9237518311E-002
12632500000.000 -1.6560363770E-001 -3.3720397949E-001 -3.9505958557E-004 +2.1563768387E-003 +2.1122395992E-006 -8.5491687059E-005 -1.1069488525E-001 -1.2851715088E-002
12765000000.000 -1.6786193848E-001 -3.3885192871E-001 +8.0060958862E-004 +1.9231438637E-003 +5.7062134147E-005 +4.1835010052E-006 -1.1659622192E-001 -1.6555786133E-002
12897500000.000 -1.7044067383E-001 -3.3787536621E-001 +1.8100738525E-003 +1.1256337166E-003 -1.2491829693E-005 +2.1541491151E-005 -9.1464996338E-002 -3.5667419434E-002
13030000000.000 -1.7100524902E-001 -3.4037780762E-001 +2.3851394653E-003 -1.9550323486E-004 -1.0198354721E-004 -6.9990754128E-005 -9.0839385986E-002 -7.1701049805E-002
13162500000.000 -1.7471313477E-001 -3.4065246582E-001 +1.6202330589E-003 -1.2004971504E-003 +2.7593225241E-005 -2.0207837224E-005 -9.2159271240E-002 -7.1205139160E-002
13295000000.000 -1.7715454102E-001 -3.4439086914E-001 +5.4073333740E-004 -2.1997690201E-003 +5.5912882090E-005 +8.3532184362E-005 -6.0119628906E-002 -7.8804016113E-002
13427500000.000 -1.8101501465E-001 -3.4423828125E-001 -8.2886219025E-004 -2.1965503693E-003 -2.9167160392E-005 -3.1912699342E-005 -4.7515869141E-002 -1.0534667969E-001
13560000000.000 -1.7977905273E-001 -3.4239196777E-001 -1.5820860863E-003 -1.3037323952E-003 +8.5681676865E-006 -7.4323266745E-005 -4.7573089600E-002 -1.0109329224E-001
13692500000.000 -1.8322753906E-001 -3.4523010254E-001 -2.0161867142E-003 -1.9049644470E-004 +1.7762184143E-005 +1.0236725211E-004 -1.7375946045E-002 -8.9069366455E-002
13825000000.000 -1.8713378906E-001 -3.4634399414E-001 -1.7383694649E-003 +9.3758106232E-004 +2.3700296879E-005 -2.6995316148E-005 +4.2991638184E-003 -1.0374069214E-001
13957500000.000 -1.9006347656E-001 -3.4495544434E-001 -8.6116790771E-004 +1.6334652901E-003 -1.6961246729E-005 +1.2991018593E-005 -5.0354003906E-004 -9.5912933350E-002
14090000000.000 -1.9021606445E-001 -3.4626770020E-001 +1.8459558487E-004 +1.9319057465E-003 -7.1965157986E-005 +2.3830682039E-005 +2.2151947021E-002 -7.0716857910E-002
14222500000.000 -1.9398498535E-001 -3.5061645508E-001 +1.6289353371E-003 +1.2894868851E-003 +2.6673078537E-006 +9.1340392828E-005 +4.3594360352E-002 -7.4668884277E-002
14355000000.000 -1.9810485840E-001 -3.5064697266E-001 +1.9327998161E-003 +7.0559978485E-004 +8.1297010183E-005 -1.5791505575E-005 +3.3626556396E-002 -6.6673278809E-002
14487500000.000 -2.0190429688E-001 -3.5122680664E-001 +1.6375184059E-003 -1.0889768600E-003 -3.2559037209E-006 +8.8103115559E-005 +4.1332244873E-002 -3.4793853760E-002
14620000000.000 -2.0185852051E-001 -3.5360717773E-001 +6.5606832504E-004 -1.7522573471E-003 -3.2629817724E-005 -3.4168362617E-005 +6.0190200806E-002 -3.2476425171E-002
14752500000.000 -2.0312500000E-001 -3.5722351074E-001 +2.5153160095E-005 -2.0365715027E-003 -6.8537890911E-005 -4.7665089369E-005 +4.2858123779E-002 -3.1087875366E-002
14885000000.000 -2.0668029785E-001 -3.5815429688E-001 -1.0528564453E-003 -1.6831755638E-003 +7.4595212936E-005 +2.8178095818E-005 +3.7343978882E-002 +1.6002655029E-003
15017500000.000 -2.0861816406E-001 -3.6128234863E-001 -1.8374323845E-003 -3.9929151535E-004 -8.0294907093E-005 +1.3756752014E-004 +5.3314208984E-002 +7.1048736572E-003
15150000000.000 -2.0948791504E-001 -3.6462402344E-001 -1.7368793488E-003 +6.7609548569E-004 -7.3615461588E-005 -1.0035932064E-005 +3.3899307251E-002 -9.0217590332E-004
15282500000.000 -2.0884704590E-001 -3.6692810059E-001 -1.3021826744E-003 +1.3934969902E-003 +1.3357028365E-005 -4.3947249651E-005 +1.5793800354E-002 +2.4918556213E-002
