!  2-Port S-parameters saved by WinCal
! VAR MeasName=S-Parameters (CALIBRATED_DATA) read from VNA (C)
! VAR MeasDate=9/29/2015 3:11:42 PM
! VAR NAME=M6082_18_15_2_2_20C_1.8mA_-17.5dBm
! VAR FILENAME=M6082_18_15_2_2_20C_1.8mA_-17.5dBm.S2P
! VAR DATE=9/29/2015 3:11:42 PM
! VAR PHYS_PORTS=2,1
! VAR ObjTypeName=DATASET
! VAR IndexType=Frequency
!
# Hz S RI R 50
45000000.000 +1.9751739502E-001 -3.8452148438E-003 -9.0306997299E-004 +9.1665983200E-004 +2.5324523449E-004 +1.5076994896E-004 +2.8614044189E-002 +2.5939941406E-003
177500000.000 +1.9130706787E-001 -1.2458801270E-002 +5.4067373276E-004 +1.0851621628E-003 -1.4684349298E-004 +1.7090141773E-004 +1.6091346741E-002 +1.6354560852E-002
310000000.000 +1.9467926025E-001 -2.1942138672E-002 +8.7606906891E-004 +6.7564845085E-004 -7.2754919529E-005 -1.2132152915E-004 +2.9518127441E-002 +6.1264038086E-002
442500000.000 +1.8685913086E-001 -2.7549743652E-002 +1.5065073967E-003 -6.8187713623E-005 +2.6535242796E-005 -6.6149979830E-005 +7.2452545166E-002 +2.1923065186E-002
575000000.000 +1.8312835693E-001 -3.3950805664E-002 +1.1599063873E-003 -8.9180469513E-004 -4.3595209718E-005 -2.0191073418E-005 +2.7274131775E-002 +1.0978698730E-002
707500000.000 +1.8286895752E-001 -4.2022705078E-002 +3.1417608261E-004 -1.3570785522E-003 -6.6878274083E-006 +2.5080516934E-006 +2.0427703857E-003 +1.8256187439E-002
840000000.000 +1.7968750000E-001 -4.7698974609E-002 -5.8937072754E-004 -1.3220310211E-003 +1.3262033463E-006 -4.1002407670E-005 -2.0215034485E-002 +2.5907516479E-002
972500000.000 +1.8009185791E-001 -5.5366516113E-002 -1.1512637138E-003 -7.8636407852E-004 -6.8195164204E-005 +7.2691589594E-005 -3.5758972168E-002 +3.5737991333E-002
1105000000.000 +1.7904663086E-001 -6.3514709473E-002 -1.4033913612E-003 +4.4345855713E-005 -9.0152025223E-006 -5.9245154262E-005 -4.6628952026E-002 +3.8017272949E-002
1237500000.000 +1.7831420898E-001 -7.0556640625E-002 -1.0442137718E-003 +7.7867507935E-004 +9.5080584288E-005 +2.5998800993E-005 -5.8593750000E-002 +3.3615112305E-002
1370000000.000 +1.7663574219E-001 -7.8338623047E-002 -4.4262409210E-004 +1.2800097466E-003 -4.3949112296E-006 +1.7114914954E-005 -7.4134826660E-002 +2.7153015137E-002
1502500000.000 +1.7438507080E-001 -8.3183288574E-002 +4.4256448746E-004 +1.3374090195E-003 -3.1661242247E-005 +3.8979575038E-005 -8.7924957275E-002 +2.1514892578E-002
1635000000.000 +1.7507171631E-001 -9.2895507813E-002 +1.1010169983E-003 +8.0478191376E-004 +4.8700720072E-005 +1.8574297428E-005 -9.9082946777E-002 +1.1692047119E-002
1767500000.000 +1.7267608643E-001 -9.9708557129E-002 +1.3464093208E-003 +5.4180622101E-005 +1.4659017324E-005 +3.7461519241E-005 -1.1205291748E-001 +3.1547546387E-003
1900000000.000 +1.6968536377E-001 -1.0166931152E-001 +1.2479424477E-003 -7.4487924576E-004 -3.9115548134E-007 +2.8768554330E-005 -1.1385726929E-001 -3.3493041992E-003
2032500000.000 +1.6749572754E-001 -1.0760498047E-001 +6.2984228134E-004 -1.3485550880E-003 +1.9408762455E-005 -7.3663890362E-005 -1.1396026611E-001 -2.4093627930E-002
2165000000.000 +1.6537475586E-001 -1.1335754395E-001 -2.9730796814E-004 -1.4163851738E-003 +1.7162412405E-005 +9.2122703791E-005 -1.2273025513E-001 -4.1812896729E-002
2297500000.000 +1.6049957275E-001 -1.1787414551E-001 -9.4819068909E-004 -1.0992884636E-003 +3.7282705307E-005 +7.6204538345E-005 -1.2670135498E-001 -5.3321838379E-002
2430000000.000 +1.5864562988E-001 -1.2300109863E-001 -1.5204548836E-003 -2.1392107010E-004 +2.1379441023E-005 -1.0397657752E-004 -1.2727355957E-001 -6.4758300781E-002
2562500000.000 +1.5774536133E-001 -1.3015747070E-001 -1.4542341232E-003 +5.7351589203E-004 +1.4349073172E-004 +5.5804848671E-006 -1.2586975098E-001 -7.0137023926E-002
2695000000.000 +1.5331268311E-001 -1.3557434082E-001 -8.9365243912E-004 +1.1859536171E-003 +4.6886503696E-005 -8.1900507212E-005 -1.1374282837E-001 -7.2570800781E-002
2827500000.000 +1.5106201172E-001 -1.4048004150E-001 -1.7732381821E-004 +1.5106201172E-003 +3.5770237446E-005 -1.1345744133E-004 -9.8896026611E-002 -8.1901550293E-002
2960000000.000 +1.5050506592E-001 -1.4785003662E-001 +7.8165531158E-004 +1.4027953148E-003 +2.0410865545E-005 -9.8288059235E-005 -8.9084625244E-002 -8.6402893066E-002
3092500000.000 +1.4682769775E-001 -1.5483856201E-001 +1.4774203300E-003 +5.1873922348E-004 -8.0585479736E-005 -2.7205795050E-005 -7.0625305176E-002 -8.5155487061E-002
3225000000.000 +1.4214324951E-001 -1.6044616699E-001 +1.4086961746E-003 -3.8278102875E-004 +9.4942748547E-005 -2.5950372219E-005 -5.1990509033E-002 -9.1262817383E-002
3357500000.000 +1.3969421387E-001 -1.6517639160E-001 +9.9486112595E-004 -1.0862350464E-003 -2.4978071451E-006 -3.4421682358E-005 -4.2350769043E-002 -9.1964721680E-002
3490000000.000 +1.3733673096E-001 -1.7144775391E-001 +3.3891201019E-004 -1.5537738800E-003 +2.8899870813E-005 +1.4304183424E-005 -2.8816223145E-002 -8.2847595215E-002
3622500000.000 +1.3426208496E-001 -1.7836761475E-001 -7.3349475861E-004 -1.5372633934E-003 +2.9244460166E-005 +2.3159198463E-005 -1.1516571045E-002 -7.8918457031E-002
3755000000.000 +1.3154602051E-001 -1.8539428711E-001 -1.5415549278E-003 -7.1579217911E-004 +5.5756419897E-005 -2.7660280466E-005 -6.3095092773E-003 -7.3585510254E-002
3887500000.000 +1.3025665283E-001 -1.9232940674E-001 -1.7021298409E-003 +2.6726722717E-004 -1.7225742340E-005 +5.9809535742E-005 +9.7846984863E-004 -5.6156158447E-002
4020000000.000 +1.2915039063E-001 -1.9815063477E-001 -1.2341141701E-003 +1.3177990913E-003 +9.6531584859E-007 +1.0010320693E-005 +1.2886047363E-002 -4.4143676758E-002
4152500000.000 +1.2904357910E-001 -2.0837402344E-001 -1.1259317398E-004 +1.9198656082E-003 +2.9475428164E-005 -8.7823718786E-007 +1.5289306641E-002 -3.3117294312E-002
4285000000.000 +1.2728118896E-001 -2.2077178955E-001 +1.2413263321E-003 +1.4727711678E-003 +8.7758526206E-006 +2.5921501219E-005 +1.6508102417E-002 -1.3777732849E-002
4417500000.000 +1.2394714355E-001 -2.3124694824E-001 +1.8849372864E-003 +2.4718046188E-004 -1.4018267393E-005 -1.1352356523E-005 +2.5300979614E-002 +3.4294128418E-003
4550000000.000 +1.2080383301E-001 -2.4221801758E-001 +1.4516115189E-003 -1.0093450546E-003 +1.0617077351E-006 -9.6119940281E-005 +2.9020309448E-002 +9.0456008911E-003
4682500000.000 +1.1309814453E-001 -2.5556945801E-001 +3.3372640610E-004 -1.6075372696E-003 +6.3266605139E-005 -2.3320317268E-006 +2.5541305542E-002 +1.9830703735E-002
4815000000.000 +1.0559082031E-001 -2.6350402832E-001 -7.3927640915E-004 -1.4078617096E-003 -6.4902007580E-005 +3.8199126720E-005 +3.1238555908E-002 +2.6759147644E-002
4947500000.000 +1.0089111328E-001 -2.6947021484E-001 -1.4317035675E-003 -5.7363510132E-004 -3.0329450965E-005 -1.1249445379E-005 +2.7904510498E-002 +1.9161224365E-002
5080000000.000 +9.4100952148E-002 -2.7629089355E-001 -1.4563202858E-003 +4.0334463120E-004 +1.5579164028E-005 +2.6193447411E-005 +1.3585090637E-002 +1.9990921021E-002
5212500000.000 +8.7692260742E-002 -2.8236389160E-001 -8.6975097656E-004 +1.1862516403E-003 -5.0885602832E-005 +5.0146132708E-005 +9.6969604492E-003 +2.4269104004E-002
5345000000.000 +8.3206176758E-002 -2.8602600098E-001 -7.2121620178E-005 +1.5107393265E-003 +5.0086528063E-006 -3.4194439650E-005 +6.0768127441E-003 +1.5651702881E-002
5477500000.000 +7.8125000000E-002 -2.8967285156E-001 +8.7457895279E-004 +1.1752247810E-003 +1.2448057532E-005 -2.3716129363E-006 -8.9125633240E-003 +9.6793174744E-003
5610000000.000 +7.2906494141E-002 -2.9425048828E-001 +1.3737082481E-003 +3.5423040390E-004 +5.0667673349E-005 +2.6160851121E-005 -1.4434814453E-002 +1.4567852020E-002
5742500000.000 +6.8099975586E-002 -2.9774475098E-001 +1.2483596802E-003 -5.4216384888E-004 -5.1990151405E-005 -5.6866556406E-006 -1.0699748993E-002 +5.8102607727E-003
5875000000.000 +6.3552856445E-002 -2.9969787598E-001 +7.5966119766E-004 -1.1675953865E-003 +4.5588240027E-005 -3.3723190427E-005 -1.9723892212E-002 -3.6668777466E-003
6007500000.000 +5.9326171875E-002 -3.0130004883E-001 -1.2040138245E-004 -1.3107061386E-003 +4.4433400035E-005 +7.8752636909E-006 -2.2983551025E-002 +1.5449523926E-004
6140000000.000 +5.5130004883E-002 -3.0575561523E-001 -8.3518028259E-004 -1.0512471199E-003 +1.4153774828E-006 +1.3067037798E-006 -1.4856815338E-002 -2.2335052490E-003
6272500000.000 +4.9392700195E-002 -3.0906677246E-001 -1.2415051460E-003 -4.6926736832E-004 -3.9227306843E-005 +4.9788504839E-006 -1.5793800354E-002 -1.1583328247E-002
6405000000.000 +4.3334960938E-002 -3.0882263184E-001 -1.2379884720E-003 +4.7421455383E-004 +3.7161633372E-005 -1.8740072846E-005 -1.9171714783E-002 -6.3552856445E-003
6537500000.000 +4.0756225586E-002 -3.1082153320E-001 -6.9499015808E-004 +1.0126829147E-003 -6.4842402935E-005 +2.9731541872E-005 -9.4070434570E-003 -2.8629302979E-003
6670000000.000 +3.6575317383E-002 -3.1584167480E-001 -1.1205673218E-005 +1.2639760971E-003 +7.8268349171E-006 -1.1554453522E-005 -7.6103210449E-003 -6.6666603088E-003
6802500000.000 +2.8732299805E-002 -3.1808471680E-001 +6.9802999496E-004 +1.0369420052E-003 -9.4934366643E-006 -1.1704396456E-005 -1.0867595673E-002 +2.8324127197E-004
6935000000.000 +2.3788452148E-002 -3.1640625000E-001 +1.1214017868E-003 +3.5804510117E-004 -3.3600255847E-005 +2.9942020774E-005 -6.4835548401E-003 +9.7703933716E-003
7067500000.000 +2.2171020508E-002 -3.2017517090E-001 +1.1674761772E-003 -2.6112794876E-004 -3.7753954530E-005 -4.7720968723E-006 -5.1665306091E-003 +1.0889530182E-002
7200000000.000 +1.7272949219E-002 -3.2527160645E-001 +7.6910853386E-004 -9.3841552734E-004 -1.6921199858E-005 -7.3881819844E-006 -1.4698982239E-002 +1.7724990845E-002
7332500000.000 +1.0009765625E-002 -3.2612609863E-001 +1.4585256577E-004 -1.1525154114E-003 +4.0531158447E-006 +5.2168965340E-005 -1.6916275024E-002 +3.0345916748E-002
7465000000.000 +6.8054199219E-003 -3.2728576660E-001 -5.5482983589E-004 -9.1794133186E-004 -5.8460980654E-005 -4.3554231524E-005 -2.0643234253E-002 +3.1328201294E-002
7597500000.000 +3.9215087891E-003 -3.3158874512E-001 -9.9867582321E-004 -5.2654743195E-004 +5.8805570006E-005 +1.4021992683E-005 -3.6447525024E-002 +3.4200668335E-002
7730000000.000 -1.2207031250E-003 -3.3453369141E-001 -1.0680556297E-003 +1.5574693680E-004 +4.6182423830E-005 +2.2687017918E-005 -4.7754287720E-002 +4.3607711792E-002
7862500000.000 -5.5847167969E-003 -3.3587646484E-001 -7.1913003922E-004 +7.1188807487E-004 +1.2462958694E-005 -3.9897859097E-005 -5.4267883301E-002 +4.2240142822E-002
7995000000.000 -7.7667236328E-003 -3.3828735352E-001 -2.1225214005E-004 +1.0530948639E-003 +3.1284987926E-005 -5.5450946093E-006 -7.3440551758E-002 +3.5736083984E-002
8127500000.000 -1.0559082031E-002 -3.4353637695E-001 +3.6078691483E-004 +9.1677904129E-004 +2.2480264306E-005 -3.3270567656E-005 -9.1072082520E-002 +4.0019989014E-002
8260000000.000 -1.5731811523E-002 -3.4437561035E-001 +7.1719288826E-004 +4.3472647667E-004 -4.6342611313E-005 -5.9921294451E-006 -9.5752716064E-002 +3.4061431885E-002
8392500000.000 -1.7456054688E-002 -3.4690856934E-001 +8.2033872604E-004 -5.1826238632E-005 -5.0019472837E-005 -1.7922371626E-005 -1.1003875732E-001 +1.8848419189E-002
8525000000.000 -1.8692016602E-002 -3.4970092773E-001 +7.1376562119E-004 -5.0532817841E-004 -1.4722812921E-005 +1.9166618586E-006 -1.2173080444E-001 +1.5174865723E-002
8657500000.000 -2.1972656250E-002 -3.5252380371E-001 +3.3640861511E-004 -7.0816278458E-004 -7.5101852417E-006 -4.5944005251E-005 -1.1798095703E-001 +4.0931701660E-003
8790000000.000 -2.4795532227E-002 -3.5491943359E-001 -1.2537837029E-004 -7.7572464943E-004 +3.3278483897E-006 +5.9672165662E-006 -1.1979293823E-001 -1.7021179199E-002
8922500000.000 -2.6916503906E-002 -3.5546875000E-001 -5.1531195641E-004 -5.0994753838E-004 -2.4391338229E-005 +2.2484920919E-005 -1.2178802490E-001 -3.0281066895E-002
9055000000.000 -2.7816772461E-002 -3.5798645020E-001 -6.7535042763E-004 -9.3966722488E-005 +1.5031546354E-006 +4.8039481044E-005 -1.1128234863E-001 -4.4540405273E-002
9187500000.000 -3.0609130859E-002 -3.5952758789E-001 -6.9582462311E-004 +2.7069449425E-004 -3.2158568501E-005 -2.6591122150E-005 -1.0085296631E-001 -6.6230773926E-002
9320000000.000 -3.5598754883E-002 -3.6026000977E-001 -3.3161044121E-004 +6.0513615608E-004 +7.5306743383E-005 -1.0974705219E-005 -9.2971801758E-002 -7.9097747803E-002
9452500000.000 -3.7353515625E-002 -3.6085510254E-001 +6.3270330429E-005 +7.1087479591E-004 -2.9203481972E-005 +7.5399875641E-006 -7.4138641357E-002 -8.7543487549E-002
9585000000.000 -3.9093017578E-002 -3.6294555664E-001 +4.2858719826E-004 +5.8352947235E-004 -3.1674280763E-005 +1.5335157514E-005 -5.5328369141E-002 -1.0120391846E-001
9717500000.000 -4.4342041016E-002 -3.6576843262E-001 +6.2274932861E-004 +2.0575523376E-004 +3.8990750909E-005 -2.1606683731E-005 -4.1057586670E-002 -1.0599517822E-001
9850000000.000 -4.9682617188E-002 -3.6473083496E-001 +5.9643387794E-004 -1.2394785881E-004 -1.5027821064E-005 +7.5392425060E-005 -1.8451690674E-002 -1.0281372070E-001
9982500000.000 -5.0552368164E-002 -3.6624145508E-001 +3.7825107574E-004 -4.4465065002E-004 -4.6673230827E-006 -5.6074932218E-006 +5.5999755859E-003 -1.0407257080E-001
10115000000.000 -5.3771972656E-002 -3.6936950684E-001 +9.0152025223E-005 -6.1836838722E-004 +6.4983963966E-005 +2.0731240511E-005 +1.8684387207E-002 -9.8400115967E-002
10247500000.000 -5.9844970703E-002 -3.7095642090E-001 -3.0604004860E-004 -5.4427981377E-004 +5.6292861700E-005 +5.1803886890E-005 +3.6460876465E-002 -7.9856872559E-002
10380000000.000 -6.3415527344E-002 -3.7055969238E-001 -5.1239132881E-004 -2.4506449699E-004 -1.5713274479E-005 -6.7576766014E-005 +5.7109832764E-002 -6.8534851074E-002
10512500000.000 -6.5933227539E-002 -3.7191772461E-001 -5.9381127357E-004 +6.0111284256E-005 -5.3467229009E-005 -5.3994357586E-005 +6.1771392822E-002 -5.6049346924E-002
10645000000.000 -6.9091796875E-002 -3.7483215332E-001 -4.0131807327E-004 +3.7394464016E-004 +1.3990700245E-004 +2.9847025871E-005 +6.6417694092E-002 -2.8755187988E-002
10777500000.000 -7.3959350586E-002 -3.7648010254E-001 -8.4266066551E-005 +4.8437714577E-004 -3.1914561987E-005 +2.9446557164E-005 +7.7766418457E-002 -8.4686279297E-003
10910000000.000 -7.8536987305E-002 -3.7762451172E-001 +2.1575391293E-004 +3.9197504520E-004 +7.9460442066E-006 -4.9190595746E-005 +7.2086334229E-002 +4.9324035645E-003
11042500000.000 -8.2061767578E-002 -3.7927246094E-001 +3.5840272903E-004 +2.3829936981E-004 +2.7585774660E-005 -3.8631260395E-006 +5.9427261353E-002 +3.1475067139E-002
11175000000.000 -8.5037231445E-002 -3.8267517090E-001 +3.9999186993E-004 +1.1250376701E-005 +2.4475157261E-006 +2.1878629923E-005 +5.6976318359E-002 +5.2398681641E-002
11307500000.000 -8.7921142578E-002 -3.8447570801E-001 +3.0073523521E-004 -2.9706954956E-004 -6.2257051468E-005 -6.1865895987E-005 +4.3582916260E-002 +5.8135986328E-002
11440000000.000 -9.2834472656E-002 -3.8558959961E-001 +2.3095309734E-004 -3.5132467747E-004 +4.2762607336E-005 +3.4257769585E-005 +1.8424987793E-002 +7.2216033936E-002
11572500000.000 -9.4512939453E-002 -3.8955688477E-001 -9.3787908554E-005 -3.4804642200E-004 +8.0287456512E-005 +1.2446194887E-005 +4.8828125000E-003 +8.7097167969E-002
11705000000.000 -9.7274780273E-002 -3.9100646973E-001 -2.0356476307E-004 -2.9365718365E-004 -9.3620270491E-005 -8.4266066551E-006 -1.0295867920E-002 +8.0841064453E-002
11837500000.000 -1.0060119629E-001 -3.9346313477E-001 -2.9322504997E-004 -1.7333030701E-004 -2.7901493013E-005 -1.0035000741E-005 -4.2793273926E-002 +7.7365875244E-002
11970000000.000 -1.0186767578E-001 -3.9401245117E-001 -3.8202106953E-004 +9.6410512924E-005 +5.6372955441E-006 +1.4815479517E-005 -5.8559417725E-002 +8.2988739014E-002
12102500000.000 -1.0269165039E-001 -3.9570617676E-001 -2.6240944862E-004 +3.5555660725E-004 -7.7914446592E-005 +3.2305717468E-005 -6.5872192383E-002 +6.3819885254E-002
12235000000.000 -1.0629272461E-001 -3.9785766602E-001 -1.1011958122E-004 +3.4750998020E-004 -1.7366372049E-005 +2.7902424335E-006 -9.3441009521E-002 +4.5047760010E-002
12367500000.000 -1.0775756836E-001 -3.9749145508E-001 +6.6936016083E-005 +4.3247640133E-004 +5.4100528359E-005 +2.5842338800E-005 -1.0423278809E-001 +4.3327331543E-002
12500000000.000 -1.1134338379E-001 -3.9701843262E-001 +2.9483437538E-004 +1.3580918312E-004 -9.8459422588E-006 +3.2490119338E-005 -9.7244262695E-002 +1.9374847412E-002
12632500000.000 -1.1256408691E-001 -3.9938354492E-001 +3.5843253136E-004 +4.4703483582E-007 -4.2477622628E-005 -1.5685334802E-005 -1.1079025269E-001 -1.2844085693E-002
12765000000.000 -1.1524963379E-001 -4.0049743652E-001 +2.4729967117E-004 -1.7797946930E-004 +8.4862112999E-005 +9.4372779131E-005 -1.1658096313E-001 -1.6494750977E-002
12897500000.000 -1.1817932129E-001 -3.9886474609E-001 +1.9222497940E-004 -3.2918155193E-004 -3.0633062124E-005 +4.7072768211E-005 -9.1419219971E-002 -3.5556793213E-002
13030000000.000 -1.1978149414E-001 -3.9924621582E-001 -6.4581632614E-005 -3.6212801933E-004 -5.3673982620E-005 -4.1494145989E-005 -9.0972900391E-002 -7.1704864502E-002
13162500000.000 -1.2278747559E-001 -4.0071105957E-001 -2.1394342184E-004 -1.8782913685E-004 +7.6880678535E-006 +2.3229047656E-005 -9.2144012451E-002 -7.1376800537E-002
13295000000.000 -1.2565612793E-001 -4.0177917480E-001 -3.3840537071E-004 -3.6865472794E-005 -2.2947788239E-006 +7.6260417700E-005 -6.0150146484E-002 -7.8811645508E-002
13427500000.000 -1.2930297852E-001 -4.0109252930E-001 -1.5279650688E-004 +2.4558603764E-004 -1.3489276171E-005 -4.1428953409E-005 -4.7489166260E-002 -1.0532760620E-001
13560000000.000 -1.2835693359E-001 -4.0121459961E-001 -2.2072345018E-004 +2.4062395096E-004 +2.8085894883E-005 +2.4846754968E-005 -4.7527313232E-002 -1.0103607178E-001
13692500000.000 -1.3197326660E-001 -4.0336608887E-001 -2.9869377613E-005 +1.9018352032E-004 +1.1348724365E-004 +1.2957304716E-004 -1.7501831055E-002 -8.9103698730E-002
13825000000.000 -1.3600158691E-001 -4.0415954590E-001 +2.3947656155E-004 +7.8663229942E-005 -4.8349611461E-006 -1.3270881027E-005 +4.1542053223E-003 -1.0362625122E-001
13957500000.000 -1.3899230957E-001 -4.0231323242E-001 +2.4807453156E-004 +9.4130635262E-005 +4.1073188186E-005 -3.3982098103E-005 -4.4250488281E-004 -9.5760345459E-002
14090000000.000 -1.3925170898E-001 -4.0328979492E-001 +2.9842555523E-004 -5.5506825447E-005 -5.6901946664E-005 +2.9411166906E-005 +2.2163391113E-002 -7.0674896240E-002
14222500000.000 -1.4111328125E-001 -4.0606689453E-001 +1.8242001534E-004 -1.1971592903E-004 +5.5525451899E-005 +3.7178397179E-005 +4.3613433838E-002 -7.4642181396E-002
14355000000.000 -1.4753723145E-001 -4.0695190430E-001 +5.3670257330E-005 -8.4541738033E-005 -1.0488554835E-005 +3.1067058444E-005 +3.3466339111E-002 -6.6608428955E-002
14487500000.000 -1.4947509766E-001 -4.0635681152E-001 -1.4303624630E-004 -1.7636269331E-004 +7.3332339525E-005 +2.0541250706E-005 +4.1336059570E-002 -3.4795761108E-002
14620000000.000 -1.4915466309E-001 -4.0838623047E-001 -2.4695694447E-004 -2.0736455917E-004 -1.8779188395E-005 +1.1738017201E-004 +6.0144424438E-002 -3.2543182373E-002
14752500000.000 -1.5277099609E-001 -4.1232299805E-001 -1.7476081848E-004 +8.2403421402E-006 -5.5920332670E-005 -1.7421320081E-005 +4.2814254761E-002 -3.1160354614E-002
14885000000.000 -1.5634155273E-001 -4.1276550293E-001 -2.6245415211E-004 +6.4402818680E-005 -2.8360635042E-005 +6.7982822657E-005 +3.7343978882E-002 +1.6098022461E-003
15017500000.000 -1.5608215332E-001 -4.1558837891E-001 -1.4650076628E-004 +1.4647096395E-004 -1.9446015358E-006 +4.2302533984E-005 +5.3228378296E-002 +7.0228576660E-003
15150000000.000 -1.5711975098E-001 -4.1893005371E-001 -1.0840594769E-004 +2.7111172676E-004 -3.5893172026E-005 +1.5620142221E-005 +3.3777236938E-002 -1.1062622070E-003
15282500000.000 -1.5797424316E-001 -4.2094421387E-001 +1.6467273235E-004 +2.4524331093E-004 +3.3779069781E-005 +1.1747702956E-005 +1.5753746033E-002 +2.4980545044E-002
