!  2-Port S-parameters saved by WinCal
! VAR MeasName=S-Parameters (CALIBRATED_DATA) read from VNA (C)
! VAR MeasDate=9/29/2015 3:20:33 PM
! VAR NAME=M6082_18_15_2_2_20C_10.0mA_-17.5dBm
! VAR FILENAME=M6082_18_15_2_2_20C_10.0mA_-17.5dBm.S2P
! VAR DATE=9/29/2015 3:20:33 PM
! VAR PHYS_PORTS=2,1
! VAR ObjTypeName=DATASET
! VAR IndexType=Frequency
!
# Hz S RI R 50
45000000.000 -5.6110382080E-002 -2.1362304688E-004 -1.7874836922E-003 +1.0790228844E-003 +1.4984011650E-003 -6.8277120590E-004 +2.7979850769E-002 +3.6029815674E-003
177500000.000 -5.5387496948E-002 -3.8661956787E-003 +5.5927038193E-004 +1.5005469322E-003 -6.3575804234E-005 -1.7043203115E-005 +1.6093254089E-002 +1.6516685486E-002
310000000.000 -5.4794311523E-002 -8.3274841309E-003 +1.3267397881E-003 +9.4348192215E-004 -7.9602003098E-005 +5.4843723774E-005 +2.9542922974E-002 +6.1357498169E-002
442500000.000 -5.4668426514E-002 -1.2401580811E-002 +1.9484162331E-003 +8.4340572357E-005 +1.2141838670E-004 -8.0563127995E-005 +7.2521209717E-002 +2.2193908691E-002
575000000.000 -5.4553985596E-002 -1.7351150513E-002 +1.4144182205E-003 -1.0610818863E-003 +3.3881515265E-005 +4.9563124776E-005 +2.7213096619E-002 +1.1091232300E-002
707500000.000 -5.5063247681E-002 -2.1265029907E-002 +6.7466497421E-004 -1.6514658928E-003 +1.0663643479E-006 -1.4833640307E-005 +2.0923614502E-003 +1.8261909485E-002
840000000.000 -5.4906845093E-002 -2.6084899902E-002 -3.0738115311E-004 -1.7173290253E-003 -1.0880641639E-005 -1.7639249563E-005 -2.0219802856E-002 +2.5951385498E-002
972500000.000 -5.4706573486E-002 -3.0330657959E-002 -1.3184547424E-003 -1.2228488922E-003 -2.5682151318E-005 -5.8578327298E-005 -3.5900115967E-002 +3.5757064819E-002
1105000000.000 -5.2934646606E-002 -3.5680770874E-002 -1.7051100731E-003 -2.3102760315E-004 -5.1269307733E-006 +6.6997017711E-006 -4.6644210815E-002 +3.8162231445E-002
1237500000.000 -5.5721282959E-002 -3.9148330688E-002 -1.5687942505E-003 +6.7830085754E-004 +5.4083764553E-005 -4.5582652092E-005 -5.8614730835E-002 +3.3763885498E-002
1370000000.000 -5.4023742676E-002 -4.4183731079E-002 -7.5805187225E-004 +1.4725923538E-003 +6.7008659244E-006 -2.3685395718E-005 -7.4085235596E-002 +2.7061462402E-002
1502500000.000 -5.4082870483E-002 -4.7933578491E-002 +7.1287155151E-005 +1.7344951630E-003 -9.1008841991E-006 -3.5079196095E-005 -8.7936401367E-002 +2.1472930908E-002
1635000000.000 -5.6619644165E-002 -5.2433013916E-002 +9.6559524536E-004 +1.3747811317E-003 +4.3030828238E-005 -1.1587515473E-005 -9.9086761475E-002 +1.1768341064E-002
1767500000.000 -5.7392120361E-002 -5.7069778442E-002 +1.6235709190E-003 +6.6566467285E-004 +1.5495344996E-005 +4.1900202632E-005 -1.1202621460E-001 +3.2043457031E-003
1900000000.000 -5.7392120361E-002 -6.0314178467E-002 +1.5299320221E-003 -4.9215555191E-004 -5.7652592659E-005 +1.9073486328E-006 -1.1391067505E-001 -3.2920837402E-003
2032500000.000 -5.7876586914E-002 -6.4037322998E-002 +9.8657608032E-004 -1.3346076012E-003 +6.3795596361E-005 -5.0388276577E-005 -1.1403656006E-001 -2.4177551270E-002
2165000000.000 -5.7548522949E-002 -6.9061279297E-002 -1.6987323761E-005 -1.5811920166E-003 +7.6286494732E-005 +3.4559518099E-005 -1.2283706665E-001 -4.1744232178E-002
2297500000.000 -5.8547973633E-002 -7.2647094727E-002 -9.1308355331E-004 -1.4592409134E-003 -1.1704489589E-004 -1.2204051018E-005 -1.2648010254E-001 -5.3253173828E-002
2430000000.000 -5.8826446533E-002 -7.6259613037E-002 -1.5302896500E-003 -6.3937902451E-004 -6.5062195063E-006 -3.7606805563E-005 -1.2704467773E-001 -6.4788818359E-002
2562500000.000 -5.9005737305E-002 -8.0951690674E-002 -1.5376210213E-003 +2.8282403946E-004 +1.4047324657E-004 +5.5491924286E-005 -1.2586212158E-001 -7.0159912109E-002
2695000000.000 -5.8506011963E-002 -8.6345672607E-002 -1.2117624283E-003 +9.6070766449E-004 -9.1250985861E-006 -4.1255727410E-005 -1.1370468140E-001 -7.2811126709E-002
2827500000.000 -6.2507629395E-002 -8.6345672607E-002 -4.5090913773E-004 +1.5530586243E-003 +5.9867277741E-005 -5.9891492128E-005 -9.8812103271E-002 -8.1844329834E-002
2960000000.000 -6.2602996826E-002 -9.0358734131E-002 +5.2428245544E-004 +1.5357136726E-003 +8.1945210695E-005 -3.3758580685E-005 -8.9187622070E-002 -8.6296081543E-002
3092500000.000 -6.1492919922E-002 -9.7866058350E-002 +1.2924075127E-003 +8.8745355606E-004 -3.1810253859E-005 -6.2633305788E-005 -7.0621490479E-002 -8.5098266602E-002
3225000000.000 -6.7058563232E-002 -9.8537445068E-002 +1.5687942505E-003 +1.1056661606E-004 +8.2310289145E-006 +2.7027912438E-005 -5.1937103271E-002 -9.1178894043E-002
3357500000.000 -6.8103790283E-002 -1.0078811646E-001 +1.4156699181E-003 -7.3045492172E-004 +1.3542175293E-004 -4.7542154789E-005 -4.2312622070E-002 -9.2014312744E-002
3490000000.000 -6.9274902344E-002 -1.0547256470E-001 +8.3756446838E-004 -1.5006661415E-003 -6.7699700594E-005 +7.0355832577E-005 -2.8827667236E-002 -8.2714080811E-002
3622500000.000 -7.1056365967E-002 -1.1051177979E-001 -1.4412403107E-004 -1.5479922295E-003 +2.0475126803E-006 +1.2986361980E-005 -1.1497497559E-002 -7.8956604004E-002
3755000000.000 -7.3230743408E-002 -1.1473464966E-001 -1.0734200478E-003 -1.2676119804E-003 +1.0978803039E-004 -1.5560537577E-005 -6.2484741211E-003 -7.3562622070E-002
3887500000.000 -7.3848724365E-002 -1.2252807617E-001 -1.4151930809E-003 -3.4940242767E-004 +3.4928321838E-005 +7.1909278631E-005 +1.0643005371E-003 -5.6079864502E-002
4020000000.000 -7.5073242188E-002 -1.2582397461E-001 -1.2567639351E-003 +5.1867961884E-004 -5.0701200962E-005 +3.3581629395E-005 +1.2933731079E-002 -4.4172286987E-002
4152500000.000 -7.6263427734E-002 -1.3082885742E-001 -8.2606077194E-004 +1.2013316154E-003 +1.1884048581E-004 -1.6607344151E-005 +1.5335083008E-002 -3.3147811890E-002
4285000000.000 -7.8636169434E-002 -1.3533020020E-001 -1.6152858734E-005 +1.4020800591E-003 -5.1259994507E-006 +1.4790333807E-005 +1.6412734985E-002 -1.3642311096E-002
4417500000.000 -8.0726623535E-002 -1.3807678223E-001 +7.9303979874E-004 +1.2158155441E-003 -1.0892748833E-005 +6.9413334131E-005 +2.5361061096E-002 +3.3159255981E-003
4550000000.000 -8.1199645996E-002 -1.3819885254E-001 +1.3707876205E-003 +7.2234869003E-004 -4.9564987421E-005 -4.7778710723E-005 +2.9066085815E-002 +9.0227127075E-003
4682500000.000 -8.2138061523E-002 -1.4307403564E-001 +1.6494393349E-003 -1.1473894119E-004 +8.0615282059E-006 -1.4792662114E-005 +2.5692939758E-002 +1.9850730896E-002
4815000000.000 -8.5029602051E-002 -1.4711761475E-001 +1.2921094894E-003 -1.0974407196E-003 +2.3917295039E-005 -8.4619969130E-006 +3.1368255615E-002 +2.6834487915E-002
4947500000.000 -8.5472106934E-002 -1.5018463135E-001 +4.7266483307E-004 -1.4607906342E-003 -5.4746866226E-005 +7.6536089182E-006 +2.7857780457E-002 +1.9166946411E-002
5080000000.000 -8.5548400879E-002 -1.5423583984E-001 -3.8033723831E-004 -1.5702247620E-003 +3.7407502532E-005 -1.3440847397E-005 +1.3565063477E-002 +2.0016670227E-002
5212500000.000 -8.7348937988E-002 -1.5894317627E-001 -1.1972784996E-003 -1.1192560196E-003 +2.1683983505E-005 +1.6390345991E-005 +9.6960067749E-003 +2.4296760559E-002
5345000000.000 -8.8928222656E-002 -1.6141510010E-001 -1.7426609993E-003 -1.5997886658E-004 -3.8187950850E-005 -1.5920028090E-005 +6.0410499573E-003 +1.5620708466E-002
5477500000.000 -8.8607788086E-002 -1.6432189941E-001 -1.5072822571E-003 +7.6484680176E-004 -2.7259811759E-006 -2.5137327611E-005 -8.8829994202E-003 +9.7846984863E-003
5610000000.000 -8.9111328125E-002 -1.6872406006E-001 -9.0551376343E-004 +1.5115737915E-003 +1.9730068743E-005 -6.9020316005E-006 -1.4485359192E-002 +1.4506816864E-002
5742500000.000 -9.3383789063E-002 -1.7629241943E-001 +1.1032819748E-004 +1.2935996056E-003 -7.5116753578E-005 +9.3244016171E-006 -1.0718345642E-002 +5.7764053345E-003
5875000000.000 -9.5199584961E-002 -1.7775726318E-001 +7.1167945862E-004 +1.0496973991E-003 +5.8455392718E-005 -8.4992498159E-006 -1.9754409790E-002 -3.7384033203E-003
6007500000.000 -9.6443176270E-002 -1.7908477783E-001 +1.2694001198E-003 +5.1152706146E-004 -1.9692815840E-005 +2.5657936931E-006 -2.3022651672E-002 +1.7070770264E-004
6140000000.000 -9.3856811523E-002 -1.7948913574E-001 +1.7735958099E-003 -5.4007768631E-004 -6.2778592110E-005 -3.1456351280E-005 -1.4904022217E-002 -2.4094581604E-003
6272500000.000 -1.0205078125E-001 -1.8463897705E-001 +8.7848305702E-004 -8.9761614799E-004 +1.5110708773E-005 +8.0559402704E-008 -1.5797615051E-002 -1.1669158936E-002
6405000000.000 -9.9800109863E-002 -1.8261718750E-001 +7.2300434113E-005 -1.7279982567E-003 +1.0055489838E-005 -2.1988525987E-005 -1.9213676453E-002 -6.2999725342E-003
6537500000.000 -9.9548339844E-002 -1.8531036377E-001 -8.7976455688E-004 -1.5000700951E-003 -2.5164335966E-005 +4.2594969273E-005 -9.3955993652E-003 -2.8691291809E-003
6670000000.000 -1.0153961182E-001 -1.9019317627E-001 -1.6083121300E-003 -7.1126222610E-004 -7.7933073044E-006 -1.6201287508E-005 -7.6129436493E-003 -6.6535472870E-003
6802500000.000 -1.0630035400E-001 -1.9346618652E-001 -1.7014741898E-003 +3.2389163971E-004 -6.1877071857E-006 +3.4311786294E-005 -1.0921955109E-002 +2.5510787964E-004
6935000000.000 -1.0845184326E-001 -1.9311523438E-001 -1.2525320053E-003 +1.1818408966E-003 -1.3436190784E-005 +1.5383586287E-005 -6.5841674805E-003 +9.7408294678E-003
7067500000.000 -1.0820770264E-001 -1.9695281982E-001 -3.4761428833E-004 +1.6847252846E-003 -1.3234093785E-005 -2.5254674256E-005 -5.1517486572E-003 +1.0922431946E-002
7200000000.000 -1.1080932617E-001 -2.0216369629E-001 +6.7973136902E-004 +1.6170740128E-003 +1.3941433281E-005 +4.9625523388E-006 -1.4732360840E-002 +1.7680168152E-002
7332500000.000 -1.1550140381E-001 -2.0433807373E-001 +1.4446973801E-003 +9.6994638443E-004 +1.2096017599E-005 +2.7392059565E-005 -1.6997337341E-002 +3.0260086060E-002
7465000000.000 -1.1674499512E-001 -2.0599365234E-001 +1.6883611679E-003 +6.3180923462E-005 +6.1616301537E-006 -3.5036355257E-005 -2.0616531372E-002 +3.1261444092E-002
7597500000.000 -1.1784362793E-001 -2.1019744873E-001 +1.4304518700E-003 -9.8872184753E-004 +8.3786435425E-006 +5.9655867517E-006 -3.6529541016E-002 +3.4183502197E-002
7730000000.000 -1.2095642090E-001 -2.1514892578E-001 +5.5050849915E-004 -1.6302466393E-003 +3.6954879761E-005 +6.1787664890E-005 -4.7863006592E-002 +4.3544769287E-002
7862500000.000 -1.2329101563E-001 -2.1772766113E-001 -3.4010410309E-004 -1.5863776207E-003 +2.8233043849E-005 -2.9535032809E-005 -5.4168701172E-002 +4.2097091675E-002
7995000000.000 -1.2705230713E-001 -2.1719360352E-001 -7.3689222336E-004 -1.3273954391E-003 +1.5251338482E-005 -3.5798177123E-005 -7.3432922363E-002 +3.5633087158E-002
8127500000.000 -1.2488555908E-001 -2.2633361816E-001 -1.7008185387E-003 -3.5774707794E-004 -4.1402876377E-005 +2.8302893043E-005 -9.1148376465E-002 +3.9913177490E-002
8260000000.000 -1.3097381592E-001 -2.2569274902E-001 -1.6182065010E-003 +1.5884637833E-004 -4.3101608753E-005 -6.3721090555E-006 -9.5748901367E-002 +3.4038543701E-002
8392500000.000 -1.2850189209E-001 -2.3146057129E-001 -8.8292360306E-004 +1.3802647591E-003 -2.2783875465E-005 -7.1916729212E-005 -1.1011123657E-001 +1.8695831299E-002
8525000000.000 -1.3070678711E-001 -2.3186492920E-001 -3.9380788803E-004 +1.6065835953E-003 +8.2030892372E-006 +3.3156946301E-005 -1.2166976929E-001 +1.5090942383E-002
8657500000.000 -1.3022613525E-001 -2.3931121826E-001 +9.3406438828E-004 +1.4073848724E-003 -5.4067000747E-005 +1.4374032617E-005 -1.1791229248E-001 +3.8833618164E-003
8790000000.000 -1.3189697266E-001 -2.4230957031E-001 +1.5429854393E-003 +6.5052509308E-004 -7.0729292929E-006 -1.2323725969E-005 -1.1984634399E-001 -1.6983032227E-002
8922500000.000 -1.3254547119E-001 -2.4345397949E-001 +1.6050934792E-003 -3.9333105087E-004 +4.4666230679E-005 -4.1164457798E-006 -1.2182617188E-001 -3.0429840088E-002
9055000000.000 -1.3236236572E-001 -2.4691772461E-001 +1.1146068573E-003 -1.2511014938E-003 -2.8509646654E-005 +3.7023797631E-005 -1.1129760742E-001 -4.4647216797E-002
9187500000.000 -1.3395690918E-001 -2.4927520752E-001 +2.3734569550E-004 -1.6278028488E-003 -3.3069401979E-005 -2.6941299438E-005 -1.0089492798E-001 -6.6299438477E-002
9320000000.000 -1.3769531250E-001 -2.5048828125E-001 -7.0488452911E-004 -1.5521645546E-003 +2.1398998797E-005 -1.4533288777E-005 -9.3017578125E-002 -7.9162597656E-002
9452500000.000 -1.3841247559E-001 -2.5173950195E-001 -1.4103055000E-003 -8.3851814270E-004 -7.2456896305E-005 +1.8637627363E-005 -7.3947906494E-002 -8.7543487549E-002
9585000000.000 -1.3926696777E-001 -2.5454711914E-001 -1.7072558403E-003 +1.0663270950E-004 +2.2910535336E-007 -4.6981498599E-005 -5.5278778076E-002 -1.0117340088E-001
9717500000.000 -1.4338684082E-001 -2.5477600098E-001 -1.5811324120E-003 +7.6067447662E-004 -2.5725923479E-005 -2.8485432267E-005 -4.1042327881E-002 -1.0601806641E-001
9850000000.000 -1.4714050293E-001 -2.5723266602E-001 -5.1403045654E-004 +1.6106367111E-003 -3.7066638470E-005 +2.1763145924E-005 -1.8314361572E-002 -1.0280227661E-001
9982500000.000 -1.4712524414E-001 -2.5967407227E-001 +4.8881769180E-004 +1.6167759895E-003 -5.4793432355E-005 -1.2490898371E-005 +5.6304931641E-003 -1.0401153564E-001
10115000000.000 -1.4904785156E-001 -2.6042175293E-001 +1.0603070259E-003 +1.4394521713E-003 +5.6669116020E-005 -3.7483870983E-005 +1.8856048584E-002 -9.8323822021E-002
10247500000.000 -1.5403747559E-001 -2.6559448242E-001 +1.6053915024E-003 +1.1318922043E-004 -1.2779608369E-005 +2.5531277061E-005 +3.6586761475E-002 -7.9803466797E-002
10380000000.000 -1.5675354004E-001 -2.6567077637E-001 +1.4448761940E-003 -7.2985887527E-004 -2.2995285690E-005 -7.0314854383E-006 +5.7151794434E-002 -6.8405151367E-002
10512500000.000 -1.5824890137E-001 -2.6771545410E-001 +8.1300735474E-004 -1.3474225998E-003 +5.9623271227E-006 +5.5688433349E-006 +6.1803817749E-002 -5.5919647217E-002
10645000000.000 -1.6009521484E-001 -2.7107238770E-001 -1.5282630920E-004 -1.6148686409E-003 +5.1034614444E-005 +7.0612877607E-006 +6.6387176514E-002 -2.8594970703E-002
10777500000.000 -1.6438293457E-001 -2.7337646484E-001 -9.2995166779E-004 -1.2556910515E-003 +6.2797218561E-005 +2.1390616894E-005 +7.7781677246E-002 -8.3236694336E-003
10910000000.000 -1.6787719727E-001 -2.7503967285E-001 -1.5129446983E-003 -5.9163570404E-004 +6.4540654421E-006 -3.3883377910E-005 +7.2113037109E-002 +5.1727294922E-003
11042500000.000 -1.7030334473E-001 -2.7722167969E-001 -1.6060471535E-003 +4.3725967407E-004 +1.7893500626E-005 +2.0640902221E-005 +5.9364318848E-002 +3.1724929810E-002
11175000000.000 -1.7228698730E-001 -2.8128051758E-001 -1.0746717453E-003 +1.2106895447E-003 -1.3690441847E-005 -2.0818784833E-005 +5.6808471680E-002 +5.2509307861E-002
11307500000.000 -1.7445373535E-001 -2.8370666504E-001 -2.3460388184E-004 +1.6524791718E-003 +2.7969479561E-005 -4.5992434025E-005 +4.3531417847E-002 +5.8261871338E-002
11440000000.000 -1.7593383789E-001 -2.8456115723E-001 +8.8340044022E-004 +1.7394423485E-003 +4.3805688620E-005 +8.5923820734E-006 +1.8249511719E-002 +7.2250366211E-002
11572500000.000 -1.7890930176E-001 -2.8999328613E-001 +1.4563798904E-003 +7.6407194138E-004 +6.2793493271E-005 +9.4495713711E-005 +4.7035217285E-003 +8.7299346924E-002
11705000000.000 -1.7863464355E-001 -2.9161071777E-001 +1.9972324371E-003 -1.4340877533E-004 -2.8762966394E-005 -3.8547441363E-005 -1.0307312012E-002 +8.0837249756E-002
11837500000.000 -1.8112182617E-001 -2.9495239258E-001 +1.4881491661E-003 -1.2675523758E-003 -1.1471100152E-005 -8.8931992650E-006 -4.3022155762E-002 +7.7285766602E-002
11970000000.000 -1.8141174316E-001 -2.9649353027E-001 +4.1586160660E-004 -1.9280910492E-003 +1.5413388610E-005 -3.2257288694E-005 -5.8609008789E-002 +8.2885742188E-002
12102500000.000 -1.8388366699E-001 -2.9855346680E-001 -5.8335065842E-004 -1.5588998795E-003 -1.4590471983E-004 +3.0308961868E-005 -6.5994262695E-002 +6.3716888428E-002
12235000000.000 -1.8682861328E-001 -3.0134582520E-001 -1.3886094093E-003 -1.0044574738E-003 -5.1675364375E-005 -3.0953437090E-005 -9.3383789063E-002 +4.4982910156E-002
12367500000.000 -1.8751525879E-001 -3.0137634277E-001 -1.7244219780E-003 -1.6838312149E-004 +3.6763027310E-005 -2.7881935239E-005 -1.0441589355E-001 +4.3090820313E-002
12500000000.000 -1.9009399414E-001 -3.0143737793E-001 -1.4180541039E-003 +8.8936090469E-004 -2.4341046810E-005 +3.1720846891E-005 -9.7438812256E-002 +1.9096374512E-002
12632500000.000 -1.9073486328E-001 -3.0429077148E-001 -6.8575143814E-004 +1.5186667442E-003 -9.1046094894E-006 -4.1658058763E-005 -1.1076736450E-001 -1.3042449951E-002
12765000000.000 -1.9270324707E-001 -3.0610656738E-001 +2.8681755066E-004 +1.6594529152E-003 -8.4517523646E-007 +7.1986578405E-006 -1.1663436890E-001 -1.6780853271E-002
12897500000.000 -1.9480895996E-001 -3.0516052246E-001 +1.0856986046E-003 +1.2005567551E-003 -2.1836720407E-005 -2.3031607270E-006 -9.1331481934E-002 -3.5667419434E-002
13030000000.000 -1.9586181641E-001 -3.0589294434E-001 +1.5972256660E-003 +3.0702352524E-004 +3.5982578993E-005 -2.8572976589E-006 -9.0801239014E-002 -7.1929931641E-002
13162500000.000 -1.9763183594E-001 -3.1027221680E-001 +1.4752149582E-003 -9.8264217377E-004 +5.6549906731E-005 -2.1556392312E-005 -9.1999053955E-002 -7.1380615234E-002
13295000000.000 -2.0034790039E-001 -3.0969238281E-001 +1.0054707527E-003 -1.3567805290E-003 +3.4738332033E-005 +6.9346278906E-005 -5.9997558594E-002 -7.8941345215E-002
13427500000.000 -2.0318603516E-001 -3.1173706055E-001 -3.3026933670E-004 -1.7176866531E-003 -5.4307281971E-005 +4.1309744120E-005 -4.7199249268E-002 -1.0527038574E-001
13560000000.000 -2.0220947266E-001 -3.1188964844E-001 -1.2548565865E-003 -1.1867284775E-003 -1.3440847397E-005 -2.1677464247E-005 -4.7164916992E-002 -1.0109329224E-001
13692500000.000 -2.0523071289E-001 -3.1489562988E-001 -1.6822218895E-003 -3.6412477493E-004 +2.8984621167E-005 +5.1943585277E-005 -1.7230987549E-002 -8.9012145996E-002
13825000000.000 -2.0875549316E-001 -3.1622314453E-001 -1.5938878059E-003 +7.5352191925E-004 -4.3667852879E-005 +4.9434602261E-005 +4.4288635254E-003 -1.0365676880E-001
13957500000.000 -2.1099853516E-001 -3.1275939941E-001 -1.1589527130E-003 +1.1336803436E-003 +4.0045008063E-005 -2.3035332561E-005 -2.0599365234E-004 -9.5588684082E-002
14090000000.000 -2.1136474609E-001 -3.1605529785E-001 +1.2922286987E-004 +1.6705393791E-003 -5.8870762587E-005 +2.5480985641E-005 +2.2216796875E-002 -7.0491790771E-002
14222500000.000 -2.1205139160E-001 -3.1759643555E-001 +6.9153308868E-004 +1.5039443970E-003 -3.7165358663E-005 +1.7888844013E-005 +4.3743133545E-002 -7.4497222900E-002
14355000000.000 -2.1784973145E-001 -3.1906127930E-001 +1.4135241508E-003 +8.8047981262E-004 +8.1114470959E-005 -5.1900744438E-005 +3.3576965332E-002 -6.6432952881E-002
14487500000.000 -2.1931457520E-001 -3.1925964355E-001 +1.6938447952E-003 -8.6605548859E-005 -8.7261199951E-005 +5.3700059652E-005 +4.1208267212E-002 -3.4624099731E-002
14620000000.000 -2.1861267090E-001 -3.2186889648E-001 +1.3692378998E-003 -1.0167956352E-003 +2.2634863853E-005 +4.5316293836E-005 +6.0256958008E-002 -3.2285690308E-002
14752500000.000 -2.2203063965E-001 -3.2630920410E-001 +5.5754184723E-004 -1.6766786575E-003 +1.8150545657E-005 -2.3692846298E-005 +4.2821884155E-002 -3.1223297119E-002
14885000000.000 -2.2520446777E-001 -3.2734680176E-001 -4.5764446259E-004 -1.6384124756E-003 +2.9172748327E-005 +8.3200633526E-005 +3.7315368652E-002 +1.7089843750E-003
15017500000.000 -2.2459411621E-001 -3.3090209961E-001 -1.3132691383E-003 -1.0665059090E-003 +1.6677193344E-005 -2.2575259209E-006 +5.3100585938E-002 +7.0800781250E-003
15150000000.000 -2.2673034668E-001 -3.3544921875E-001 -1.5428662300E-003 +2.9307603836E-004 -2.2083520889E-005 -5.6520104408E-005 +3.3773422241E-002 -1.0604858398E-003
15282500000.000 -2.2631835938E-001 -3.3682250977E-001 -1.4373064041E-003 +7.1060657501E-004 +3.7049874663E-005 +8.6762011051E-006 +1.5616416931E-002 +2.5007247925E-002
