!  2-Port S-parameters saved by WinCal
! VAR MeasName=S-Parameters (CALIBRATED_DATA) read from VNA (C)
! VAR MeasDate=9/29/2015 3:36:49 PM
! VAR NAME=M6082_18_15_2_2_20C_10.0mA_-17.5dBm 3
! VAR FILENAME=M6082_18_15_2_2_20C_10.0mA_-17.5dBm 3.S2P
! VAR DATE=9/29/2015 3:36:49 PM
! VAR PHYS_PORTS=2,1
! VAR ObjTypeName=DATASET
! VAR IndexType=Frequency
!
# Hz S RI R 50
45000000.000 -5.6793212891E-002 -1.0032653809E-003 -1.2715458870E-003 +6.4581632614E-004 +4.6648085117E-004 +4.6399235725E-004 +2.6617050171E-002 +3.7641525269E-003
177500000.000 -5.2385330200E-002 -4.2037963867E-003 +5.2469968796E-004 +1.6907453537E-003 -1.1353939772E-004 +5.8747828007E-006 +1.6107559204E-002 +1.6461372375E-002
310000000.000 -5.2145004272E-002 -8.4228515625E-003 +1.1516213417E-003 +9.9927186966E-004 -3.9961189032E-005 -6.0182064772E-006 +2.9758453369E-002 +6.1323165894E-002
442500000.000 -5.1816940308E-002 -1.2912750244E-002 +1.8917918205E-003 +4.4167041779E-005 +2.0760111511E-005 -2.4531967938E-005 +7.2589874268E-002 +2.1984100342E-002
575000000.000 -5.1677703857E-002 -1.7946243286E-002 +1.3798475266E-003 -1.0963082314E-003 -6.2353909016E-005 -6.1333179474E-005 +2.7251243591E-002 +1.1083602905E-002
707500000.000 -5.2255630493E-002 -2.1808624268E-002 +5.8341026306E-004 -1.5916824341E-003 -3.3594667912E-005 -9.5617026091E-005 +2.0360946655E-003 +1.8426895142E-002
840000000.000 -5.2093505859E-002 -2.6700973511E-002 -4.1723251343E-004 -1.6531348228E-003 +2.2859312594E-005 -3.0230730772E-005 -2.0200729370E-002 +2.6069641113E-002
972500000.000 -5.4628372192E-002 -3.0319213867E-002 -1.3263821602E-003 -1.2279152870E-003 +8.2664191723E-006 +3.1398609281E-005 -3.5713195801E-002 +3.5720825195E-002
1105000000.000 -5.2650451660E-002 -3.5961151123E-002 -1.6640424728E-003 -2.4604797363E-004 +3.2337382436E-005 -4.4465065002E-005 -4.6676635742E-002 +3.8122177124E-002
1237500000.000 -5.5595397949E-002 -3.9173126221E-002 -1.5569925308E-003 +7.3802471161E-004 +5.2584335208E-005 +5.5288895965E-005 -5.8696746826E-002 +3.3798217773E-002
1370000000.000 -5.6280136108E-002 -4.3588638306E-002 -9.9790096283E-004 +1.4321804047E-003 +1.2618489563E-005 +2.0903535187E-005 -7.4092864990E-002 +2.7236938477E-002
1502500000.000 -5.6467056274E-002 -4.7754287720E-002 +6.0141086578E-005 +1.7291903496E-003 -4.2082741857E-005 -2.3540109396E-005 -8.7905883789E-002 +2.1457672119E-002
1635000000.000 -5.6451797485E-002 -5.2347183228E-002 +9.1934204102E-004 +1.3576745987E-003 -3.0380906537E-006 -2.2712629288E-007 -9.9067687988E-002 +1.1734008789E-002
1767500000.000 -5.4559707642E-002 -5.8612823486E-002 +1.5014410019E-003 +5.3918361664E-004 -2.8058886528E-005 +5.2871182561E-005 -1.1199951172E-001 +3.1852722168E-003
1900000000.000 -5.4807662964E-002 -6.2185287476E-002 +1.5081763268E-003 -4.7141313553E-004 -4.7557055950E-005 -5.6408345699E-005 -1.1386489868E-001 -3.2653808594E-003
2032500000.000 -5.5233001709E-002 -6.6173553467E-002 +9.9563598633E-004 -1.1307001114E-003 +1.5711411834E-005 +5.4035335779E-005 -1.1395263672E-001 -2.4120330811E-002
2165000000.000 -5.5213928223E-002 -7.1392059326E-002 +1.2916326523E-004 -1.4927387238E-003 -2.7718953788E-005 +1.8237158656E-005 -1.2272644043E-001 -4.1782379150E-002
2297500000.000 -5.8319091797E-002 -7.2563171387E-002 -7.6335668564E-004 -1.4704465866E-003 -5.0647184253E-005 -1.1069700122E-005 -1.2668609619E-001 -5.3291320801E-002
2430000000.000 -5.6098937988E-002 -7.8685760498E-002 -1.3519525528E-003 -5.5640935898E-004 +7.8924000263E-005 -1.3085454702E-004 -1.2708282471E-001 -6.4636230469E-002
2562500000.000 -5.6751251221E-002 -8.3576202393E-002 -1.5804767609E-003 +3.9815902710E-005 +2.0852684975E-004 +5.6825578213E-005 -1.2574768066E-001 -7.0297241211E-002
2695000000.000 -5.8959960938E-002 -8.6826324463E-002 -1.3258457184E-003 +9.1707706451E-004 +8.2291662693E-006 +7.8849494457E-005 -1.1350250244E-001 -7.2719573975E-002
2827500000.000 -6.0161590576E-002 -8.9332580566E-002 -5.1534175873E-004 +1.4544129372E-003 -5.0380825996E-005 -9.2532485723E-005 -9.8854064941E-002 -8.1840515137E-002
2960000000.000 -6.0089111328E-002 -9.3208312988E-002 +2.8192996979E-004 +1.4774203300E-003 +3.0886381865E-005 -6.6116452217E-005 -8.8947296143E-002 -8.6204528809E-002
3092500000.000 -6.4144134521E-002 -9.5096588135E-002 +1.2208819389E-003 +1.0797381401E-003 -8.9731067419E-005 +6.1683356762E-005 -7.0640563965E-002 -8.5147857666E-002
3225000000.000 -6.4929962158E-002 -1.0181808472E-001 +1.5992522240E-003 +1.3220310211E-004 +3.0416995287E-005 -8.3096325397E-005 -5.1963806152E-002 -9.1159820557E-002
3357500000.000 -6.6276550293E-002 -1.0418701172E-001 +1.2988448143E-003 -8.0591440201E-004 +8.9086592197E-005 -7.2333961725E-005 -4.2320251465E-002 -9.1880798340E-002
3490000000.000 -6.9007873535E-002 -1.0530090332E-001 +7.6448917389E-004 -1.4234185219E-003 -2.5580637157E-005 -1.0637566447E-005 -2.8762817383E-002 -8.2729339600E-002
3622500000.000 -6.9492340088E-002 -1.1429977417E-001 -1.1527538300E-004 -1.4506578445E-003 -1.0589137673E-004 +2.0727515221E-005 -1.1451721191E-002 -7.8933715820E-002
3755000000.000 -7.2223663330E-002 -1.1862182617E-001 -9.6899271011E-004 -1.3065934181E-003 +1.6166269779E-004 -4.4435262680E-005 -6.3819885254E-003 -7.3574066162E-002
3887500000.000 -7.4264526367E-002 -1.2226867676E-001 -1.4398097992E-003 -3.4230947495E-004 -8.9794397354E-005 +5.8341771364E-005 +9.5367431641E-004 -5.6110382080E-002
4020000000.000 -7.5218200684E-002 -1.2561798096E-001 -1.3077259064E-003 +4.6324729919E-004 -4.6736095101E-006 +2.7776695788E-007 +1.2836456299E-002 -4.4185638428E-002
4152500000.000 -7.6499938965E-002 -1.3073730469E-001 -8.8453292847E-004 +1.1450052261E-003 +6.4153224230E-005 +1.8462538719E-005 +1.5237808228E-002 -3.3117294312E-002
4285000000.000 -7.8620910645E-002 -1.3526153564E-001 +1.8596649170E-005 +1.5246272087E-003 -1.9835308194E-005 +1.1519528925E-005 +1.6452789307E-002 -1.3629913330E-002
4417500000.000 -8.0810546875E-002 -1.3442993164E-001 +7.9470872879E-004 +1.4683008194E-003 -9.6939504147E-005 +3.0249357224E-005 +2.5310516357E-002 +3.3664703369E-003
4550000000.000 -8.0963134766E-002 -1.4158630371E-001 +1.1608004570E-003 +5.4150819778E-004 -7.6174736023E-005 +1.6573816538E-005 +2.8985977173E-002 +9.1266632080E-003
4682500000.000 -8.1871032715E-002 -1.4297485352E-001 +1.5911459923E-003 -1.6033649445E-004 -3.5602599382E-005 +7.5533986092E-005 +2.5585174561E-002 +1.9927024841E-002
4815000000.000 -8.4800720215E-002 -1.4707183838E-001 +1.2021064758E-003 -1.0337233543E-003 -2.8341077268E-005 +7.8380107880E-006 +3.1212806702E-002 +2.6825904846E-002
4947500000.000 -8.5464477539E-002 -1.5372467041E-001 +3.5536289215E-004 -1.2735128403E-003 -6.2473118305E-005 -3.6112964153E-005 +2.7873039246E-002 +1.9239425659E-002
5080000000.000 -8.5639953613E-002 -1.5798187256E-001 -4.1884183884E-004 -1.2455582619E-003 -3.1976029277E-005 +3.4347176552E-006 +1.3550758362E-002 +1.9966125488E-002
5212500000.000 -8.7669372559E-002 -1.6287231445E-001 -1.0142922401E-003 -7.8219175339E-004 +1.8715858459E-005 +7.3738396168E-005 +9.6511840820E-003 +2.4394035339E-002
5345000000.000 -8.9591979980E-002 -1.6545104980E-001 -1.2775659561E-003 -1.4340877533E-004 -4.4969841838E-005 -3.7701800466E-005 +6.0806274414E-003 +1.5545368195E-002
5477500000.000 -8.9691162109E-002 -1.6845703125E-001 -1.1390447617E-003 +6.1053037643E-004 +1.9118189812E-005 +3.7919729948E-005 -8.8400840759E-003 +9.7861289978E-003
5610000000.000 -8.8851928711E-002 -1.6860961914E-001 -8.9055299759E-004 +1.4950633049E-003 +9.0831890702E-006 +1.2313481420E-005 -1.4407157898E-002 +1.4554977417E-002
5742500000.000 -9.3101501465E-002 -1.7581176758E-001 +8.7320804596E-005 +1.3103485107E-003 -1.0704621673E-005 -3.5295262933E-005 -1.0725498199E-002 +5.8803558350E-003
5875000000.000 -9.2231750488E-002 -1.7311096191E-001 +1.1355876923E-003 +1.3389587402E-003 +2.2348016500E-005 -4.3489038944E-005 -1.9754409790E-002 -3.7193298340E-003
6007500000.000 -9.2575073242E-002 -1.7507934570E-001 +1.6276836395E-003 +5.1945447922E-004 -5.0440430641E-006 +9.8008662462E-005 -2.2956848145E-002 +2.1266937256E-004
6140000000.000 -9.7740173340E-002 -1.8234252930E-001 +1.3357996941E-003 -2.3096799850E-004 -6.3106417656E-005 +3.5308301449E-005 -1.4883995056E-002 -2.4275779724E-003
6272500000.000 -1.0136413574E-001 -1.8493652344E-001 +9.6333026886E-004 -8.8703632355E-004 -5.2526593208E-006 -2.1539628506E-005 -1.5790939331E-002 -1.1615753174E-002
6405000000.000 -9.9632263184E-002 -1.8253326416E-001 +8.4340572357E-005 -1.7027258873E-003 +3.2193958759E-005 +4.2425468564E-005 -1.9131660461E-002 -6.3714981079E-003
6537500000.000 -9.9342346191E-002 -1.8522644043E-001 -9.2691183090E-004 -1.5049576759E-003 -2.7917325497E-005 +1.4254823327E-005 -9.3431472778E-003 -2.9363632202E-003
6670000000.000 -1.0605621338E-001 -1.9091033936E-001 -1.1352300644E-003 -7.9017877579E-004 +3.7644058466E-006 -5.8786943555E-005 -7.6365470886E-003 -6.7331790924E-003
6802500000.000 -1.1088562012E-001 -1.9368743896E-001 -1.3965368271E-003 -6.1094760895E-005 -4.7346111387E-007 +3.2343668863E-006 -1.0870456696E-002 +2.2983551025E-004
6935000000.000 -1.1258697510E-001 -1.9258880615E-001 -1.3015270233E-003 +7.2860717773E-004 -2.4775043130E-005 +3.6599114537E-005 -6.5789222717E-003 +9.7475051880E-003
7067500000.000 -1.1236572266E-001 -1.9617462158E-001 -6.4235925674E-004 +1.3442039490E-003 -7.5414776802E-005 -3.2875686884E-005 -5.0849914551E-003 +1.0916233063E-002
7200000000.000 -1.1515808105E-001 -2.0113372803E-001 +1.1420249939E-004 +1.4207959175E-003 +9.5747411251E-005 +1.2721866369E-005 -1.4704704285E-002 +1.7685890198E-002
7332500000.000 -1.1957550049E-001 -2.0276641846E-001 +9.7024440765E-004 +1.0750889778E-003 -2.0703300834E-005 +6.1932951212E-007 -1.6994476318E-002 +3.0339241028E-002
7465000000.000 -1.2052917480E-001 -2.0417785645E-001 +1.5162229538E-003 +4.0847063065E-004 -1.5141442418E-005 -4.9516558647E-005 -2.0694732666E-002 +3.1225204468E-002
7597500000.000 -1.2186431885E-001 -2.0806121826E-001 +1.4802217484E-003 -4.8661231995E-004 +5.3256750107E-005 -6.6481530666E-005 -3.6546707153E-002 +3.4135818481E-002
7730000000.000 -1.2065887451E-001 -2.1506500244E-001 +6.8622827530E-004 -1.4743804932E-003 +1.1410564184E-005 +5.6862831116E-005 -4.7760009766E-002 +4.3569564819E-002
7862500000.000 -1.2612915039E-001 -2.1524810791E-001 +1.1801719666E-004 -1.5344023705E-003 -1.1979602277E-005 +2.8914771974E-005 -5.4141998291E-002 +4.2301177979E-002
7995000000.000 -1.2349700928E-001 -2.2001647949E-001 -1.1149048805E-003 -1.1528730392E-003 +1.0618939996E-005 -3.3326447010E-005 -7.3368072510E-002 +3.5758972168E-002
8127500000.000 -1.2468719482E-001 -2.2632598877E-001 -1.6118288040E-003 -3.1274557114E-004 +1.2906733900E-005 +1.1976342648E-005 -9.1037750244E-002 +3.9985656738E-002
8260000000.000 -1.3057708740E-001 -2.2547149658E-001 -1.6343593597E-003 +2.2822618484E-004 -4.9501657486E-005 +6.7424029112E-005 -9.5729827881E-002 +3.4168243408E-002
8392500000.000 -1.3044738770E-001 -2.2821044922E-001 -1.2245774269E-003 +1.1088252068E-003 -2.5104731321E-005 -7.3947012424E-005 -1.1000061035E-001 +1.8833160400E-002
8525000000.000 -1.2819671631E-001 -2.3497772217E-001 +1.9133090973E-005 +1.6053318977E-003 +4.3351203203E-005 +1.8171966076E-005 -1.2175369263E-001 +1.5235900879E-002
8657500000.000 -1.3167572021E-001 -2.3603057861E-001 +6.0737133026E-004 +1.5512704849E-003 -4.2660161853E-005 +8.6352229118E-006 -1.1798095703E-001 +3.9939880371E-003
8790000000.000 -1.3304138184E-001 -2.3912811279E-001 +1.3314485550E-003 +9.7030401230E-004 +1.5180557966E-005 -4.0287151933E-005 -1.1981582642E-001 -1.6925811768E-002
8922500000.000 -1.3356781006E-001 -2.3989105225E-001 +1.8167495728E-003 +3.6835670471E-005 +3.9698556066E-005 -4.8089772463E-005 -1.2184906006E-001 -3.0357360840E-002
9055000000.000 -1.3307952881E-001 -2.4362182617E-001 +1.5333294868E-003 -9.4401836395E-004 -3.6615878344E-005 +1.2800097466E-005 -1.1125946045E-001 -4.4464111328E-002
9187500000.000 -1.3459777832E-001 -2.4604034424E-001 +6.3067674637E-004 -1.7045736313E-003 -4.4727697968E-005 -2.9273331165E-005 -1.0083389282E-001 -6.6287994385E-002
9320000000.000 -1.3802337646E-001 -2.4694061279E-001 -4.0721893311E-004 -1.7700791359E-003 -1.6387552023E-005 -5.2358955145E-006 -9.2941284180E-002 -7.9219818115E-002
9452500000.000 -1.3829803467E-001 -2.4832916260E-001 -1.2978315353E-003 -1.2173652649E-003 +2.8144568205E-006 +2.8068199754E-005 -7.4039459229E-002 -8.7539672852E-002
9585000000.000 -1.3897705078E-001 -2.5437927246E-001 -1.6744136810E-003 +4.3511390686E-005 -5.3910538554E-005 -1.1462718248E-005 -5.5328369141E-002 -1.0117721558E-001
9717500000.000 -1.4285278320E-001 -2.5778198242E-001 -1.3140439987E-003 +9.8007917404E-004 +2.4281442165E-005 -5.9522688389E-005 -4.1076660156E-002 -1.0596466064E-001
9850000000.000 -1.4662170410E-001 -2.5415039063E-001 -9.1421604156E-004 +1.5935897827E-003 +1.2986361980E-005 +3.5682693124E-005 -1.8463134766E-002 -1.0288238525E-001
9982500000.000 -1.4634704590E-001 -2.5666809082E-001 +1.4555454254E-004 +1.8707513809E-003 +1.1124648154E-006 -1.3041310012E-005 +5.6304931641E-003 -1.0391998291E-001
10115000000.000 -1.4810180664E-001 -2.6043701172E-001 +1.1963248253E-003 +1.4386773109E-003 +1.2068077922E-005 -3.7344172597E-005 +1.8699645996E-002 -9.8430633545E-002
10247500000.000 -1.5252685547E-001 -2.6274108887E-001 +1.8084049225E-003 +5.4234266281E-004 +4.1300430894E-005 +4.6007335186E-007 +3.6479949951E-002 -7.9864501953E-002
10380000000.000 -1.5559387207E-001 -2.6318359375E-001 +1.7161965370E-003 -5.9843063354E-004 -6.6723674536E-005 +1.3280659914E-005 +5.7083129883E-002 -6.8519592285E-002
10512500000.000 -1.5664672852E-001 -2.6515197754E-001 +1.1732578278E-003 -1.4496445656E-003 -2.8293579817E-005 -2.4094246328E-005 +6.1742782593E-002 -5.6068420410E-002
10645000000.000 -1.5782165527E-001 -2.6876831055E-001 +1.0013580322E-005 -1.9394755363E-003 +2.3085623980E-005 +2.0300969481E-005 +6.6322326660E-002 -2.8755187988E-002
10777500000.000 -1.6409301758E-001 -2.7336120605E-001 -1.0055303574E-003 -1.3170838356E-003 -4.9684196711E-005 -2.0140781999E-005 +7.7751159668E-002 -8.3923339844E-003
10910000000.000 -1.6764831543E-001 -2.7502441406E-001 -1.4996528625E-003 -5.7548284531E-004 +4.6668574214E-006 -1.8762424588E-005 +7.1949005127E-002 +4.9018859863E-003
11042500000.000 -1.6996765137E-001 -2.7705383301E-001 -1.5720129013E-003 +3.5500526428E-004 +4.7162175179E-005 -3.9227306843E-005 +5.9461593628E-002 +3.1564712524E-002
11175000000.000 -1.7193603516E-001 -2.8121948242E-001 -1.0773539543E-003 +1.2607574463E-003 -2.3247674108E-005 +3.2925978303E-005 +5.6926727295E-002 +5.2417755127E-002
11307500000.000 -1.7222595215E-001 -2.8259277344E-001 -3.4636259079E-004 +1.9124746323E-003 +2.7343630791E-006 -1.3365875930E-005 +4.3613433838E-002 +5.8162689209E-002
11440000000.000 -1.7567443848E-001 -2.8457641602E-001 +8.9240074158E-004 +1.7859935760E-003 +3.3644959331E-005 -2.3640692234E-005 +1.8371582031E-002 +7.2292327881E-002
11572500000.000 -1.7622375488E-001 -2.8935241699E-001 +1.7990469933E-003 +1.0270476341E-003 -3.6269426346E-005 +2.2806227207E-005 +4.9476623535E-003 +8.7085723877E-002
11705000000.000 -1.7822265625E-001 -2.9174804688E-001 +1.9555091858E-003 -2.5832653046E-004 -3.1542032957E-005 -2.4024397135E-005 -1.0166168213E-002 +8.0677032471E-002
11837500000.000 -1.8084716797E-001 -2.9505920410E-001 +1.6519427299E-003 -1.3087391853E-003 +3.6342069507E-005 -8.7153166533E-006 -4.2762756348E-002 +7.7232360840E-002
11970000000.000 -1.8121337891E-001 -2.9643249512E-001 +4.3714046478E-004 -1.9737482071E-003 +3.5140663385E-005 +6.9141387939E-006 -5.8471679688E-002 +8.2893371582E-002
12102500000.000 -1.8356323242E-001 -2.9843139648E-001 -4.8494338989E-004 -1.5932917595E-003 -1.8182210624E-005 +1.6150996089E-005 -6.5807342529E-002 +6.3755035400E-002
12235000000.000 -1.8428039551E-001 -3.0210876465E-001 -1.6764998436E-003 -1.0737776756E-003 +4.7897920012E-005 +1.3934448361E-005 -9.3338012695E-002 +4.5082092285E-002
12367500000.000 -1.8724060059E-001 -3.0142211914E-001 -1.6117691994E-003 -6.2882900238E-005 -2.1831132472E-005 +1.8668361008E-005 -1.0433197021E-001 +4.3270111084E-002
12500000000.000 -1.8792724609E-001 -3.0271911621E-001 -1.5547275543E-003 +1.2900233269E-003 -5.1278620958E-005 -1.6104429960E-005 -9.7209930420E-002 +1.9229888916E-002
12632500000.000 -1.8887329102E-001 -3.0558776855E-001 -5.8066844940E-004 +1.9151568413E-003 -8.8997185230E-006 -1.6490928829E-005 -1.1068344116E-001 -1.2775421143E-002
12765000000.000 -1.9091796875E-001 -3.0769348145E-001 +6.3771009445E-004 +1.7734766006E-003 -2.2928230464E-005 +1.3417564332E-005 -1.1644363403E-001 -1.6529083252E-002
12897500000.000 -1.9329833984E-001 -3.0706787109E-001 +1.5788078308E-003 +1.1104941368E-003 -1.0710209608E-005 +4.3930485845E-005 -9.1236114502E-002 -3.5495758057E-002
13030000000.000 -1.9454956055E-001 -3.0778503418E-001 +1.8483400345E-003 -3.2246112823E-005 -5.6713819504E-005 -6.1601400375E-005 -9.0854644775E-002 -7.1632385254E-002
13162500000.000 -1.9721984863E-001 -3.0999755859E-001 +1.5211105347E-003 -1.0073781013E-003 +3.0403025448E-005 +7.8426674008E-006 -9.2033386230E-002 -7.1327209473E-002
13295000000.000 -2.0014953613E-001 -3.0967712402E-001 +8.9484453201E-004 -1.2850761414E-003 -5.2379444242E-005 +3.7703663111E-005 -6.0241699219E-002 -7.8819274902E-002
13427500000.000 -2.0303344727E-001 -3.0949401855E-001 +5.7160854340E-005 -1.6558766365E-003 -3.5889446735E-005 +3.6209821701E-006 -4.7451019287E-002 -1.0517501831E-001
13560000000.000 -2.0202636719E-001 -3.0982971191E-001 -8.9037418365E-004 -1.3606548309E-003 +9.4380229712E-005 -4.8700720072E-005 -4.7416687012E-002 -1.0103607178E-001
13692500000.000 -2.0483398438E-001 -3.1481933594E-001 -1.6061663628E-003 -2.2161006927E-004 +1.3570301235E-005 +1.6297213733E-005 -1.7448425293E-002 -8.9015960693E-002
13825000000.000 -2.0809936523E-001 -3.1422424316E-001 -1.6015172005E-003 +3.3795833588E-004 +1.2237578630E-005 +1.5768222511E-005 +4.1351318359E-003 -1.0367202759E-001
13957500000.000 -2.1086120605E-001 -3.1274414063E-001 -1.0613799095E-003 +1.0253190994E-003 +2.6692636311E-005 -3.0348077416E-005 -3.3569335938E-004 -9.5638275146E-002
14090000000.000 -2.1093750000E-001 -3.1597900391E-001 -3.6776065826E-005 +1.6595721245E-003 +7.9918652773E-005 +5.3506344557E-005 +2.2129058838E-002 -7.0652008057E-002
14222500000.000 -2.1182250977E-001 -3.1753540039E-001 +5.5074691772E-004 +1.4593601227E-003 +4.2976811528E-005 -9.6969306469E-006 +4.3556213379E-002 -7.4645996094E-002
14355000000.000 -2.1827697754E-001 -3.2061767578E-001 +1.4585256577E-003 +5.1259994507E-004 -5.6553632021E-005 -2.6257708669E-005 +3.3596038818E-002 -6.6699981689E-002
14487500000.000 -2.1986389160E-001 -3.2058715820E-001 +1.5215873718E-003 -5.3197145462E-004 +6.0196034610E-006 +6.4959749579E-008 +4.1229248047E-002 -3.4725189209E-002
14620000000.000 -2.1943664551E-001 -3.2333374023E-001 +1.0506510735E-003 -1.2363195419E-003 +2.7824193239E-005 -3.2335519791E-006 +6.0197830200E-002 -3.2503128052E-002
14752500000.000 -2.2297668457E-001 -3.2760620117E-001 +2.1398067474E-004 -1.5217661858E-003 -3.0235387385E-006 +1.3255514205E-005 +4.2898178101E-002 -3.1135559082E-002
14885000000.000 -2.2479248047E-001 -3.2730102539E-001 -4.3255090714E-004 -1.5643239021E-003 +5.1653012633E-005 -3.6763027310E-005 +3.7252426147E-002 +1.6746520996E-003
15017500000.000 -2.2550964355E-001 -3.3190917969E-001 -1.3232231140E-003 -7.1948766708E-004 -9.4242393970E-005 +9.0379267931E-005 +5.3247451782E-002 +7.1754455566E-003
15150000000.000 -2.2528076172E-001 -3.3439636230E-001 -1.5361905098E-003 -7.4744224548E-005 +4.6620145440E-005 +5.7406723499E-006 +3.3864974976E-002 -1.0852813721E-003
15282500000.000 -2.2601318359E-001 -3.3679199219E-001 -1.4438629150E-003 +8.6337327957E-004 +1.0567251593E-005 +1.0170042515E-006 +1.5755653381E-002 +2.4951934814E-002
