!  2-Port S-parameters saved by WinCal
! VAR MeasName=S-Parameters (CALIBRATED_DATA) read from VNA (C)
! VAR MeasDate=9/29/2015 3:46:12 PM
! VAR NAME=M6082_18_15_2_2_20C_15.0mA_-17.5dBm
! VAR FILENAME=M6082_18_15_2_2_20C_15.0mA_-17.5dBm.S2P
! VAR DATE=9/29/2015 3:46:12 PM
! VAR PHYS_PORTS=2,1
! VAR ObjTypeName=DATASET
! VAR IndexType=Frequency
!
# Hz S RI R 50
45000000.000 -9.5596313477E-002 -9.0408325195E-004 +1.2558698654E-004 +9.8043680191E-004 +4.9391388893E-004 +4.3594837189E-004 +2.9634475708E-002 +1.2521743774E-003
177500000.000 -9.6466064453E-002 -2.9525756836E-003 +3.9106607437E-004 +1.3902783394E-003 -3.2365322113E-005 +3.8948655128E-004 +1.6233444214E-002 +1.6881942749E-002
310000000.000 -9.5680236816E-002 -6.2789916992E-003 +1.1547803879E-003 +8.4859132767E-004 -2.0286440849E-004 +7.9154968262E-005 +2.9439926147E-002 +6.1340332031E-002
442500000.000 -9.5001220703E-002 -9.6702575684E-003 +1.5043020248E-003 +5.0663948059E-005 +4.2697414756E-005 -1.8173828721E-005 +7.2452545166E-002 +2.2045135498E-002
575000000.000 -9.4589233398E-002 -1.3721466064E-002 +1.1419653893E-003 -8.4978342056E-004 -1.1801719666E-005 +9.5408409834E-005 +2.7274131775E-002 +1.1182785034E-002
707500000.000 -9.4722747803E-002 -1.7314910889E-002 +5.0759315491E-004 -1.2751817703E-003 -3.8329511881E-005 -8.0816447735E-005 +2.0179748535E-003 +1.8453598022E-002
840000000.000 -9.4112396240E-002 -2.1259307861E-002 -3.3390522003E-004 -1.3349652290E-003 -8.0764293671E-006 -4.0920451283E-005 -2.0189285278E-002 +2.6071548462E-002
972500000.000 -9.3631744385E-002 -2.5169372559E-002 -9.6365809441E-004 -8.8894367218E-004 -5.3077936172E-005 +1.7566606402E-005 -3.5737991333E-002 +3.5840988159E-002
1105000000.000 -9.3898773193E-002 -2.9659271240E-002 -1.3261437416E-003 -2.4241209030E-004 -2.6148743927E-005 -2.7220696211E-005 -4.6615600586E-002 +3.8324356079E-002
1237500000.000 -9.3952178955E-002 -3.3275604248E-002 -1.2074708939E-003 +5.4574012756E-004 +3.4784898162E-005 -1.2978911400E-005 -5.8664321899E-002 +3.3815383911E-002
1370000000.000 -9.4413757324E-002 -3.7315368652E-002 -6.6947937012E-004 +1.1636614799E-003 +2.7799047530E-005 -8.4023922682E-006 -7.4142456055E-002 +2.7160644531E-002
1502500000.000 -9.4463348389E-002 -4.0977478027E-002 -4.0054321289E-005 +1.2748837471E-003 -1.0187737644E-005 -1.3230834156E-005 -8.8035583496E-002 +2.1514892578E-002
1635000000.000 -9.4070434570E-002 -4.5234680176E-002 +8.0388784409E-004 +1.0721087456E-003 +2.8574839234E-005 +4.0775164962E-005 -9.9136352539E-002 +1.1764526367E-002
1767500000.000 -9.4612121582E-002 -4.9434661865E-002 +1.2317299843E-003 +4.2957067490E-004 -1.1271331459E-005 +1.3226643205E-005 -1.1206054688E-001 +3.2310485840E-003
1900000000.000 -9.4184875488E-002 -5.2078247070E-002 +1.2826323509E-003 -3.6805868149E-004 -2.8994865716E-005 -1.6440637410E-005 -1.1388015747E-001 -3.2691955566E-003
2032500000.000 -9.4284057617E-002 -5.5522918701E-002 +7.7348947525E-004 -9.7781419754E-004 +3.7068501115E-005 +6.6198408604E-006 -1.1402893066E-001 -2.4143218994E-002
2165000000.000 -9.3826293945E-002 -6.0272216797E-002 +1.3262033463E-004 -1.3140439987E-003 +9.8221004009E-005 +3.2957643270E-005 -1.2263107300E-001 -4.1790008545E-002
2297500000.000 -9.4394683838E-002 -6.3556671143E-002 -4.9841403961E-004 -1.1500120163E-003 -1.6999244690E-004 +2.8289854527E-005 -1.2667083740E-001 -5.3291320801E-002
2430000000.000 -9.4394683838E-002 -6.6631317139E-002 -1.1222362518E-003 -4.6992301941E-004 -1.4189630747E-005 -8.1792473793E-005 -1.2726593018E-001 -6.4643859863E-002
2562500000.000 -9.4676971436E-002 -7.1025848389E-002 -1.2907385826E-003 +3.7014484406E-005 -9.7583979368E-005 +2.2362917662E-005 -1.2577819824E-001 -7.0304870605E-002
2695000000.000 -9.6538543701E-002 -7.4073791504E-002 -9.9015235901E-004 +9.1427564621E-004 -1.0413676500E-004 -3.9752572775E-005 -1.1359024048E-001 -7.2902679443E-002
2827500000.000 -9.7606658936E-002 -7.5885772705E-002 -4.0382146835E-004 +1.1352896690E-003 +2.9243528843E-007 +1.3474840671E-005 -9.8827362061E-002 -8.1905364990E-002
2960000000.000 -9.7415924072E-002 -7.9544067383E-002 +3.3724308014E-004 +1.0053515434E-003 +7.3179602623E-005 +2.8055161238E-005 -8.9046478271E-002 -8.6360931396E-002
3092500000.000 -9.8804473877E-002 -8.4026336670E-002 +9.8145008087E-004 +9.2947483063E-004 +2.4907290936E-005 +1.1719018221E-004 -7.0713043213E-002 -8.5197448730E-002
3225000000.000 -1.0158538818E-001 -8.6986541748E-002 +1.2519955635E-003 +1.1765956879E-004 -7.3079019785E-005 -1.0165944695E-004 -5.1940917969E-002 -9.1274261475E-002
3357500000.000 -1.0218429565E-001 -8.8928222656E-002 +1.1051297188E-003 -5.1677227020E-004 -7.2814524174E-005 +1.1824071407E-005 -4.2427062988E-002 -9.1922760010E-002
3490000000.000 -1.0315704346E-001 -9.3227386475E-002 +6.5159797668E-004 -1.0883212090E-003 +7.2963535786E-005 +2.8178095818E-005 -2.8854370117E-002 -8.2923889160E-002
3622500000.000 -1.0464096069E-001 -9.8144531250E-002 -2.6583671570E-005 -1.3962984085E-003 +1.6089528799E-005 -5.0801783800E-005 -1.1451721191E-002 -7.9128265381E-002
3755000000.000 -1.0656738281E-001 -1.0208892822E-001 -7.1343779564E-004 -8.5642933846E-004 +5.5063515902E-005 +6.1612576246E-005 -6.3858032227E-003 -7.3600769043E-002
3887500000.000 -1.0804367065E-001 -1.0541915894E-001 -1.2816190720E-003 -4.3618679047E-004 +1.9792467356E-005 +3.4701079130E-005 +1.1043548584E-003 -5.6045532227E-002
4020000000.000 -1.0874557495E-001 -1.0831832886E-001 -1.2362599373E-003 +4.0078163147E-004 +1.6324222088E-005 +3.2652169466E-006 +1.2866973877E-002 -4.4265747070E-002
4152500000.000 -1.0942840576E-001 -1.1310195923E-001 -8.5622072220E-004 +1.0808706284E-003 +9.9358148873E-006 -7.2969123721E-007 +1.5447616577E-002 -3.3155441284E-002
4285000000.000 -1.1126327515E-001 -1.1762619019E-001 +2.5033950806E-006 +1.3113617897E-003 +1.0208785534E-004 +6.7353248596E-005 +1.6533851624E-002 -1.3801574707E-002
4417500000.000 -1.1300659180E-001 -1.2035751343E-001 +6.3502788544E-004 +1.1155605316E-003 +2.8422102332E-005 -4.9816444516E-005 +2.5222778320E-002 +3.4189224243E-003
4550000000.000 -1.1283874512E-001 -1.2364196777E-001 +1.1600255966E-003 +4.3535232544E-004 +5.0473958254E-005 -9.6447765827E-005 +2.8994560242E-002 +9.1018676758E-003
4682500000.000 -1.1355590820E-001 -1.2828063965E-001 +1.1951327324E-003 -9.7990036011E-005 +3.0674040318E-005 -1.8537044525E-005 +2.5516510010E-002 +1.9968986511E-002
4815000000.000 -1.1616516113E-001 -1.3214111328E-001 +9.9110603333E-004 -6.7776441574E-004 -2.2881664336E-005 -8.4051862359E-006 +3.1132698059E-002 +2.6772499084E-002
4947500000.000 -1.1626434326E-001 -1.3484191895E-001 +3.4111738205E-004 -1.1564493179E-003 -9.1344118118E-006 -8.5312873125E-005 +2.7739524841E-002 +1.9188880920E-002
5080000000.000 -1.1608123779E-001 -1.3871765137E-001 -2.9915571213E-004 -1.1795759201E-003 +5.7179480791E-005 +3.1534582376E-006 +1.3450622559E-002 +2.0015716553E-002
5212500000.000 -1.1757659912E-001 -1.4312744141E-001 -9.9623203278E-004 -8.1264972687E-004 -3.3281743526E-005 +3.6381185055E-005 +9.6397399902E-003 +2.4272918701E-002
5345000000.000 -1.1891937256E-001 -1.4540100098E-001 -1.2615323067E-003 -1.7768144608E-004 +1.8905848265E-005 -2.0345672965E-005 +5.9800148010E-003 +1.5574932098E-002
5477500000.000 -1.1835479736E-001 -1.4812469482E-001 -1.1198520660E-003 +5.7804584503E-004 +6.0623511672E-005 +3.6656856537E-006 -8.9373588562E-003 +9.7217559814E-003
5610000000.000 -1.1851501465E-001 -1.5220642090E-001 -5.9098005295E-004 +1.1518597603E-003 -1.4167744666E-005 +9.8557211459E-006 -1.4518260956E-002 +1.4510154724E-002
5742500000.000 -1.2033081055E-001 -1.5473175049E-001 +1.0907649994E-004 +1.2752413750E-003 +2.8817448765E-006 -7.0666428655E-006 -1.0778427124E-002 +5.7806968689E-003
5875000000.000 -1.2131500244E-001 -1.5620422363E-001 +7.6752901077E-004 +1.0434389114E-003 -1.3349577785E-005 -1.7122365534E-005 -1.9800186157E-002 -3.7813186646E-003
6007500000.000 -1.2138366699E-001 -1.5801239014E-001 +1.1956691742E-003 +3.7270784378E-004 +3.1527131796E-005 +2.2809952497E-005 -2.3080825806E-002 +1.4114379883E-004
6140000000.000 -1.2210845947E-001 -1.6207122803E-001 +1.2608170509E-003 -4.0721893311E-004 -3.8793310523E-005 -1.1337921023E-005 -1.4949798584E-002 -2.3732185364E-003
6272500000.000 -1.2505340576E-001 -1.6471099854E-001 +7.8409910202E-004 -1.0925531387E-003 +4.3092295527E-005 +7.6685100794E-006 -1.5865325928E-002 -1.1594772339E-002
6405000000.000 -1.2743377686E-001 -1.6478729248E-001 +5.5253505707E-005 -1.2894272804E-003 +3.2946467400E-005 +1.3705343008E-005 -1.9139289856E-002 -6.3476562500E-003
6537500000.000 -1.2692260742E-001 -1.6732788086E-001 -6.4754486084E-004 -1.1202692986E-003 -6.6839158535E-005 +2.3961067200E-005 -9.4275474548E-003 -2.8347969055E-003
6670000000.000 -1.2850189209E-001 -1.7200469971E-001 -1.2179613113E-003 -5.6034326553E-004 -4.4083222747E-005 -1.6923993826E-005 -7.6575279236E-003 -6.5870285034E-003
6802500000.000 -1.3295745850E-001 -1.7512512207E-001 -1.2591481209E-003 +2.6416778564E-004 +4.2604282498E-005 +5.4053962231E-006 -1.0954856873E-002 +2.5367736816E-004
6935000000.000 -1.3478851318E-001 -1.7459106445E-001 -9.2247128487E-004 +9.1150403023E-004 +3.5930424929E-006 -4.5280903578E-006 -6.5770149231E-003 +9.7379684448E-003
7067500000.000 -1.3421630859E-001 -1.7829132080E-001 -2.5534629822E-004 +1.2399554253E-003 -4.2030587792E-005 -2.1137297153E-005 -5.2614212036E-003 +1.0912418365E-002
7200000000.000 -1.3658905029E-001 -1.8341827393E-001 +4.6408176422E-004 +1.1618733406E-003 +3.1901523471E-005 +2.2234395146E-005 -1.4672279358E-002 +1.7652511597E-002
7332500000.000 -1.4085388184E-001 -1.8544006348E-001 +1.0978579521E-003 +6.7317485809E-004 -2.1379441023E-005 +7.3250383139E-005 -1.6903877258E-002 +3.0328750610E-002
7465000000.000 -1.4185333252E-001 -1.8699645996E-001 +1.2586712837E-003 +3.4391880035E-005 -4.5092776418E-005 +6.8619847298E-006 -2.0645141602E-002 +3.1282424927E-002
7597500000.000 -1.4266204834E-001 -1.9104766846E-001 +1.0517239571E-003 -6.7484378815E-004 +3.4620985389E-005 -1.8859282136E-005 -3.6497116089E-002 +3.4214019775E-002
7730000000.000 -1.4535522461E-001 -1.9583892822E-001 +4.5680999756E-004 -1.1757612228E-003 -3.2028183341E-006 +1.0227784514E-005 -4.7817230225E-002 +4.3601989746E-002
7862500000.000 -1.4742279053E-001 -1.9837188721E-001 -2.7024745941E-004 -1.2289285660E-003 -5.3444877267E-005 -4.9410387874E-005 -5.4224014282E-002 +4.2192459106E-002
7995000000.000 -1.4770507813E-001 -2.0051574707E-001 -8.4975361824E-004 -8.7195634842E-004 -5.0137750804E-006 -2.7259811759E-006 -7.3417663574E-002 +3.5648345947E-002
8127500000.000 -1.4847564697E-001 -2.0675659180E-001 -1.2237429619E-003 -2.2798776627E-004 +4.2619183660E-005 +3.1311064959E-006 -9.1098785400E-002 +3.9909362793E-002
8260000000.000 -1.5165710449E-001 -2.0873260498E-001 -1.2053847313E-003 +5.0193071365E-004 +8.5104256868E-006 -2.8954818845E-006 -9.5767974854E-002 +3.4004211426E-002
8392500000.000 -1.5139770508E-001 -2.1173095703E-001 -6.2179565430E-004 +1.0213255882E-003 +3.9629638195E-005 +4.6994537115E-006 -1.1008834839E-001 +1.8642425537E-002
8525000000.000 -1.5105438232E-001 -2.1532440186E-001 +2.3841857910E-005 +1.2913346291E-003 +2.1606683731E-005 +3.8705766201E-005 -1.2167358398E-001 +1.5026092529E-002
8657500000.000 -1.5256500244E-001 -2.1931457520E-001 +6.5624713898E-004 +1.0516047478E-003 -2.7753412724E-007 +3.2152980566E-005 -1.1800003052E-001 +3.9138793945E-003
8790000000.000 -1.5399932861E-001 -2.2234344482E-001 +1.1169910431E-003 +5.0777196884E-004 -1.3079494238E-005 -1.7716549337E-005 -1.1982727051E-001 -1.7089843750E-002
8922500000.000 -1.5439605713E-001 -2.2332763672E-001 +1.2489557266E-003 -3.1161308289E-004 +4.3207779527E-005 +2.4773180485E-006 -1.2176513672E-001 -3.0426025391E-002
9055000000.000 -1.5388488770E-001 -2.2680664063E-001 +8.6313486099E-004 -1.0143518448E-003 +1.1058524251E-005 +5.4128468037E-005 -1.1118698120E-001 -4.4639587402E-002
9187500000.000 -1.5522003174E-001 -2.2904205322E-001 +1.9037723541E-004 -1.2480616570E-003 +2.4779699743E-005 +3.0030496418E-005 -1.0076522827E-001 -6.6356658936E-002
9320000000.000 -1.5865325928E-001 -2.3019409180E-001 -5.0950050354E-004 -1.1510848999E-003 +3.4602358937E-005 +1.0171905160E-005 -9.2895507813E-002 -7.9280853271E-002
9452500000.000 -1.5895080566E-001 -2.3143768311E-001 -1.0567903519E-003 -6.2513351440E-004 +1.4584977180E-005 +1.4218501747E-005 -7.4012756348E-002 -8.7612152100E-002
9585000000.000 -1.5972137451E-001 -2.3403167725E-001 -1.2103915215E-003 +5.8948993683E-005 +6.4736232162E-006 -2.2623687983E-005 -5.5156707764E-002 -1.0125350952E-001
9717500000.000 -1.6317749023E-001 -2.3733520508E-001 -1.0069608688E-003 +7.5310468674E-004 +2.9092654586E-005 -4.0777027607E-005 -4.1019439697E-002 -1.0605621338E-001
9850000000.000 -1.6699981689E-001 -2.3667907715E-001 -3.4689903259E-004 +1.2701749802E-003 +1.3621523976E-005 +5.2515417337E-005 -1.8321990967E-002 -1.0287475586E-001
9982500000.000 -1.6660308838E-001 -2.3899841309E-001 +3.1000375748E-004 +1.1994242668E-003 -4.9212947488E-005 -2.3704022169E-005 +5.7601928711E-003 -1.0401535034E-001
10115000000.000 -1.6845703125E-001 -2.4262237549E-001 +9.5492601395E-004 +8.7574124336E-004 -3.0566006899E-005 -7.4341893196E-005 +1.8852233887E-002 -9.8373413086E-002
10247500000.000 -1.7301940918E-001 -2.4496459961E-001 +1.1383891106E-003 +1.2898445129E-004 +8.3656050265E-006 -1.4589168131E-005 +3.6579132080E-002 -7.9814910889E-002
10380000000.000 -1.7544555664E-001 -2.4493408203E-001 +1.0709762573E-003 -5.3334236145E-004 -1.9034370780E-005 +1.1628493667E-005 +5.7109832764E-002 -6.8344116211E-002
10512500000.000 -1.7656707764E-001 -2.4696350098E-001 +6.8867206573E-004 -1.0904669762E-003 -3.0569732189E-005 -5.6587159634E-005 +6.1882019043E-002 -5.5864334106E-002
10645000000.000 -1.7805480957E-001 -2.5036621094E-001 -1.1104345322E-004 -1.2060403824E-003 +1.1092051864E-006 +2.8644688427E-005 +6.6383361816E-002 -2.8675079346E-002
10777500000.000 -1.8208312988E-001 -2.5267028809E-001 -7.4231624603E-004 -1.0176897049E-003 -1.8814578652E-005 +5.5748969316E-005 +7.7697753906E-002 -8.3427429199E-003
10910000000.000 -1.8531799316E-001 -2.5425720215E-001 -1.1477470398E-003 -3.1667947769E-004 -2.1778047085E-005 -3.6260113120E-005 +7.2059631348E-002 +5.1956176758E-003
11042500000.000 -1.8731689453E-001 -2.5640869141E-001 -1.1543631554E-003 +3.0010938644E-004 +5.2686780691E-005 +1.0989606380E-006 +5.9396743774E-002 +3.1650543213E-002
11175000000.000 -1.8908691406E-001 -2.6058959961E-001 -7.8511238098E-004 +9.5763802528E-004 -1.5892088413E-005 +8.6585059762E-006 +5.6852340698E-002 +5.2412033081E-002
11307500000.000 -1.9107055664E-001 -2.6293945313E-001 -1.4835596085E-004 +1.1929273605E-003 -3.5082921386E-006 -2.6697292924E-005 +4.3455123901E-002 +5.8277130127E-002
11440000000.000 -1.9445800781E-001 -2.6454162598E-001 +4.9966573715E-004 +1.0923743248E-003 +4.0872022510E-005 -3.3639371395E-005 +1.8257141113E-002 +7.2280883789E-002
11572500000.000 -1.9500732422E-001 -2.6925659180E-001 +1.0998249054E-003 +6.7400932312E-004 +4.6584755182E-005 +5.5421143770E-005 +4.5890808105E-003 +8.7234497070E-002
11705000000.000 -1.9664001465E-001 -2.7140808105E-001 +1.2241601944E-003 -1.2838840485E-004 +2.1466985345E-005 +1.3513490558E-006 -1.0414123535E-002 +8.0856323242E-002
11837500000.000 -1.9888305664E-001 -2.7450561523E-001 +9.5340609550E-004 -8.9362263680E-004 -3.9245933294E-006 -5.0516799092E-005 -4.3041229248E-002 +7.7350616455E-002
11970000000.000 -1.9918823242E-001 -2.7554321289E-001 +2.9546022415E-004 -1.2456178665E-003 +1.6249716282E-005 -2.1820887923E-006 -5.8727264404E-002 +8.2874298096E-002
12102500000.000 -1.9895935059E-001 -2.7786254883E-001 -4.6068429947E-004 -1.1570453644E-003 -6.8645924330E-005 +7.9609453678E-006 -6.5986633301E-002 +6.3751220703E-002
12235000000.000 -2.0152282715E-001 -2.8077697754E-001 -9.8466873169E-004 -6.3383579254E-004 +2.6173889637E-005 -5.3700059652E-006 -9.3429565430E-002 +4.4876098633E-002
12367500000.000 -2.0202636719E-001 -2.8103637695E-001 -1.2392997742E-003 -7.1048736572E-005 +5.3927302361E-005 +1.1410564184E-005 -1.0440063477E-001 +4.3064117432E-002
12500000000.000 -2.0440673828E-001 -2.8086853027E-001 -1.0730028152E-003 +7.0971250534E-004 -1.3154000044E-005 +7.8577548265E-005 -9.7301483154E-002 +1.9210815430E-002
12632500000.000 -2.0483398438E-001 -2.8376770020E-001 -4.6098232269E-004 +1.1002421379E-003 +6.3508749008E-005 -2.6736408472E-005 -1.1066818237E-001 -1.2943267822E-002
12765000000.000 -2.0646667480E-001 -2.8570556641E-001 +2.9098987579E-004 +1.1456012726E-003 +1.9620172679E-005 +1.5804544091E-006 -1.1648178101E-001 -1.6735076904E-002
12897500000.000 -2.0840454102E-001 -2.8475952148E-001 +8.4388256073E-004 +7.4684619904E-004 -7.3229894042E-006 +2.3705884814E-005 -9.1392517090E-002 -3.5747528076E-002
13030000000.000 -2.0918273926E-001 -2.8550720215E-001 +1.1937022209E-003 +2.1398067474E-004 -7.8175216913E-005 +3.3043324947E-006 -9.0763092041E-002 -7.1792602539E-002
13162500000.000 -2.1138000488E-001 -2.8776550293E-001 +1.0468959808E-003 -5.0574541092E-004 +6.0521066189E-005 -5.8965757489E-005 -9.1869354248E-002 -7.1357727051E-002
13295000000.000 -2.1330261230E-001 -2.8945922852E-001 +5.9205293655E-004 -1.0513663292E-003 +1.6697682440E-005 +1.8992461264E-005 -5.9970855713E-002 -7.8815460205E-002
13427500000.000 -2.1614074707E-001 -2.8933715820E-001 +2.7537345886E-005 -1.1702775955E-003 -5.2159652114E-005 -2.4510547519E-005 -4.7332763672E-002 -1.0517120361E-001
13560000000.000 -2.1459960938E-001 -2.8999328613E-001 -6.8673491478E-004 -9.1415643692E-004 +1.2051686645E-004 +8.0540776253E-005 -4.7355651855E-002 -1.0087585449E-001
13692500000.000 -2.1728515625E-001 -2.9290771484E-001 -1.0466575623E-003 -3.1363964081E-004 -9.8671764135E-005 -3.4011900425E-006 -1.7295837402E-002 -8.8928222656E-002
13825000000.000 -2.2032165527E-001 -2.9441833496E-001 -1.0521411896E-003 +2.9718875885E-004 -6.5676867962E-005 -1.2602657080E-005 +4.1809082031E-003 -1.0359191895E-001
13957500000.000 -2.2273254395E-001 -2.9299926758E-001 -7.4678659439E-004 +8.7499618530E-004 +4.6137720346E-005 -8.7879598141E-005 -4.3869018555E-004 -9.5565795898E-002
14090000000.000 -2.2207641602E-001 -2.9441833496E-001 -1.2761354446E-004 +1.1361837387E-003 -4.5597553253E-006 +6.6608190536E-005 +2.2216796875E-002 -7.0549011230E-002
14222500000.000 -2.2338867188E-001 -2.9788208008E-001 +4.7713518143E-004 +1.1022090912E-003 -1.8517486751E-005 -1.5546567738E-005 +4.3544769287E-002 -7.4497222900E-002
14355000000.000 -2.2888183594E-001 -2.9937744141E-001 +1.0046362877E-003 +6.9385766983E-004 -1.4889985323E-005 -6.4369291067E-005 +3.3489227295E-002 -6.6516876221E-002
14487500000.000 -2.3031616211E-001 -2.9977416992E-001 +1.3218522072E-003 -6.0021877289E-005 -4.4766813517E-005 +1.1167302728E-004 +4.1130065918E-002 -3.4624099731E-002
14620000000.000 -2.2947692871E-001 -3.0255126953E-001 +8.7401270866E-004 -7.6466798782E-004 +1.2592412531E-005 +2.0206905901E-005 +6.0251235962E-002 -3.2470703125E-002
14752500000.000 -2.3266601563E-001 -3.0694580078E-001 +2.0927190781E-004 -1.1264085770E-003 +3.0789524317E-006 +3.5619363189E-005 +4.2881011963E-002 -3.1139373779E-002
14885000000.000 -2.3548889160E-001 -3.0807495117E-001 -3.0094385147E-004 -1.1158585548E-003 +1.9904226065E-005 -9.6112489700E-006 +3.7269592285E-002 +1.7566680908E-003
15017500000.000 -2.3486328125E-001 -3.1187438965E-001 -9.4178318977E-004 -8.0803036690E-004 -2.5667250156E-005 +7.1339309216E-005 +5.3339004517E-002 +7.1525573730E-003
15150000000.000 -2.3567199707E-001 -3.1535339355E-001 -1.0985732079E-003 +1.3470649719E-004 -7.5995922089E-006 -5.7231634855E-005 +3.3880233765E-002 -9.2124938965E-004
15282500000.000 -2.3620605469E-001 -3.1770324707E-001 -9.7426772118E-004 +7.0521235466E-004 -2.8251670301E-005 -1.9693747163E-005 +1.5642166138E-002 +2.4778366089E-002
