!  2-Port S-parameters saved by WinCal
! VAR MeasName=S-Parameters (CALIBRATED_DATA) read from VNA (C)
! VAR MeasDate=9/29/2015 2:53:14 PM
! VAR NAME=M6082_18_15_2_2_20C_1.8mA_-16.5dBm
! VAR FILENAME=M6082_18_15_2_2_20C_1.8mA_-16.5dBm.S2P
! VAR DATE=9/29/2015 2:53:14 PM
! VAR PHYS_PORTS=2,1
! VAR ObjTypeName=DATASET
! VAR IndexType=Frequency
!
# Hz S RI R 50
45000000.000 +1.8653869629E-001 -6.4620971680E-003 -5.7029724121E-004 +2.8094053268E-003 +7.8746676445E-004 +1.1616945267E-004 +2.8806686401E-002 +3.0031204224E-003
177500000.000 +1.9203186035E-001 -1.2763977051E-002 +5.2225589752E-004 +1.4622211456E-003 -9.3251466751E-005 +2.8889626265E-005 +1.6164779663E-002 +1.6573905945E-002
310000000.000 +1.9527435303E-001 -2.2552490234E-002 +9.2017650604E-004 +8.5547566414E-004 -7.7620148659E-005 -2.5156140327E-004 +2.9720306396E-002 +6.1290740967E-002
442500000.000 +1.8739318848E-001 -2.8259277344E-002 +1.7666816711E-003 -2.1308660507E-004 +8.6471438408E-005 +4.7944486141E-006 +7.2486877441E-002 +2.1961212158E-002
575000000.000 +1.8360900879E-001 -3.4606933594E-002 +1.1734962463E-003 -1.0094046593E-003 -1.3222917914E-005 +5.8241188526E-005 +2.7247428894E-002 +1.1078834534E-002
707500000.000 +1.8302154541E-001 -4.2701721191E-002 +3.5697221756E-004 -1.4792680740E-003 -5.6343153119E-005 -3.6757439375E-005 +2.0923614502E-003 +1.8356323242E-002
840000000.000 +1.7993927002E-001 -4.8469543457E-002 -5.7196617126E-004 -1.4561414719E-003 +1.4426186681E-005 +2.2949650884E-005 -2.0230293274E-002 +2.6066780090E-002
972500000.000 +1.8024444580E-001 -5.6037902832E-002 -1.2976527214E-003 -8.5502862930E-004 -4.1056424379E-005 +1.3973563910E-005 -3.5745620728E-002 +3.5810470581E-002
1105000000.000 +1.7908477783E-001 -6.4231872559E-002 -1.5317797661E-003 +9.0837478638E-005 -1.4325603843E-005 -3.6396086216E-005 -4.6739578247E-002 +3.8257598877E-002
1237500000.000 +1.7814636230E-001 -7.1479797363E-002 -1.2887120247E-003 +9.5868110657E-004 +1.7578713596E-005 +5.4705888033E-006 -5.8649063110E-002 +3.3788681030E-002
1370000000.000 +1.7652893066E-001 -7.9193115234E-002 -4.2921304703E-004 +1.4371275902E-003 -8.7181106210E-006 +1.0135117918E-005 -7.4111938477E-002 +2.7198791504E-002
1502500000.000 +1.7416381836E-001 -8.4121704102E-002 +4.3970346451E-004 +1.4879107475E-003 -4.7395005822E-005 +2.3839995265E-005 -8.7947845459E-002 +2.1533966064E-002
1635000000.000 +1.7477416992E-001 -9.3818664551E-002 +1.2289285660E-003 +9.4789266586E-004 -1.2909993529E-005 -5.3441151977E-005 -9.9140167236E-002 +1.1821746826E-002
1767500000.000 +1.7224121094E-001 -1.0063171387E-001 +1.5152692795E-003 +3.7908554077E-005 +1.2628734112E-005 +6.3866376877E-005 -1.1210250854E-001 +3.2348632813E-003
1900000000.000 +1.6937255859E-001 -1.0250091553E-001 +1.3020634651E-003 -9.3334913254E-004 +2.1360814571E-005 +7.3298811913E-005 -1.1391067505E-001 -3.2348632813E-003
2032500000.000 +1.6730499268E-001 -1.0836029053E-001 +5.7029724121E-004 -1.4867782593E-003 +5.3565949202E-005 -1.1667981744E-004 -1.1404418945E-001 -2.4147033691E-002
2165000000.000 +1.6546630859E-001 -1.1389923096E-001 -3.5953521729E-004 -1.6757249832E-003 -2.3573637009E-005 -4.2382627726E-005 -1.2273788452E-001 -4.1809082031E-002
2297500000.000 +1.6056060791E-001 -1.1830902100E-001 -1.0860562325E-003 -1.2468695641E-003 -2.1872110665E-005 +1.6280449927E-005 -1.2658691406E-001 -5.3215026855E-002
2430000000.000 +1.5876770020E-001 -1.2352752686E-001 -1.7440915108E-003 -4.3630599976E-004 -4.9099326134E-005 -1.5340745449E-004 -1.2711334229E-001 -6.4758300781E-002
2562500000.000 +1.5793609619E-001 -1.3074493408E-001 -1.6802549362E-003 +6.1690807343E-004 +7.7627599239E-005 +7.4759125710E-005 -1.2578582764E-001 -7.0343017578E-002
2695000000.000 +1.5331268311E-001 -1.3609313965E-001 -1.0128617287E-003 +1.6280412674E-003 -1.6184896231E-004 +4.9769878387E-006 -1.1355590820E-001 -7.2643280029E-002
2827500000.000 +1.5095520020E-001 -1.4097595215E-001 -5.7637691498E-005 +1.7377734184E-003 +2.5127083063E-005 -7.5539574027E-006 -9.8800659180E-002 -8.1912994385E-002
2960000000.000 +1.5008544922E-001 -1.4823913574E-001 +9.6845626831E-004 +1.5007853508E-003 +6.8813562393E-005 +2.7082860470E-005 -8.9145660400E-002 -8.6315155029E-002
3092500000.000 +1.4640045166E-001 -1.5526580811E-001 +1.6776919365E-003 +7.4404478073E-004 +6.8359076977E-006 +4.4938176870E-005 -7.0594787598E-002 -8.5189819336E-002
3225000000.000 +1.4158630371E-001 -1.6100311279E-001 +1.6641020775E-003 -2.8949975967E-004 -1.6639009118E-005 -4.0840357542E-005 -5.1986694336E-002 -9.1190338135E-002
3357500000.000 +1.3918304443E-001 -1.6542053223E-001 +1.3489127159E-003 -1.4044046402E-003 +1.3415515423E-004 +1.1101365089E-006 -4.2419433594E-002 -9.2090606689E-002
3490000000.000 +1.3698577881E-001 -1.7183685303E-001 +2.1910667419E-004 -1.7793774605E-003 +3.2527372241E-005 +2.4238601327E-005 -2.8907775879E-002 -8.2763671875E-002
3622500000.000 +1.3391113281E-001 -1.7863464355E-001 -8.5622072220E-004 -1.7596483231E-003 -7.6021999121E-005 +3.2562762499E-005 -1.1451721191E-002 -7.9116821289E-002
3755000000.000 +1.3156890869E-001 -1.8587493896E-001 -1.7024278641E-003 -9.1904401779E-004 -7.6368451118E-005 -6.2793493271E-005 -6.5498352051E-003 -7.3734283447E-002
3887500000.000 +1.3034820557E-001 -1.9311523438E-001 -2.0051002502E-003 +3.1197071075E-004 +7.6320022345E-005 +9.8410993814E-005 +1.0795593262E-003 -5.6091308594E-002
4020000000.000 +1.2934112549E-001 -1.9932556152E-001 -1.3970136642E-003 +1.5836358070E-003 -7.7750533819E-005 +3.2421201468E-005 +1.2878417969E-002 -4.4286727905E-002
4152500000.000 +1.2938690186E-001 -2.1086883545E-001 -1.9788742065E-005 +2.0756721497E-003 -2.2763386369E-005 +2.6982277632E-005 +1.5460968018E-002 -3.3079147339E-002
4285000000.000 +1.2705230713E-001 -2.2404479980E-001 +1.5151500702E-003 +1.4601945877E-003 +3.0212104321E-005 -1.8890947104E-005 +1.6512870789E-002 -1.3724327087E-002
4417500000.000 +1.2284851074E-001 -2.3421478271E-001 +2.0489692688E-003 +1.8858909607E-004 -9.7695738077E-006 +2.6222318411E-005 +2.5430679321E-002 +3.3931732178E-003
4550000000.000 +1.1899566650E-001 -2.4494171143E-001 +1.7077922821E-003 -1.2766122818E-003 +5.6188553572E-005 -7.8152865171E-005 +2.9022216797E-002 +9.0398788452E-003
4682500000.000 +1.1083984375E-001 -2.5743103027E-001 +2.2113323212E-004 -1.8631219864E-003 +5.8375298977E-005 -1.2198463082E-005 +2.5671005249E-002 +1.9796371460E-002
4815000000.000 +1.0324096680E-001 -2.6489257813E-001 -8.4888935089E-004 -1.5704631805E-003 -9.1008841991E-006 -3.2443553209E-005 +3.1358718872E-002 +2.6763916016E-002
4947500000.000 +9.8403930664E-002 -2.7055358887E-001 -1.5912652016E-003 -7.4440240860E-004 +2.3523345590E-005 -4.7061592340E-005 +2.7818679810E-002 +1.9186973572E-002
5080000000.000 +9.1796875000E-002 -2.7699279785E-001 -1.6078948975E-003 +5.0264596939E-004 +2.2269785404E-005 +6.3724815845E-005 +1.3606071472E-002 +1.9948959351E-002
5212500000.000 +8.5296630859E-002 -2.8282165527E-001 -9.9468231201E-004 +1.3142228127E-003 +1.8176622689E-005 +8.1947073340E-006 +9.6015930176E-003 +2.4253845215E-002
5345000000.000 +8.0871582031E-002 -2.8640747070E-001 +4.9591064453E-005 +1.7460584641E-003 -5.0483271480E-005 -1.2151896954E-005 +6.1583518982E-003 +1.5516757965E-002
5477500000.000 +7.6065063477E-002 -2.8984069824E-001 +9.8246335983E-004 +1.2871623039E-003 +1.2725591660E-005 -4.0614977479E-005 -8.8100433350E-003 +9.7203254700E-003
5610000000.000 +7.0907592773E-002 -2.9421997070E-001 +1.4738440514E-003 +3.7163496017E-004 -1.1060386896E-005 +3.7593767047E-005 -1.4458656311E-002 +1.4483928680E-002
5742500000.000 +6.5917968750E-002 -2.9757690430E-001 +1.4635324478E-003 -5.7739019394E-004 -1.6118399799E-005 -8.6044892669E-006 -1.0650634766E-002 +5.8493614197E-003
5875000000.000 +6.1477661133E-002 -2.9946899414E-001 +8.8286399841E-004 -1.2717843056E-003 -1.7164275050E-005 -1.4898367226E-005 -1.9640922546E-002 -3.7555694580E-003
6007500000.000 +5.7510375977E-002 -3.0096435547E-001 -4.2378902435E-005 -1.4665722847E-003 -1.4498829842E-005 +6.7368149757E-005 -2.2988319397E-002 +2.5653839111E-004
6140000000.000 +5.3283691406E-002 -3.0538940430E-001 -9.2196464539E-004 -1.0730028152E-003 -4.1399151087E-005 -2.4426728487E-005 -1.4849662781E-002 -2.3880004883E-003
6272500000.000 +4.7592163086E-002 -3.0863952637E-001 -1.4582872391E-003 -3.9273500443E-004 +3.3605843782E-005 -2.8423964977E-005 -1.5715599060E-002 -1.1530876160E-002
6405000000.000 +4.1702270508E-002 -3.0838012695E-001 -1.4199614525E-003 +4.6747922897E-004 -3.3834949136E-006 +3.9245933294E-006 -1.9108772278E-002 -6.3228607178E-003
6537500000.000 +3.9077758789E-002 -3.1025695801E-001 -7.9911947250E-004 +1.1368393898E-003 -5.9900805354E-005 -6.9662928581E-007 -9.3736648560E-003 -2.8018951416E-003
6670000000.000 +3.4927368164E-002 -3.1532287598E-001 -2.9683113098E-005 +1.4930367470E-003 -4.9802474678E-006 -2.9327347875E-006 -7.6084136963E-003 -6.5207481384E-003
6802500000.000 +2.7221679688E-002 -3.1755065918E-001 +7.8779459000E-004 +1.1644959450E-003 +5.9314072132E-005 -1.9265338778E-005 -1.0874271393E-002 +2.6273727417E-004
6935000000.000 +2.2354125977E-002 -3.1581115723E-001 +1.2038350105E-003 +3.8671493530E-004 -4.0115788579E-005 -1.3358891010E-005 -6.6652297974E-003 +9.7889900208E-003
7067500000.000 +2.0812988281E-002 -3.1948852539E-001 +1.2385249138E-003 -3.7056207657E-004 -2.9909424484E-005 -2.9927119613E-005 -5.1856040955E-003 +1.0951995850E-002
7200000000.000 +1.5853881836E-002 -3.2461547852E-001 +8.5127353668E-004 -9.8943710327E-004 -3.3739954233E-005 +3.6545097828E-006 -1.4687538147E-002 +1.7704010010E-002
7332500000.000 +8.7127685547E-003 -3.2553100586E-001 +1.5169382095E-004 -1.2201666832E-003 -3.3983960748E-006 +2.6124529541E-005 -1.6913414001E-002 +3.0387878418E-002
7465000000.000 +5.5389404297E-003 -3.2656860352E-001 -5.8656930923E-004 -1.0899901390E-003 -3.3563002944E-005 -4.6640634537E-005 -2.0627975464E-002 +3.1307220459E-002
7597500000.000 +2.6245117188E-003 -3.3084106445E-001 -1.1180043221E-003 -6.3979625702E-004 -1.7764978111E-005 -2.1015293896E-005 -3.6552429199E-002 +3.4181594849E-002
7730000000.000 -2.3956298828E-003 -3.3401489258E-001 -1.2335181236E-003 +1.9699335098E-004 -1.9837170839E-005 -8.3269551396E-006 -4.7771453857E-002 +4.3594360352E-002
7862500000.000 -6.7443847656E-003 -3.3529663086E-001 -7.7161192894E-004 +7.2294473648E-004 -1.8408522010E-005 +4.2045488954E-005 -5.4140090942E-002 +4.2135238647E-002
7995000000.000 -8.8500976563E-003 -3.3761596680E-001 -2.4020671844E-004 +1.1507868767E-003 -1.5862286091E-005 -1.7609447241E-005 -7.3486328125E-002 +3.5755157471E-002
8127500000.000 -1.1718750000E-002 -3.4298706055E-001 +4.2021274567E-004 +1.0204911232E-003 +2.2877007723E-005 +1.3602897525E-005 -9.1026306152E-002 +4.0031433105E-002
8260000000.000 -1.6784667969E-002 -3.4381103516E-001 +8.5195899010E-004 +4.9275159836E-004 -7.4941664934E-005 -2.3916363716E-006 -9.5703125000E-002 +3.4038543701E-002
8392500000.000 -1.8463134766E-002 -3.4628295898E-001 +1.0302662849E-003 +9.2983245850E-006 -1.0322779417E-005 +1.6749836504E-005 -1.1007308960E-001 +1.8806457520E-002
8525000000.000 -1.9866943359E-002 -3.4916687012E-001 +8.7848305702E-004 -5.5807828903E-004 -6.2398612499E-006 -8.1546604633E-006 -1.2172698975E-001 +1.5220642090E-002
8657500000.000 -2.2933959961E-002 -3.5203552246E-001 +3.2201409340E-004 -8.2075595856E-004 +2.6617199183E-006 -4.5385211706E-005 -1.1788177490E-001 +4.1389465332E-003
8790000000.000 -2.5787353516E-002 -3.5432434082E-001 -1.5026330948E-004 -8.8161230087E-004 -2.8757378459E-005 -2.9939226806E-005 -1.1977386475E-001 -1.6967773438E-002
8922500000.000 -2.7954101563E-002 -3.5502624512E-001 -5.6838989258E-004 -5.8209896088E-004 +3.1832605600E-006 +4.1639432311E-005 -1.2179565430E-001 -3.0361175537E-002
9055000000.000 -2.8762817383E-002 -3.5745239258E-001 -8.7276101112E-004 -1.2177228928E-004 +5.1742419600E-005 +2.9414892197E-005 -1.1128234863E-001 -4.4506072998E-002
9187500000.000 -3.1463623047E-002 -3.5911560059E-001 -6.9174170494E-004 +3.2004714012E-004 -2.0841136575E-005 -5.3822994232E-005 -1.0090255737E-001 -6.6184997559E-002
9320000000.000 -3.6529541016E-002 -3.5980224609E-001 -4.1148066521E-004 +6.7752599716E-004 +1.3723038137E-005 +2.2584572434E-005 -9.3013763428E-002 -7.9086303711E-002
9452500000.000 -3.8299560547E-002 -3.6045837402E-001 +4.5657157898E-005 +8.3643198013E-004 +1.4010816813E-005 +8.5745006800E-005 -7.4222564697E-002 -8.7451934814E-002
9585000000.000 -4.0176391602E-002 -3.6250305176E-001 +4.2617321014E-004 +5.7840347290E-004 -1.0475516319E-005 -9.8139047623E-005 -5.5519104004E-002 -1.0115051270E-001
9717500000.000 -4.5150756836E-002 -3.6528015137E-001 +5.7661533356E-004 +2.5480985641E-004 +2.0535662770E-005 -1.8189661205E-005 -4.1210174561E-002 -1.0597610474E-001
9850000000.000 -5.0552368164E-002 -3.6421203613E-001 +6.4325332642E-004 -1.7818808556E-004 -3.9499253035E-005 +1.5396624804E-005 -1.8436431885E-002 -1.0292434692E-001
9982500000.000 -5.1483154297E-002 -3.6582946777E-001 +4.9763917923E-004 -5.2779912949E-004 -6.6757202148E-005 -4.2576342821E-005 +5.3863525391E-003 -1.0405731201E-001
10115000000.000 -5.4595947266E-002 -3.6888122559E-001 +4.7862529755E-005 -5.9577822685E-004 +6.9234520197E-005 -6.8295747042E-005 +1.8657684326E-002 -9.8503112793E-002
10247500000.000 -6.0668945313E-002 -3.7043762207E-001 -3.0371546745E-004 -5.6669116020E-004 +2.6863999665E-005 -4.2347237468E-006 +3.6441802979E-002 -7.9883575439E-002
10380000000.000 -6.4193725586E-002 -3.7022399902E-001 -5.4681301117E-004 -3.0767917633E-004 -7.6010823250E-005 +7.5541436672E-005 +5.7033538818E-002 -6.8618774414E-002
10512500000.000 -6.6864013672E-002 -3.7168884277E-001 -5.7891011238E-004 +7.4297189713E-005 -1.9399449229E-005 -5.6026503444E-005 +6.1576843262E-002 -5.6194305420E-002
10645000000.000 -7.0068359375E-002 -3.7428283691E-001 -3.6680698395E-004 +3.0159950256E-004 +8.0388039351E-005 -4.7773122787E-005 +6.6284179688E-002 -2.8842926025E-002
10777500000.000 -7.4859619141E-002 -3.7612915039E-001 -1.9851326942E-004 +4.8753619194E-004 -6.9074332714E-005 +2.1126121283E-005 +7.7831268311E-002 -8.5563659668E-003
10910000000.000 -7.9284667969E-002 -3.7742614746E-001 +1.7550587654E-004 +5.4791569710E-004 -2.9996037483E-005 -4.4513493776E-005 +7.2166442871E-002 +4.8561096191E-003
11042500000.000 -8.3053588867E-002 -3.7902832031E-001 +4.1805207729E-004 +2.9371678829E-004 +1.5783123672E-005 -2.7824193239E-005 +5.9434890747E-002 +3.1511306763E-002
11175000000.000 -8.5922241211E-002 -3.8235473633E-001 +5.1426887512E-004 +8.9049339294E-005 -5.6002289057E-005 +4.5776367188E-005 +5.7044982910E-002 +5.2385330200E-002
11307500000.000 -8.8745117188E-002 -3.8415527344E-001 +3.9222836494E-004 -2.5130808353E-004 -8.3623453975E-006 -1.0190065950E-005 +4.3712615967E-002 +5.8038711548E-002
11440000000.000 -9.3673706055E-002 -3.8539123535E-001 +2.2262334824E-004 -4.1331350803E-004 +1.3528391719E-005 -5.9915706515E-005 +1.8329620361E-002 +7.2139739990E-002
11572500000.000 -9.5336914063E-002 -3.8935852051E-001 +1.0401010513E-005 -4.3426454067E-004 +5.5231153965E-005 +6.6775828600E-006 +5.0430297852E-003 +8.7093353271E-002
11705000000.000 -9.8083496094E-002 -3.9073181152E-001 -2.1684169769E-004 -2.6507675648E-004 -6.4179301262E-005 +7.3052942753E-006 -1.0169982910E-002 +8.0902099609E-002
11837500000.000 -1.0136413574E-001 -3.9318847656E-001 -3.3737719059E-004 -1.3510882854E-004 +4.8741698265E-005 +3.2372772694E-006 -4.2743682861E-002 +7.7312469482E-002
11970000000.000 -1.0287475586E-001 -3.9373779297E-001 -3.1173229218E-004 +9.3087553978E-005 +1.1557713151E-006 +2.1998770535E-005 -5.8418273926E-002 +8.2935333252E-002
12102500000.000 -1.0353088379E-001 -3.9541625977E-001 -1.6418099403E-004 +3.5615265369E-004 -4.7028064728E-005 +7.1119517088E-005 -6.5860748291E-002 +6.3846588135E-002
12235000000.000 -1.0723876953E-001 -3.9759826660E-001 -9.0286135674E-005 +4.2347609997E-004 -1.0002404451E-005 +3.5192817450E-005 -9.3418121338E-002 +4.5257568359E-002
12367500000.000 -1.0852050781E-001 -3.9726257324E-001 +2.0787119865E-004 +3.1748414040E-004 +3.4037977457E-005 +4.7532841563E-005 -1.0427093506E-001 +4.3350219727E-002
12500000000.000 -1.1204528809E-001 -3.9675903320E-001 +2.7185678482E-004 +1.9560754299E-004 -9.6119940281E-005 +1.8842518330E-005 -9.7244262695E-002 +1.9290924072E-002
12632500000.000 -1.1357116699E-001 -3.9906311035E-001 +3.2202899456E-004 +3.6016106606E-005 +1.9844621420E-005 -8.6307525635E-005 -1.1080551147E-001 -1.2676239014E-002
12765000000.000 -1.1608886719E-001 -4.0032958984E-001 +3.3669173717E-004 -1.6391277313E-004 +6.4704567194E-005 -3.6790966988E-005 -1.1658096313E-001 -1.6342163086E-002
12897500000.000 -1.1892700195E-001 -3.9862060547E-001 +1.6702711582E-004 -3.6405026913E-004 +2.2543594241E-005 +4.3215230107E-005 -9.1323852539E-002 -3.5533905029E-002
13030000000.000 -1.2065124512E-001 -3.9904785156E-001 -2.0763278008E-004 -2.8714537621E-004 -2.4730339646E-005 +8.8475644588E-008 -9.1037750244E-002 -7.1666717529E-002
13162500000.000 -1.2370300293E-001 -4.0052795410E-001 -2.8270483017E-004 -1.6115605831E-004 +1.3832002878E-005 -4.5480206609E-005 -9.2124938965E-002 -7.1060180664E-002
13295000000.000 -1.2652587891E-001 -4.0155029297E-001 -3.9146840572E-004 +6.4730644226E-005 -2.5328248739E-005 +7.7266246080E-005 -6.0176849365E-002 -7.8681945801E-002
13427500000.000 -1.3024902344E-001 -4.0093994141E-001 -2.0250678062E-004 +1.2209266424E-004 -7.1242451668E-005 +3.0077993870E-005 -4.7489166260E-002 -1.0529327393E-001
13560000000.000 -1.2936401367E-001 -4.0081787109E-001 -1.5263259411E-004 +2.9022991657E-004 +6.7185610533E-006 +5.4528936744E-007 -4.7653198242E-002 -1.0113525391E-001
13692500000.000 -1.3290405273E-001 -4.0306091309E-001 +1.2676417828E-004 +3.0590593815E-004 +2.6436522603E-005 +3.3933669329E-005 -1.7494201660E-002 -8.8924407959E-002
13825000000.000 -1.3700866699E-001 -4.0376281738E-001 +2.4777650833E-004 +2.1134316921E-004 -6.5267086029E-005 -4.4018030167E-005 +4.2533874512E-003 -1.0377120972E-001
13957500000.000 -1.4009094238E-001 -4.0193176270E-001 +3.4034252167E-004 +6.8619847298E-005 +6.2737613916E-005 -5.3334981203E-005 -5.1879882813E-004 -9.5684051514E-002
14090000000.000 -1.4027404785E-001 -4.0295410156E-001 +2.0775943995E-004 -7.7560544014E-005 -4.8564746976E-005 +4.6851113439E-005 +2.2048950195E-002 -7.0701599121E-002
14222500000.000 -1.4236450195E-001 -4.0568542480E-001 +1.3572722673E-004 -1.9931048155E-004 +4.6446919441E-005 +8.4571540356E-005 +4.3483734131E-002 -7.4604034424E-002
14355000000.000 -1.4840698242E-001 -4.0653991699E-001 +5.0500035286E-005 -1.9945949316E-004 +2.8572976589E-005 -3.4108757973E-005 +3.3473968506E-002 -6.6635131836E-002
14487500000.000 -1.5034484863E-001 -4.0602111816E-001 -8.0987811089E-005 -1.9299983978E-004 +9.8422169685E-005 -5.3666532040E-005 +4.1387557983E-002 -3.4877777100E-002
14620000000.000 -1.5028381348E-001 -4.0800476074E-001 -1.5819072723E-004 -9.8735094070E-005 -5.4175034165E-005 +3.3995136619E-005 +6.0110092163E-002 -3.2529830933E-002
14752500000.000 -1.5354919434E-001 -4.1206359863E-001 -1.9507110119E-004 -7.8678131104E-005 +4.9320980906E-005 -3.1305477023E-005 +4.2755126953E-002 -3.1137466431E-002
14885000000.000 -1.5739440918E-001 -4.1238403320E-001 -7.8335404396E-005 +1.0205805302E-004 +6.3382089138E-005 +4.3682754040E-005 +3.7437438965E-002 +1.5411376953E-003
15017500000.000 -1.5696716309E-001 -4.1508483887E-001 -2.0688772202E-004 +1.4568865299E-004 -1.5485100448E-005 +2.3129396141E-005 +5.3371429443E-002 +6.9313049316E-003
15150000000.000 -1.5782165527E-001 -4.1862487793E-001 +3.5196542740E-005 +1.6190856695E-004 -7.1436166763E-005 -7.4587762356E-005 +3.3569335938E-002 -1.0395050049E-003
15282500000.000 -1.5910339355E-001 -4.2044067383E-001 +1.6595423222E-004 +2.0860880613E-004 +8.4694474936E-005 -5.2414834499E-006 +1.5666007996E-002 +2.4960517883E-002
