!  2-Port S-parameters saved by WinCal
! VAR MeasName=S-Parameters (CALIBRATED_DATA) read from VNA (C)
! VAR MeasDate=9/29/2015 3:07:02 PM
! VAR NAME=M6082_18_15_2_2_20C_15.0mA_-16.5dBm
! VAR FILENAME=M6082_18_15_2_2_20C_15.0mA_-16.5dBm.S2P
! VAR DATE=9/29/2015 3:07:02 PM
! VAR PHYS_PORTS=2,1
! VAR ObjTypeName=DATASET
! VAR IndexType=Frequency
!
# Hz S RI R 50
45000000.000 -9.6935272217E-002 -2.5444030762E-003 -1.4626979828E-003 +2.1764039993E-003 +1.1779069901E-003 -9.0694427490E-004 +2.8330802917E-002 +2.8095245361E-003
177500000.000 -9.7305297852E-002 -2.9373168945E-003 +6.4766407013E-004 +1.3002157211E-003 +7.0929527283E-006 -6.8068504333E-005 +1.6091346741E-002 +1.6802787781E-002
310000000.000 -9.6649169922E-002 -6.3819885254E-003 +9.6124410629E-004 +1.1575222015E-003 +4.2309984565E-005 -3.9337202907E-005 +2.9628753662E-002 +6.1220169067E-002
442500000.000 -9.5935821533E-002 -9.5825195313E-003 +1.6880631447E-003 -4.4643878937E-005 -1.8935650587E-005 -6.3057988882E-005 +7.2479248047E-002 +2.2190093994E-002
575000000.000 -9.5577239990E-002 -1.3698577881E-002 +1.2922286987E-003 -7.2634220123E-004 -2.6149675250E-005 +5.4636970162E-005 +2.7300834656E-002 +1.1107444763E-002
707500000.000 -9.5756530762E-002 -1.7421722412E-002 +5.1075220108E-004 -1.4351606369E-003 +9.1642141342E-007 -2.2862106562E-005 +2.1200180054E-003 +1.8348693848E-002
840000000.000 -9.5157623291E-002 -2.1198272705E-002 -2.1755695343E-004 -1.4446377754E-003 -7.7337026596E-006 -8.0827623606E-005 -2.0176887512E-002 +2.5960922241E-002
972500000.000 -9.4593048096E-002 -2.5058746338E-002 -1.0262131691E-003 -1.1636018753E-003 +6.2879174948E-005 +5.0831586123E-005 -3.5751342773E-002 +3.5833358765E-002
1105000000.000 -9.4867706299E-002 -2.9670715332E-002 -1.4532208443E-003 -2.8854608536E-004 -1.6802921891E-005 +6.0116872191E-005 -4.6648025513E-002 +3.8282394409E-002
1237500000.000 -9.4989776611E-002 -3.3344268799E-002 -1.3182759285E-003 +7.2050094604E-004 +4.5618042350E-005 +3.2240524888E-005 -5.8698654175E-002 +3.3798217773E-002
1370000000.000 -9.5481872559E-002 -3.7410736084E-002 -7.3796510696E-004 +1.2550354004E-003 -2.7625821531E-005 +2.6959925890E-005 -7.4096679688E-002 +2.7179718018E-002
1502500000.000 -9.5481872559E-002 -4.1080474854E-002 +2.6351213455E-004 +1.4111399651E-003 -3.0654482543E-006 -1.3622455299E-005 -8.7970733643E-002 +2.1530151367E-002
1635000000.000 -9.5245361328E-002 -4.5417785645E-002 +9.2190504074E-004 +1.0896325111E-003 +6.0027465224E-005 -1.3330951333E-005 -9.9128723145E-002 +1.1764526367E-002
1767500000.000 -9.5642089844E-002 -4.9514770508E-002 +1.3765692711E-003 +4.1085481644E-004 +2.3544766009E-005 +1.8382444978E-005 -1.1212158203E-001 +3.2615661621E-003
1900000000.000 -9.5203399658E-002 -5.2062988281E-002 +1.5379786491E-003 -1.5181303024E-004 -3.2491981983E-005 -2.3920089006E-005 -1.1389160156E-001 -3.2234191895E-003
2032500000.000 -9.5306396484E-002 -5.5496215820E-002 +1.1804699898E-003 -8.7857246399E-004 +4.5398250222E-005 +3.1113624573E-005 -1.1402893066E-001 -2.4028778076E-002
2165000000.000 -9.4871520996E-002 -6.0157775879E-002 +5.1462650299E-004 -1.4777779579E-003 +3.7424266338E-005 +5.3165480494E-005 -1.2271499634E-001 -4.1824340820E-002
2297500000.000 -9.5397949219E-002 -6.3533782959E-002 -4.0966272354E-004 -1.5264749527E-003 +1.1140946299E-005 +5.4095871747E-006 -1.2657928467E-001 -5.3230285645E-002
2430000000.000 -9.5325469971E-002 -6.6726684570E-002 -1.1737942696E-003 -1.1358857155E-003 -2.5764107704E-005 -1.0218098760E-004 -1.2715148926E-001 -6.4743041992E-002
2562500000.000 -9.5714569092E-002 -7.1025848389E-002 -1.6435980797E-003 -3.4487247467E-004 +1.5170127153E-004 +1.0301917791E-004 -1.2567138672E-001 -7.0259094238E-002
2695000000.000 -9.7579956055E-002 -7.4237823486E-002 -1.4327764511E-003 +7.6580047607E-004 -5.4247677326E-005 +9.6153467894E-005 -1.1360549927E-001 -7.2807312012E-002
2827500000.000 -9.8793029785E-002 -7.5950622559E-002 -8.4334611893E-004 +1.3711452484E-003 -1.3265758753E-005 -7.0448964834E-005 -9.8731994629E-002 -8.1947326660E-002
2960000000.000 -9.8491668701E-002 -7.9563140869E-002 +1.7219781876E-004 +1.5758275986E-003 +1.1389702559E-004 +5.9042125940E-005 -8.9115142822E-002 -8.6418151855E-002
3092500000.000 -9.9906921387E-002 -8.4053039551E-002 +9.5796585083E-004 +1.2321472168E-003 -3.3173710108E-005 -1.3742595911E-005 -7.0617675781E-002 -8.5174560547E-002
3225000000.000 -1.0263061523E-001 -8.7142944336E-002 +1.4974474907E-003 +4.0882825851E-004 -5.2561983466E-005 -4.3325126171E-005 -5.1887512207E-002 -9.1224670410E-002
3357500000.000 -1.0335159302E-001 -8.9050292969E-002 +1.5289783478E-003 -4.2986869812E-004 +4.5429915190E-006 -2.2481195629E-005 -4.2232513428E-002 -9.2044830322E-002
3490000000.000 -1.0440826416E-001 -9.3303680420E-002 +1.0062456131E-003 -1.1616349220E-003 -1.0392814875E-004 +1.3188272715E-004 -2.8709411621E-002 -8.2695007324E-002
3622500000.000 -1.0573959351E-001 -9.8194122314E-002 +1.7523765564E-005 -1.5971660614E-003 +4.8890709877E-005 -1.2133270502E-004 -1.1333465576E-002 -7.8987121582E-002
3755000000.000 -1.0784912109E-001 -1.0214614868E-001 -8.9186429977E-004 -1.2266039848E-003 -1.2085959315E-004 +8.3412975073E-005 -6.3743591309E-003 -7.3562622070E-002
3887500000.000 -1.0911178589E-001 -1.0542297363E-001 -1.4731884003E-003 -5.2690505981E-004 +7.4937939644E-005 +5.9328973293E-005 +9.0980529785E-004 -5.6087493896E-002
4020000000.000 -1.0990142822E-001 -1.0842132568E-001 -1.3613700867E-003 +3.7652254105E-004 -3.3536925912E-005 +2.2130087018E-005 +1.3021469116E-002 -4.4282913208E-002
4152500000.000 -1.1063003540E-001 -1.1322402954E-001 -9.7334384918E-004 +1.1475086212E-003 +5.2694231272E-005 +9.3553215265E-005 +1.5327453613E-002 -3.3035278320E-002
4285000000.000 -1.1238098145E-001 -1.1754989624E-001 -1.5068054199E-004 +1.4399886131E-003 -1.4621764421E-005 +6.4644962549E-005 +1.6478538513E-002 -1.3701438904E-002
4417500000.000 -1.1435317993E-001 -1.2031555176E-001 +6.5815448761E-004 +1.2730360031E-003 -2.8219074011E-005 -4.7516077757E-006 +2.5287628174E-002 +3.4313201904E-003
4550000000.000 -1.1405944824E-001 -1.2356567383E-001 +1.1560320854E-003 +6.3216686249E-004 +1.3321638107E-005 -1.2651830912E-004 +2.9115676880E-002 +9.0122222900E-003
4682500000.000 -1.1480712891E-001 -1.2826538086E-001 +1.3124942780E-003 -9.4592571259E-005 +8.7749212980E-006 +4.4604763389E-005 +2.5668144226E-002 +1.9897460938E-002
4815000000.000 -1.1730957031E-001 -1.3208007813E-001 +9.9581480026E-004 -8.9591741562E-004 -2.8982758522E-006 +4.6852976084E-005 +3.1345367432E-002 +2.6842117310E-002
4947500000.000 -1.1750030518E-001 -1.3484191895E-001 +3.9666891098E-004 -1.2561678886E-003 -7.4986368418E-005 +4.7758221626E-006 +2.7859687805E-002 +1.9119262695E-002
5080000000.000 -1.1734008789E-001 -1.3858032227E-001 -3.6090612411E-004 -1.2720823288E-003 +2.8931535780E-005 -1.4644116163E-005 +1.3464927673E-002 +2.0007133484E-002
5212500000.000 -1.1879730225E-001 -1.4314270020E-001 -9.7367167473E-004 -8.3744525909E-004 +8.3819031715E-009 +2.1484680474E-005 +9.7265243530E-003 +2.4298667908E-002
5345000000.000 -1.2010955811E-001 -1.4527130127E-001 -1.3164877892E-003 -2.2315979004E-004 -2.3799017072E-005 +4.5269727707E-005 +6.0396194458E-003 +1.5643119812E-002
5477500000.000 -1.1950683594E-001 -1.4804077148E-001 -1.1318325996E-003 +6.5451860428E-004 +7.4326992035E-005 +2.3134052753E-005 -8.9087486267E-003 +9.6898078918E-003
5610000000.000 -1.1968994141E-001 -1.5213775635E-001 -6.7126750946E-004 +1.1292099953E-003 +4.1833147407E-005 +1.9676983356E-005 -1.4493465424E-002 +1.4568805695E-002
5742500000.000 -1.2152862549E-001 -1.5467834473E-001 +6.7174434662E-005 +1.3765692711E-003 -1.9883736968E-005 -4.0886923671E-005 -1.0781288147E-002 +5.8164596558E-003
5875000000.000 -1.2251281738E-001 -1.5612792969E-001 +8.1586837769E-004 +1.0271072388E-003 +3.9994716644E-005 -3.8325786591E-005 -1.9766807556E-002 -3.6897659302E-003
6007500000.000 -1.2244415283E-001 -1.5789794922E-001 +1.2488961220E-003 +3.7193298340E-004 +3.6768615246E-006 +2.8310343623E-005 -2.3021697998E-002 +2.2602081299E-004
6140000000.000 -1.2325286865E-001 -1.6195678711E-001 +1.2076497078E-003 -3.6907196045E-004 -2.4811364710E-005 -4.5029446483E-006 -1.4891624451E-002 -2.4237632751E-003
6272500000.000 -1.2628173828E-001 -1.6458129883E-001 +8.7267160416E-004 -1.0854601860E-003 -6.0889869928E-006 -5.9133395553E-005 -1.5796661377E-002 -1.1676788330E-002
6405000000.000 -1.2860870361E-001 -1.6464233398E-001 +1.0770559311E-004 -1.3122558594E-003 +2.9107555747E-005 -1.3314187527E-005 -1.9154548645E-002 -6.3591003418E-003
6537500000.000 -1.2802124023E-001 -1.6721343994E-001 -7.0244073868E-004 -1.1005997658E-003 +1.0533258319E-005 +3.3983960748E-005 -9.4251632690E-003 -2.9101371765E-003
6670000000.000 -1.2971496582E-001 -1.7195892334E-001 -1.1585950851E-003 -6.4736604691E-004 +4.6342611313E-006 -5.3007155657E-005 -7.6138973236E-003 -6.6585540771E-003
6802500000.000 -1.3414001465E-001 -1.7501831055E-001 -1.2735128403E-003 +1.5598535538E-004 +3.6491546780E-006 -6.7616347224E-006 -1.0846138000E-002 +2.1076202393E-004
6935000000.000 -1.3600921631E-001 -1.7449951172E-001 -9.5638632774E-004 +8.5896253586E-004 -2.3454427719E-005 +2.6990659535E-005 -6.6213607788E-003 +9.8047256470E-003
7067500000.000 -1.3540649414E-001 -1.7813873291E-001 -3.7550926208E-004 +1.1522173882E-003 -2.0304694772E-005 -5.5434182286E-005 -5.1784515381E-003 +1.0933876038E-002
7200000000.000 -1.3774871826E-001 -1.8338775635E-001 +3.2514333725E-004 +1.1692643166E-003 +1.5081837773E-005 +2.5600194931E-005 -1.4714241028E-002 +1.7642974854E-002
7332500000.000 -1.4199066162E-001 -1.8531036377E-001 +9.0277194977E-004 +8.0394744873E-004 +4.2789615691E-006 -1.0911840945E-005 -1.7023086548E-002 +3.0321121216E-002
7465000000.000 -1.4307403564E-001 -1.8689727783E-001 +1.2037158012E-003 +8.6128711700E-005 +3.1867995858E-005 -4.3813139200E-005 -2.0776748657E-002 +3.1250000000E-002
7597500000.000 -1.4379119873E-001 -1.9096374512E-001 +1.1073350906E-003 -6.3347816467E-004 +4.5243650675E-005 -2.7893111110E-005 -3.6626815796E-002 +3.4109115601E-002
7730000000.000 -1.4649200439E-001 -1.9580841064E-001 +5.3954124451E-004 -1.0308027267E-003 -4.8054382205E-005 +2.9128044844E-005 -4.7801971436E-002 +4.3636322021E-002
7862500000.000 -1.4859008789E-001 -1.9824218750E-001 -7.3492527008E-005 -1.2455582619E-003 -8.1717967987E-005 +3.3557415009E-005 -5.4164886475E-002 +4.2131423950E-002
7995000000.000 -1.4870452881E-001 -2.0044708252E-001 -7.3045492172E-004 -9.8216533661E-004 +5.7231634855E-005 +1.8626451492E-007 -7.3444366455E-002 +3.5530090332E-002
8127500000.000 -1.4965057373E-001 -2.0666503906E-001 -1.2317895889E-003 -4.2992830276E-004 +4.5003369451E-005 -3.5671517253E-005 -9.1060638428E-002 +3.9985656738E-002
8260000000.000 -1.5285491943E-001 -2.0869445801E-001 -1.3157129288E-003 +3.1471252441E-004 -1.2786127627E-005 +2.1609477699E-005 -9.5771789551E-002 +3.4076690674E-002
8392500000.000 -1.5260314941E-001 -2.1153259277E-001 -8.7913870811E-004 +9.6204876900E-004 +5.9589743614E-005 +1.0024756193E-005 -1.1003112793E-001 +1.8650054932E-002
8525000000.000 -1.5230560303E-001 -2.1517944336E-001 -1.9228458405E-004 +1.2930631638E-003 +4.0400773287E-005 +6.4581632614E-005 -1.2170791626E-001 +1.5068054199E-002
8657500000.000 -1.5375518799E-001 -2.1917724609E-001 +6.2954425812E-004 +1.2614130974E-003 -8.6557120085E-005 +3.3974647522E-005 -1.1791229248E-001 +3.9710998535E-003
8790000000.000 -1.5507507324E-001 -2.2219848633E-001 +1.1708140373E-003 +6.7245960236E-004 +5.0961971283E-005 +5.0868839025E-006 -1.1981964111E-001 -1.7028808594E-002
8922500000.000 -1.5558624268E-001 -2.2319793701E-001 +1.3543367386E-003 -8.6069107056E-005 +2.7052126825E-005 +1.7902813852E-005 -1.2177658081E-001 -3.0483245850E-002
9055000000.000 -1.5506744385E-001 -2.2664642334E-001 +1.1205077171E-003 -9.1576576233E-004 -2.9992312193E-005 +6.0316175222E-005 -1.1128234863E-001 -4.4589996338E-002
9187500000.000 -1.5644073486E-001 -2.2889709473E-001 +3.6334991455E-004 -1.2988448143E-003 -4.6608038247E-006 +1.0007061064E-005 -1.0078048706E-001 -6.6310882568E-002
9320000000.000 -1.5983581543E-001 -2.2997283936E-001 -4.7898292542E-004 -1.3375282288E-003 +4.4297426939E-005 -2.8679147363E-005 -9.3044281006E-002 -7.9216003418E-002
9452500000.000 -1.6027069092E-001 -2.3130798340E-001 -1.0947585106E-003 -8.8512897491E-004 +1.9638799131E-005 +5.0012022257E-007 -7.4081420898E-002 -8.7551116943E-002
9585000000.000 -1.6091918945E-001 -2.3386383057E-001 -1.3929605484E-003 -5.0961971283E-005 +5.3255353123E-006 -3.0435621738E-006 -5.5156707764E-002 -1.0116577148E-001
9717500000.000 -1.6428375244E-001 -2.3714447021E-001 -1.1683106422E-003 +7.0279836655E-004 +6.5326690674E-005 -2.7000904083E-005 -4.0977478027E-002 -1.0597991943E-001
9850000000.000 -1.6817474365E-001 -2.3653411865E-001 -5.7017803192E-004 +1.2159943581E-003 -3.7280842662E-005 +5.0825998187E-005 -1.8268585205E-002 -1.0293960571E-001
9982500000.000 -1.6785430908E-001 -2.3886871338E-001 +2.3573637009E-004 +1.4064311981E-003 -6.7733228207E-005 -1.0475516319E-005 +5.7563781738E-003 -1.0408782959E-001
10115000000.000 -1.6961669922E-001 -2.4239349365E-001 +9.3621015549E-004 +1.0156631470E-003 -2.1452084184E-005 -2.5777146220E-005 +1.8760681152E-002 -9.8339080811E-002
10247500000.000 -1.7414855957E-001 -2.4458312988E-001 +1.3800859451E-003 +3.1799077988E-004 -2.2792257369E-005 +1.9539147615E-005 +3.6533355713E-002 -7.9837799072E-002
10380000000.000 -1.7658996582E-001 -2.4481201172E-001 +1.2055039406E-003 -5.3185224533E-004 -2.8603710234E-005 +1.6950070858E-005 +5.7121276855E-002 -6.8458557129E-002
10512500000.000 -1.7782592773E-001 -2.4678802490E-001 +7.7277421951E-004 -1.1522769928E-003 +4.7985464334E-005 -1.1734664440E-006 +6.1773300171E-002 -5.5904388428E-002
10645000000.000 -1.7935180664E-001 -2.5007629395E-001 -2.3543834686E-005 -1.4137625694E-003 -2.0116567612E-005 +7.7117234468E-005 +6.6410064697E-002 -2.8678894043E-002
10777500000.000 -1.8321228027E-001 -2.5233459473E-001 -8.6867809296E-004 -1.1114478111E-003 +3.2451003790E-005 +3.0340626836E-005 +7.7846527100E-002 -8.3122253418E-003
10910000000.000 -1.8638610840E-001 -2.5405883789E-001 -1.3474822044E-003 -5.0044059753E-004 -7.5682997704E-005 -7.3932111263E-005 +7.2074890137E-002 +5.0582885742E-003
11042500000.000 -1.8856811523E-001 -2.5627136230E-001 -1.3727545738E-003 +2.8401613235E-004 +5.8043748140E-005 +2.0291656256E-005 +5.9381484985E-002 +3.1568527222E-002
11175000000.000 -1.9023132324E-001 -2.6022338867E-001 -8.5794925690E-004 +9.8836421967E-004 +1.6583129764E-005 +4.4200569391E-005 +5.6854248047E-002 +5.2461624146E-002
11307500000.000 -1.9212341309E-001 -2.6268005371E-001 -1.9270181656E-004 +1.3378858566E-003 -4.6737492085E-005 -2.2225081921E-005 +4.3569564819E-002 +5.8174133301E-002
11440000000.000 -1.9544982910E-001 -2.6434326172E-001 +6.1172246933E-004 +1.2408494949E-003 +3.5118311644E-005 -1.6760081053E-005 +1.8383026123E-002 +7.2288513184E-002
11572500000.000 -1.9604492188E-001 -2.6918029785E-001 +1.2716650963E-003 +6.9874525070E-004 +7.6107680798E-006 +7.7392905951E-005 +4.7264099121E-003 +8.7253570557E-002
11705000000.000 -1.9773864746E-001 -2.7117919922E-001 +1.3228654861E-003 -1.4746189117E-004 -7.2531402111E-005 +9.5851719379E-006 -1.0314941406E-002 +8.0932617188E-002
11837500000.000 -1.9995117188E-001 -2.7420043945E-001 +1.0439157486E-003 -9.5301866531E-004 +1.8665567040E-005 -3.9035454392E-005 -4.2972564697E-002 +7.7266693115E-002
11970000000.000 -2.0019531250E-001 -2.7532958984E-001 +3.8528442383E-004 -1.4478564262E-003 +1.2414529920E-005 +5.5307522416E-005 -5.8647155762E-002 +8.2893371582E-002
12102500000.000 -1.9998168945E-001 -2.7764892578E-001 -4.9000978470E-004 -1.2947916985E-003 -4.2084604502E-005 -3.3214688301E-005 -6.5933227539E-002 +6.3793182373E-002
12235000000.000 -2.0268249512E-001 -2.8056335449E-001 -1.0607838631E-003 -7.5328350067E-004 -5.6808348745E-006 +2.9567163438E-006 -9.3353271484E-002 +4.5036315918E-002
12367500000.000 -2.0297241211E-001 -2.8077697754E-001 -1.3202428818E-003 -1.5139579773E-005 +3.4011900425E-005 -1.5335157514E-005 -1.0437393188E-001 +4.3273925781E-002
12500000000.000 -2.0544433594E-001 -2.8071594238E-001 -1.0355710983E-003 +7.6991319656E-004 -4.1043385863E-005 -1.4428049326E-005 -9.7332000732E-002 +1.9111633301E-002
12632500000.000 -2.0588684082E-001 -2.8356933594E-001 -4.2372941971E-004 +1.2050867081E-003 +1.8537044525E-005 -4.8521906137E-005 -1.1074829102E-001 -1.3004302979E-002
12765000000.000 -2.0764160156E-001 -2.8543090820E-001 +3.0219554901E-004 +1.2927651405E-003 +1.6652047634E-005 +9.4041228294E-005 -1.1660003662E-001 -1.6727447510E-002
12897500000.000 -2.0936584473E-001 -2.8446960449E-001 +9.2431902885E-004 +8.3339214325E-004 -8.0063939095E-005 +6.3609331846E-005 -9.1411590576E-002 -3.5667419434E-002
13030000000.000 -2.1028137207E-001 -2.8524780273E-001 +1.2105107307E-003 +1.9007921219E-004 +5.1939859986E-006 -2.1425075829E-005 -9.0831756592E-002 -7.1800231934E-002
13162500000.000 -2.1249389648E-001 -2.8749084473E-001 +1.0589957237E-003 -5.0157308578E-004 +7.3030591011E-005 -1.9494444132E-005 -9.1995239258E-002 -7.1266174316E-002
13295000000.000 -2.1434020996E-001 -2.8924560547E-001 +6.0927867889E-004 -1.0394454002E-003 +2.4563632905E-005 +2.6495195925E-005 -6.0085296631E-002 -7.8701019287E-002
13427500000.000 -2.1704101563E-001 -2.8909301758E-001 +1.9788742065E-005 -1.2032985687E-003 -3.6414712667E-005 -1.1535361409E-005 -4.7328948975E-002 -1.0519027710E-001
13560000000.000 -2.1580505371E-001 -2.8958129883E-001 -6.6164135933E-004 -9.6896290779E-004 +2.7850270271E-005 -6.5341591835E-005 -4.7313690186E-002 -1.0103607178E-001
13692500000.000 -2.1833801270E-001 -2.9258728027E-001 -1.0665059090E-003 -4.1323900223E-004 -4.4442713261E-005 -7.3257833719E-006 -1.7417907715E-002 -8.8909149170E-002
13825000000.000 -2.2149658203E-001 -2.9408264160E-001 -1.0145306587E-003 +2.5331974030E-004 -7.0050358772E-005 -9.4704329967E-005 +4.2800903320E-003 -1.0352325439E-001
13957500000.000 -2.2395324707E-001 -2.9261779785E-001 -8.5911154747E-004 +9.0438127518E-004 -4.4323503971E-005 -8.6408108473E-005 -3.3950805664E-004 -9.5607757568E-002
14090000000.000 -2.2344970703E-001 -2.9418945313E-001 -1.9067525864E-004 +1.1046528816E-003 -6.9547444582E-005 +7.5001269579E-005 +2.2201538086E-002 -7.0583343506E-002
14222500000.000 -2.2459411621E-001 -2.9759216309E-001 +4.9972534180E-004 +9.8836421967E-004 -1.4871358871E-005 -7.0612877607E-005 +4.3636322021E-002 -7.4447631836E-002
14355000000.000 -2.3013305664E-001 -2.9902648926E-001 +9.6815824509E-004 +6.9901347160E-004 -1.3067387044E-005 +1.7444603145E-005 +3.3466339111E-002 -6.6581726074E-002
14487500000.000 -2.3144531250E-001 -2.9945373535E-001 +1.1525750160E-003 -1.6766786575E-004 +3.4732744098E-005 +4.3071806431E-005 +4.1366577148E-002 -3.4677505493E-002
14620000000.000 -2.3057556152E-001 -3.0209350586E-001 +9.5573067665E-004 -6.6113471985E-004 -4.6228989959E-005 +5.8362260461E-005 +6.0113906860E-002 -3.2474517822E-002
14752500000.000 -2.3381042480E-001 -3.0661010742E-001 +3.7229061127E-004 -1.1549592018E-003 -3.3752992749E-005 -4.8013404012E-005 +4.2848587036E-002 -3.1101226807E-002
14885000000.000 -2.3669433594E-001 -3.0783081055E-001 -3.1769275665E-004 -1.1096596718E-003 +1.4539808035E-005 -4.3673440814E-005 +3.7137985229E-002 +1.6326904297E-003
15017500000.000 -2.3588562012E-001 -3.1120300293E-001 -8.7580084801E-004 -7.7739357948E-004 -2.0630657673E-005 +8.2883983850E-005 +5.3144454956E-002 +6.9465637207E-003
15150000000.000 -2.3670959473E-001 -3.1497192383E-001 -1.1605620384E-003 -1.0675191879E-004 -3.3933669329E-005 -4.3656677008E-005 +3.3695220947E-002 -1.1520385742E-003
15282500000.000 -2.3748779297E-001 -3.1741333008E-001 -1.0079145432E-003 +5.5044889450E-004 +1.0833144188E-004 -6.4760446548E-005 +1.5621185303E-002 +2.4979591370E-002
