!  2-Port S-parameters saved by WinCal
! VAR MeasName=S-Parameters (CALIBRATED_DATA) read from VNA (C)
! VAR MeasDate=9/29/2015 3:35:27 PM
! VAR NAME=M6082_18_15_2_2_20C_10.0mA_-17.5dBm 2
! VAR FILENAME=M6082_18_15_2_2_20C_10.0mA_-17.5dBm 2.S2P
! VAR DATE=9/29/2015 3:35:27 PM
! VAR PHYS_PORTS=2,1
! VAR ObjTypeName=DATASET
! VAR IndexType=Frequency
!
# Hz S RI R 50
45000000.000 -5.6947708130E-002 -3.8146972656E-006 -4.6718120575E-004 +1.4449357986E-003 +3.0396878719E-004 -2.7105212212E-005 +2.8156280518E-002 +9.9182128906E-004
177500000.000 -5.2440643311E-002 -4.1866302490E-003 +6.8867206573E-004 +1.5746355057E-003 -1.7574988306E-005 +1.8489547074E-005 +1.5933990479E-002 +1.6759872437E-002
310000000.000 -5.2080154419E-002 -8.5144042969E-003 +1.3313889503E-003 +1.0854005814E-003 +6.1701983213E-005 -9.5844268799E-005 +2.9541015625E-002 +6.1244964600E-002
442500000.000 -5.1939010620E-002 -1.2876510620E-002 +1.9356608391E-003 +1.2695789337E-004 +1.3843178749E-005 +7.0054084063E-005 +7.2570800781E-002 +2.2159576416E-002
575000000.000 -5.2015304565E-002 -1.7877578735E-002 +1.4582276344E-003 -1.0089278221E-003 -1.5342608094E-005 +1.1142343283E-005 +2.7328491211E-002 +1.1055946350E-002
707500000.000 -5.2558898926E-002 -2.1642684937E-002 +5.6970119476E-004 -1.6383528709E-003 +8.1680715084E-005 -3.3926218748E-005 +2.0475387573E-003 +1.8350601196E-002
840000000.000 -5.2347183228E-002 -2.6479721069E-002 -3.8343667984E-004 -1.6282796860E-003 +3.6166980863E-005 -3.1696632504E-005 -2.0164489746E-002 +2.5990486145E-002
972500000.000 -5.4542541504E-002 -3.0305862427E-002 -1.2392997742E-003 -1.1534094810E-003 -6.7934393883E-005 +4.6305358410E-005 -3.5736083984E-002 +3.5760879517E-002
1105000000.000 -5.5152893066E-002 -3.5112380981E-002 -1.7703771591E-003 -2.3686885834E-004 -4.4297426939E-005 +8.4936618805E-007 -4.6655654907E-002 +3.8137435913E-002
1237500000.000 -5.5624008179E-002 -3.9094924927E-002 -1.5372633934E-003 +7.1448087692E-004 +2.0046718419E-005 +1.0240823030E-005 -5.8649063110E-002 +3.3809661865E-002
1370000000.000 -5.3663253784E-002 -4.4897079468E-002 -8.4865093231E-004 +1.4322996140E-003 +1.8615275621E-005 +3.9571896195E-005 -7.4066162109E-002 +2.7240753174E-002
1502500000.000 -5.3667068481E-002 -4.9015045166E-002 +1.0746717453E-004 +1.6454458237E-003 -1.3871118426E-005 +3.4470111132E-005 -8.7959289551E-002 +2.1617889404E-002
1635000000.000 -5.3636550903E-002 -5.3644180298E-002 +1.0209679604E-003 +1.2978315353E-003 +5.8468431234E-006 -3.1353905797E-005 -9.9082946777E-002 +1.1684417725E-002
1767500000.000 -5.4521560669E-002 -5.8338165283E-002 +1.5205740929E-003 +4.9012899399E-004 +3.1024217606E-005 +9.0260058641E-005 -1.1199951172E-001 +3.1509399414E-003
1900000000.000 -5.7220458984E-002 -6.0207366943E-002 +1.7091631889E-003 -3.9106607437E-004 +1.5141442418E-005 -4.6592205763E-005 -1.1384201050E-001 -3.2806396484E-003
2032500000.000 -5.5267333984E-002 -6.6356658936E-002 +8.5651874542E-004 -1.2264251709E-003 +5.1196664572E-005 -9.8254531622E-006 -1.1389541626E-001 -2.4135589600E-002
2165000000.000 -5.7315826416E-002 -6.9053649902E-002 +1.0925531387E-004 -1.5951991081E-003 +2.1234154701E-007 +8.2392245531E-005 -1.2271118164E-001 -4.1748046875E-002
2297500000.000 -5.8334350586E-002 -7.2696685791E-002 -8.3059072495E-004 -1.4645457268E-003 -1.0873377323E-004 -1.3444572687E-005 -1.2651824951E-001 -5.3260803223E-002
2430000000.000 -5.8605194092E-002 -7.6194763184E-002 -1.4038681984E-003 -7.0261955261E-004 +3.2708048820E-006 -9.9092721939E-005 -1.2708282471E-001 -6.4613342285E-002
2562500000.000 -5.6579589844E-002 -8.3461761475E-002 -1.5625953674E-003 +1.3929605484E-004 +1.6812235117E-005 +1.1098012328E-004 -1.2588500977E-001 -7.0266723633E-002
2695000000.000 -5.8917999268E-002 -8.7059020996E-002 -1.4464259148E-003 +9.4127655029E-004 -5.6684017181E-005 -1.1609122157E-004 -1.1370468140E-001 -7.2799682617E-002
2827500000.000 -6.0291290283E-002 -8.9256286621E-002 -4.4488906860E-004 +1.4487504959E-003 +6.4879655838E-005 -9.1742724180E-005 -9.8854064941E-002 -8.1951141357E-002
2960000000.000 -6.0333251953E-002 -9.3242645264E-002 +5.0550699234E-004 +1.4951825142E-003 +9.3389302492E-005 +1.6048550606E-005 -8.9122772217E-002 -8.6326599121E-002
3092500000.000 -6.1962127686E-002 -9.8293304443E-002 +1.0897517204E-003 +9.6404552460E-004 -1.7337501049E-005 +4.5970082283E-006 -7.0644378662E-002 -8.5163116455E-002
3225000000.000 -6.4895629883E-002 -1.0186386108E-001 +1.6016364098E-003 +6.7651271820E-005 -3.5790726542E-005 -3.7256628275E-005 -5.1860809326E-002 -9.1281890869E-002
3357500000.000 -6.7955017090E-002 -1.0072708130E-001 +1.3028979301E-003 -7.1448087692E-004 +6.3721090555E-005 -6.6529959440E-005 -4.2263031006E-002 -9.2060089111E-002
3490000000.000 -6.9053649902E-002 -1.0539627075E-001 +7.2085857391E-004 -1.3536214828E-003 -6.3914805651E-005 -4.9576163292E-005 -2.8884887695E-002 -8.2748413086E-002
3622500000.000 -6.9519042969E-002 -1.1428070068E-001 -1.5622377396E-004 -1.6018748283E-003 -4.1361898184E-005 -1.0255351663E-004 -1.1478424072E-002 -7.8956604004E-002
3755000000.000 -7.2132110596E-002 -1.1853408813E-001 -9.0301036835E-004 -1.1872649193E-003 +3.0038878322E-005 +2.5393441319E-005 -6.2942504883E-003 -7.3551177979E-002
3887500000.000 -7.4081420898E-002 -1.2233352661E-001 -1.3939142227E-003 -5.1569938660E-004 -2.8353184462E-005 +4.5189633965E-005 +1.0566711426E-003 -5.6167602539E-002
4020000000.000 -7.5363159180E-002 -1.2569427490E-001 -1.3950467110E-003 +4.6294927597E-004 +1.0207295418E-006 -6.6962093115E-005 +1.3046264648E-002 -4.4149398804E-002
4152500000.000 -7.6507568359E-002 -1.3062286377E-001 -9.2417001724E-004 +1.2145042419E-003 -2.1309591830E-005 -2.8597190976E-005 +1.5346527100E-002 -3.2991409302E-002
4285000000.000 -7.8742980957E-002 -1.3526153564E-001 -6.4551830292E-005 +1.3976097107E-003 +6.3933432102E-005 +3.0145049095E-005 +1.6404151917E-002 -1.3606071472E-002
4417500000.000 -8.0871582031E-002 -1.3456726074E-001 +8.9591741562E-004 +1.3686418533E-003 -7.7258795500E-005 +5.8878213167E-005 +2.5304794312E-002 +3.4561157227E-003
4550000000.000 -8.0955505371E-002 -1.4160919189E-001 +1.2474656105E-003 +5.8710575104E-004 -1.7307698727E-005 -1.1801347136E-004 +2.9018402100E-002 +9.0684890747E-003
4682500000.000 -8.1916809082E-002 -1.4308166504E-001 +1.5766024590E-003 -1.2278556824E-004 -2.2491440177E-005 +1.7682090402E-005 +2.5732040405E-002 +1.9906044006E-002
4815000000.000 -8.4838867188E-002 -1.5064239502E-001 +1.0019540787E-003 -8.9502334595E-004 +6.9364905357E-006 -1.0537914932E-005 +3.1224250793E-002 +2.6762008667E-002
4947500000.000 -8.5479736328E-002 -1.5371704102E-001 +3.3098459244E-004 -1.2622475624E-003 +2.8145499527E-005 +8.3986669779E-006 +2.7756690979E-002 +1.9294738770E-002
5080000000.000 -8.5746765137E-002 -1.5801239014E-001 -3.6174058914E-004 -1.2226104736E-003 +2.4776905775E-005 -1.4515593648E-005 +1.3513565063E-002 +1.9978523254E-002
5212500000.000 -8.7654113770E-002 -1.6294097900E-001 -1.0555982590E-003 -7.9256296158E-004 -4.7398731112E-005 +3.9018690586E-005 +9.6807479858E-003 +2.4384498596E-002
5345000000.000 -8.9393615723E-002 -1.6551971436E-001 -1.2650489807E-003 -1.3941526413E-004 -4.1067600250E-005 -5.1222741604E-005 +6.1016082764E-003 +1.5628814697E-002
5477500000.000 -8.9591979980E-002 -1.6854095459E-001 -1.0735392570E-003 +5.2791833878E-004 -2.5168061256E-005 +1.5105120838E-005 -8.8968276978E-003 +9.9210739136E-003
5610000000.000 -9.0484619141E-002 -1.7292785645E-001 -6.4671039581E-004 +1.1022686958E-003 -2.5816261768E-005 +8.0082565546E-005 -1.4479637146E-002 +1.4571666718E-002
5742500000.000 -9.3154907227E-002 -1.7578125000E-001 +1.1324882507E-005 +1.2336969376E-003 -2.5521032512E-005 +1.9214116037E-005 -1.0844707489E-002 +5.8732032776E-003
5875000000.000 -9.5024108887E-002 -1.7726898193E-001 +7.6699256897E-004 +1.0006427765E-003 +2.8053298593E-005 -3.4641474485E-005 -1.9748687744E-002 -3.6153793335E-003
6007500000.000 -9.5985412598E-002 -1.7908477783E-001 +1.1252760887E-003 +4.8875808716E-004 +1.5726312995E-005 -3.8618221879E-005 -2.3027420044E-002 +2.0885467529E-004
6140000000.000 -9.3627929688E-002 -1.7932891846E-001 +1.6378760338E-003 -4.9883127213E-004 +1.3336073607E-005 +9.8068267107E-006 -1.4873504639E-002 -2.3941993713E-003
6272500000.000 -9.6900939941E-002 -1.8221282959E-001 +1.1066198349E-003 -1.3484954834E-003 +2.1404586732E-005 +2.5754794478E-005 -1.5832901001E-002 -1.1513710022E-002
6405000000.000 -9.9609375000E-002 -1.8252563477E-001 +1.0401010513E-004 -1.7382502556E-003 +1.3694167137E-005 +2.9994174838E-005 -1.9144058228E-002 -6.3476562500E-003
6537500000.000 -1.0414123535E-001 -1.8649291992E-001 -4.4137239456E-004 -1.3492703438E-003 -4.6519562602E-006 -1.5200581402E-005 -9.3860626221E-003 -2.9463768005E-003
6670000000.000 -1.0616302490E-001 -1.9087219238E-001 -1.1137127876E-003 -8.4710121155E-004 -6.3892453909E-005 -2.5130808353E-005 -7.6241493225E-003 -6.6971778870E-003
6802500000.000 -1.1094665527E-001 -1.9358825684E-001 -1.4619827271E-003 -1.3053417206E-004 +2.6133842766E-005 +1.4057382941E-005 -1.0921478271E-002 +3.0088424683E-004
6935000000.000 -1.1280822754E-001 -1.9256591797E-001 -1.3223290443E-003 +7.4660778046E-004 +1.3438984752E-005 +4.6331435442E-005 -6.5870285034E-003 +9.7184181213E-003
7067500000.000 -1.1241912842E-001 -1.9607543945E-001 -6.3002109528E-004 +1.3263821602E-003 +4.6817585826E-006 -2.9400922358E-005 -5.1608085632E-003 +1.0848999023E-002
7200000000.000 -1.1531829834E-001 -2.0103454590E-001 +1.4418363571E-004 +1.3881325722E-003 +4.5800581574E-005 +5.3402036428E-006 -1.4706611633E-002 +1.7696380615E-002
7332500000.000 -1.1533355713E-001 -2.0427703857E-001 +1.4063119888E-003 +9.3787908554E-004 +2.7549453080E-005 -1.7121434212E-005 -1.6939163208E-002 +3.0353546143E-002
7465000000.000 -1.1655426025E-001 -2.0590209961E-001 +1.6852617264E-003 +2.0503997803E-005 -9.2633999884E-006 -9.9791213870E-006 -2.0701408386E-002 +3.1230926514E-002
7597500000.000 -1.1760711670E-001 -2.1020507813E-001 +1.3669133186E-003 -8.8685750961E-004 +2.2292137146E-005 -5.1712617278E-005 -3.6598205566E-002 +3.4137725830E-002
7730000000.000 -1.2439727783E-001 -2.1263122559E-001 +9.2262029648E-004 -1.1941790581E-003 -3.5384669900E-005 +1.6625970602E-005 -4.7832489014E-002 +4.3615341187E-002
7862500000.000 -1.2613677979E-001 -2.1510314941E-001 +1.2826919556E-004 -1.5721917152E-003 -7.0497393608E-005 +1.9390136003E-005 -5.4147720337E-002 +4.2173385620E-002
7995000000.000 -1.2675476074E-001 -2.1725463867E-001 -7.8195333481E-004 -1.3963580132E-003 -2.7630478144E-005 +1.5220604837E-005 -7.3417663574E-002 +3.5648345947E-002
8127500000.000 -1.2757110596E-001 -2.2329711914E-001 -1.4435052872E-003 -7.3432922363E-004 +5.6663993746E-006 -5.7716388255E-006 -9.0980529785E-002 +3.9897918701E-002
8260000000.000 -1.3060760498E-001 -2.2550964355E-001 -1.6379952431E-003 +2.0313262939E-004 -6.1370432377E-005 +2.6315450668E-005 -9.5741271973E-002 +3.4053802490E-002
8392500000.000 -1.3051605225E-001 -2.2818756104E-001 -1.2865662575E-003 +1.0558962822E-003 +6.9215893745E-006 -7.4438750744E-005 -1.1008453369E-001 +1.8642425537E-002
8525000000.000 -1.3043975830E-001 -2.3169708252E-001 -3.3104419708E-004 +1.6406178474E-003 -3.8463622332E-006 +4.1188672185E-005 -1.2172698975E-001 +1.5056610107E-002
8657500000.000 -1.3179779053E-001 -2.3612213135E-001 +5.9223175049E-004 +1.5883445740E-003 -4.2200088501E-005 -9.7230076790E-007 -1.1791229248E-001 +3.9253234863E-003
8790000000.000 -1.3320922852E-001 -2.3918914795E-001 +1.4045238495E-003 +9.9545717239E-004 +2.3018568754E-005 -4.9037858844E-005 -1.1967086792E-001 -1.7196655273E-002
8922500000.000 -1.3236999512E-001 -2.4329376221E-001 +1.6821622849E-003 -2.7453899384E-004 +7.1115791798E-005 -5.3495168686E-005 -1.2186431885E-001 -3.0441284180E-002
9055000000.000 -1.3216400146E-001 -2.4685668945E-001 +1.2037754059E-003 -1.2127757072E-003 +5.1194801927E-006 +1.1543743312E-005 -1.1118698120E-001 -4.4601440430E-002
9187500000.000 -1.3459014893E-001 -2.4602508545E-001 +6.2817335129E-004 -1.6509890556E-003 -2.2037886083E-005 -8.0158933997E-006 -1.0076141357E-001 -6.6364288330E-002
9320000000.000 -1.3801574707E-001 -2.4697113037E-001 -3.9327144623E-004 -1.7093420029E-003 +1.8498860300E-005 -2.3835338652E-005 -9.2948913574E-002 -7.9208374023E-002
9452500000.000 -1.3831329346E-001 -2.4826812744E-001 -1.3718605042E-003 -1.2309551239E-003 +3.9134174585E-005 +2.7755275369E-005 -7.3944091797E-002 -8.7490081787E-002
9585000000.000 -1.3922119141E-001 -2.5135803223E-001 -1.6900300980E-003 -2.8854608536E-004 -4.3211504817E-005 -2.4737790227E-005 -5.5210113525E-002 -1.0110092163E-001
9717500000.000 -1.4268493652E-001 -2.5465393066E-001 -1.6515851021E-003 +7.7956914902E-004 +2.9642134905E-005 +6.3218176365E-006 -4.0973663330E-002 -1.0614776611E-001
9850000000.000 -1.4668273926E-001 -2.5407409668E-001 -9.4562768936E-004 +1.6679167747E-003 +7.2877854109E-005 +3.0554831028E-005 -1.8314361572E-002 -1.0290527344E-001
9982500000.000 -1.4689636230E-001 -2.5958251953E-001 +4.2593479156E-004 +1.6530752182E-003 -6.8536028266E-006 +2.1604821086E-005 +5.7868957520E-003 -1.0401153564E-001
10115000000.000 -1.4892578125E-001 -2.6330566406E-001 +1.2013912201E-003 +1.0650157928E-003 +1.2738630176E-005 -3.1135976315E-005 +1.8932342529E-002 -9.8392486572E-002
10247500000.000 -1.5382385254E-001 -2.6550292969E-001 +1.6627907753E-003 +2.1106004715E-004 +2.0314007998E-005 -2.8483569622E-005 +3.6613464355E-002 -7.9776763916E-002
10380000000.000 -1.5554809570E-001 -2.6322937012E-001 +1.7235875130E-003 -5.7637691498E-004 -4.2149797082E-005 -2.3506581783E-005 +5.7174682617E-002 -6.8344116211E-002
10512500000.000 -1.5663146973E-001 -2.6525878906E-001 +1.0954737663E-003 -1.5251636505E-003 -2.1066516638E-006 -4.5536085963E-005 +6.1899185181E-002 -5.5803298950E-002
10645000000.000 -1.5786743164E-001 -2.6879882813E-001 +1.1843442917E-004 -1.9429326057E-003 +3.9245933294E-005 +7.6968222857E-005 +6.6463470459E-002 -2.8602600098E-002
10777500000.000 -1.6235351563E-001 -2.7134704590E-001 -1.0353326797E-003 -1.6114711761E-003 -3.5816803575E-005 -1.7823651433E-005 +7.7766418457E-002 -8.3198547363E-003
10910000000.000 -1.6590881348E-001 -2.7322387695E-001 -1.7780661583E-003 -7.9596042633E-004 +3.9227306843E-006 -5.8235600591E-006 +7.2128295898E-002 +5.1803588867E-003
11042500000.000 -1.6783142090E-001 -2.7540588379E-001 -1.9294619560E-003 +3.9213895798E-004 +8.4084458649E-006 +5.2065588534E-006 +5.9328079224E-002 +3.1677246094E-002
11175000000.000 -1.7199707031E-001 -2.8128051758E-001 -1.0820031166E-003 +1.2076497078E-003 -3.7759542465E-005 +1.1327490211E-004 +5.6886672974E-002 +5.2595138550E-002
11307500000.000 -1.7428588867E-001 -2.8373718262E-001 -1.9121170044E-004 +1.6406774521E-003 -3.3173710108E-005 +1.6523525119E-005 +4.3516159058E-002 +5.8286666870E-002
11440000000.000 -1.7799377441E-001 -2.8529357910E-001 +7.4964761734E-004 +1.5012621880E-003 +5.0760805607E-005 -5.1064416766E-005 +1.8230438232E-002 +7.2349548340E-002
11572500000.000 -1.7625427246E-001 -2.8936767578E-001 +1.7890334129E-003 +9.5534324646E-004 +6.7479908466E-005 +2.4110078812E-005 +4.6653747559E-003 +8.7356567383E-002
11705000000.000 -1.7842102051E-001 -2.9170227051E-001 +2.0368099213E-003 -2.4235248566E-004 -2.2363383323E-006 +3.3841934055E-006 -1.0505676270E-002 +8.0867767334E-002
11837500000.000 -1.8083190918E-001 -2.9505920410E-001 +1.5628933907E-003 -1.2853741646E-003 -2.8304755688E-005 -3.5872682929E-005 -4.3117523193E-002 +7.7342987061E-002
11970000000.000 -1.8127441406E-001 -2.9649353027E-001 +3.9720535278E-004 -2.0214319229E-003 -2.1234154701E-007 +6.1139464378E-005 -5.8578491211E-002 +8.2927703857E-002
12102500000.000 -1.8148803711E-001 -2.9884338379E-001 -7.1114301682E-004 -1.8153190613E-003 -1.2786593288E-005 -3.1883828342E-006 -6.5944671631E-002 +6.3751220703E-002
12235000000.000 -1.8437194824E-001 -3.0204772949E-001 -1.6682744026E-003 -1.0533332825E-003 +2.1029263735E-006 -5.4877251387E-005 -9.3410491943E-002 +4.5032501221E-002
12367500000.000 -1.8519592285E-001 -3.0259704590E-001 -1.9366145134E-003 +1.3321638107E-004 -1.0665971786E-005 -1.4793593436E-005 -1.0429382324E-001 +4.3228149414E-002
12500000000.000 -1.8792724609E-001 -3.0303955078E-001 -1.4970898628E-003 +1.2395381927E-003 -3.9100646973E-005 +5.7617202401E-005 -9.7270965576E-002 +1.9107818604E-002
12632500000.000 -1.9053649902E-001 -3.0426025391E-001 -6.3621997833E-004 +1.4154314995E-003 -2.1454878151E-005 +6.7576766014E-006 -1.1069869995E-001 -1.2954711914E-002
12765000000.000 -1.9252014160E-001 -3.0613708496E-001 +2.5612115860E-004 +1.6486644745E-003 +1.4575198293E-005 -1.3738404959E-005 -1.1644744873E-001 -1.6670227051E-002
12897500000.000 -1.9458007813E-001 -3.0509948730E-001 +1.1231303215E-003 +1.2012124062E-003 -6.2953680754E-005 +4.1242688894E-005 -9.1449737549E-002 -3.5678863525E-002
13030000000.000 -1.9467163086E-001 -3.0773925781E-001 +1.9146203995E-003 +4.3869018555E-005 -7.3988921940E-006 -9.3947164714E-006 -9.0854644775E-002 -7.1865081787E-002
13162500000.000 -1.9726562500E-001 -3.0992126465E-001 +1.4816522598E-003 -9.5427036285E-004 +4.0946528316E-005 -2.6311725378E-005 -9.1896057129E-002 -7.1434020996E-002
13295000000.000 -1.9961547852E-001 -3.1173706055E-001 +6.6375732422E-004 -1.6360878944E-003 -4.9415975809E-005 +2.5467947125E-005 -6.0043334961E-002 -7.8853607178E-002
13427500000.000 -2.0289611816E-001 -3.1156921387E-001 -4.5377016068E-004 -1.7368793488E-003 -5.2805989981E-005 -1.0712072253E-005 -4.7389984131E-002 -1.0528945923E-001
13560000000.000 -2.0196533203E-001 -3.1198120117E-001 -1.3045072556E-003 -1.1091828346E-003 +3.1836330891E-005 +1.7086043954E-005 -4.7294616699E-002 -1.0104370117E-001
13692500000.000 -2.0481872559E-001 -3.1492614746E-001 -1.6101598740E-003 -2.1857023239E-004 +2.2735446692E-005 +8.6393207312E-005 -1.7261505127E-002 -8.9031219482E-002
13825000000.000 -2.0843505859E-001 -3.1616210938E-001 -1.4048814774E-003 +7.2777271271E-004 -3.1448900700E-005 -7.4565410614E-005 +4.2915344238E-003 -1.0373687744E-001
13957500000.000 -2.1139526367E-001 -3.1469726563E-001 -9.4521045685E-004 +1.3969540596E-003 +5.9673562646E-005 -9.4622373581E-007 -3.5095214844E-004 -9.5703125000E-002
14090000000.000 -2.1105957031E-001 -3.1597900391E-001 +5.8412551880E-005 +1.6611218452E-003 -1.6078352928E-005 -3.6656856537E-006 +2.2258758545E-002 -7.0678710938E-002
14222500000.000 -2.1173095703E-001 -3.1756591797E-001 +6.7210197449E-004 +1.4414191246E-003 -2.8237700462E-006 +1.0182335973E-004 +4.3766021729E-002 -7.4600219727E-002
14355000000.000 -2.1768188477E-001 -3.1910705566E-001 +1.3966560364E-003 +8.6814165115E-004 +9.7587704659E-005 -6.7092478275E-005 +3.3527374268E-002 -6.6604614258E-002
14487500000.000 -2.1910095215E-001 -3.1919860840E-001 +1.6275644302E-003 -1.8179416656E-005 +2.8133392334E-005 +1.9358471036E-005 +4.1225433350E-002 -3.4685134888E-002
14620000000.000 -2.1835327148E-001 -3.2185363770E-001 +1.3461112976E-003 -9.6184015274E-004 +1.8775463104E-005 +1.6254372895E-005 +6.0298919678E-002 -3.2337188721E-002
14752500000.000 -2.2296142578E-001 -3.2752990723E-001 +1.0919570923E-004 -1.4896988869E-003 +1.1133030057E-004 -9.3381851912E-005 +4.2858123779E-002 -3.1026840210E-002
14885000000.000 -2.2610473633E-001 -3.2847595215E-001 -7.5685977936E-004 -1.3939738274E-003 +4.7042965889E-005 +2.4173408747E-005 +3.7185668945E-002 +1.6384124756E-003
15017500000.000 -2.2547912598E-001 -3.3193969727E-001 -1.3541579247E-003 -5.6642293930E-004 -2.1580606699E-005 +6.4913183451E-005 +5.3140640259E-002 +7.0285797119E-003
15150000000.000 -2.2659301758E-001 -3.3535766602E-001 -1.4362335205E-003 +2.2184848785E-004 +2.5669112802E-005 +3.5991892219E-005 +3.3603668213E-002 -1.0814666748E-003
15282500000.000 -2.2746276855E-001 -3.3776855469E-001 -1.1509060860E-003 +9.1928243637E-004 -7.3060393333E-005 -8.6683779955E-005 +1.5667915344E-002 +2.4758338928E-002
