!  2-Port S-parameters saved by WinCal
! VAR MeasName=S-Parameters (CALIBRATED_DATA) read from VNA (C)
! VAR MeasDate=9/29/2015 3:01:05 PM
! VAR NAME=M6082_18_15_2_2_20C_10.0mA_-16.5dBm
! VAR FILENAME=M6082_18_15_2_2_20C_10.0mA_-16.5dBm.S2P
! VAR DATE=9/29/2015 3:01:05 PM
! VAR PHYS_PORTS=2,1
! VAR ObjTypeName=DATASET
! VAR IndexType=Frequency
!
# Hz S RI R 50
45000000.000 -5.7256698608E-002 -1.0299682617E-003 -9.1543793678E-004 +6.2227249146E-004 +5.5027008057E-004 -1.8697381020E-003 +2.8194427490E-002 +2.0389556885E-003
177500000.000 -5.6066513062E-002 -4.2324066162E-003 +5.7786703110E-004 +1.8125772476E-003 -2.9586255550E-005 +2.3233890533E-004 +1.6139030457E-002 +1.6444206238E-002
310000000.000 -5.4374694824E-002 -8.0070495605E-003 +1.4926195145E-003 +1.3428330421E-003 -1.1106953025E-004 -1.9080936909E-005 +2.9533386230E-002 +6.1141967773E-002
442500000.000 -5.5356979370E-002 -1.2359619141E-002 +2.1989345551E-003 +9.1791152954E-005 +1.2811273336E-005 -8.3949416876E-005 +7.2620391846E-002 +2.2159576416E-002
575000000.000 -5.5372238159E-002 -1.7354965210E-002 +1.7744302750E-003 -1.1258125305E-003 -1.0641291738E-005 +6.0303136706E-005 +2.7323722839E-002 +1.1172294617E-002
707500000.000 -5.5707931519E-002 -2.1375656128E-002 +7.5054168701E-004 -1.9863843918E-003 -4.5444816351E-005 -4.1035935283E-005 +2.1209716797E-003 +1.8411636353E-002
840000000.000 -5.5599212646E-002 -2.6205062866E-002 -4.6694278717E-004 -1.9362568855E-003 -2.5842338800E-005 -5.6369230151E-005 -2.0171165466E-002 +2.6114463806E-002
972500000.000 -5.5349349976E-002 -3.0384063721E-002 -1.4089345932E-003 -1.3800859451E-003 -2.8721988201E-005 +3.5868957639E-005 -3.5764694214E-002 +3.5821914673E-002
1105000000.000 -5.5961608887E-002 -3.5198211670E-002 -1.9475817680E-003 -3.6215782166E-004 -3.0856579542E-005 -1.1590495706E-004 -4.6678543091E-002 +3.8208007813E-002
1237500000.000 -5.6413650513E-002 -3.9306640625E-002 -1.8605589867E-003 +8.0811977386E-004 +4.1117891669E-005 -3.1307339668E-005 -5.8622360229E-002 +3.3760070801E-002
1370000000.000 -5.7125091553E-002 -4.3754577637E-002 -1.0411739349E-003 +1.7014741898E-003 +7.1994960308E-005 +4.5660883188E-005 -7.4047088623E-002 +2.7275085449E-002
1502500000.000 -5.7264328003E-002 -4.7939300537E-002 +1.3178586960E-004 +1.9285678864E-003 -6.9193542004E-005 -4.4323503971E-005 -8.7978363037E-002 +2.1526336670E-002
1635000000.000 -5.7273864746E-002 -5.2537918091E-002 +1.1718869209E-003 +1.4908909798E-003 +6.1858445406E-006 +4.3945387006E-005 -9.9098205566E-002 +1.1772155762E-002
1767500000.000 -5.8103561401E-002 -5.7268142700E-002 +1.8327832222E-003 +5.2905082703E-004 -1.4437362552E-005 +3.2760202885E-005 -1.1200714111E-001 +3.2501220703E-003
1900000000.000 -5.8155059814E-002 -6.0354232788E-002 +1.8408298492E-003 -3.7848949432E-004 +7.1581453085E-006 -3.8370490074E-005 -1.1387634277E-001 -3.2424926758E-003
2032500000.000 -5.8414459229E-002 -6.4205169678E-002 +1.5016198158E-003 -1.2661814690E-003 +4.1006132960E-005 -2.6535242796E-005 -1.1402893066E-001 -2.4127960205E-002
2165000000.000 -5.8353424072E-002 -6.9133758545E-002 +6.2263011932E-004 -1.8631219864E-003 -9.0557150543E-006 -1.0216608644E-006 -1.2283706665E-001 -4.1820526123E-002
2297500000.000 -5.9204101563E-002 -7.2757720947E-002 -4.1854381561E-004 -1.9319057465E-003 -1.3925135136E-005 +7.8525394201E-005 -1.2667083740E-001 -5.3192138672E-002
2430000000.000 -5.9318542480E-002 -7.6358795166E-002 -1.4125704765E-003 -1.3603568077E-003 -1.1114403605E-004 +3.4283846617E-005 -1.2714385986E-001 -6.4758300781E-002
2562500000.000 -5.6457519531E-002 -8.2199096680E-002 -1.8123984337E-003 +1.5735626221E-004 -6.0588121414E-005 +8.9798122644E-006 -1.2586212158E-001 -7.0343017578E-002
2695000000.000 -6.2072753906E-002 -8.4472656250E-002 -1.8563866615E-003 +1.0639429092E-003 -5.2239745855E-005 -1.1940300465E-004 -1.1360168457E-001 -7.2792053223E-002
2827500000.000 -6.3335418701E-002 -8.6662292480E-002 -8.7302923203E-004 +1.9121170044E-003 -4.0173530579E-005 +7.3034316301E-006 -9.8812103271E-002 -8.1909179688E-002
2960000000.000 -6.3343048096E-002 -9.0579986572E-002 +2.6965141296E-004 +2.0214319229E-003 +1.2117624283E-004 +1.2972950935E-004 -8.9126586914E-002 -8.6318969727E-002
3092500000.000 -6.5025329590E-002 -9.5329284668E-002 +1.3168454170E-003 +1.4747381210E-003 -4.9378722906E-005 -1.7788261175E-006 -7.0762634277E-002 -8.5273742676E-002
3225000000.000 -6.7951202393E-002 -9.8796844482E-002 +2.2078752518E-003 +4.3141841888E-004 -3.2782554626E-007 +3.1443312764E-005 -5.2104949951E-002 -9.1285705566E-002
3357500000.000 -6.8714141846E-002 -1.0110855103E-001 +1.8847584724E-003 -7.1293115616E-004 +8.9861452579E-005 -1.9807368517E-005 -4.2224884033E-002 -9.2105865479E-002
3490000000.000 -7.0049285889E-002 -1.0569000244E-001 +1.2482404709E-003 -1.6895532608E-003 +1.1650845408E-005 -2.9681250453E-005 -2.8957366943E-002 -8.2820892334E-002
3622500000.000 -7.1769714355E-002 -1.1065292358E-001 +1.7881393433E-006 -2.0643472672E-003 -4.5035034418E-005 -9.7490847111E-005 -1.1501312256E-002 -7.9154968262E-002
3755000000.000 -7.4047088623E-002 -1.1485671997E-001 -1.1900067329E-003 -1.7192959785E-003 +9.1526657343E-005 -1.5266239643E-005 -6.4163208008E-003 -7.3646545410E-002
3887500000.000 -7.4066162109E-002 -1.2280273438E-001 -1.6370415688E-003 -3.6537647247E-004 -2.0399689674E-005 +8.4828585386E-005 +1.0337829590E-003 -5.6074142456E-002
4020000000.000 -7.6660156250E-002 -1.2187957764E-001 -1.9153356552E-003 +5.7417154312E-004 -4.7061592340E-005 -9.0539455414E-005 +1.3065338135E-002 -4.4332504272E-002
4152500000.000 -7.7713012695E-002 -1.2691497803E-001 -1.3151168823E-003 +1.5680193901E-003 +8.9544802904E-005 -1.6096979380E-005 +1.5396118164E-002 -3.3184051514E-002
4285000000.000 -7.9650878906E-002 -1.3155364990E-001 -1.7929077148E-004 +1.9671916962E-003 -1.8047168851E-005 +3.5662204027E-005 +1.6546249390E-002 -1.3680458069E-002
4417500000.000 -8.1848144531E-002 -1.3463592529E-001 +9.7686052322E-004 +1.7544627190E-003 -7.7407807112E-005 +5.8125704527E-005 +2.5367736816E-002 +3.3464431763E-003
4550000000.000 -8.1939697266E-002 -1.3829040527E-001 +1.7129182816E-003 +8.6820125580E-004 +1.4846678823E-005 +6.0540623963E-006 +2.9050827026E-002 +9.0990066528E-003
4682500000.000 -8.2939147949E-002 -1.4317321777E-001 +1.8881559372E-003 -1.8906593323E-004 +2.9781833291E-005 +1.8114224076E-005 +2.5706291199E-002 +1.9906997681E-002
4815000000.000 -8.5777282715E-002 -1.4720916748E-001 +1.3369917870E-003 -1.0868310928E-003 +1.4906749129E-005 +4.4023618102E-005 +3.1208992004E-002 +2.6841163635E-002
4947500000.000 -8.6189270020E-002 -1.5033721924E-001 +6.0051679611E-004 -1.6717314720E-003 -8.0004334450E-005 -5.4106116295E-005 +2.7861595154E-002 +1.9158363342E-002
5080000000.000 -8.6311340332E-002 -1.5438079834E-001 -4.3457746506E-004 -1.7555952072E-003 +3.9897859097E-005 +6.7111104727E-005 +1.3443946838E-002 +1.9969940186E-002
5212500000.000 -8.8119506836E-002 -1.5904235840E-001 -1.3880729675E-003 -1.1856555939E-003 -7.3146075010E-006 +3.5660341382E-005 +9.7160339355E-003 +2.4243354797E-002
5345000000.000 -8.9767456055E-002 -1.6157531738E-001 -1.7444491386E-003 -2.1737813950E-004 -9.7826123238E-006 -3.4043565392E-005 +6.1221122742E-003 +1.5580654144E-002
5477500000.000 -8.9378356934E-002 -1.6444396973E-001 -1.6189813614E-003 +8.5908174515E-004 -4.8512592912E-006 -1.4860183001E-005 -8.8858604431E-003 +9.7093582153E-003
5610000000.000 -8.9912414551E-002 -1.6883087158E-001 -8.9931488037E-004 +1.6124248505E-003 -1.7378479242E-005 +4.5366585255E-005 -1.4454364777E-002 +1.4523029327E-002
5742500000.000 -9.2002868652E-002 -1.7159271240E-001 +1.3625621796E-004 +1.8518567085E-003 -1.5654601157E-005 -8.0103054643E-006 -1.0673522949E-002 +5.8145523071E-003
5875000000.000 -9.3246459961E-002 -1.7327117920E-001 +1.2553334236E-003 +1.4373660088E-003 +4.0130689740E-005 -2.9023736715E-005 -1.9697189331E-002 -3.6439895630E-003
6007500000.000 -9.3574523926E-002 -1.7530822754E-001 +1.7213821411E-003 +5.3519010544E-004 +3.3726915717E-005 +3.4982338548E-005 -2.3018836975E-002 +1.8692016602E-004
6140000000.000 -9.4650268555E-002 -1.7955017090E-001 +1.7198920250E-003 -4.6265125275E-004 -2.7490779757E-005 +4.1328370571E-005 -1.4872074127E-002 -2.4189949036E-003
6272500000.000 -9.7999572754E-002 -1.8236541748E-001 +1.1152029037E-003 -1.4318823814E-003 -6.5439380705E-006 +1.2579374015E-005 -1.5798568726E-002 -1.1547088623E-002
6405000000.000 -1.0067749023E-001 -1.8270874023E-001 +1.5401840210E-004 -1.7363429070E-003 +4.7838315368E-005 +1.7879530787E-005 -1.9109725952E-002 -6.4487457275E-003
6537500000.000 -1.0040283203E-001 -1.8540954590E-001 -7.8403949738E-004 -1.5613436699E-003 -3.4965574741E-005 +7.2788447142E-005 -9.3359947205E-003 -2.9144287109E-003
6670000000.000 -1.0243988037E-001 -1.9028472900E-001 -1.5119910240E-003 -8.3678960800E-004 -2.4775043130E-005 -3.7880614400E-005 -7.4763298035E-003 -6.7021846771E-003
6802500000.000 -1.0720825195E-001 -1.9356536865E-001 -1.7269849777E-003 +2.2685527802E-004 -3.0398368835E-006 +4.1898339987E-005 -1.0730266571E-002 +2.1648406982E-004
6935000000.000 -1.0937500000E-001 -1.9323730469E-001 -1.2527108192E-003 +1.1011958122E-003 +1.0777264833E-005 +4.1373074055E-005 -6.5479278564E-003 +9.7527503967E-003
7067500000.000 -1.0907745361E-001 -1.9699859619E-001 -4.5925378799E-004 +1.6799569130E-003 -2.8899870813E-005 -7.6722353697E-006 -5.1794052124E-003 +1.0965824127E-002
7200000000.000 -1.1180114746E-001 -2.0227813721E-001 +5.0085783005E-004 +1.6348958015E-003 +9.2880800366E-006 +1.6406178474E-005 -1.4657020569E-002 +1.7656326294E-002
7332500000.000 -1.1647033691E-001 -2.0434570313E-001 +1.3297200203E-003 +1.0603070259E-003 -5.1211565733E-005 +3.6960467696E-005 -1.6904830933E-002 +3.0335426331E-002
7465000000.000 -1.2138366699E-001 -2.0474243164E-001 +1.5449523926E-003 +3.2854080200E-004 +1.2638047338E-006 +2.7593225241E-005 -2.0738601685E-002 +3.1320571899E-002
7597500000.000 -1.1881256104E-001 -2.1025085449E-001 +1.4893412590E-003 -7.5358152390E-004 +4.3511390686E-006 -3.4755095840E-005 -3.6605834961E-002 +3.4198760986E-002
7730000000.000 -1.2180328369E-001 -2.1524810791E-001 +7.4404478073E-004 -1.5505552292E-003 -6.0983002186E-005 +7.5031071901E-005 -4.7779083252E-002 +4.3636322021E-002
7862500000.000 -1.2421417236E-001 -2.1777343750E-001 -1.3267993927E-004 -1.7316341400E-003 -3.1391158700E-005 -5.1101669669E-005 -5.4153442383E-002 +4.2173385620E-002
7995000000.000 -1.2480163574E-001 -2.2013854980E-001 -1.1165142059E-003 -1.3490915298E-003 +8.2366168499E-006 -6.0154125094E-005 -7.3383331299E-002 +3.5770416260E-002
8127500000.000 -1.2589263916E-001 -2.2634124756E-001 -1.6754269600E-003 -5.4770708084E-004 +4.1777268052E-005 +3.5500153899E-005 -9.1037750244E-002 +4.0103912354E-002
8260000000.000 -1.3201141357E-001 -2.2651672363E-001 -1.6292929649E-003 +3.3992528915E-004 +1.7216429114E-005 +2.6607885957E-005 -9.5722198486E-002 +3.4149169922E-002
8392500000.000 -1.2942504883E-001 -2.3153686523E-001 -1.1260509491E-003 +1.3611912727E-003 +1.5718862414E-005 -2.8674490750E-005 -1.1013031006E-001 +1.8821716309E-002
8525000000.000 -1.2941741943E-001 -2.3517608643E-001 -2.4724006653E-004 +1.7237067223E-003 +1.8924474716E-006 -5.1379203796E-005 -1.2171936035E-001 +1.5243530273E-002
8657500000.000 -1.3120269775E-001 -2.3927307129E-001 +7.6621770859E-004 +1.6072392464E-003 -3.7977471948E-005 +3.1897798181E-005 -1.1799621582E-001 +4.1198730469E-003
8790000000.000 -1.3277435303E-001 -2.4234008789E-001 +1.6037225723E-003 +8.7165832520E-004 -2.0842999220E-005 -1.9715167582E-005 -1.1980438232E-001 -1.7051696777E-002
8922500000.000 -1.3350677490E-001 -2.4342346191E-001 +1.8393397331E-003 -1.5747547150E-004 +2.7058646083E-005 +5.3483992815E-005 -1.2184524536E-001 -3.0273437500E-002
9055000000.000 -1.3336181641E-001 -2.4699401855E-001 +1.4519691467E-003 -1.1149048805E-003 -2.8848648071E-005 +6.5797939897E-006 -1.1127471924E-001 -4.4540405273E-002
9187500000.000 -1.3501739502E-001 -2.4922180176E-001 +5.3793191910E-004 -1.7777085304E-003 -3.3296644688E-005 -3.1851232052E-006 -1.0082244873E-001 -6.6154479980E-002
9320000000.000 -1.3862609863E-001 -2.5050354004E-001 -5.3542852402E-004 -1.8187761307E-003 +6.4540654421E-006 -3.2579526305E-005 -9.3059539795E-002 -7.9128265381E-002
9452500000.000 -1.4026641846E-001 -2.4881744385E-001 -1.2420415878E-003 -1.4031529427E-003 +4.8307701945E-005 +2.3253262043E-005 -7.4142456055E-002 -8.7440490723E-002
9585000000.000 -1.4031982422E-001 -2.5453186035E-001 -1.8199682236E-003 -3.4570693970E-005 -5.6944787502E-005 -1.9267201424E-005 -5.5427551270E-002 -1.0118103027E-001
9717500000.000 -1.4407348633E-001 -2.5778198242E-001 -1.6140341759E-003 +8.5526704788E-004 +1.3675540686E-005 -4.0570273995E-005 -4.1122436523E-002 -1.0596847534E-001
9850000000.000 -1.4819335938E-001 -2.5724792480E-001 -8.0293416977E-004 +1.7212033272E-003 +4.3446198106E-006 +2.6713125408E-005 -1.8463134766E-002 -1.0289382935E-001
9982500000.000 -1.4817810059E-001 -2.5692749023E-001 +1.5372037888E-004 +1.9053816795E-003 -9.5963478088E-005 +2.4959445000E-006 +5.4626464844E-003 -1.0413360596E-001
10115000000.000 -1.5023803711E-001 -2.6327514648E-001 +1.3823509216E-003 +1.3782978058E-003 +3.2536685467E-005 -6.1817467213E-005 +1.8627166748E-002 -9.8430633545E-002
10247500000.000 -1.5507507324E-001 -2.6545715332E-001 +1.8621683121E-003 +4.3076276779E-004 +3.3605843782E-005 +5.8950856328E-005 +3.6483764648E-002 -7.9872131348E-002
10380000000.000 -1.5776062012E-001 -2.6570129395E-001 +1.7222166061E-003 -5.8692693710E-004 -1.6009435058E-005 +4.5925378799E-005 +5.6957244873E-002 -6.8656921387E-002
10512500000.000 -1.5940856934E-001 -2.6768493652E-001 +1.0635256767E-003 -1.5893578529E-003 -8.9034438133E-006 -4.4329091907E-005 +6.1628341675E-002 -5.6200027466E-002
10645000000.000 -1.6123962402E-001 -2.7091979980E-001 +5.0485134125E-005 -1.8601417542E-003 +5.5227428675E-007 -1.4216639102E-005 +6.6272735596E-002 -2.8774261475E-002
10777500000.000 -1.6537475586E-001 -2.7325439453E-001 -1.0216236115E-003 -1.5513896942E-003 +1.9380822778E-005 -5.7877972722E-005 +7.7777862549E-002 -8.5258483887E-003
10910000000.000 -1.6876220703E-001 -2.7502441406E-001 -1.7832517624E-003 -7.2652101517E-004 -4.4250860810E-005 -4.1685998440E-006 +7.2101593018E-002 +4.7798156738E-003
11042500000.000 -1.7127990723E-001 -2.7722167969E-001 -1.8134713173E-003 +3.9696693420E-004 +2.8018839657E-005 -1.9839033484E-005 +5.9446334839E-002 +3.1383514404E-002
11175000000.000 -1.7330932617E-001 -2.8120422363E-001 -1.3254880905E-003 +1.4665126801E-003 -1.1663883924E-005 +4.7395005822E-005 +5.6985855103E-002 +5.2337646484E-002
11307500000.000 -1.7550659180E-001 -2.8363037109E-001 -2.8729438782E-004 +1.9199848175E-003 -2.3461878300E-005 -7.9076737165E-005 +4.3693542480E-002 +5.8057785034E-002
11440000000.000 -1.7919921875E-001 -2.8523254395E-001 +8.3327293396E-004 +1.6950368881E-003 +3.3548101783E-005 -5.3282827139E-005 +1.8447875977E-002 +7.2086334229E-002
11572500000.000 -1.7784118652E-001 -2.8909301758E-001 +1.7701983452E-003 +1.1324882507E-003 -1.7146579921E-005 -1.7548911273E-005 +5.0315856934E-003 +8.7165832520E-002
11705000000.000 -1.8193054199E-001 -2.9197692871E-001 +1.8729567528E-003 -1.4293193817E-004 -4.6724453568E-005 +1.5288591385E-005 -1.0032653809E-002 +8.0818176270E-002
11837500000.000 -1.8435668945E-001 -2.9507446289E-001 +1.4588236809E-003 -1.1751651764E-003 +4.5988708735E-005 -6.5896660089E-005 -4.2785644531E-002 +7.7297210693E-002
11970000000.000 -1.8481445313E-001 -2.9609680176E-001 +4.4447183609E-004 -1.8650293350E-003 +4.6795234084E-005 +1.1298805475E-005 -5.8357238770E-002 +8.2927703857E-002
12102500000.000 -1.8499755859E-001 -2.9843139648E-001 -6.5737962723E-004 -1.7489194870E-003 +1.0810792446E-005 +2.9716640711E-005 -6.5834045410E-002 +6.3831329346E-002
12235000000.000 -1.8788146973E-001 -3.0128479004E-001 -1.5234947205E-003 -1.0995268822E-003 +1.2150034308E-005 -5.5249780416E-005 -9.3219757080E-002 +4.5078277588E-002
12367500000.000 -1.8841552734E-001 -3.0134582520E-001 -1.8767714500E-003 -1.1241436005E-004 +2.5458633900E-005 +9.6270814538E-006 -1.0423660278E-001 +4.3357849121E-002
12500000000.000 -1.9116210938E-001 -3.0142211914E-001 -1.5312433243E-003 +8.9913606644E-004 -1.1673197150E-005 +5.2861869335E-005 -9.7229003906E-002 +1.9298553467E-002
12632500000.000 -1.9186401367E-001 -3.0427551270E-001 -6.8843364716E-004 +1.6499757767E-003 +2.5862827897E-005 -5.7466328144E-005 -1.1071395874E-001 -1.2798309326E-002
12765000000.000 -1.9378662109E-001 -3.0596923828E-001 +2.9051303864E-004 +1.7470717430E-003 -1.5478581190E-006 +5.6119635701E-005 -1.1651992798E-001 -1.6433715820E-002
12897500000.000 -1.9577026367E-001 -3.0505371094E-001 +1.2394189835E-003 +1.2919306755E-003 -4.8166140914E-005 +5.8133155107E-006 -9.1392517090E-002 -3.5575866699E-002
13030000000.000 -1.9699096680E-001 -3.0577087402E-001 +1.7489790916E-003 +4.6962499619E-004 -2.7686357498E-005 -6.8943947554E-005 -9.1033935547E-002 -7.1689605713E-002
13162500000.000 -1.9934082031E-001 -3.0787658691E-001 +1.5730857849E-003 -6.8092346191E-004 +2.6421621442E-006 +2.4287030101E-005 -9.2281341553E-002 -7.1159362793E-002
13295000000.000 -2.0112609863E-001 -3.1152343750E-001 +8.2612037659E-004 -1.7322897911E-003 -6.6939741373E-005 +5.6825578213E-005 -6.0169219971E-002 -7.8815460205E-002
13427500000.000 -2.0448303223E-001 -3.0952453613E-001 +9.9062919617E-005 -1.7511248589E-003 +1.1571682990E-005 -1.7552636564E-005 -4.7584533691E-002 -1.0533142090E-001
13560000000.000 -2.0333862305E-001 -3.1163024902E-001 -1.2179017067E-003 -1.2927651405E-003 -3.0065886676E-005 -1.4549121261E-005 -4.7534942627E-002 -1.0107421875E-001
13692500000.000 -2.0602416992E-001 -3.1278991699E-001 -1.4986395836E-003 -7.5590610504E-004 -4.1997060180E-005 -1.1194497347E-005 -1.7425537109E-002 -8.9027404785E-002
13825000000.000 -2.0954895020E-001 -3.1408691406E-001 -1.6829371452E-003 +3.1870603561E-004 -3.3266842365E-006 +6.5065920353E-005 +4.2076110840E-003 -1.0381698608E-001
13957500000.000 -2.1206665039E-001 -3.1254577637E-001 -1.1827349663E-003 +1.1615157127E-003 -3.6377459764E-005 -1.1478364468E-004 -5.7601928711E-004 -9.5722198486E-002
14090000000.000 -2.1188354492E-001 -3.1414794922E-001 -3.2383203506E-004 +1.6134977341E-003 +8.4381550550E-005 +9.0431421995E-005 +2.1968841553E-002 -7.0671081543E-002
14222500000.000 -2.1330261230E-001 -3.1756591797E-001 +5.5879354477E-004 +1.6832947731E-003 +4.8264861107E-005 -5.9572979808E-005 +4.3472290039E-002 -7.4600219727E-002
14355000000.000 -2.1884155273E-001 -3.1877136230E-001 +1.5113353729E-003 +8.9490413666E-004 +9.5097348094E-006 +1.7028301954E-005 +3.3401489258E-002 -6.6589355469E-002
14487500000.000 -2.2039794922E-001 -3.1909179688E-001 +1.6414523125E-003 -6.7889690399E-005 +3.9052218199E-005 +6.3437968493E-005 +4.1336059570E-002 -3.4894943237E-002
14620000000.000 -2.1981811523E-001 -3.2173156738E-001 +1.3137459755E-003 -8.7088346481E-004 +5.6579709053E-005 -2.0340085030E-006 +6.0211181641E-002 -3.2552719116E-002
14752500000.000 -2.2303771973E-001 -3.2617187500E-001 +5.1164627075E-004 -1.5289187431E-003 +4.6296045184E-005 -1.4236196876E-005 +4.2922973633E-002 -3.1101226807E-002
14885000000.000 -2.2618103027E-001 -3.2716369629E-001 -4.4101476669E-004 -1.5583038330E-003 +4.1894614697E-005 -2.6630237699E-005 +3.7416458130E-002 +1.6155242920E-003
15017500000.000 -2.2557067871E-001 -3.3049011230E-001 -1.1957287788E-003 -1.1220574379E-003 -1.5261583030E-005 +1.5224330127E-005 +5.3224563599E-002 +6.9427490234E-003
15150000000.000 -2.2640991211E-001 -3.3424377441E-001 -1.6657710075E-003 -2.8842687607E-004 -3.1486153603E-005 +3.6105513573E-005 +3.3758163452E-002 -9.7846984863E-004
15282500000.000 -2.2740173340E-001 -3.3663940430E-001 -1.4514327049E-003 +6.5362453461E-004 -6.9797039032E-005 -1.0840594769E-006 +1.5745162964E-002 +2.4774551392E-002
