!  2-Port S-parameters saved by WinCal
! VAR MeasName=S-Parameters (CALIBRATED_DATA) read from VNA (C)
! VAR MeasDate=10/5/2015 4:55:31 PM
! VAR NAME=M6079_4_7_3_2_20C_4.8mA_-17.5dBm
! VAR FILENAME=M6079_4_7_3_2_20C_4.8mA_-17.5dBm.S2P
! VAR DATE=10/5/2015 4:55:31 PM
! VAR PHYS_PORTS=2,1
! VAR ObjTypeName=DATASET
! VAR IndexType=Frequency
!
# Hz S RI R 50
45000000.000 +8.9206695557E-002 -8.3160400391E-004 -1.2931823730E-003 +7.8139305115E-003 -5.5629014969E-004 +6.0021877289E-005 +2.8930664063E-002 +4.7187805176E-003
177500000.000 +9.1236114502E-002 -8.5792541504E-003 +2.6342868805E-003 +6.5941810608E-003 +3.4350901842E-005 +8.7600201368E-005 +1.6554832458E-002 +1.6916275024E-002
310000000.000 +9.1285705566E-002 -1.6262054443E-002 +5.3851604462E-003 +4.4085979462E-003 +6.0521066189E-005 -1.5603005886E-004 +3.0206680298E-002 +6.1279296875E-002
442500000.000 +9.1419219971E-002 -2.4414062500E-002 +7.9588890076E-003 +1.0919570923E-004 +1.2834556401E-005 -2.0597130060E-005 +7.2879791260E-002 +2.2361755371E-002
575000000.000 +9.1091156006E-002 -3.3321380615E-002 +6.0946941376E-003 -4.2495727539E-003 +6.5568834543E-005 -1.0509043932E-005 +2.7609825134E-002 +1.1426925659E-002
707500000.000 +9.0194702148E-002 -4.0901184082E-002 +2.5749206543E-003 -6.7675113678E-003 +3.1633302569E-005 +2.0191073418E-006 +2.3355484009E-003 +1.8614768982E-002
840000000.000 +8.9836120605E-002 -4.9591064453E-002 -1.5993118286E-003 -6.9456100464E-003 +6.7699700594E-005 +5.4836273193E-006 -1.9945144653E-002 +2.5955200195E-002
972500000.000 +8.9241027832E-002 -5.7708740234E-002 -5.0950050354E-003 -4.8260688782E-003 -1.5425495803E-005 -1.0647810996E-005 -3.5806655884E-002 +3.5932540894E-002
1105000000.000 +8.7829589844E-002 -6.6253662109E-002 -7.0428848267E-003 -1.1270046234E-003 -4.0046870708E-005 -2.3471191525E-005 -4.6760559082E-002 +3.8551330566E-002
1237500000.000 +8.6605072021E-002 -7.3944091797E-002 -6.3729286194E-003 +2.9580593109E-003 +7.9777091742E-005 -5.3700059652E-005 -5.8639526367E-002 +3.4090042114E-002
1370000000.000 +8.4861755371E-002 -8.2263946533E-002 -3.6544799805E-003 +5.9447288513E-003 +1.1902302504E-005 +5.7954341173E-005 -7.4237823486E-002 +2.7454376221E-002
1502500000.000 +8.3412170410E-002 -8.9889526367E-002 +3.2401084900E-004 +6.8488121033E-003 -5.2582472563E-006 +2.0031817257E-005 -8.8218688965E-002 +2.1724700928E-002
1635000000.000 +8.2435607910E-002 -9.7850799561E-002 +4.1081905365E-003 +5.5644512177E-003 +6.2987208366E-005 -3.7096440792E-005 -9.9300384521E-002 +1.2062072754E-002
1767500000.000 +8.0192565918E-002 -1.0627365112E-001 +6.5264701843E-003 +2.2861957550E-003 -1.3282522559E-005 +4.2241066694E-005 -1.1230468750E-001 +3.3111572266E-003
1900000000.000 +7.8517913818E-002 -1.1325454712E-001 +6.6714286804E-003 -1.7600059509E-003 -1.9465805963E-006 -2.2732419893E-006 -1.1414718628E-001 -3.1204223633E-003
2032500000.000 +7.6362609863E-002 -1.2039184570E-001 +4.5368671417E-003 -5.1701068878E-003 +6.7319720984E-005 -5.0440430641E-006 -1.1417007446E-001 -2.4085998535E-002
2165000000.000 +7.5164794922E-002 -1.2866210938E-001 +8.3756446838E-004 -6.6826343536E-003 +3.7522986531E-005 -5.7332217693E-006 -1.2304687500E-001 -4.1835784912E-002
2297500000.000 +7.2517395020E-002 -1.3573455811E-001 -3.0107498169E-003 -6.0567855835E-003 +3.0256807804E-005 -4.8002228141E-005 -1.2681579590E-001 -5.3153991699E-002
2430000000.000 +7.0266723633E-002 -1.4211273193E-001 -5.6948661804E-003 -3.2403469086E-003 +6.9685280323E-005 -1.3429671526E-004 -1.2722015381E-001 -6.4849853516E-002
2562500000.000 +6.8305969238E-002 -1.4985656738E-001 -6.5822601318E-003 +4.0030479431E-004 +7.5913965702E-005 +1.3700872660E-004 -1.2612152100E-001 -7.0625305176E-002
2695000000.000 +6.4254760742E-002 -1.5607452393E-001 -5.2974224091E-003 +4.2154788971E-003 -8.2828104496E-005 +4.1548162699E-005 -1.1405181885E-001 -7.3001861572E-002
2827500000.000 +6.0943603516E-002 -1.6097259521E-001 -2.1340847015E-003 +6.3710212708E-003 -3.5328790545E-005 +3.3080577850E-006 -9.9197387695E-002 -8.2084655762E-002
2960000000.000 +5.8929443359E-002 -1.6764831543E-001 +1.6877651215E-003 +6.2792301178E-003 -7.8763812780E-005 -3.9782375097E-005 -8.9160919189E-002 -8.6818695068E-002
3092500000.000 +5.5168151855E-002 -1.7547607422E-001 +4.9502849579E-003 +4.3578147888E-003 -3.9234757423E-005 +1.0079890490E-004 -7.1224212646E-002 -8.5456848145E-002
3225000000.000 +5.0231933594E-002 -1.8121337891E-001 +6.6218376160E-003 +1.0349750519E-003 -4.6484172344E-005 -8.9779496193E-005 -5.2265167236E-002 -9.1346740723E-002
3357500000.000 +4.7348022461E-002 -1.8585968018E-001 +5.8178901672E-003 -2.8851032257E-003 +4.5683234930E-005 +2.0796433091E-005 -4.2140960693E-002 -9.2166900635E-002
3490000000.000 +4.4227600098E-002 -1.9326782227E-001 +3.3028125763E-003 -5.5112838745E-003 -6.5933912992E-005 +6.1437487602E-005 -2.8842926025E-002 -8.3248138428E-002
3622500000.000 +3.9672851563E-002 -2.0061492920E-001 -3.6621093750E-004 -6.5355300903E-003 -2.1036714315E-005 -6.6019594669E-005 -1.1634826660E-002 -7.9227447510E-002
3755000000.000 +3.5469055176E-002 -2.0692443848E-001 -3.8979053497E-003 -5.1548480988E-003 +2.2603198886E-005 -3.9339065552E-005 -6.0806274414E-003 -7.3738098145E-002
3887500000.000 +3.1700134277E-002 -2.1315765381E-001 -6.1755180359E-003 -2.0687580109E-003 +8.4653496742E-005 +6.1422586441E-005 +1.4019012451E-003 -5.6661605835E-002
4020000000.000 +2.7999877930E-002 -2.1868896484E-001 -6.3004493713E-003 +1.7783641815E-003 +4.8661604524E-005 -2.2994354367E-005 +1.3036727905E-002 -4.4548034668E-002
4152500000.000 +2.4780273438E-002 -2.2528839111E-001 -4.2321681976E-003 +4.9512386322E-003 -1.8750317395E-005 +2.2516585886E-005 +1.5531539917E-002 -3.3023834229E-002
4285000000.000 +2.0477294922E-002 -2.3202514648E-001 -6.7543983459E-004 +6.3552856445E-003 +6.7647546530E-005 +6.0833990574E-005 +1.6957283020E-002 -1.3927459717E-002
4417500000.000 +1.5861511230E-002 -2.3726654053E-001 +3.0322074890E-003 +5.6593418121E-003 -2.7422793210E-005 +2.9375776649E-005 +2.5675773621E-002 +3.1061172485E-003
4550000000.000 +1.3359069824E-002 -2.4268341064E-001 +5.5453777313E-003 +3.0188560486E-003 -4.6079978347E-005 +2.1370127797E-005 +2.9500007629E-002 +9.1695785522E-003
4682500000.000 +9.9105834961E-003 -2.4932861328E-001 +6.2606334686E-003 -5.4025650024E-004 +4.9028545618E-005 +8.9433044195E-005 +2.6238441467E-002 +1.9916534424E-002
4815000000.000 +4.8828125000E-003 -2.5498962402E-001 +4.8091411591E-003 -3.7760734558E-003 -4.5116990805E-005 +1.1323019862E-005 +3.1826019287E-002 +2.6863098145E-002
4947500000.000 +2.2125244141E-003 -2.5967407227E-001 +1.9221305847E-003 -5.8581829071E-003 +4.7624111176E-005 -6.6924840212E-006 +2.8413772583E-002 +1.9294738770E-002
5080000000.000 -6.1035156250E-005 -2.6557922363E-001 -1.6155242920E-003 -6.0477256775E-003 +5.6928023696E-005 +1.7693266273E-005 +1.4030456543E-002 +2.0123481750E-002
5212500000.000 -4.3640136719E-003 -2.7154541016E-001 -4.5583248138E-003 -4.2006969452E-003 -3.7860125303E-005 +6.6999346018E-006 +1.0064125061E-002 +2.4475097656E-002
5345000000.000 -8.2092285156E-003 -2.7531433105E-001 -6.2270164490E-003 -9.5939636230E-004 -5.1934272051E-005 -1.0738149285E-005 +6.4115524292E-003 +1.5863418579E-002
5477500000.000 -9.7656250000E-003 -2.7972412109E-001 -5.7792663574E-003 +2.7058124542E-003 +6.5326690674E-005 +3.1132251024E-005 -8.5425376892E-003 +1.0045051575E-002
5610000000.000 -1.2954711914E-002 -2.8553771973E-001 -3.1592845917E-003 +5.4972171783E-003 -8.9658424258E-006 +3.0032359064E-005 -1.4262676239E-002 +1.4664649963E-002
5742500000.000 -1.7547607422E-002 -2.8924560547E-001 +4.7779083252E-004 +6.3424110413E-003 -1.5698373318E-005 -5.8816745877E-005 -1.0594844818E-002 +6.2265396118E-003
5875000000.000 -2.0721435547E-002 -2.9206848145E-001 +3.9091110229E-003 +5.0067901611E-003 -2.9035843909E-005 +7.3406845331E-006 -1.9489288330E-002 -3.2739639282E-003
6007500000.000 -2.3132324219E-002 -2.9597473145E-001 +5.9919357300E-003 +1.8374919891E-003 +3.4235417843E-005 +7.8156590462E-005 -2.2911071777E-002 +4.3964385986E-004
6140000000.000 -2.7008056641E-002 -3.0104064941E-001 +6.0553550720E-003 -1.8155574799E-003 -4.8236921430E-005 +4.1209161282E-005 -1.4949321747E-002 -2.1986961365E-003
6272500000.000 -3.2501220703E-002 -3.0471801758E-001 +3.9904117584E-003 -4.8143863678E-003 -7.4878334999E-007 -5.0082802773E-005 -1.5812873840E-002 -1.1221885681E-002
6405000000.000 -3.7322998047E-002 -3.0635070801E-001 +5.3954124451E-004 -6.3614845276E-003 +7.0292502642E-005 +1.5892088413E-005 -1.9174575806E-002 -6.0358047485E-003
6537500000.000 -3.9428710938E-002 -3.1016540527E-001 -3.0608177185E-003 -5.5205821991E-003 -3.0539929867E-005 +2.4432316422E-005 -9.4385147095E-003 -2.7971267700E-003
6670000000.000 -4.3518066406E-002 -3.1588745117E-001 -5.6173801422E-003 -2.9304027557E-003 +3.0603259802E-006 +9.0673565865E-006 -7.8144073486E-003 -6.4830780029E-003
6802500000.000 -5.0598144531E-002 -3.2000732422E-001 -6.2246322632E-003 +6.8855285645E-004 +4.3177977204E-005 -9.5181167126E-006 -1.1151790619E-002 +5.0735473633E-004
6935000000.000 -5.5206298828E-002 -3.2072448730E-001 -4.8267841339E-003 +4.0442943573E-003 +1.1573545635E-005 -6.6808424890E-006 -6.6857337952E-003 +9.9539756775E-003
7067500000.000 -5.7113647461E-002 -3.2501220703E-001 -1.7254352570E-003 +6.0598850250E-003 -1.0095536709E-005 -2.8129667044E-005 -5.3439140320E-003 +1.0680198669E-002
7200000000.000 -6.2026977539E-002 -3.3076477051E-001 +1.8916130066E-003 +5.9249401093E-003 +4.3278560042E-005 +3.8627535105E-005 -1.5090942383E-002 +1.7728805542E-002
7332500000.000 -6.8923950195E-002 -3.3367919922E-001 +4.8415660858E-003 +3.7977695465E-003 +2.7149915695E-005 +2.9594637454E-005 -1.6992568970E-002 +3.0544281006E-002
7465000000.000 -7.2387695313E-002 -3.3598327637E-001 +6.1676502228E-003 +4.9304962158E-004 -3.3378601074E-005 -3.8782134652E-005 -2.0603179932E-002 +3.0948638916E-002
7597500000.000 -7.5744628906E-002 -3.4104919434E-001 +5.3555965424E-003 -2.9864311218E-003 +1.3906974345E-006 +4.2207539082E-006 -3.6863327026E-002 +3.3843994141E-002
7730000000.000 -8.1054687500E-002 -3.4590148926E-001 +2.8405189514E-003 -5.4070949554E-003 -3.1720846891E-005 +1.2932345271E-005 -4.7910690308E-002 +4.3859481812E-002
7862500000.000 -8.5281372070E-002 -3.4889221191E-001 -6.8163871765E-004 -6.1016082764E-003 +6.8829394877E-006 +1.0732561350E-005 -5.3798675537E-002 +4.2140960693E-002
7995000000.000 -8.7661743164E-002 -3.5208129883E-001 -3.8576126099E-003 -4.7206878662E-003 +8.6445361376E-006 -3.3408403397E-005 -7.3520660400E-002 +3.5240173340E-002
8127500000.000 -9.1217041016E-002 -3.5861206055E-001 -5.8455467224E-003 -1.6572475433E-003 +5.8554112911E-005 +5.9781596065E-005 -9.1201782227E-002 +4.0321350098E-002
8260000000.000 -9.6527099609E-002 -3.6131286621E-001 -5.7265758514E-003 +1.7969608307E-003 -3.1306408346E-006 +1.1850614101E-005 -9.5340728760E-002 +3.4339904785E-002
8392500000.000 -9.8403930664E-002 -3.6462402344E-001 -3.8032531738E-003 +4.7857761383E-003 +3.4026801586E-005 -2.1521002054E-005 -1.1008453369E-001 +1.8665313721E-002
8525000000.000 -1.0058593750E-001 -3.6846923828E-001 -5.5027008057E-004 +6.0820579529E-003 +5.5264681578E-005 +1.2323260307E-005 -1.2203216553E-001 +1.5522003174E-002
8657500000.000 -1.0385131836E-001 -3.7245178223E-001 +2.9828548431E-003 +5.3482055664E-003 -1.5271827579E-005 +3.9685517550E-005 -1.1789321899E-001 +4.4975280762E-003
8790000000.000 -1.0679626465E-001 -3.7612915039E-001 +5.4810047150E-003 +2.8259754181E-003 -7.7188014984E-006 +8.6557120085E-006 -1.1987304688E-001 -1.6880035400E-002
8922500000.000 -1.0975646973E-001 -3.7783813477E-001 +6.0765743256E-003 -6.7543983459E-004 +4.7657638788E-005 -2.6408582926E-005 -1.2228012085E-001 -2.9865264893E-002
9055000000.000 -1.1216735840E-001 -3.8131713867E-001 +4.6508312225E-003 -4.0094852448E-003 +2.9090791941E-005 +3.3034011722E-005 -1.1127853394E-001 -4.3975830078E-002
9187500000.000 -1.1502075195E-001 -3.8352966309E-001 +1.6648769379E-003 -5.8927536011E-003 -2.4653039873E-005 -1.6952864826E-005 -1.0105133057E-001 -6.6211700439E-002
9320000000.000 -1.2004089355E-001 -3.8552856445E-001 -1.9421577454E-003 -5.9230327606E-003 +1.1671334505E-005 -1.7849728465E-005 -9.3776702881E-002 -7.8819274902E-002
9452500000.000 -1.2327575684E-001 -3.8749694824E-001 -4.9655437469E-003 -3.8404464722E-003 +7.4431300163E-006 -6.1087310314E-005 -7.4451446533E-002 -8.6997985840E-002
9585000000.000 -1.2634277344E-001 -3.8990783691E-001 -6.1571598053E-003 -4.0960311890E-004 -2.0967796445E-005 -6.9122761488E-006 -5.5583953857E-002 -1.0148620605E-001
9717500000.000 -1.3172912598E-001 -3.9317321777E-001 -5.3730010986E-003 +3.0169487000E-003 +4.3639913201E-005 +3.5157427192E-005 -4.2190551758E-002 -1.0621643066E-001
9850000000.000 -1.3745117188E-001 -3.9353942871E-001 -2.7492046356E-003 +5.6478977203E-003 +1.4311634004E-005 -2.1968036890E-005 -1.8898010254E-002 -1.0250473022E-001
9982500000.000 -1.3972473145E-001 -3.9579772949E-001 +8.6283683777E-004 +6.0498714447E-003 -1.5445053577E-005 -3.6969780922E-005 +5.5427551270E-003 -1.0451126099E-001
10115000000.000 -1.4387512207E-001 -3.9895629883E-001 +4.1377544403E-003 +4.5657157898E-003 +4.6882778406E-006 -3.8987025619E-005 +1.7921447754E-002 -9.9124908447E-002
10247500000.000 -1.4971923828E-001 -4.0103149414E-001 +5.9344768524E-003 +1.5335083008E-003 -4.4338405132E-005 -3.3851712942E-005 +3.5781860352E-002 -8.0116271973E-002
10380000000.000 -1.5390014648E-001 -4.0206909180E-001 +5.7804584503E-003 -2.1080970764E-003 +5.0459057093E-006 +4.4513493776E-005 +5.7258605957E-002 -6.9042205811E-002
10512500000.000 -1.5829467773E-001 -4.0428161621E-001 +3.6625862122E-003 -4.9858093262E-003 +1.7026439309E-005 -3.4812837839E-005 +6.1933517456E-002 -5.7380676270E-002
10645000000.000 -1.6294860840E-001 -4.0571594238E-001 +3.2734870911E-004 -6.1788558960E-003 +1.4310702682E-005 +3.6995857954E-005 +6.5940856934E-002 -2.9369354248E-002
10777500000.000 -1.6683959961E-001 -4.0805053711E-001 -3.2675266266E-003 -5.3839683533E-003 -9.8999589682E-006 +5.7963654399E-005 +7.8231811523E-002 -8.7089538574E-003
10910000000.000 -1.7173767090E-001 -4.1078186035E-001 -5.6271553040E-003 -2.5022029877E-003 -4.2783096433E-005 -5.1211565733E-005 +7.2998046875E-002 +3.8375854492E-003
11042500000.000 -1.7764282227E-001 -4.1334533691E-001 -6.0136318207E-003 +9.8466873169E-004 +2.9299408197E-005 -7.8491866589E-005 +5.9837341309E-002 +3.0498504639E-002
11175000000.000 -1.8130493164E-001 -4.1577148438E-001 -4.6103000641E-003 +4.1222572327E-003 +3.8787722588E-005 +1.5825033188E-005 +5.7748794556E-002 +5.2337646484E-002
11307500000.000 -1.8450927734E-001 -4.1763305664E-001 -1.3554096222E-003 +6.1645507813E-003 +1.7754733562E-005 -1.3838522136E-005 +4.4946670532E-002 +5.7889938354E-002
11440000000.000 -1.8910217285E-001 -4.1992187500E-001 +2.2480487823E-003 +5.8097839355E-003 +2.3033469915E-005 -6.4924359322E-005 +1.9165039063E-002 +7.1582794189E-002
11572500000.000 -1.9172668457E-001 -4.2416381836E-001 +5.0587654114E-003 +3.6208629608E-003 -2.2035092115E-005 +6.8418681622E-005 +5.5351257324E-003 +8.7551116943E-002
11705000000.000 -1.9577026367E-001 -4.2547607422E-001 +6.2427520752E-003 +1.3208389282E-004 -2.1734740585E-006 -2.6234192774E-006 -8.8424682617E-003 +8.1363677979E-002
11837500000.000 -1.9902038574E-001 -4.2835998535E-001 +5.1367282867E-003 -3.3962726593E-003 +8.0359168351E-006 -1.0557472706E-005 -4.1927337646E-002 +7.7556610107E-002
11970000000.000 -2.0091247559E-001 -4.2922973633E-001 +2.2478103638E-003 -5.7506561279E-003 +4.2088329792E-005 +1.4629215002E-005 -5.8094024658E-002 +8.4003448486E-002
12102500000.000 -2.0272827148E-001 -4.3099975586E-001 -1.2702941895E-003 -6.0570240021E-003 -6.2257051468E-005 +7.7262520790E-006 -6.4994812012E-002 +6.4979553223E-002
12235000000.000 -2.0698547363E-001 -4.3276977539E-001 -4.4519901276E-003 -4.4050216675E-003 +2.4110078812E-005 -3.1957402825E-005 -9.2849731445E-002 +4.5780181885E-002
12367500000.000 -2.0864868164E-001 -4.3304443359E-001 -6.0915946960E-003 -1.0643005371E-003 +6.9472938776E-005 +6.3024461269E-005 -1.0452270508E-001 +4.4536590576E-002
12500000000.000 -2.1316528320E-001 -4.3284606934E-001 -5.6066513062E-003 +2.5539398193E-003 -6.9066882133E-005 -8.7469816208E-006 -9.7183227539E-002 +2.0832061768E-002
12632500000.000 -2.1549987793E-001 -4.3537902832E-001 -3.3426284790E-003 +5.2721500397E-003 -3.9389356971E-005 -2.3357570171E-006 -1.1107635498E-001 -1.2302398682E-002
12765000000.000 -2.1868896484E-001 -4.3589782715E-001 +2.4843215942E-004 +6.1707496643E-003 -6.0908496380E-006 -4.4068321586E-005 -1.1770629883E-001 -1.5663146973E-002
12897500000.000 -2.2192382813E-001 -4.3441772461E-001 +3.4897327423E-003 +4.8797130585E-003 -3.6250799894E-005 -1.1702999473E-005 -9.2006683350E-002 -3.4229278564E-002
13030000000.000 -2.2373962402E-001 -4.3563842773E-001 +5.7661533356E-003 +2.1836757660E-003 +4.2360275984E-005 -3.0176714063E-005 -9.1529846191E-002 -7.1289062500E-002
13162500000.000 -2.2801208496E-001 -4.3766784668E-001 +5.9621334076E-003 -1.4798641205E-003 +5.8412551880E-006 -7.7530741692E-005 -9.4043731689E-002 -7.1228027344E-002
13295000000.000 -2.3161315918E-001 -4.3861389160E-001 +4.1000843048E-003 -4.5795440674E-003 -1.2032687664E-006 +6.4373016357E-005 -6.1614990234E-002 -7.8151702881E-002
13427500000.000 -2.3617553711E-001 -4.3750000000E-001 +8.9502334595E-004 -6.0670375824E-003 +1.6164034605E-005 -5.0764530897E-005 -4.8084259033E-002 -1.0563659668E-001
13560000000.000 -2.3568725586E-001 -4.3760681152E-001 -2.6688575745E-003 -5.6200027466E-003 +6.4998865128E-005 +2.9485672712E-005 -4.8809051514E-002 -1.0208892822E-001
13692500000.000 -2.3899841309E-001 -4.4059753418E-001 -5.2819252014E-003 -3.0295848846E-003 -1.8637627363E-005 +9.3884766102E-005 -1.8817901611E-002 -8.9336395264E-002
13825000000.000 -2.4400329590E-001 -4.4152832031E-001 -6.2203407288E-003 +4.2629241943E-004 -2.4765729904E-005 +7.1868300438E-005 +3.9825439453E-003 -1.0446929932E-001
13957500000.000 -2.4801635742E-001 -4.3946838379E-001 -4.8210620880E-003 +3.7734508514E-003 +2.0191073418E-006 -6.7230314016E-005 -9.0789794922E-004 -9.7141265869E-002
14090000000.000 -2.4925231934E-001 -4.4017028809E-001 -1.9481182098E-003 +5.9864521027E-003 -1.0441988707E-005 +9.3325972557E-005 +2.1507263184E-002 -7.1613311768E-002
14222500000.000 -2.5149536133E-001 -4.4274902344E-001 +1.7173290253E-003 +5.8038234711E-003 -7.9765915871E-005 +3.4682452679E-006 +4.3895721436E-002 -7.5424194336E-002
14355000000.000 -2.5769042969E-001 -4.4306945801E-001 +4.7471523285E-003 +3.9167404175E-003 -1.5271827579E-005 -5.9759244323E-005 +3.3832550049E-002 -6.7810058594E-002
14487500000.000 -2.5996398926E-001 -4.4296264648E-001 +6.1018466949E-003 +4.4369697571E-004 +3.5999342799E-005 +3.2823532820E-005 +4.1521072388E-002 -3.5575866699E-002
14620000000.000 -2.6043701172E-001 -4.4548034668E-001 +5.4008960724E-003 -2.9530525208E-003 -1.3472884893E-004 -2.1338462830E-005 +6.0844421387E-002 -3.2892227173E-002
14752500000.000 -2.6542663574E-001 -4.4938659668E-001 +2.7468204498E-003 -5.4759979248E-003 -2.9150396585E-006 -3.8303434849E-005 +4.3487548828E-002 -3.1583786011E-002
14885000000.000 -2.6943969727E-001 -4.4934082031E-001 -7.3981285095E-004 -6.0801506042E-003 +3.4591183066E-005 +8.0093741417E-008 +3.8002014160E-002 +1.5735626221E-003
15017500000.000 -2.6809692383E-001 -4.5158386230E-001 -4.1043758392E-003 -4.5838356018E-003 -4.8156827688E-005 +5.8410689235E-005 +5.4016113281E-002 +6.9522857666E-003
15150000000.000 -2.6948547363E-001 -4.5721435547E-001 -5.8476924896E-003 -1.5313625336E-003 -2.0787119865E-006 -5.3865835071E-005 +3.4336090088E-002 -9.1552734375E-004
15282500000.000 -2.7287292480E-001 -4.5991516113E-001 -5.6667327881E-003 +2.0589828491E-003 +6.9815665483E-005 -8.7108463049E-005 +1.6039848328E-002 +2.5450706482E-002
