!  2-Port S-parameters saved by WinCal
! VAR MeasName=S-Parameters (CALIBRATED_DATA) read from VNA (C)
! VAR MeasDate=10/5/2015 6:42:17 PM
! VAR NAME=M6079_2_7_3_3_20C_2.9mA_-17.5dBm
! VAR FILENAME=M6079_2_7_3_3_20C_2.9mA_-17.5dBm.S2P
! VAR DATE=10/5/2015 6:42:17 PM
! VAR PHYS_PORTS=2,1
! VAR ObjTypeName=DATASET
! VAR IndexType=Frequency
!
# Hz S RI R 50
45000000.000 +1.1918258667E-001 -3.1280517578E-004 -1.0557174683E-003 +8.2435607910E-003 +1.5606284142E-003 +8.5568428040E-004 +2.9352188110E-002 +2.7198791504E-003
177500000.000 +1.1929321289E-001 -1.0208129883E-002 +2.4874210358E-003 +6.8502426147E-003 +1.8532574177E-004 +2.4691224098E-004 +1.6574859619E-002 +1.6603469849E-002
310000000.000 +1.1920166016E-001 -1.9214630127E-002 +5.4571628571E-003 +4.4341087341E-003 -7.2427093983E-005 -2.0378082991E-004 +3.0147552490E-002 +6.1433792114E-002
442500000.000 +1.1882781982E-001 -2.8495788574E-002 +8.0475807190E-003 +4.6730041504E-005 +1.1568516493E-004 -2.6673078537E-006 +7.2589874268E-002 +2.2266387939E-002
575000000.000 +1.1824417114E-001 -3.8333892822E-002 +6.0749053955E-003 -4.3895244598E-003 -3.7044286728E-005 -1.7374753952E-005 +2.7431488037E-002 +1.1151313782E-002
707500000.000 +1.1681747437E-001 -4.7069549561E-002 +2.5868415833E-003 -6.9491863251E-003 -2.3848377168E-005 -4.1909515858E-007 +2.2296905518E-003 +1.8413543701E-002
840000000.000 +1.1591720581E-001 -5.6529998779E-002 -1.7640590668E-003 -7.0414543152E-003 +9.7714364529E-006 -5.3443014622E-005 -2.0034790039E-002 +2.5918006897E-002
972500000.000 +1.1502456665E-001 -6.5402984619E-002 -5.3029060364E-003 -4.8274993896E-003 +2.1222978830E-005 +1.0208040476E-004 -3.5963058472E-002 +3.5596847534E-002
1105000000.000 +1.1285781860E-001 -7.4783325195E-002 -7.0703029633E-003 -1.0237693787E-003 -5.7281926274E-005 -5.8319419622E-005 -4.6680450439E-002 +3.8253784180E-002
1237500000.000 +1.1114120483E-001 -8.3080291748E-002 -6.3946247101E-003 +3.0834674835E-003 +3.0713155866E-005 -2.8818845749E-005 -5.8618545532E-002 +3.3813476563E-002
1370000000.000 +1.0876846313E-001 -9.2201232910E-002 -3.4914016724E-003 +6.1798095703E-003 -2.4550594389E-005 +2.4597160518E-005 -7.4096679688E-002 +2.7290344238E-002
1502500000.000 +1.0662078857E-001 -1.0042572021E-001 +4.8017501831E-004 +7.0943832397E-003 -1.1133961380E-005 -2.6268884540E-005 -8.8008880615E-002 +2.1522521973E-002
1635000000.000 +1.0502624512E-001 -1.0902404785E-001 +4.3165683746E-003 +5.5580139160E-003 -7.0128589869E-006 -4.2580068111E-005 -9.9090576172E-002 +1.1718750000E-002
1767500000.000 +1.0207748413E-001 -1.1812210083E-001 +6.7124366760E-003 +2.1193027496E-003 +1.5398487449E-005 +5.9535726905E-005 -1.1214828491E-001 +3.1433105469E-003
1900000000.000 +9.9548339844E-002 -1.2545013428E-001 +6.7551136017E-003 -2.0446777344E-003 -5.0555914640E-005 +2.2863969207E-005 -1.1396026611E-001 -3.2043457031E-003
2032500000.000 +9.6992492676E-002 -1.3311004639E-001 +4.3642520905E-003 -5.4841041565E-003 +1.0788440704E-005 -1.0070204735E-004 -1.1397171021E-001 -2.4242401123E-002
2165000000.000 +9.5077514648E-002 -1.4192962646E-001 +5.6982040405E-004 -6.8397521973E-003 +3.1091272831E-005 -3.4073367715E-005 -1.2295532227E-001 -4.1873931885E-002
2297500000.000 +9.1598510742E-002 -1.4923095703E-001 -3.3035278320E-003 -5.9957504272E-003 -1.4486722648E-005 +1.4976598322E-005 -1.2660980225E-001 -5.3390502930E-002
2430000000.000 +8.8844299316E-002 -1.5602874756E-001 -6.1528682709E-003 -3.1120777130E-003 -8.1807374954E-006 -5.4078176618E-005 -1.2720489502E-001 -6.4964294434E-002
2562500000.000 +8.6174011230E-002 -1.6400909424E-001 -6.6988468170E-003 +7.9202651978E-004 +3.3639371395E-005 +7.4267387390E-005 -1.2620544434E-001 -7.0518493652E-002
2695000000.000 +8.1237792969E-002 -1.7072296143E-001 -5.1126480103E-003 +4.4329166412E-003 +4.8555433750E-005 -2.8545036912E-005 -1.1392974854E-001 -7.2772979736E-002
2827500000.000 +7.7590942383E-002 -1.7586517334E-001 -1.7681121826E-003 +6.5248012543E-003 +5.0283968449E-005 -1.3954192400E-004 -9.9136352539E-002 -8.2141876221E-002
2960000000.000 +7.4836730957E-002 -1.8251037598E-001 +2.1257400513E-003 +6.1602592468E-003 +3.1976029277E-005 -1.4994293451E-006 -8.9229583740E-002 -8.6624145508E-002
3092500000.000 +7.0549011230E-002 -1.9063568115E-001 +5.2621364594E-003 +4.1072368622E-003 +6.9629400969E-005 -1.8641352654E-005 -7.0892333984E-002 -8.5506439209E-002
3225000000.000 +6.4773559570E-002 -1.9664764404E-001 +6.5836906433E-003 +4.4322013855E-004 +2.9213726521E-005 -1.9836425781E-004 -5.2116394043E-002 -9.1300964355E-002
3357500000.000 +6.1126708984E-002 -2.0126342773E-001 +5.7811737061E-003 -3.3330917358E-003 +1.9793398678E-005 -1.7130747437E-005 -4.2133331299E-002 -9.2075347900E-002
3490000000.000 +5.7609558105E-002 -2.0879364014E-001 +3.0331611633E-003 -6.0217380524E-003 +4.8642978072E-005 +4.5740976930E-005 -2.8732299805E-002 -8.3274841309E-002
3622500000.000 +5.2818298340E-002 -2.1635437012E-001 -9.5534324646E-004 -6.5877437592E-003 -4.6629458666E-005 -5.4927542806E-005 -1.1379241943E-002 -7.9280853271E-002
3755000000.000 +4.7744750977E-002 -2.2296905518E-001 -4.4777393341E-003 -4.9250125885E-003 -4.1350722313E-005 -9.0453773737E-005 -6.0348510742E-003 -7.3425292969E-002
3887500000.000 +4.3571472168E-002 -2.2909545898E-001 -6.5121650696E-003 -1.6713142395E-003 +4.1481107473E-005 +6.7427754402E-007 +1.4972686768E-003 -5.6383132935E-002
4020000000.000 +3.9772033691E-002 -2.3461151123E-001 -6.3214302063E-003 +2.3019313812E-003 -6.3247978687E-005 -7.3678791523E-005 +1.3004302979E-002 -4.4494628906E-002
4152500000.000 +3.5919189453E-002 -2.4150085449E-001 -4.0273666382E-003 +5.5012702942E-003 +1.1912733316E-004 -2.9519200325E-005 +1.5590667725E-002 -3.3014297485E-002
4285000000.000 +3.1188964844E-002 -2.4822235107E-001 -1.5521049500E-004 +6.8156719208E-003 -3.0936673284E-005 +4.9319118261E-005 +1.6906738281E-002 -1.3599395752E-002
4417500000.000 +2.6260375977E-002 -2.5332641602E-001 +3.5638809204E-003 +5.7470798492E-003 -9.3735754490E-005 -2.9169023037E-006 +2.5534629822E-002 +3.3769607544E-003
4550000000.000 +2.3269653320E-002 -2.5875854492E-001 +6.1271190643E-003 +2.7196407318E-003 -3.7610530853E-005 -4.7024339437E-005 +2.9067039490E-002 +9.3612670898E-003
4682500000.000 +1.9454956055E-002 -2.6551818848E-001 +6.5782070160E-003 -1.0654926300E-003 +4.5675784349E-005 +2.3281201720E-005 +2.5926589966E-002 +2.0193099976E-002
4815000000.000 +1.3977050781E-002 -2.7107238770E-001 +4.8985481262E-003 -4.5545101166E-003 -6.3154846430E-005 -1.3578683138E-005 +3.1431198120E-002 +2.7086257935E-002
4947500000.000 +1.0925292969E-002 -2.7600097656E-001 +1.6779899597E-003 -6.5569877625E-003 -3.6921352148E-005 -4.8242509365E-006 +2.8000831604E-002 +1.9560813904E-002
5080000000.000 +8.1024169922E-003 -2.8172302246E-001 -2.3365020752E-003 -6.3784122467E-003 +2.0198523998E-005 +4.3921172619E-005 +1.3628959656E-002 +2.0292282104E-002
5212500000.000 +3.6163330078E-003 -2.8776550293E-001 -5.6498050690E-003 -4.0514469147E-003 -7.9702585936E-006 +2.2972002625E-005 +9.5987319946E-003 +2.4686813354E-002
5345000000.000 -5.9509277344E-004 -2.9170227051E-001 -7.0686340332E-003 -2.2959709167E-004 -1.5288591385E-005 -1.8504448235E-005 +5.9471130371E-003 +1.6034126282E-002
5477500000.000 -2.7160644531E-003 -2.9614257813E-001 -6.0024261475E-003 +3.7765502930E-003 +5.5126845837E-005 +4.6752393246E-007 -8.8953971863E-003 +1.0024070740E-002
5610000000.000 -5.9661865234E-003 -3.0189514160E-001 -2.7456283569E-003 +6.6022872925E-003 -1.5364959836E-005 +3.6736950278E-005 -1.4676570892E-002 +1.4619827271E-002
5742500000.000 -1.0864257813E-002 -3.0564880371E-001 +1.4562606812E-003 +7.0478916168E-003 -1.7037615180E-005 -2.2668391466E-006 -1.0998249054E-002 +6.0539245605E-003
5875000000.000 -1.4602661133E-002 -3.0851745605E-001 +5.2082538605E-003 +5.1119327545E-003 -2.7250498533E-006 -1.2618955225E-005 -1.9783973694E-002 -3.4646987915E-003
6007500000.000 -1.7257690430E-002 -3.1217956543E-001 +7.2546005249E-003 +1.2309551239E-003 +4.0978193283E-005 +2.1683052182E-005 -2.3070335388E-002 +2.2220611572E-004
6140000000.000 -2.1423339844E-002 -3.1727600098E-001 +6.5646171570E-003 -3.0670166016E-003 -9.4603747129E-006 -2.2029504180E-005 -1.5229701996E-002 -2.3417472839E-003
6272500000.000 -2.7450561523E-002 -3.2098388672E-001 +3.7777423859E-003 -6.2708854675E-003 +6.6231936216E-005 -4.1928142309E-005 -1.6161918640E-002 -1.1538505554E-002
6405000000.000 -3.2821655273E-002 -3.2252502441E-001 -4.0650367737E-004 -7.2896480560E-003 -2.2113323212E-005 +5.4072588682E-005 -1.9313812256E-002 -6.2618255615E-003
6537500000.000 -3.4866333008E-002 -3.2643127441E-001 -4.5316219330E-003 -5.7299137115E-003 -2.9012560844E-005 -1.7620623112E-006 -9.4456672668E-003 -3.1142234802E-003
6670000000.000 -3.9611816406E-002 -3.3207702637E-001 -6.9255828857E-003 -2.2912025452E-003 +6.5714120865E-006 -4.4925138354E-005 -7.9274177551E-003 -6.8402290344E-003
6802500000.000 -4.7073364258E-002 -3.3607482910E-001 -7.0569515228E-003 +2.0010471344E-003 +2.6826746762E-005 +4.5923516154E-006 -1.1097431183E-002 +2.7132034302E-004
6935000000.000 -5.1651000977E-002 -3.3695983887E-001 -4.6446323395E-003 +5.6774616241E-003 -1.1762604117E-005 +1.9386410713E-005 -6.4640045166E-003 +9.5858573914E-003
7067500000.000 -5.3970336914E-002 -3.4123229980E-001 -6.8306922913E-004 +7.3664188385E-003 -6.6105276346E-006 -3.7932768464E-005 -5.2518844604E-003 +1.0511875153E-002
7200000000.000 -5.9432983398E-002 -3.4649658203E-001 +3.5603046417E-003 +6.4601898193E-003 +1.7084181309E-005 -2.8169713914E-005 -1.4905929565E-002 +1.7544746399E-002
7332500000.000 -6.6314697266E-002 -3.4950256348E-001 +6.6404342651E-003 +3.3450126648E-003 +1.8755905330E-005 -2.4704262614E-005 -1.6713142395E-002 +3.0484199524E-002
7465000000.000 -7.0053100586E-002 -3.5202026367E-001 +7.3609352112E-003 -9.7227096558E-004 -1.8547289073E-005 +1.7438083887E-005 -2.0379066467E-002 +3.0941009521E-002
7597500000.000 -7.4020385742E-002 -3.5650634766E-001 +5.5899620056E-003 -4.9510002136E-003 -4.4494867325E-005 +6.2454491854E-006 -3.6745071411E-002 +3.3763885498E-002
7730000000.000 -7.9284667969E-002 -3.6154174805E-001 +1.8627643585E-003 -7.2658061981E-003 +2.6468187571E-005 +1.0798685253E-005 -4.7777175903E-002 +4.3779373169E-002
7862500000.000 -8.3694458008E-002 -3.6465454102E-001 -2.6156902313E-003 -7.0981979370E-003 -7.1186572313E-005 +4.3086707592E-005 -5.3638458252E-002 +4.2144775391E-002
7995000000.000 -8.6532592773E-002 -3.6784362793E-001 -6.1318874359E-003 -4.4634342194E-003 -1.0836869478E-005 -1.0184571147E-004 -7.3352813721E-002 +3.5278320313E-002
8127500000.000 -9.0255737305E-002 -3.7408447266E-001 -7.6513290405E-003 -3.0350685120E-004 -3.0014663935E-005 +6.2301754951E-005 -9.1110229492E-002 +4.0206909180E-002
8260000000.000 -9.5901489258E-002 -3.7704467773E-001 -6.3881874084E-003 +4.1875839233E-003 -4.6128407121E-005 -2.7872622013E-005 -9.5417022705E-002 +3.4267425537E-002
8392500000.000 -9.8022460938E-002 -3.8024902344E-001 -3.0555725098E-003 +7.1747303009E-003 -2.4314969778E-005 -3.2149255276E-005 -1.1005020142E-001 +1.8581390381E-002
8525000000.000 -1.0023498535E-001 -3.8407897949E-001 +1.4352798462E-003 +7.7109336853E-003 +5.9131532907E-005 +3.0988827348E-005 -1.2194442749E-001 +1.5419006348E-002
8657500000.000 -1.0383605957E-001 -3.8833618164E-001 +5.7251453400E-003 +5.5222511292E-003 -5.4577365518E-005 +4.3574720621E-005 -1.1781692505E-001 +4.3373107910E-003
8790000000.000 -1.0716247559E-001 -3.9216613770E-001 +7.8606605530E-003 +1.2540817261E-003 -3.2765790820E-005 -1.2947246432E-005 -1.1994171143E-001 -1.7097473145E-002
8922500000.000 -1.1027526855E-001 -3.9384460449E-001 +7.3289871216E-003 -3.3853054047E-003 -1.0841526091E-005 -1.9724480808E-005 -1.2219238281E-001 -3.0155181885E-002
9055000000.000 -1.1282348633E-001 -3.9744567871E-001 +4.0211677551E-003 -7.0328712463E-003 +2.5538727641E-005 -1.2437812984E-005 -1.1124801636E-001 -4.4227600098E-002
9187500000.000 -1.1618041992E-001 -3.9981079102E-001 -6.7329406738E-004 -8.2130432129E-003 -1.9825063646E-005 -9.9195167422E-006 -1.0094451904E-001 -6.6543579102E-002
9320000000.000 -1.2145996094E-001 -4.0176391602E-001 -5.2680969238E-003 -6.4213275909E-003 +3.3475458622E-005 +1.2129545212E-005 -9.3585968018E-002 -7.9036712646E-002
9452500000.000 -1.2495422363E-001 -4.0354919434E-001 -8.0480575562E-003 -2.2468566895E-003 +2.0758248866E-005 -1.2462027371E-005 -7.4062347412E-002 -8.7150573730E-002
9585000000.000 -1.2837219238E-001 -4.0661621094E-001 -7.9412460327E-003 +2.9006004333E-003 +1.7434358597E-006 +4.5770779252E-005 -5.5194854736E-002 -1.0152435303E-001
9717500000.000 -1.3415527344E-001 -4.0972900391E-001 -5.0084590912E-003 +6.8242549896E-003 +1.2095086277E-005 +7.5832940638E-006 -4.1782379150E-002 -1.0629653931E-001
9850000000.000 -1.4030456543E-001 -4.1009521484E-001 -1.2302398682E-004 +8.6603164673E-003 +3.8268044591E-005 +1.6205012798E-007 -1.8592834473E-002 -1.0249710083E-001
9982500000.000 -1.4295959473E-001 -4.1288757324E-001 +4.8959255219E-003 +7.0593357086E-003 -8.2086771727E-005 -7.6252967119E-005 +6.0348510742E-003 -1.0441589355E-001
10115000000.000 -1.4735412598E-001 -4.1618347168E-001 +8.1295967102E-003 +2.9735565186E-003 -6.3907355070E-006 -1.5486031771E-005 +1.8440246582E-002 -9.8991394043E-002
10247500000.000 -1.5391540527E-001 -4.1798400879E-001 +8.3460807800E-003 -2.1114349365E-003 +5.7997182012E-005 -1.0123476386E-005 +3.6186218262E-002 -7.9742431641E-002
10380000000.000 -1.5907287598E-001 -4.1978454590E-001 +5.4666996002E-003 -6.7398548126E-003 +2.7593225241E-005 +9.0692192316E-006 +5.7605743408E-002 -6.8531036377E-002
10512500000.000 -1.6357421875E-001 -4.2181396484E-001 +7.3242187500E-004 -8.6894035339E-003 +7.3533505201E-005 -1.0915100574E-005 +6.2067031860E-002 -5.6663513184E-002
10645000000.000 -1.6833496094E-001 -4.2312622070E-001 -4.2643547058E-003 -7.6768398285E-003 +2.9693357646E-005 -8.4107741714E-006 +6.6108703613E-002 -2.8881072998E-002
10777500000.000 -1.7312622070E-001 -4.2616271973E-001 -8.1138610840E-003 -3.5128593445E-003 -7.5034797192E-005 +6.4410269260E-006 +7.8170776367E-002 -8.0375671387E-003
10910000000.000 -1.7893981934E-001 -4.2884826660E-001 -8.6164474487E-003 +1.8353462219E-003 +2.5734305382E-005 -6.9584697485E-005 +7.2738647461E-002 +4.7874450684E-003
11042500000.000 -1.8513488770E-001 -4.3075561523E-001 -6.2069892883E-003 +6.3531398773E-003 +4.5383349061E-005 +5.5199488997E-005 +5.9364318848E-002 +3.1312942505E-002
11175000000.000 -1.8937683105E-001 -4.3351745605E-001 -1.3046264648E-003 +8.7037086487E-003 -2.5527551770E-005 +4.5102089643E-005 +5.7117462158E-002 +5.2814483643E-002
11307500000.000 -1.9363403320E-001 -4.3537902832E-001 +4.1089057922E-003 +7.6982975006E-003 -2.6725232601E-005 -2.0055100322E-005 +4.4355392456E-002 +5.8361053467E-002
11440000000.000 -1.9892883301E-001 -4.3725585938E-001 +7.6770782471E-003 +4.0597915649E-003 -2.1190382540E-005 -2.1064653993E-005 +1.8497467041E-002 +7.2032928467E-002
11572500000.000 -2.0166015625E-001 -4.4155883789E-001 +8.5806846619E-003 -1.0881423950E-003 -5.5208802223E-006 +2.5385059416E-005 +4.7378540039E-003 +8.7760925293E-002
11705000000.000 -2.0634460449E-001 -4.4302368164E-001 +6.3009262085E-003 -5.9823989868E-003 -4.4228509068E-005 +1.0557472706E-005 -9.7846984863E-003 +8.1253051758E-002
11837500000.000 -2.1083068848E-001 -4.4555664063E-001 +1.7337799072E-003 -8.4576606750E-003 -1.4713034034E-005 +3.1549483538E-005 -4.2762756348E-002 +7.7247619629E-002
11970000000.000 -2.1325683594E-001 -4.4602966309E-001 -3.4208297729E-003 -7.9793930054E-003 +5.6056305766E-005 +2.5300309062E-005 -5.8849334717E-002 +8.3469390869E-002
12102500000.000 -2.1539306641E-001 -4.4760131836E-001 -7.3595046997E-003 -4.4076442719E-003 -2.5148503482E-005 +9.0217217803E-006 -6.5582275391E-002 +6.4369201660E-002
12235000000.000 -2.2032165527E-001 -4.4929504395E-001 -8.4619522095E-003 +6.2704086304E-004 -2.7813948691E-005 +8.5122883320E-006 -9.3299865723E-002 +4.5104980469E-002
12367500000.000 -2.2233581543E-001 -4.4958496094E-001 -6.8356990814E-003 +5.4538249969E-003 +2.2179447114E-006 -1.2987758964E-005 -1.0491180420E-001 +4.3708801270E-002
12500000000.000 -2.2807312012E-001 -4.4836425781E-001 -2.0413398743E-003 +8.0099105835E-003 +3.8895756006E-005 +4.9274414778E-005 -9.7278594971E-002 +1.9916534424E-002
12632500000.000 -2.3152160645E-001 -4.5030212402E-001 +2.9280185699E-003 +7.5354576111E-003 -1.8643215299E-005 -3.4756958485E-005 -1.1071395874E-001 -1.3046264648E-002
12765000000.000 -2.3463439941E-001 -4.5054626465E-001 +6.7250728607E-003 +4.4829845428E-003 +5.0516799092E-005 +3.3089891076E-005 -1.1745452881E-001 -1.6468048096E-002
12897500000.000 -2.3872375488E-001 -4.4827270508E-001 +7.9154968262E-003 -2.8276443481E-004 -5.7512894273E-005 +5.3267925978E-005 -9.1644287109E-002 -3.4942626953E-002
13030000000.000 -2.4153137207E-001 -4.4844055176E-001 +6.1800479889E-003 -4.6467781067E-003 +1.3019889593E-005 +2.8009526432E-005 -9.0847015381E-002 -7.1956634521E-002
13162500000.000 -2.4584960938E-001 -4.5016479492E-001 +2.3794174194E-003 -7.2295665741E-003 +8.7998807430E-005 -5.3435564041E-005 -9.2926025391E-002 -7.1712493896E-002
13295000000.000 -2.4989318848E-001 -4.5040893555E-001 -2.2764205933E-003 -7.2228908539E-003 -2.0553357899E-005 +2.4226494133E-005 -6.0592651367E-002 -7.8460693359E-002
13427500000.000 -2.5512695313E-001 -4.4839477539E-001 -5.8610439301E-003 -4.4648647308E-003 -1.5310943127E-006 -7.1745365858E-005 -4.7092437744E-002 -1.0554504395E-001
13560000000.000 -2.5445556641E-001 -4.4770812988E-001 -7.1375370026E-003 -3.4904479980E-004 -2.3118220270E-005 -2.2863969207E-006 -4.7706604004E-002 -1.0169982910E-001
13692500000.000 -2.5808715820E-001 -4.5040893555E-001 -6.0846805573E-003 +3.7813186646E-003 -1.4852732420E-005 +7.1309506893E-005 -1.7883300781E-002 -8.9042663574E-002
13825000000.000 -2.6359558105E-001 -4.5033264160E-001 -2.7337074280E-003 +6.3259601593E-003 -8.0376863480E-005 +1.4677643776E-006 +4.4937133789E-003 -1.0371017456E-001
13957500000.000 -2.6750183105E-001 -4.4767761230E-001 +1.3778209686E-003 +6.5259933472E-003 +5.5657699704E-005 -4.2103230953E-005 -2.7847290039E-004 -9.6424102783E-002
14090000000.000 -2.6889038086E-001 -4.4741821289E-001 +4.8632621765E-003 +4.5990943909E-003 +5.4446980357E-005 +3.5004690289E-005 +2.1930694580E-002 -7.0850372314E-002
14222500000.000 -2.7143859863E-001 -4.4946289063E-001 +6.3059329987E-003 +8.9836120605E-004 -3.9441511035E-005 +2.0865350962E-005 +4.3861389160E-002 -7.4550628662E-002
14355000000.000 -2.7766418457E-001 -4.4911193848E-001 +5.7082176208E-003 -2.7940273285E-003 +2.6576220989E-005 -6.5777450800E-005 +3.3798217773E-002 -6.6967010498E-002
14487500000.000 -2.7987670898E-001 -4.4801330566E-001 +2.9132366180E-003 -5.4991245270E-003 +4.5580789447E-005 +4.0194019675E-005 +4.1421890259E-002 -3.4923553467E-002
14620000000.000 -2.8073120117E-001 -4.5027160645E-001 -5.8150291443E-004 -5.9828758240E-003 +9.8105520010E-006 +5.1356852055E-005 +6.0611724854E-002 -3.2411575317E-002
14752500000.000 -2.8555297852E-001 -4.5347595215E-001 -3.8251876831E-003 -4.4677257538E-003 +4.8689544201E-006 -1.0325014591E-004 +4.2911529541E-002 -3.1263351440E-002
14885000000.000 -2.8964233398E-001 -4.5262145996E-001 -5.5174827576E-003 -1.4231204987E-003 -7.3052942753E-006 +4.0089711547E-005 +3.7240982056E-002 +1.7032623291E-003
15017500000.000 -2.8804016113E-001 -4.5463562012E-001 -5.3448677063E-003 +1.9412040710E-003 -7.3097646236E-005 +1.6051530838E-004 +5.3409576416E-002 +7.1163177490E-003
15150000000.000 -2.8955078125E-001 -4.5982360840E-001 -3.1781196594E-003 +4.5139789581E-003 -6.5699219704E-005 -1.2714415789E-004 +3.3782958984E-002 -9.7656250000E-004
15282500000.000 -2.9258728027E-001 -4.6183776855E-001 -1.6498565674E-004 +5.1953792572E-003 +6.6250562668E-005 +3.5405158997E-005 +1.5406608582E-002 +2.5044441223E-002
