!  2-Port S-parameters saved by WinCal
! VAR MeasName=S-Parameters (CALIBRATED_DATA) read from VNA (C)
! VAR MeasDate=10/5/2015 5:00:14 PM
! VAR NAME=M6079_4_7_3_2_20C_7.4mA_-17.5dBm
! VAR FILENAME=M6079_4_7_3_2_20C_7.4mA_-17.5dBm.S2P
! VAR DATE=10/5/2015 5:00:14 PM
! VAR PHYS_PORTS=2,1
! VAR ObjTypeName=DATASET
! VAR IndexType=Frequency
!
# Hz S RI R 50
45000000.000 +4.2018890381E-002 -3.3950805664E-004 -2.4116039276E-003 +5.8903694153E-003 +3.3240020275E-004 -2.6012957096E-004 +3.0043601990E-002 +9.3841552734E-004
177500000.000 +4.2514801025E-002 -7.2822570801E-003 +2.2172927856E-003 +6.2246322632E-003 -1.1225789785E-004 -5.3182244301E-005 +1.6595840454E-002 +1.6859054565E-002
310000000.000 +4.3172836304E-002 -1.3757705688E-002 +4.9290657043E-003 +4.1561126709E-003 -7.9546123743E-005 -2.8558075428E-005 +3.0199050903E-002 +6.1298370361E-002
442500000.000 +4.3350219727E-002 -2.0677566528E-002 +7.2999000549E-003 +6.9618225098E-005 +8.0723315477E-005 +4.0978193283E-007 +7.2883605957E-002 +2.2441864014E-002
575000000.000 +4.3243408203E-002 -2.8360366821E-002 +5.6588649750E-003 -3.8230419159E-003 +3.9335282054E-007 +4.7089997679E-007 +2.7526855469E-002 +1.1328697205E-002
707500000.000 +4.2684555054E-002 -3.4790039063E-002 +2.5382041931E-003 -6.4027309418E-003 -3.2007694244E-005 -3.6576762795E-005 +2.3603439331E-003 +1.8544197083E-002
840000000.000 +4.2709350586E-002 -4.2324066162E-002 -1.4538764954E-003 -6.5870285034E-003 +3.7491321564E-005 -4.2039901018E-005 -1.9997596741E-002 +2.6066780090E-002
972500000.000 +4.2501449585E-002 -4.9472808838E-002 -4.7054290771E-003 -4.6226978302E-003 +2.0625069737E-005 +1.4275312424E-005 -3.5799026489E-002 +3.5846710205E-002
1105000000.000 +4.1299819946E-002 -5.6966781616E-002 -6.5619945526E-003 -1.2133121490E-003 +2.3441389203E-005 -4.5714899898E-005 -4.6718597412E-002 +3.8455963135E-002
1237500000.000 +4.0508270264E-002 -6.3667297363E-002 -5.9113502502E-003 +2.6576519012E-003 +2.7921982110E-005 +3.7485733628E-006 -5.8624267578E-002 +3.4015655518E-002
1370000000.000 +3.9314270020E-002 -7.0991516113E-002 -3.4682750702E-003 +5.5167675018E-003 -3.2469630241E-005 +9.0960413218E-005 -7.4199676514E-002 +2.7332305908E-002
1502500000.000 +3.8257598877E-002 -7.7625274658E-002 +2.4223327637E-004 +6.5021514893E-003 -7.9859048128E-005 -3.6768615246E-005 -8.8073730469E-002 +2.1682739258E-002
1635000000.000 +3.7742614746E-002 -8.4751129150E-002 +3.7162303925E-003 +5.2344799042E-003 +7.0322304964E-005 -6.4447522163E-007 -9.9323272705E-002 +1.1951446533E-002
1767500000.000 +3.6090850830E-002 -9.2304229736E-002 +6.0539245605E-003 +2.2439956665E-003 +1.7292797565E-005 +5.5493786931E-005 -1.1225128174E-001 +3.3454895020E-003
1900000000.000 +3.4923553467E-002 -9.8270416260E-002 +6.4375400543E-003 -1.6868114471E-003 -3.1586736441E-005 -2.3785978556E-006 -1.1417388916E-001 -3.1280517578E-003
2032500000.000 +3.3424377441E-002 -1.0473251343E-001 +4.2762756348E-003 -4.7519207001E-003 +3.1583011150E-005 -6.4812600613E-005 -1.1401748657E-001 -2.4078369141E-002
2165000000.000 +3.2646179199E-002 -1.1217880249E-001 +8.5687637329E-004 -6.3233375549E-003 +4.0080398321E-005 +4.4461339712E-006 -1.2299346924E-001 -4.1831970215E-002
2297500000.000 +3.0429840088E-002 -1.1835861206E-001 -2.7542114258E-003 -5.5689811707E-003 -1.0916590691E-004 +8.8073313236E-005 -1.2676239014E-001 -5.3192138672E-002
2430000000.000 +2.9109954834E-002 -1.2413406372E-001 -5.4841041565E-003 -3.1712055206E-003 -3.3445656300E-005 -1.9264221191E-004 -1.2728881836E-001 -6.4888000488E-002
2562500000.000 +2.7336120605E-002 -1.3121032715E-001 -6.3114166260E-003 +2.8157234192E-004 +1.3759732246E-004 +1.2676417828E-004 -1.2627410889E-001 -7.0617675781E-002
2695000000.000 +2.3849487305E-002 -1.3676452637E-001 -4.9450397491E-003 +3.5316944122E-003 -8.9779496193E-006 +7.1439892054E-005 -1.1423492432E-001 -7.2978973389E-002
2827500000.000 +2.1392822266E-002 -1.4097595215E-001 -2.2399425507E-003 +5.8763027191E-003 -2.5134533644E-005 -1.2034177780E-004 -9.9037170410E-002 -8.1802368164E-002
2960000000.000 +2.0111083984E-002 -1.4704132080E-001 +1.5757083893E-003 +6.2029361725E-003 +1.4729797840E-004 -4.5999884605E-005 -8.9328765869E-002 -8.6681365967E-002
3092500000.000 +1.6853332520E-002 -1.5423583984E-001 +4.5418739319E-003 +4.1739940643E-003 +4.3766573071E-005 -5.4780393839E-005 -7.1086883545E-002 -8.5556030273E-002
3225000000.000 +1.2611389160E-002 -1.5950775146E-001 +6.1991214752E-003 +1.0104179382E-003 -3.2357871532E-005 -6.5289437771E-005 -5.2303314209E-002 -9.1350555420E-002
3357500000.000 +1.0475158691E-002 -1.6361236572E-001 +5.6738853455E-003 -2.5901794434E-003 +1.2156367302E-004 -4.9207359552E-005 -4.2266845703E-002 -9.2170715332E-002
3490000000.000 +7.8125000000E-003 -1.7033386230E-001 +3.3488273621E-003 -5.2070617676E-003 +4.8756599426E-005 +8.4899365902E-005 -2.8907775879E-002 -8.3271026611E-002
3622500000.000 +4.1046142578E-003 -1.7707061768E-001 -3.8766860962E-004 -6.2472820282E-003 -1.7598271370E-004 -1.1138617992E-005 -1.1539459229E-002 -7.9151153564E-002
3755000000.000 +3.5095214844E-004 -1.8304443359E-001 -3.7388801575E-003 -4.8806667328E-003 +4.4209882617E-005 +5.3886324167E-006 -6.0691833496E-003 -7.3734283447E-002
3887500000.000 -2.6626586914E-003 -1.8864440918E-001 -5.7461261749E-003 -2.1555423737E-003 -2.3134984076E-005 +2.9905699193E-005 +1.4495849609E-003 -5.6604385376E-002
4020000000.000 -5.6457519531E-003 -1.9374847412E-001 -6.0343742371E-003 +1.6553401947E-003 -7.3406845331E-006 +5.4959207773E-005 +1.3067245483E-002 -4.4620513916E-002
4152500000.000 -8.1634521484E-003 -2.0003509521E-001 -4.0166378021E-003 +4.6415328979E-003 -9.9260360003E-006 -3.9633363485E-005 +1.5567779541E-002 -3.3174514771E-002
4285000000.000 -1.1901855469E-002 -2.0648193359E-001 -7.4553489685E-004 +5.9027671814E-003 +9.3965791166E-006 +6.1979517341E-006 +1.7027854919E-002 -1.3953208923E-002
4417500000.000 -1.5731811523E-002 -2.1118927002E-001 +2.7098655701E-003 +5.4006576538E-003 -1.8761493266E-005 +2.5462359190E-005 +2.5691986084E-002 +3.1614303589E-003
4550000000.000 -1.7532348633E-002 -2.1631622314E-001 +5.1920413971E-003 +2.9416084290E-003 +5.4491683841E-005 -4.2401254177E-005 +2.9376029968E-002 +9.1047286987E-003
4682500000.000 -2.0317077637E-002 -2.2271728516E-001 +5.6586265564E-003 -3.3736228943E-004 +2.3223459721E-005 +3.0376948416E-005 +2.6096343994E-002 +2.0009040833E-002
4815000000.000 -2.4841308594E-002 -2.2801971436E-001 +4.6210289001E-003 -3.5152435303E-003 +2.1879561245E-005 -2.8588809073E-005 +3.1766891479E-002 +2.6870727539E-002
4947500000.000 -2.6779174805E-002 -2.3227691650E-001 +2.0093917847E-003 -5.4533481598E-003 -4.6910718083E-006 -2.7491711080E-005 +2.8296470642E-002 +1.9341468811E-002
5080000000.000 -2.8511047363E-002 -2.3791503906E-001 -1.4038085938E-003 -5.5766105652E-003 +1.8002465367E-005 +1.2604519725E-005 +1.4033317566E-002 +2.0188331604E-002
5212500000.000 -3.2157897949E-002 -2.4375915527E-001 -4.2281150818E-003 -3.9699077606E-003 -1.9408762455E-005 +4.5303255320E-005 +9.9821090698E-003 +2.4459838867E-002
5345000000.000 -3.5316467285E-002 -2.4716949463E-001 -5.8262348175E-003 -8.9764595032E-004 -3.9637088776E-006 +2.3250468075E-006 +6.4592361450E-003 +1.5998840332E-002
5477500000.000 -3.6361694336E-002 -2.5141906738E-001 -5.3915977478E-003 +2.4971961975E-003 +5.8056786656E-005 -3.0547380447E-005 -8.5868835449E-003 +9.9778175354E-003
5610000000.000 -3.8925170898E-002 -2.5703430176E-001 -3.0307769775E-003 +4.9870014191E-003 +1.5750527382E-005 +4.5003369451E-005 -1.4267921448E-002 +1.4730930328E-002
5742500000.000 -4.2800903320E-002 -2.6046752930E-001 +3.7169456482E-004 +5.8810710907E-003 -6.9487839937E-005 -1.5426427126E-005 -1.0574340820E-002 +6.2289237976E-003
5875000000.000 -4.5455932617E-002 -2.6310729980E-001 +3.5841464996E-003 +4.8027038574E-003 +5.2168965340E-005 -2.2824853659E-005 -1.9515037537E-002 -3.4017562866E-003
6007500000.000 -4.7332763672E-002 -2.6678466797E-001 +5.5263042450E-003 +1.8401145935E-003 +6.6109932959E-006 +4.7523062676E-006 -2.2937774658E-002 +3.9768218994E-004
6140000000.000 -5.0628662109E-002 -2.7169799805E-001 +5.6483745575E-003 -1.5952587128E-003 -1.7862766981E-006 -6.0976017267E-006 -1.4898777008E-002 -2.0189285278E-003
6272500000.000 -5.5480957031E-002 -2.7522277832E-001 +3.8475990295E-003 -4.4476985931E-003 -3.8109719753E-005 +2.1047890186E-007 -1.5783309937E-002 -1.1242866516E-002
6405000000.000 -5.9692382813E-002 -2.7668762207E-001 +6.5636634827E-004 -5.8400630951E-003 +1.1511147022E-006 +7.1182847023E-005 -1.9117355347E-002 -6.0262680054E-003
6537500000.000 -6.1157226563E-002 -2.8036499023E-001 -2.6347637177E-003 -5.1345825195E-003 -1.1397060007E-005 +5.9097073972E-006 -9.5152854919E-003 -2.7298927307E-003
6670000000.000 -6.4743041992E-002 -2.8596496582E-001 -5.0399303436E-003 -2.8264522552E-003 +3.7044286728E-005 -6.9402158260E-006 -7.8949928284E-003 -6.3891410828E-003
6802500000.000 -7.1212768555E-002 -2.8994750977E-001 -5.7199001312E-003 +4.4775009155E-004 +5.1170587540E-005 +1.7106533051E-005 -1.1223793030E-002 +5.2642822266E-004
6935000000.000 -7.5225830078E-002 -2.9052734375E-001 -4.5044422150E-003 +3.6177635193E-003 -3.1905248761E-005 +5.7574361563E-005 -6.6890716553E-003 +9.9058151245E-003
7067500000.000 -7.6568603516E-002 -2.9476928711E-001 -1.7824172974E-003 +5.5184364319E-003 -3.7878751755E-005 -1.1404976249E-005 -5.3601264954E-003 +1.0766029358E-002
7200000000.000 -8.0902099609E-002 -3.0039978027E-001 +1.5671253204E-003 +5.5139064789E-003 +4.2574480176E-005 -3.2022595406E-005 -1.5049934387E-002 +1.7712593079E-002
7332500000.000 -8.7356567383E-002 -3.0326843262E-001 +4.4431686401E-003 +3.6947727203E-003 -2.0597130060E-005 -2.5797635317E-007 -1.6980171204E-002 +3.0521392822E-002
7465000000.000 -9.0179443359E-002 -3.0555725098E-001 +5.5749416351E-003 +5.5789947510E-004 -1.5037599951E-005 +3.4817494452E-006 -2.0558357239E-002 +3.0941963196E-002
7597500000.000 -9.2956542969E-002 -3.1063842773E-001 +5.0489902496E-003 -2.5730133057E-003 +4.1672959924E-005 +4.1756778955E-005 -3.6880493164E-002 +3.3918380737E-002
7730000000.000 -9.7763061523E-002 -3.1553649902E-001 +2.8192996979E-003 -4.9388408661E-003 +5.5853277445E-005 +1.1129304767E-004 -4.7874450684E-002 +4.3823242188E-002
7862500000.000 -1.0150146484E-001 -3.1837463379E-001 -4.9805641174E-004 -5.6138038635E-003 -6.1787664890E-005 -2.5816261768E-006 -5.3810119629E-002 +4.2146682739E-002
7995000000.000 -1.0333251953E-001 -3.2154846191E-001 -3.4236907959E-003 -4.4510364532E-003 +1.9850209355E-005 -3.3890828490E-005 -7.3516845703E-002 +3.5354614258E-002
8127500000.000 -1.0633850098E-001 -3.2814025879E-001 -5.3734779358E-003 -1.7747879028E-003 +1.4424324036E-005 +3.5287812352E-005 -9.1094970703E-002 +4.0210723877E-002
8260000000.000 -1.1108398438E-001 -3.3078002930E-001 -5.4242610931E-003 +1.5702247620E-003 -9.5531344414E-005 -4.5821070671E-006 -9.5314025879E-002 +3.4328460693E-002
8392500000.000 -1.1253356934E-001 -3.3410644531E-001 -3.6606788635E-003 +4.2681694031E-003 +1.6924925148E-005 -5.4389238358E-007 -1.1000061035E-001 +1.8756866455E-002
8525000000.000 -1.1430358887E-001 -3.3811950684E-001 -6.9308280945E-004 +5.5737495422E-003 +2.5140121579E-005 +5.4601579905E-005 -1.2199401855E-001 +1.5556335449E-002
8657500000.000 -1.1701965332E-001 -3.4214782715E-001 +2.5050640106E-003 +4.9469470978E-003 +6.2957406044E-006 +3.9458274841E-005 -1.1792373657E-001 +4.5852661133E-003
8790000000.000 -1.1965942383E-001 -3.4568786621E-001 +4.8375129700E-003 +2.7732849121E-003 -1.2554228306E-005 -3.3138319850E-005 -1.1986541748E-001 -1.6902923584E-002
8922500000.000 -1.2208557129E-001 -3.4765625000E-001 +5.5830478668E-003 -3.5476684570E-004 +2.5073997676E-005 +3.0055642128E-005 -1.2222671509E-001 -2.9945373535E-002
9055000000.000 -1.2409973145E-001 -3.5096740723E-001 +4.4846534729E-003 -3.3547878265E-003 -1.3647601008E-005 +4.6769157052E-005 -1.1125183105E-001 -4.4010162354E-002
9187500000.000 -1.2652587891E-001 -3.5316467285E-001 +1.7802715302E-003 -5.2983760834E-003 -4.2034313083E-005 -2.0675361156E-005 -1.0110092163E-001 -6.6181182861E-002
9320000000.000 -1.3096618652E-001 -3.5520935059E-001 -1.5664100647E-003 -5.3720474243E-003 +2.5160610676E-005 -3.9327889681E-005 -9.3776702881E-002 -7.8727722168E-002
9452500000.000 -1.3385009766E-001 -3.5722351074E-001 -4.2526721954E-003 -3.6835670471E-003 -4.2179599404E-005 +5.2204355597E-005 -7.4375152588E-002 -8.7017059326E-002
9585000000.000 -1.3642883301E-001 -3.5966491699E-001 -5.6285858154E-003 -6.0558319092E-004 -5.4772943258E-005 -1.4152377844E-005 -5.5614471436E-002 -1.0140991211E-001
9717500000.000 -1.4140319824E-001 -3.6302185059E-001 -4.8940181732E-003 +2.5560855865E-003 +3.8282014430E-006 +1.0249204934E-005 -4.2076110840E-002 -1.0613250732E-001
9850000000.000 -1.4668273926E-001 -3.6337280273E-001 -2.6729106903E-003 +4.8990249634E-003 +3.0510127544E-006 +4.8428773880E-005 -1.8951416016E-002 -1.0251235962E-001
9982500000.000 -1.4842224121E-001 -3.6558532715E-001 +5.3024291992E-004 +5.6164264679E-003 -5.1494687796E-005 +1.6141682863E-005 +5.6037902832E-003 -1.0446929932E-001
10115000000.000 -1.5219116211E-001 -3.6894226074E-001 +3.5233497620E-003 +4.3454170227E-003 -1.3595446944E-005 -4.6316534281E-005 +1.7902374268E-002 -9.9151611328E-002
10247500000.000 -1.5771484375E-001 -3.7097167969E-001 +5.2971839905E-003 +1.6202926636E-003 +5.9694051743E-005 +9.4328075647E-005 +3.5640716553E-002 -8.0123901367E-002
10380000000.000 -1.6146850586E-001 -3.7213134766E-001 +5.2959918976E-003 -1.6009807587E-003 -3.1001865864E-005 +9.5739960670E-006 +5.7209014893E-002 -6.9091796875E-002
10512500000.000 -1.6540527344E-001 -3.7449645996E-001 +3.5455226898E-003 -4.2047500610E-003 -1.6686506569E-005 -2.4016015232E-005 +6.1861038208E-002 -5.7462692261E-002
10645000000.000 -1.6954040527E-001 -3.7600708008E-001 +5.4693222046E-004 -5.5124759674E-003 +6.8079680204E-005 +3.7789344788E-005 +6.5959930420E-002 -2.9438018799E-002
10777500000.000 -1.7304992676E-001 -3.7852478027E-001 -2.6922225952E-003 -4.9669742584E-003 -1.8709339201E-005 +4.0521845222E-006 +7.8208923340E-002 -8.6860656738E-003
10910000000.000 -1.7759704590E-001 -3.8131713867E-001 -4.9533843994E-003 -2.5002956390E-003 -4.1190534830E-005 -4.9630180001E-005 +7.2887420654E-002 +3.8375854492E-003
11042500000.000 -1.8299865723E-001 -3.8398742676E-001 -5.4750442505E-003 +5.4287910461E-004 +5.0365924835E-005 +6.3329935074E-006 +5.9755325317E-002 +3.0500411987E-002
11175000000.000 -1.8640136719E-001 -3.8656616211E-001 -4.2500495911E-003 +3.5357475281E-003 -1.9716098905E-005 +4.5549124479E-005 +5.7743072510E-002 +5.2268981934E-002
11307500000.000 -1.8920898438E-001 -3.8847351074E-001 -1.4395713806E-003 +5.2711963654E-003 -3.3510848880E-005 +1.4241784811E-005 +4.5040130615E-002 +5.7836532593E-002
11440000000.000 -1.9345092773E-001 -3.9097595215E-001 +1.7166137695E-003 +5.1500797272E-003 -1.6698613763E-006 +2.7321279049E-005 +1.9157409668E-002 +7.1636199951E-002
11572500000.000 -1.9575500488E-001 -3.9532470703E-001 +4.3349266052E-003 +3.3655166626E-003 +2.5351531804E-005 +2.3042783141E-005 +5.6457519531E-003 +8.7543487549E-002
11705000000.000 -1.9923400879E-001 -3.9683532715E-001 +5.5108070374E-003 +4.5728683472E-004 -6.6585838795E-005 +4.4219195843E-005 -8.8958740234E-003 +8.1420898438E-002
11837500000.000 -2.0228576660E-001 -3.9973449707E-001 +4.7657489777E-003 -2.7561187744E-003 +6.4801424742E-006 -1.9863247871E-005 -4.1790008545E-002 +7.7507019043E-002
11970000000.000 -2.0391845703E-001 -4.0069580078E-001 +2.4399757385E-003 -4.8074722290E-003 +2.4571083486E-005 +1.2263655663E-005 -5.8151245117E-002 +8.3992004395E-002
12102500000.000 -2.0532226563E-001 -4.0266418457E-001 -6.9069862366E-004 -5.4345130920E-003 -5.0343573093E-005 +3.8653612137E-005 -6.4910888672E-002 +6.4990997314E-002
12235000000.000 -2.0927429199E-001 -4.0460205078E-001 -3.7162303925E-003 -4.0032863617E-003 -1.6829930246E-005 -2.2714026272E-005 -9.2838287354E-002 +4.5722961426E-002
12367500000.000 -2.1060180664E-001 -4.0504455566E-001 -5.2042007446E-003 -1.3048648834E-003 +1.3490673155E-005 -4.2608007789E-007 -1.0446548462E-001 +4.4628143311E-002
12500000000.000 -2.1473693848E-001 -4.0487670898E-001 -4.9433708191E-003 +1.8420219421E-003 +2.6096589863E-005 +1.8264167011E-005 -9.7068786621E-002 +2.0870208740E-002
12632500000.000 -2.1679687500E-001 -4.0757751465E-001 -3.1335353851E-003 +4.3199062347E-003 +2.6307068765E-005 -1.7027370632E-005 -1.1094665527E-001 -1.2187957764E-002
12765000000.000 -2.1965026855E-001 -4.0829467773E-001 -2.3365020752E-004 +5.3136348724E-003 +6.0709193349E-005 -1.7469748855E-005 -1.1764144897E-001 -1.5651702881E-002
12897500000.000 -2.2251892090E-001 -4.0699768066E-001 +2.7117729187E-003 +4.5878887177E-003 -6.9271773100E-005 +6.8012624979E-005 -9.2029571533E-002 -3.4133911133E-002
13030000000.000 -2.2416687012E-001 -4.0840148926E-001 +4.7912597656E-003 +2.3584365845E-003 -2.1770596504E-005 -4.5649707317E-005 -9.1598510742E-002 -7.1285247803E-002
13162500000.000 -2.2816467285E-001 -4.1044616699E-001 +5.1460266113E-003 -8.4114074707E-004 +2.9769726098E-005 +2.0432285964E-005 -9.4017028809E-002 -7.1224212646E-002
13295000000.000 -2.3138427734E-001 -4.1160583496E-001 +3.7987232208E-003 -3.5178661346E-003 +1.8389895558E-005 +4.0298327804E-005 -6.1611175537E-002 -7.8063964844E-002
13427500000.000 -2.3562622070E-001 -4.1056823730E-001 +1.1503696442E-003 -5.0880908966E-003 -4.1576102376E-005 -4.5010820031E-005 -4.8152923584E-002 -1.0559844971E-001
13560000000.000 -2.3486328125E-001 -4.1093444824E-001 -1.7843246460E-003 -4.9808025360E-003 +7.7705830336E-005 -2.8356909752E-005 -4.8843383789E-002 -1.0203933716E-001
13692500000.000 -2.3791503906E-001 -4.1401672363E-001 -4.2648315430E-003 -3.0605792999E-003 +2.8498470783E-005 +6.1035156250E-005 -1.8859863281E-002 -8.9218139648E-002
13825000000.000 -2.4267578125E-001 -4.1499328613E-001 -5.2120685577E-003 -1.8525123596E-004 -1.1292472482E-004 +4.9781054258E-005 +3.7422180176E-003 -1.0446166992E-001
13957500000.000 -2.4632263184E-001 -4.1326904297E-001 -4.3787956238E-003 +2.7141571045E-003 +4.3839216232E-005 -2.2660940886E-005 -9.0026855469E-004 -9.7187042236E-002
14090000000.000 -2.4722290039E-001 -4.1409301758E-001 -2.1526813507E-003 +4.6513080597E-003 +4.5815482736E-005 +7.5045973063E-006 +2.1484375000E-002 -7.1773529053E-002
14222500000.000 -2.4929809570E-001 -4.1685485840E-001 +9.5748901367E-004 +5.1693916321E-003 -2.7248635888E-005 -3.2857060432E-006 +4.3636322021E-002 -7.5340270996E-002
14355000000.000 -2.5514221191E-001 -4.1726684570E-001 +3.6336183548E-003 +3.8815736771E-003 +5.5879354477E-008 -5.3012743592E-005 +3.3836364746E-002 -6.7882537842E-002
14487500000.000 -2.5721740723E-001 -4.1735839844E-001 +5.0253868103E-003 +1.0945796967E-003 +9.0308487415E-005 +2.3558735847E-005 +4.1614532471E-002 -3.5585403442E-002
14620000000.000 -2.5755310059E-001 -4.2010498047E-001 +4.8675537109E-003 -1.9083023071E-003 +4.9509108067E-005 -1.3235956430E-005 +6.0852050781E-002 -3.2957077026E-002
14752500000.000 -2.6231384277E-001 -4.2436218262E-001 +2.9008388519E-003 -4.2457580566E-003 -8.0987811089E-006 -1.4324486256E-004 +4.3460845947E-002 -3.1600952148E-002
14885000000.000 -2.6599121094E-001 -4.2427062988E-001 +8.8691711426E-005 -5.1536560059E-003 +5.1466748118E-005 +8.9574605227E-006 +3.7927627563E-002 +1.5373229980E-003
15017500000.000 -2.6455688477E-001 -4.2666625977E-001 -2.8760433197E-003 -4.2631626129E-003 -5.6602060795E-005 +1.3300776482E-004 +5.3918838501E-002 +6.9618225098E-003
15150000000.000 -2.6574707031E-001 -4.3244934082E-001 -4.7898292542E-003 -1.9645690918E-003 -6.6630542278E-005 +1.5862286091E-005 +3.4366607666E-002 -1.0166168213E-003
15282500000.000 -2.6882934570E-001 -4.3540954590E-001 -5.0213336945E-003 +9.5796585083E-004 +5.0486996770E-005 +2.4493783712E-005 +1.5945434570E-002 +2.5569915771E-002
