!  2-Port S-parameters saved by WinCal
! VAR MeasName=S-Parameters (CALIBRATED_DATA) read from VNA (C)
! VAR MeasDate=10/5/2015 4:52:07 PM
! VAR NAME=M6079_4_7_3_2_20C_2.9mA_-17.5dBm
! VAR FILENAME=M6079_4_7_3_2_20C_2.9mA_-17.5dBm.S2P
! VAR DATE=10/5/2015 4:52:07 PM
! VAR PHYS_PORTS=2,1
! VAR ObjTypeName=DATASET
! VAR IndexType=Frequency
!
# Hz S RI R 50
45000000.000 +1.4159393311E-001 -1.4953613281E-003 -1.3856887817E-003 +7.6134204865E-003 -1.6003847122E-005 -1.8440932035E-004 +2.9730796814E-002 +2.8972625732E-003
177500000.000 +1.4224243164E-001 -1.0482788086E-002 +2.4850368500E-003 +6.2589645386E-003 -5.3221359849E-005 +4.1602179408E-005 +1.6300201416E-002 +1.6991615295E-002
310000000.000 +1.4257812500E-001 -1.9592285156E-002 +5.1660537720E-003 +4.4138431549E-003 -8.8740140200E-005 +4.3522566557E-005 +3.0235290527E-002 +6.1275482178E-002
442500000.000 +1.4243316650E-001 -2.9266357422E-002 +7.8082084656E-003 +2.9087066650E-005 +6.4827501774E-005 -5.2046030760E-005 +7.2849273682E-002 +2.2445678711E-002
575000000.000 +1.4172363281E-001 -3.9489746094E-002 +5.8612823486E-003 -4.3094158173E-003 -1.6441568732E-005 +4.6258792281E-005 +2.7524948120E-002 +1.1338233948E-002
707500000.000 +1.4047241211E-001 -4.8355102539E-002 +2.4433135986E-003 -6.5879821777E-003 -4.1835010052E-005 +2.7559697628E-005 +2.3365020752E-003 +1.8495559692E-002
840000000.000 +1.3966369629E-001 -5.8250427246E-002 -1.6598701477E-003 -6.7930221558E-003 -3.3535063267E-005 -6.5062195063E-006 -1.9955635071E-002 +2.5898933411E-002
972500000.000 +1.3868713379E-001 -6.7558288574E-002 -5.1553249359E-003 -4.6834945679E-003 -2.4830922484E-005 +5.5264681578E-005 -3.5917282104E-002 +3.5762786865E-002
1105000000.000 +1.3665008545E-001 -7.7255249023E-002 -6.7994594574E-003 -9.9730491638E-004 -6.7371875048E-005 -4.5429915190E-005 -4.6749114990E-002 +3.8423538208E-002
1237500000.000 +1.3484954834E-001 -8.6090087891E-002 -6.1426162720E-003 +2.9299259186E-003 +3.0266121030E-005 +2.5796703994E-005 -5.8607101440E-002 +3.3952713013E-002
1370000000.000 +1.3259887695E-001 -9.5710754395E-002 -3.4370422363E-003 +5.8503150940E-003 +3.7541612983E-005 +3.7744641304E-005 -7.4188232422E-002 +2.7301788330E-002
1502500000.000 +1.3038635254E-001 -1.0432434082E-001 +3.7956237793E-004 +6.6943168640E-003 -2.9006041586E-005 +2.6078894734E-005 -8.8054656982E-002 +2.1583557129E-002
1635000000.000 +1.2878417969E-001 -1.1326599121E-001 +4.0893554688E-003 +5.3443908691E-003 -1.3912562281E-005 -6.8619847298E-006 -9.9254608154E-002 +1.1940002441E-002
1767500000.000 +1.2606048584E-001 -1.2286376953E-001 +6.3688755035E-003 +2.1314620972E-003 +1.0227784514E-005 +4.3470412493E-005 -1.1220550537E-001 +3.2844543457E-003
1900000000.000 +1.2345123291E-001 -1.3072967529E-001 +6.4933300018E-003 -1.8734931946E-003 +2.1658837795E-005 -3.9272010326E-005 -1.1402893066E-001 -3.1471252441E-003
2032500000.000 +1.2055206299E-001 -1.3867950439E-001 +4.2579174042E-003 -5.1493644714E-003 -1.7482787371E-005 -2.7413479984E-005 -1.1417007446E-001 -2.4185180664E-002
2165000000.000 +1.1876678467E-001 -1.4791107178E-001 +6.0391426086E-004 -6.5803527832E-003 +7.5795687735E-006 +9.9716708064E-006 -1.2296295166E-001 -4.1889190674E-002
2297500000.000 +1.1530303955E-001 -1.5570831299E-001 -3.1049251556E-003 -5.8267116547E-003 -1.4784280211E-005 -1.3343989849E-005 -1.2680053711E-001 -5.3276062012E-002
2430000000.000 +1.1241912842E-001 -1.6271972656E-001 -5.6440830231E-003 -3.1394958496E-003 -2.2277235985E-005 -1.5247613192E-004 -1.2736511230E-001 -6.4842224121E-002
2562500000.000 +1.0971832275E-001 -1.7128753662E-001 -6.5610408783E-003 +5.5599212646E-004 +1.3832747936E-004 -9.8124146461E-006 -1.2619781494E-001 -7.0693969727E-002
2695000000.000 +1.0448455811E-001 -1.7825317383E-001 -5.0156116486E-003 +4.0967464447E-003 -6.9513916969E-006 -5.3640455008E-005 -1.1375427246E-001 -7.2769165039E-002
2827500000.000 +1.0068511963E-001 -1.8392181396E-001 -1.7323493958E-003 +6.1748027802E-003 -7.5019896030E-005 -6.3970685005E-005 -9.9136352539E-002 -8.1954956055E-002
2960000000.000 +9.7984313965E-002 -1.9117736816E-001 +1.9395351410E-003 +6.1631202698E-003 +1.8216669559E-004 +7.4625015259E-005 -8.9405059814E-002 -8.6738586426E-002
3092500000.000 +9.3391418457E-002 -1.9944763184E-001 +5.0401687622E-003 +4.0082931519E-003 -4.4915825129E-005 -4.6940520406E-005 -7.1075439453E-002 -8.5426330566E-002
3225000000.000 +8.7615966797E-002 -2.0590209961E-001 +6.2546730042E-003 +6.2274932861E-004 -5.3487718105E-005 -9.9234282970E-005 -5.2352905273E-002 -9.1247558594E-002
3357500000.000 +8.3801269531E-002 -2.1097564697E-001 +5.7039260864E-003 -2.8901100159E-003 +3.5576522350E-005 +9.5140188932E-005 -4.2190551758E-002 -9.2216491699E-002
3490000000.000 +7.9956054688E-002 -2.1895599365E-001 +3.1437873840E-003 -5.5494308472E-003 -1.1558085680E-004 +1.4565140009E-004 -2.8919219971E-002 -8.3183288574E-002
3622500000.000 +7.4844360352E-002 -2.2682189941E-001 -5.6433677673E-004 -6.4454078674E-003 -3.9540231228E-005 +6.7371875048E-005 -1.1600494385E-002 -7.9048156738E-002
3755000000.000 +6.9732666016E-002 -2.3345184326E-001 -4.0218830109E-003 -4.9862861633E-003 +8.1870704889E-005 -9.4845890999E-006 -6.0424804688E-003 -7.3680877686E-002
3887500000.000 +6.5231323242E-002 -2.4011230469E-001 -6.1926841736E-003 -1.9600391388E-003 -1.4182925224E-004 +3.4190714359E-005 +1.3313293457E-003 -5.6501388550E-002
4020000000.000 +6.0806274414E-002 -2.4606323242E-001 -6.0303211212E-003 +1.9204616547E-003 -9.4596296549E-005 -5.1632523537E-005 +1.3059616089E-002 -4.4586181641E-002
4152500000.000 +5.6838989258E-002 -2.5309753418E-001 -3.9923191071E-003 +5.1212310791E-003 +9.1474503279E-006 +5.4651871324E-005 +1.5569686890E-002 -3.3046722412E-002
4285000000.000 +5.1788330078E-002 -2.6023864746E-001 -4.7230720520E-004 +6.3366889954E-003 +3.4453347325E-005 -2.2131949663E-005 +1.6960144043E-002 -1.3824462891E-002
4417500000.000 +4.6463012695E-002 -2.6576232910E-001 +3.1929016113E-003 +5.4414272308E-003 -8.2748010755E-006 +1.0530464351E-005 +2.5640487671E-002 +3.1385421753E-003
4550000000.000 +4.3289184570E-002 -2.7146911621E-001 +5.5878162384E-003 +2.7782917023E-003 +5.1263719797E-005 -8.1319361925E-005 +2.9379844666E-002 +9.1171264648E-003
4682500000.000 +3.9154052734E-002 -2.7847290039E-001 +6.1354637146E-003 -7.4267387390E-004 +7.0743262768E-005 +1.7743557692E-005 +2.6147842407E-002 +1.9918441772E-002
4815000000.000 +3.3309936523E-002 -2.8442382813E-001 +4.6977996826E-003 -4.0180683136E-003 -1.3996846974E-005 +2.0131468773E-005 +3.1658172607E-002 +2.6939392090E-002
4947500000.000 +3.0090332031E-002 -2.8929138184E-001 +1.7840862274E-003 -5.9728622437E-003 +1.7722137272E-005 +2.8684735298E-007 +2.8328895569E-002 +1.9351959229E-002
5080000000.000 +2.7069091797E-002 -2.9533386230E-001 -1.9116401672E-003 -6.0172080994E-003 +5.2554532886E-005 +1.5888363123E-006 +1.3891220093E-002 +2.0007133484E-002
5212500000.000 +2.2125244141E-002 -3.0154418945E-001 -4.9986839294E-003 -4.0774345398E-003 -2.7433037758E-005 +2.6297755539E-005 +1.0072708130E-002 +2.4491310120E-002
5345000000.000 +1.7608642578E-002 -3.0555725098E-001 -6.4580440521E-003 -5.1403045654E-004 +1.9202008843E-005 -3.3928081393E-005 +6.4201354980E-003 +1.5889167786E-002
5477500000.000 +1.5426635742E-002 -3.1015014648E-001 -5.6817531586E-003 +3.1502246857E-003 -2.0449981093E-005 -1.3430602849E-005 -8.5315704346E-003 +9.8752975464E-003
5610000000.000 +1.1611938477E-002 -3.1622314453E-001 -2.9485225677E-003 +5.8276653290E-003 +9.3672424555E-006 +4.3325126171E-005 -1.4384269714E-002 +1.4622211456E-002
5742500000.000 +6.3934326172E-003 -3.1994628906E-001 +8.6116790771E-004 +6.5565109253E-003 -2.6419758797E-005 -5.3038820624E-005 -1.0501384735E-002 +6.2189102173E-003
5875000000.000 +2.6397705078E-003 -3.2305908203E-001 +4.4751167297E-003 +4.9238204956E-003 +2.3821368814E-005 +9.0505927801E-006 -1.9486427307E-002 -3.3912658691E-003
6007500000.000 -3.0517578125E-004 -3.2708740234E-001 +6.5221786499E-003 +1.5115737915E-003 +8.7385997176E-006 -6.8917870522E-008 -2.2958755493E-002 +3.1375885010E-004
6140000000.000 -4.8675537109E-003 -3.3241271973E-001 +6.2129497528E-003 -2.3419857025E-003 +7.1998219937E-006 +4.8088841140E-006 -1.4951229095E-002 -2.3097991943E-003
6272500000.000 -1.0925292969E-002 -3.3619689941E-001 +3.8385391235E-003 -5.4180622101E-003 -1.0423362255E-005 -1.2512318790E-005 -1.5756607056E-002 -1.1312484741E-002
6405000000.000 -1.6296386719E-002 -3.3811950684E-001 +1.7881393433E-004 -6.6616535187E-003 +8.2887709141E-007 +7.0412643254E-006 -1.9149780273E-002 -6.1140060425E-003
6537500000.000 -1.8936157227E-002 -3.4201049805E-001 -3.6399364471E-003 -5.5503845215E-003 -4.2492523789E-005 -3.4485012293E-005 -9.4318389893E-003 -2.7508735657E-003
6670000000.000 -2.3666381836E-002 -3.4785461426E-001 -6.1495304108E-003 -2.5947093964E-003 +2.3813918233E-005 -4.9225986004E-005 -7.7621936798E-003 -6.4470767975E-003
6802500000.000 -3.1494140625E-002 -3.5209655762E-001 -6.5617561340E-003 +1.2319087982E-003 +4.2926520109E-005 -8.9835375547E-006 -1.1137962341E-002 +4.8255920410E-004
6935000000.000 -3.6529541016E-002 -3.5296630859E-001 -4.6970844269E-003 +4.7767162323E-003 +2.4791806936E-006 +3.7675723433E-005 -6.6256523132E-003 +9.8938941956E-003
7067500000.000 -3.9001464844E-002 -3.5719299316E-001 -1.2049674988E-003 +6.6115856171E-003 -4.7923997045E-005 -1.9080936909E-005 -5.3000450134E-003 +1.0735511780E-002
7200000000.000 -4.4647216797E-002 -3.6288452148E-001 +2.6304721832E-003 +6.1476230621E-003 +7.5735151768E-005 -2.4653971195E-005 -1.5050888062E-002 +1.7658233643E-002
7332500000.000 -5.2093505859E-002 -3.6592102051E-001 +5.6526660919E-003 +3.5893917084E-003 +9.3523412943E-006 +3.9407983422E-005 -1.6992568970E-002 +3.0590057373E-002
7465000000.000 -5.6121826172E-002 -3.6827087402E-001 +6.7183971405E-003 -2.3126602173E-004 -3.0329450965E-005 -3.7556514144E-005 -2.0498275757E-002 +3.1002998352E-002
7597500000.000 -6.0043334961E-002 -3.7310791016E-001 +5.4273605347E-003 -3.8337707520E-003 +6.2212347984E-007 -3.3717602491E-005 -3.6788940430E-002 +3.3908843994E-002
7730000000.000 -6.5963745117E-002 -3.7821960449E-001 +2.2761821747E-003 -6.2866210938E-003 +4.4354237616E-007 +3.5103876144E-006 -4.7945022583E-002 +4.3861389160E-002
7862500000.000 -7.0693969727E-002 -3.8128662109E-001 -1.5940666199E-003 -6.5348148346E-003 -2.6021152735E-005 -6.4432621002E-005 -5.3741455078E-002 +4.2188644409E-002
7995000000.000 -7.3455810547E-002 -3.8439941406E-001 -4.9381256104E-003 -4.5950412750E-003 +9.5069408417E-006 -7.9959630966E-005 -7.3486328125E-002 +3.5350799561E-002
8127500000.000 -7.7651977539E-002 -3.9059448242E-001 -6.6165924072E-003 -1.0836124420E-003 -3.4896656871E-006 -1.6275793314E-005 -9.1186523438E-002 +4.0275573730E-002
8260000000.000 -8.3435058594E-002 -3.9353942871E-001 -6.1619281769E-003 +2.9215812683E-003 +5.5916607380E-006 +6.7375600338E-005 -9.5321655273E-002 +3.4290313721E-002
8392500000.000 -8.5693359375E-002 -3.9683532715E-001 -3.5004615784E-003 +5.9247016907E-003 -4.5347958803E-005 -8.1405043602E-005 -1.1002349854E-001 +1.8913269043E-002
8525000000.000 -8.8256835938E-002 -4.0052795410E-001 +3.8838386536E-004 +6.8628787994E-003 +4.6020373702E-005 +4.5396387577E-005 -1.2202453613E-001 +1.5563964844E-002
8657500000.000 -9.2163085938E-002 -4.0457153320E-001 +4.2393207550E-003 +5.5630207062E-003 -5.5944547057E-005 +4.8303976655E-005 -1.1792755127E-001 +4.6463012695E-003
8790000000.000 -9.5367431641E-002 -4.0837097168E-001 +6.6258907318E-003 +2.2056102753E-003 -5.5626034737E-005 -2.8880313039E-005 -1.1991882324E-001 -1.6838073730E-002
8922500000.000 -9.8800659180E-002 -4.1007995605E-001 +6.7577362061E-003 -1.9266605377E-003 +2.1470710635E-005 +2.0293518901E-005 -1.2236022949E-001 -2.9884338379E-002
9055000000.000 -1.0166931152E-001 -4.1360473633E-001 +4.5664310455E-003 -5.4421424866E-003 +5.4687261581E-006 +3.2870098948E-005 -1.1132812500E-001 -4.3918609619E-002
9187500000.000 -1.0479736328E-001 -4.1580200195E-001 +6.9260597229E-004 -7.0862770081E-003 +2.4059787393E-005 +4.9369409680E-006 -1.0117340088E-001 -6.6085815430E-002
9320000000.000 -1.1024475098E-001 -4.1787719727E-001 -3.4863948822E-003 -6.2873363495E-003 +7.1041285992E-006 -2.5664456189E-005 -9.3875885010E-002 -7.8681945801E-002
9452500000.000 -1.1401367188E-001 -4.1992187500E-001 -6.3726902008E-003 -3.2765865326E-003 -8.4582716227E-006 +2.2692605853E-005 -7.4512481689E-002 -8.7005615234E-002
9585000000.000 -1.1756896973E-001 -4.2236328125E-001 -7.1587562561E-003 +1.0845661163E-003 -1.8352642655E-005 -1.1397525668E-005 -5.5587768555E-002 -1.0144805908E-001
9717500000.000 -1.2330627441E-001 -4.2559814453E-001 -5.3963661194E-003 +4.8089027405E-003 +7.5902789831E-005 +6.6682696342E-006 -4.2137145996E-002 -1.0615539551E-001
9850000000.000 -1.2963867188E-001 -4.2611694336E-001 -1.7123222351E-003 +7.1215629578E-003 +2.5842338800E-005 +2.3611821234E-005 -1.8905639648E-002 -1.0256576538E-001
9982500000.000 -1.3232421875E-001 -4.2854309082E-001 +2.6843547821E-003 +6.8600177765E-003 +6.7662913352E-006 -4.5492779464E-006 +5.5313110352E-003 -1.0445022583E-001
10115000000.000 -1.3694763184E-001 -4.3173217773E-001 +6.1306953430E-003 +4.2154788971E-003 +1.3617798686E-005 -4.2924657464E-005 +1.7921447754E-002 -9.9189758301E-002
10247500000.000 -1.4324951172E-001 -4.3368530273E-001 +7.3797702789E-003 +2.9087066650E-005 +5.6920573115E-005 +8.9965760708E-006 +3.5739898682E-002 -8.0051422119E-002
10380000000.000 -1.4793395996E-001 -4.3505859375E-001 +6.0737133026E-003 -4.2734146118E-003 -2.1561048925E-005 +2.1287240088E-005 +5.7231903076E-002 -6.9129943848E-002
10512500000.000 -1.5266418457E-001 -4.3713378906E-001 +2.7053356171E-003 -6.9680213928E-003 -1.0488554835E-004 -1.9926577806E-005 +6.1807632446E-002 -5.7378768921E-002
10645000000.000 -1.5771484375E-001 -4.3859863281E-001 -1.6660690308E-003 -7.3909759521E-003 +1.2535601854E-005 +3.6789104342E-005 +6.5994262695E-002 -2.9342651367E-002
10777500000.000 -1.6232299805E-001 -4.4116210938E-001 -5.7182312012E-003 -5.1691532135E-003 -8.7060034275E-006 +4.1546300054E-005 +7.8193664551E-002 -8.7165832520E-003
10910000000.000 -1.6773986816E-001 -4.4389343262E-001 -7.6153278351E-003 -8.8596343994E-004 -1.8289312720E-005 -1.7872080207E-005 +7.2860717773E-002 +3.8490295410E-003
11042500000.000 -1.7398071289E-001 -4.4630432129E-001 -6.7927837372E-003 +3.4623146057E-003 +1.7331913114E-005 -2.2768974304E-005 +5.9768676758E-002 +3.0523300171E-002
11175000000.000 -1.7837524414E-001 -4.4868469238E-001 -3.6349296570E-003 +6.7937374115E-003 -7.0162117481E-005 -1.6435980797E-005 +5.7683944702E-002 +5.2448272705E-002
11307500000.000 -1.8240356445E-001 -4.5071411133E-001 +1.0485649109E-003 +7.6501369476E-003 -1.9623897970E-005 -1.8022023141E-005 +4.5013427734E-002 +5.7863235474E-002
11440000000.000 -1.8743896484E-001 -4.5286560059E-001 +5.1677227020E-003 +5.8214664459E-003 +6.3482671976E-005 -4.6089291573E-005 +1.9195556641E-002 +7.1708679199E-002
11572500000.000 -1.9058227539E-001 -4.5698547363E-001 +7.5898170471E-003 +1.8615722656E-003 -2.5048851967E-005 +4.3831765652E-005 +5.5580139160E-003 +8.7654113770E-002
11705000000.000 -1.9505310059E-001 -4.5840454102E-001 +7.2238445282E-003 -2.8536319733E-003 -3.5492703319E-005 -8.9034438133E-006 -8.9187622070E-003 +8.1359863281E-002
11837500000.000 -1.9902038574E-001 -4.6110534668E-001 +4.2784214020E-003 -6.4465999603E-003 +2.8307549655E-005 +2.2399239242E-005 -4.1851043701E-002 +7.7495574951E-002
11970000000.000 -2.0138549805E-001 -4.6182250977E-001 -6.0081481934E-005 -7.8041553497E-003 -3.3979304135E-006 +1.0643620044E-005 -5.8036804199E-002 +8.3900451660E-002
12102500000.000 -2.0384216309E-001 -4.6357727051E-001 -4.6954154968E-003 -6.3738822937E-003 -2.7550384402E-005 -1.6734004021E-005 -6.4937591553E-002 +6.5055847168E-002
12235000000.000 -2.0863342285E-001 -4.6525573730E-001 -7.3518753052E-003 -2.5613307953E-003 -1.3794749975E-005 -5.5361539125E-005 -9.2937469482E-002 +4.5722961426E-002
12367500000.000 -2.1058654785E-001 -4.6542358398E-001 -7.5991153717E-003 +2.1290779114E-003 +2.7594156563E-005 +1.6409903765E-005 -1.0451126099E-001 +4.4635772705E-002
12500000000.000 -2.1614074707E-001 -4.6534729004E-001 -4.8227310181E-003 +6.1078071594E-003 -3.7098303437E-005 +2.3847445846E-005 -9.7198486328E-002 +2.0790100098E-002
12632500000.000 -2.1919250488E-001 -4.6760559082E-001 -4.8947334290E-004 +7.6758861542E-003 +2.4911016226E-005 -3.7273392081E-005 -1.1100387573E-001 -1.2203216553E-002
12765000000.000 -2.2283935547E-001 -4.6789550781E-001 +4.0736198425E-003 +6.6635608673E-003 -1.6387552023E-005 -4.4234097004E-005 -1.1761856079E-001 -1.5628814697E-002
12897500000.000 -2.2663879395E-001 -4.6623229980E-001 +7.0607662201E-003 +3.0808448792E-003 -4.6821311116E-005 +2.6568770409E-005 -9.2037200928E-002 -3.4278869629E-002
13030000000.000 -2.2921752930E-001 -4.6708679199E-001 +7.5037479401E-003 -1.5637874603E-003 -1.4002434909E-005 -5.4859556258E-006 -9.1564178467E-002 -7.1487426758E-002
13162500000.000 -2.3400878906E-001 -4.6888732910E-001 +5.1860809326E-003 -5.4535865784E-003 -7.1376562119E-006 +2.0454637706E-005 -9.3990325928E-002 -7.1300506592E-002
13295000000.000 -2.3814392090E-001 -4.6952819824E-001 +1.1420249939E-003 -7.5693130493E-003 -5.3290277719E-005 +6.1076134443E-005 -6.1592102051E-002 -7.8243255615E-002
13427500000.000 -2.4340820313E-001 -4.6807861328E-001 -3.3690929413E-003 -6.7334175110E-003 -2.6183202863E-005 -5.0019472837E-005 -4.7950744629E-002 -1.0579299927E-001
13560000000.000 -2.4356079102E-001 -4.6765136719E-001 -6.6804885864E-003 -3.5138130188E-003 +3.3168122172E-005 +2.4884939194E-005 -4.8889160156E-002 -1.0220718384E-001
13692500000.000 -2.4731445313E-001 -4.7045898438E-001 -7.3778629303E-003 +7.8940391541E-004 -2.3791566491E-005 +2.7999281883E-005 -1.8718719482E-002 -8.9286804199E-002
13825000000.000 -2.5285339355E-001 -4.7068786621E-001 -5.5005550385E-003 +4.8387050629E-003 +8.7469816208E-006 -3.6749988794E-005 +3.9138793945E-003 -1.0439682007E-001
13957500000.000 -2.5750732422E-001 -4.6827697754E-001 -1.6765594482E-003 +7.0383548737E-003 -6.7379325628E-005 +4.3291598558E-005 -9.0789794922E-004 -9.7259521484E-002
14090000000.000 -2.5910949707E-001 -4.6849060059E-001 +2.5947093964E-003 +6.6859722137E-003 -2.1423213184E-005 -1.5697441995E-005 +2.1457672119E-002 -7.1571350098E-002
14222500000.000 -2.6177978516E-001 -4.7062683105E-001 +5.9635639191E-003 +3.9219856262E-003 -3.0837953091E-005 -2.4074688554E-005 +4.3933868408E-002 -7.5489044189E-002
14355000000.000 -2.6837158203E-001 -4.7021484375E-001 +6.9730281830E-003 -1.1634826660E-004 +5.8749690652E-005 -3.5366043448E-005 +3.3946990967E-002 -6.7798614502E-002
14487500000.000 -2.7104187012E-001 -4.6977233887E-001 +5.6152343750E-003 -4.2066574097E-003 -8.7611377239E-005 +5.2470713854E-005 +4.1601181030E-002 -3.5585403442E-002
14620000000.000 -2.7192687988E-001 -4.7167968750E-001 +2.2468566895E-003 -6.4251422882E-003 -4.4805929065E-005 +2.6440247893E-005 +6.0922622681E-002 -3.2926559448E-002
14752500000.000 -2.7713012695E-001 -4.7505187988E-001 -1.9326210022E-003 -6.4606666565E-003 -3.5155564547E-005 +9.4771385193E-006 +4.3521881104E-002 -3.1444549561E-002
14885000000.000 -2.8134155273E-001 -4.7445678711E-001 -5.1460266113E-003 -4.2238235474E-003 +1.3133883476E-004 -6.5326690674E-005 +3.7942886353E-002 +1.7032623291E-003
15017500000.000 -2.8013610840E-001 -4.7621154785E-001 -6.4351558685E-003 -4.0888786316E-004 +4.5744702220E-005 +5.3282827139E-005 +5.4117202759E-002 +6.9808959961E-003
15150000000.000 -2.8178405762E-001 -4.8132324219E-001 -5.4290294647E-003 +3.2966136932E-003 -6.4417719841E-005 -1.9941478968E-005 +3.4301757813E-002 -1.0185241699E-003
15282500000.000 -2.8524780273E-001 -4.8367309570E-001 -2.5863647461E-003 +5.6262016296E-003 -4.7519803047E-005 -5.8643519878E-005 +1.6022682190E-002 +2.5378227234E-002
