!  2-Port S-parameters saved by WinCal
! VAR MeasName=S-Parameters (CALIBRATED_DATA) read from VNA (C)
! VAR MeasDate=10/5/2015 6:44:26 PM
! VAR NAME=M6079_2_7_3_3_20C_3.8mA_-17.5dBm
! VAR FILENAME=M6079_2_7_3_3_20C_3.8mA_-17.5dBm.S2P
! VAR DATE=10/5/2015 6:44:26 PM
! VAR PHYS_PORTS=2,1
! VAR ObjTypeName=DATASET
! VAR IndexType=Frequency
!
# Hz S RI R 50
45000000.000 +9.2094421387E-002 -9.5748901367E-004 -2.2196769714E-004 +7.5976848602E-003 +7.2365999222E-004 +2.1964311600E-004 +2.8570175171E-002 +3.9606094360E-003
177500000.000 +9.3589782715E-002 -8.9187622070E-003 +2.5334358215E-003 +6.5572261810E-003 +1.0957568884E-004 +2.1803379059E-004 +1.6194343567E-002 +1.6965866089E-002
310000000.000 +9.3692779541E-002 -1.7448425293E-002 +5.6037902832E-003 +4.3957233429E-003 -2.2215768695E-005 -5.0013884902E-005 +3.0004501343E-002 +6.1309814453E-002
442500000.000 +9.3601226807E-002 -2.5913238525E-002 +8.0165863037E-003 +1.0204315186E-004 +5.5739656091E-005 -5.1090493798E-005 +7.2490692139E-002 +2.2361755371E-002
575000000.000 +9.3227386475E-002 -3.5060882568E-002 +6.1323642731E-003 -4.4393539429E-003 -4.4070184231E-006 -7.9866498709E-005 +2.7409553528E-002 +1.1260032654E-002
707500000.000 +9.2090606689E-002 -4.3041229248E-002 +2.5658607483E-003 -6.9510936737E-003 +2.9521994293E-005 -2.4562701583E-005 +2.2840499878E-003 +1.8507003784E-002
840000000.000 +9.1442108154E-002 -5.1902770996E-002 -1.7464160919E-003 -7.1561336517E-003 +4.5645982027E-005 -6.4823776484E-005 -1.9976615906E-002 +2.5978088379E-002
972500000.000 +9.0751647949E-002 -6.0249328613E-002 -5.2762031555E-003 -4.8789978027E-003 -1.5680678189E-005 -2.3532658815E-005 -3.5821914673E-002 +3.5713195801E-002
1105000000.000 +8.8977813721E-002 -6.8950653076E-002 -7.1039199829E-003 -1.0581016541E-003 -5.6263059378E-005 -1.6959384084E-005 -4.6678543091E-002 +3.8393020630E-002
1237500000.000 +8.7440490723E-002 -7.6732635498E-002 -6.5076351166E-003 +3.1552314758E-003 +2.0533800125E-005 -3.5934150219E-005 -5.8595657349E-002 +3.3863067627E-002
1370000000.000 +8.5521697998E-002 -8.5330963135E-002 -3.6818981171E-003 +6.2444210052E-003 -3.1813979149E-005 +3.5224482417E-005 -7.4157714844E-002 +2.7297973633E-002
1502500000.000 +8.3759307861E-002 -9.3025207520E-002 +4.3845176697E-004 +7.1275234222E-003 -5.2239745855E-005 -2.0597130060E-005 -8.7963104248E-002 +2.1492004395E-002
1635000000.000 +8.2431793213E-002 -1.0119247437E-001 +4.3566226959E-003 +5.6269168854E-003 +8.7544322014E-005 -4.5794993639E-005 -9.9113464355E-002 +1.1890411377E-002
1767500000.000 +7.9940795898E-002 -1.0983276367E-001 +6.7932605743E-003 +2.1786689758E-003 -1.8384307623E-006 +5.6451186538E-005 -1.1214447021E-001 +3.2577514648E-003
1900000000.000 +7.7823638916E-002 -1.1671447754E-001 +6.8223476410E-003 -2.0501613617E-003 -7.1495771408E-005 +2.5935471058E-005 -1.1395263672E-001 -3.2768249512E-003
2032500000.000 +7.5553894043E-002 -1.2392807007E-001 +4.3616294861E-003 -5.3472518921E-003 -5.8542937040E-006 -2.1509826183E-005 -1.1404800415E-001 -2.4261474609E-002
2165000000.000 +7.4081420898E-002 -1.3241577148E-001 +7.3957443237E-004 -6.8988800049E-003 +9.5952302217E-005 -1.7106533051E-005 -1.2279129028E-001 -4.1946411133E-002
2297500000.000 +7.1014404297E-002 -1.3928985596E-001 -3.3001899719E-003 -5.9943199158E-003 +1.3813376427E-005 -3.3782795072E-005 -1.2663269043E-001 -5.3306579590E-002
2430000000.000 +6.8664550781E-002 -1.4573669434E-001 -6.0820579529E-003 -3.0925273895E-003 +2.0623207092E-005 -1.5326589346E-004 -1.2710571289E-001 -6.4743041992E-002
2562500000.000 +6.6299438477E-002 -1.5347290039E-001 -6.7827701569E-003 +6.7114830017E-004 +4.0829181671E-005 +1.2078508735E-004 -1.2609863281E-001 -7.0663452148E-002
2695000000.000 +6.1988830566E-002 -1.5984344482E-001 -5.2387714386E-003 +4.3246746063E-003 -5.8375298977E-005 +8.1662088633E-005 -1.1381912231E-001 -7.2830200195E-002
2827500000.000 +5.8296203613E-002 -1.6464996338E-001 -1.8913745880E-003 +6.4325332642E-003 -7.8264623880E-005 +5.9671700001E-005 -9.8964691162E-002 -8.2057952881E-002
2960000000.000 +5.6129455566E-002 -1.7112731934E-001 +2.1755695343E-003 +6.5727233887E-003 +4.8134475946E-005 +3.4466385841E-005 -8.9160919189E-002 -8.6864471436E-002
3092500000.000 +5.2154541016E-002 -1.7892456055E-001 +5.2630901337E-003 +4.1067600250E-003 -7.0460140705E-005 -6.5937638283E-007 -7.0789337158E-002 -8.5426330566E-002
3225000000.000 +4.6813964844E-002 -1.8475341797E-001 +6.6828727722E-003 +5.0115585327E-004 +2.9765069485E-005 -6.1187893152E-005 -5.2192687988E-002 -9.1312408447E-002
3357500000.000 +4.3685913086E-002 -1.8933105469E-001 +5.8586597443E-003 -3.1566619873E-003 +1.3794749975E-004 +9.4354152679E-005 -4.2041778564E-002 -9.2102050781E-002
3490000000.000 +4.0397644043E-002 -1.9647979736E-001 +3.1793117523E-003 -5.9788227081E-003 -1.1278688908E-004 -1.2002885342E-005 -2.8663635254E-002 -8.3129882813E-002
3622500000.000 +3.5881042480E-002 -2.0391082764E-001 -1.0368824005E-003 -6.6671371460E-003 -9.4175338745E-006 +1.5394762158E-005 -1.1470794678E-002 -7.9025268555E-002
3755000000.000 +3.1311035156E-002 -2.1019744873E-001 -4.3468475342E-003 -5.1889419556E-003 -4.2004510760E-005 -1.6978010535E-005 -6.0806274414E-003 -7.3501586914E-002
3887500000.000 +2.7297973633E-002 -2.1617889404E-001 -6.4494609833E-003 -1.8129348755E-003 +8.6415559053E-005 -2.6226043701E-006 +1.3523101807E-003 -5.6396484375E-002
4020000000.000 +2.3803710938E-002 -2.2158050537E-001 -6.3047409058E-003 +2.0952224731E-003 -3.3469870687E-005 -4.8423185945E-005 +1.3113021851E-002 -4.4456481934E-002
4152500000.000 +2.0484924316E-002 -2.2833251953E-001 -4.1108131409E-003 +5.2275657654E-003 +4.3660402298E-006 -9.5471739769E-005 +1.5493392944E-002 -3.3130645752E-002
4285000000.000 +1.5975952148E-002 -2.3478698730E-001 -3.1924247742E-004 +6.7145824432E-003 +2.2947788239E-006 +3.1365081668E-005 +1.6833305359E-002 -1.3647079468E-002
4417500000.000 +1.1276245117E-002 -2.3967742920E-001 +3.3247470856E-003 +5.6633949280E-003 +6.5002590418E-005 -3.7323683500E-005 +2.5582313538E-002 +3.3969879150E-003
4550000000.000 +8.7203979492E-003 -2.4510192871E-001 +5.9757232666E-003 +2.7427673340E-003 -1.7296522856E-005 -3.9620324969E-005 +2.9187202454E-002 +9.2926025391E-003
4682500000.000 +5.0506591797E-003 -2.5172424316E-001 +6.4117908478E-003 -9.9921226501E-004 -1.8228776753E-005 -2.7631409466E-005 +2.5880813599E-002 +2.0204544067E-002
4815000000.000 -7.6293945313E-005 -2.5718688965E-001 +4.8308372498E-003 -4.1573047638E-003 -4.8363581300E-006 +2.4901703000E-005 +3.1417846680E-002 +2.7002334595E-002
4947500000.000 -2.8686523438E-003 -2.6179504395E-001 +1.7225742340E-003 -6.2901973724E-003 -3.2307580113E-005 -3.2335519791E-006 +2.7959823608E-002 +1.9539833069E-002
5080000000.000 -5.4473876953E-003 -2.6748657227E-001 -1.9500255585E-003 -6.2913894653E-003 +9.5702707767E-006 -4.3071806431E-005 +1.3669967651E-002 +2.0292282104E-002
5212500000.000 -9.7503662109E-003 -2.7336120605E-001 -5.1391124725E-003 -4.1565895081E-003 +7.7951699495E-006 +2.0779669285E-005 +9.6807479858E-003 +2.4613380432E-002
5345000000.000 -1.3671875000E-002 -2.7719116211E-001 -6.7298412323E-003 -5.6791305542E-004 -2.4358741939E-005 +3.9422884583E-006 +6.1521530151E-003 +1.6025543213E-002
5477500000.000 -1.5533447266E-002 -2.8147888184E-001 -5.9978961945E-003 +3.3421516418E-003 +1.0068528354E-005 -1.8710270524E-006 -8.8367462158E-003 +1.0097026825E-002
5610000000.000 -1.8508911133E-002 -2.8698730469E-001 -3.0460357666E-003 +6.1383247375E-003 -7.3015689850E-007 +4.8941001296E-005 -1.4564514160E-002 +1.4661312103E-002
5742500000.000 -2.3071289063E-002 -2.9072570801E-001 +9.8824501038E-004 +6.8242549896E-003 +2.0923092961E-005 +3.1849369407E-005 -1.0941028595E-002 +6.1864852905E-003
5875000000.000 -2.6565551758E-002 -2.9345703125E-001 +4.6610832214E-003 +5.0795078278E-003 -1.2559816241E-005 -4.2205676436E-005 -1.9718170166E-002 -3.4017562866E-003
6007500000.000 -2.9037475586E-002 -2.9699707031E-001 +6.7448616028E-003 +1.5914440155E-003 +1.4931894839E-005 +2.4753622711E-005 -2.3198127747E-002 +2.4604797363E-004
6140000000.000 -3.2821655273E-002 -3.0195617676E-001 +6.3860416412E-003 -2.4583339691E-003 -2.8884038329E-005 +7.6862052083E-006 -1.5166759491E-002 -2.3355484009E-003
6272500000.000 -3.8558959961E-002 -3.0560302734E-001 +4.0001869202E-003 -5.6335926056E-003 +6.2230974436E-006 -3.4475699067E-005 -1.6092300415E-002 -1.1577606201E-002
6405000000.000 -4.3624877930E-002 -3.0700683594E-001 +1.5807151794E-004 -6.8387985229E-003 +1.3139098883E-005 +3.5151839256E-005 -1.9328117371E-002 -6.2761306763E-003
6537500000.000 -4.5578002930E-002 -3.1079101563E-001 -3.6847591400E-003 -5.7482719421E-003 -2.5674700737E-005 +5.7546421885E-005 -9.4380378723E-003 -3.0088424683E-003
6670000000.000 -4.9987792969E-002 -3.1651306152E-001 -6.2751770020E-003 -2.5842189789E-003 -4.6055763960E-005 -4.5757740736E-005 -7.9154968262E-003 -6.7338943481E-003
6802500000.000 -5.7052612305E-002 -3.2034301758E-001 -6.6866874695E-003 +1.3616085052E-003 +1.5990808606E-005 +2.4951063097E-005 -1.1087894440E-002 +3.5047531128E-004
6935000000.000 -6.1431884766E-002 -3.2106018066E-001 -4.8198699951E-003 +4.8496723175E-003 +1.7207115889E-005 +2.8509646654E-005 -6.5169334412E-003 +9.7150802612E-003
7067500000.000 -6.3507080078E-002 -3.2531738281E-001 -1.2500286102E-003 +6.6440105438E-003 +1.0710209608E-006 -2.8896145523E-005 -5.3238868713E-003 +1.0488986969E-002
7200000000.000 -6.8588256836E-002 -3.3070373535E-001 +2.7534961700E-003 +6.2897205353E-003 +2.2552907467E-005 +3.0454248190E-005 -1.4992713928E-002 +1.7603874207E-002
7332500000.000 -7.5286865234E-002 -3.3348083496E-001 +5.6838989258E-003 +3.6234855652E-003 +1.1352822185E-005 -2.8769485652E-005 -1.6842842102E-002 +3.0426979065E-002
7465000000.000 -7.8781127930E-002 -3.3598327637E-001 +6.7915916443E-003 -1.1968612671E-004 +1.7645768821E-005 +1.9130297005E-005 -2.0399093628E-002 +3.0864715576E-002
7597500000.000 -8.2534790039E-002 -3.4062194824E-001 +5.5382251740E-003 -3.9098262787E-003 +3.0813738704E-005 -1.7954036593E-005 -3.6760330200E-002 +3.3742904663E-002
7730000000.000 -8.7707519531E-002 -3.4544372559E-001 +2.3946762085E-003 -6.3633918762E-003 +3.2346695662E-005 +6.2230974436E-005 -4.7756195068E-002 +4.3804168701E-002
7862500000.000 -9.1781616211E-002 -3.4846496582E-001 -1.5563964844E-003 -6.6058635712E-003 -6.6425651312E-005 -5.8598816395E-006 -5.3726196289E-002 +4.2112350464E-002
7995000000.000 -9.4451904297E-002 -3.5166931152E-001 -4.9123764038E-003 -4.6584606171E-003 -1.1733733118E-005 +6.3027255237E-006 -7.3436737061E-002 +3.5331726074E-002
8127500000.000 -9.8007202148E-002 -3.5771179199E-001 -6.6816806793E-003 -1.0378360748E-003 +4.4321641326E-006 +1.7466954887E-005 -9.1087341309E-002 +4.0210723877E-002
8260000000.000 -1.0340881348E-001 -3.6051940918E-001 -6.1752796173E-003 +2.9053688049E-003 -1.7259269953E-005 +8.8926404715E-005 -9.5325469971E-002 +3.4183502197E-002
8392500000.000 -1.0534667969E-001 -3.6366271973E-001 -3.5099983215E-003 +5.8486461639E-003 +2.3106113076E-005 -3.4403055906E-005 -1.1015319824E-001 +1.8581390381E-002
8525000000.000 -1.0751342773E-001 -3.6752319336E-001 +2.9420852661E-004 +6.8180561066E-003 +3.1892210245E-005 +1.4454126358E-006 -1.2200927734E-001 +1.5460968018E-002
8657500000.000 -1.1082458496E-001 -3.7150573730E-001 +4.1410923004E-003 +5.5737495422E-003 +2.5413930416E-005 +3.5878270864E-005 -1.1787033081E-001 +4.2457580566E-003
8790000000.000 -1.1405944824E-001 -3.7513732910E-001 +6.5903663635E-003 +2.2106170654E-003 -3.9221718907E-005 +1.5452504158E-005 -1.1998748779E-001 -1.7101287842E-002
8922500000.000 -1.1685180664E-001 -3.7669372559E-001 +6.7129135132E-003 -1.7690658569E-003 +7.4710696936E-005 -7.1600079536E-006 -1.2221908569E-001 -3.0117034912E-002
9055000000.000 -1.1917114258E-001 -3.7998962402E-001 +4.5788288116E-003 -5.3701400757E-003 +8.1504695117E-006 +8.0894678831E-006 -1.1117553711E-001 -4.4223785400E-002
9187500000.000 -1.2231445313E-001 -3.8218688965E-001 +8.0800056458E-004 -6.9193840027E-003 +1.5884637833E-005 -6.4998865128E-005 -1.0095596313E-001 -6.6398620605E-002
9320000000.000 -1.2738037109E-001 -3.8403320313E-001 -3.2525062561E-003 -6.2360763550E-003 +1.3947486877E-005 -4.6046450734E-005 -9.3624114990E-002 -7.8979492188E-002
9452500000.000 -1.3047790527E-001 -3.8557434082E-001 -6.2341690063E-003 -3.2866001129E-003 -1.3112090528E-005 +2.8407201171E-005 -7.4161529541E-002 -8.7093353271E-002
9585000000.000 -1.3356018066E-001 -3.8832092285E-001 -7.1132183075E-003 +7.2765350342E-004 -3.9834529161E-005 +1.9595026970E-005 -5.5309295654E-002 -1.0153579712E-001
9717500000.000 -1.3909912109E-001 -3.9131164551E-001 -5.4652690887E-003 +4.6288967133E-003 +2.6253983378E-005 -2.8610229492E-005 -4.1740417480E-002 -1.0628509521E-001
9850000000.000 -1.4495849609E-001 -3.9137268066E-001 -1.9569396973E-003 +6.9272518158E-003 +2.3894011974E-005 +3.6589801311E-005 -1.8539428711E-002 -1.0247802734E-001
9982500000.000 -1.4724731445E-001 -3.9384460449E-001 +2.4502277374E-003 +6.7801475525E-003 -9.8317861557E-005 +2.1569430828E-005 +5.8670043945E-003 -1.0432052612E-001
10115000000.000 -1.5122985840E-001 -3.9698791504E-001 +5.7885646820E-003 +4.3184757233E-003 +2.2679567337E-005 -1.1491775513E-004 +1.8371582031E-002 -9.9079132080E-002
10247500000.000 -1.5731811523E-001 -3.9884948730E-001 +7.1640014648E-003 +4.2009353638E-004 +4.1345134377E-005 +2.0531937480E-005 +3.6018371582E-002 -7.9784393311E-002
10380000000.000 -1.6172790527E-001 -4.0007019043E-001 +6.1740875244E-003 -3.8666725159E-003 -4.7268345952E-005 +2.1522864699E-005 +5.7537078857E-002 -6.8630218506E-002
10512500000.000 -1.6603088379E-001 -4.0217590332E-001 +2.9745101929E-003 -6.6280364990E-003 +3.4207478166E-005 +3.8478523493E-005 +6.2021255493E-002 -5.6926727295E-002
10645000000.000 -1.7037963867E-001 -4.0353393555E-001 -1.2075901031E-003 -7.2736740112E-003 +2.9341317713E-005 -2.0330771804E-005 +6.6074371338E-002 -2.8919219971E-002
10777500000.000 -1.7446899414E-001 -4.0602111816E-001 -5.1567554474E-003 -5.1743984222E-003 -2.5613233447E-005 +1.9106082618E-005 +7.8136444092E-002 -8.1787109375E-003
10910000000.000 -1.7951965332E-001 -4.0859985352E-001 -7.2226524353E-003 -1.4100074768E-003 +3.3173710108E-006 -3.7970021367E-005 +7.2818756104E-002 +4.4708251953E-003
11042500000.000 -1.8540954590E-001 -4.1064453125E-001 -6.7453384399E-003 +2.8390884399E-003 +5.8626756072E-005 -3.4330412745E-005 +5.9471130371E-002 +3.1147003174E-002
11175000000.000 -1.8888854980E-001 -4.1342163086E-001 -4.0202140808E-003 +6.2596797943E-003 -5.8971345425E-006 +3.9679929614E-005 +5.7250976563E-002 +5.2742004395E-002
11307500000.000 -1.9232177734E-001 -4.1537475586E-001 +2.2411346436E-004 +7.4977874756E-003 -3.8128346205E-006 +2.6616267860E-005 +4.4401168823E-002 +5.8225631714E-002
11440000000.000 -1.9715881348E-001 -4.1729736328E-001 +4.5015811920E-003 +6.0014724731E-003 +9.1031193733E-005 -5.3238123655E-005 +1.8535614014E-002 +7.1998596191E-002
11572500000.000 -1.9935607910E-001 -4.2178344727E-001 +7.1375370026E-003 +2.5303363800E-003 +1.6912817955E-006 +2.7881935239E-005 +4.8408508301E-003 +8.7753295898E-002
11705000000.000 -2.0320129395E-001 -4.2338562012E-001 +7.2665214539E-003 -2.0229816437E-003 +1.5087891370E-005 -1.2340024114E-005 -9.5558166504E-003 +8.1253051758E-002
11837500000.000 -2.0709228516E-001 -4.2610168457E-001 +4.8604011536E-003 -5.7337284088E-003 -1.1768192053E-005 -3.6861747503E-005 -4.2514801025E-002 +7.7320098877E-002
11970000000.000 -2.0912170410E-001 -4.2689514160E-001 +8.0704689026E-004 -7.4996948242E-003 -3.9301812649E-007 +6.0876831412E-005 -5.8731079102E-002 +8.3568572998E-002
12102500000.000 -2.1055603027E-001 -4.2872619629E-001 -3.7198066711E-003 -6.6649913788E-003 -4.9682334065E-005 +2.9554590583E-005 -6.5471649170E-002 +6.4491271973E-002
12235000000.000 -2.1487426758E-001 -4.3067932129E-001 -6.7286491394E-003 -3.4756660461E-003 -2.2476539016E-005 -3.2346695662E-005 -9.3284606934E-002 +4.5204162598E-002
12367500000.000 -2.1662902832E-001 -4.3098449707E-001 -7.7173709869E-003 +9.9873542786E-004 +6.6597014666E-005 +2.1897256374E-005 -1.0477066040E-001 +4.3827056885E-002
12500000000.000 -2.2152709961E-001 -4.3064880371E-001 -5.4819583893E-003 +5.2709579468E-003 -5.6544318795E-005 +2.7997419238E-005 -9.7179412842E-002 +2.0065307617E-002
12632500000.000 -2.2448730469E-001 -4.3290710449E-001 -1.6593933105E-003 +7.3595046997E-003 -2.7356669307E-005 +7.7644363046E-006 -1.1069869995E-001 -1.2943267822E-002
12765000000.000 -2.2731018066E-001 -4.3371582031E-001 +2.8650760651E-003 +7.0922374725E-003 +4.9415975809E-006 +4.6182423830E-005 -1.1734390259E-001 -1.6296386719E-002
12897500000.000 -2.3107910156E-001 -4.3197631836E-001 +6.3750743866E-003 +4.1143894196E-003 +1.4359131455E-005 +3.1717121601E-005 -9.1690063477E-002 -3.4759521484E-002
13030000000.000 -2.3347473145E-001 -4.3287658691E-001 +7.6158046722E-003 -3.5119056702E-004 +8.8661909103E-006 -4.5049935579E-005 -9.0908050537E-002 -7.1750640869E-002
13162500000.000 -2.3754882813E-001 -4.3504333496E-001 +6.1075687408E-003 -4.3742656708E-003 +1.4660879970E-005 -2.6091933250E-005 -9.3048095703E-002 -7.1453094482E-002
13295000000.000 -2.4122619629E-001 -4.3562316895E-001 +2.4461746216E-003 -7.1902275085E-003 -5.1502138376E-007 +1.3652257621E-005 -6.0695648193E-002 -7.8289031982E-002
13427500000.000 -2.4636840820E-001 -4.3447875977E-001 -2.1121501923E-003 -7.1685314178E-003 -3.3333897591E-005 -2.9902905226E-005 -4.7325134277E-002 -1.0543823242E-001
13560000000.000 -2.4555969238E-001 -4.3424987793E-001 -5.8732032776E-003 -4.7948360443E-003 +3.8087368011E-005 -9.3169510365E-005 -4.7904968262E-002 -1.0172271729E-001
13692500000.000 -2.4891662598E-001 -4.3748474121E-001 -7.5290203094E-003 -6.6637992859E-004 +7.9106539488E-005 +9.2320144176E-005 -1.8066406250E-002 -8.9004516602E-002
13825000000.000 -2.5460815430E-001 -4.3797302246E-001 -6.5040588379E-003 +3.7059783936E-003 -3.3918768167E-006 -1.5048775822E-005 +4.4212341309E-003 -1.0382461548E-001
13957500000.000 -2.5839233398E-001 -4.3594360352E-001 -3.1237602234E-003 +6.7324638367E-003 -4.0348619223E-005 -1.5962868929E-005 -4.3869018555E-004 -9.6622467041E-002
14090000000.000 -2.5978088379E-001 -4.3614196777E-001 +1.3303756714E-003 +7.4434280396E-003 -6.3989311457E-005 +8.2615762949E-005 +2.1888732910E-002 -7.0892333984E-002
14222500000.000 -2.6235961914E-001 -4.3870544434E-001 +5.1767826080E-003 +5.3346157074E-003 -4.4181942940E-005 +1.7330050468E-005 +4.3880462646E-002 -7.4825286865E-002
14355000000.000 -2.6850891113E-001 -4.3904113770E-001 +7.2054862976E-003 +1.3728141785E-003 +1.2002885342E-005 -8.0913305283E-005 +3.3710479736E-002 -6.7104339600E-002
14487500000.000 -2.7095031738E-001 -4.3836975098E-001 +6.6063404083E-003 -3.0043125153E-003 +3.1540170312E-005 +5.7516619563E-005 +4.1397094727E-002 -3.5011291504E-002
14620000000.000 -2.7191162109E-001 -4.4090270996E-001 +3.6876201630E-003 -6.2451362610E-003 -6.9055706263E-005 +1.5825033188E-005 +6.0451507568E-002 -3.2484054565E-002
14752500000.000 -2.7700805664E-001 -4.4456481934E-001 -6.4253807068E-004 -7.1930885315E-003 +2.9832124710E-005 +3.0959025025E-005 +4.3106079102E-002 -3.1274795532E-002
14885000000.000 -2.8111267090E-001 -4.4427490234E-001 -4.6348571777E-003 -5.5019855499E-003 +1.3515353203E-005 -3.4239143133E-005 +3.7263870239E-002 +1.7528533936E-003
15017500000.000 -2.7987670898E-001 -4.4654846191E-001 -6.8452358246E-003 -1.9249916077E-003 -1.8380582333E-005 +5.4260715842E-005 +5.3585052490E-002 +7.1086883545E-003
15150000000.000 -2.8152465820E-001 -4.5187377930E-001 -6.5975189209E-003 +2.2847652435E-003 -9.9465250969E-005 +4.7981739044E-006 +3.3792495728E-002 -1.0833740234E-003
15282500000.000 -2.8479003906E-001 -4.5431518555E-001 -4.0752887726E-003 +5.6388378143E-003 +6.0487538576E-005 -1.1721625924E-005 +1.5525817871E-002 +2.4979591370E-002
