!  2-Port S-parameters saved by WinCal
! VAR MeasName=S-Parameters (CALIBRATED_DATA) read from VNA (C)
! VAR MeasDate=10/5/2015 5:58:20 PM
! VAR NAME=M6079_2_7_3_2_20C_1.5mA_-17.5dBm
! VAR FILENAME=M6079_2_7_3_2_20C_1.5mA_-17.5dBm.S2P
! VAR DATE=10/5/2015 5:58:20 PM
! VAR PHYS_PORTS=2,1
! VAR ObjTypeName=DATASET
! VAR IndexType=Frequency
!
# Hz S RI R 50
45000000.000 +2.2323608398E-001 -4.4631958008E-003 -1.5864372253E-003 +5.1615238190E-003 +7.5045228004E-004 +5.4755806923E-004 +2.9959678650E-002 +2.4900436401E-003
177500000.000 +2.2009277344E-001 -1.6708374023E-002 +2.5756359100E-003 +5.7187080383E-003 +2.1786987782E-004 +2.5285780430E-004 +1.6659736633E-002 +1.6903877258E-002
310000000.000 +2.2161102295E-001 -3.3111572266E-002 +4.7073364258E-003 +3.3073425293E-003 -7.1320682764E-005 -8.3308666945E-005 +3.0021667480E-002 +6.1349868774E-002
442500000.000 +2.1492767334E-001 -4.0840148926E-002 +6.8964958191E-003 -3.8671493530E-004 +7.3458999395E-005 -2.7026981115E-005 +7.2834014893E-002 +2.2354125977E-002
575000000.000 +2.0917510986E-001 -5.0598144531E-002 +5.2423477173E-003 -4.3444633484E-003 +1.6160309315E-005 +1.0989606380E-007 +2.7535438538E-002 +1.1326789856E-002
707500000.000 +2.0867156982E-001 -6.2835693359E-002 +1.8184185028E-003 -6.1573982239E-003 -4.0076673031E-005 +1.0654330254E-005 +2.3107528687E-003 +1.8605232239E-002
840000000.000 +2.0416259766E-001 -7.2189331055E-002 -2.0592212677E-003 -6.1142444611E-003 +6.2920153141E-006 -4.2110681534E-005 -1.9960403442E-002 +2.6059150696E-002
972500000.000 +2.0282745361E-001 -8.3381652832E-002 -5.1767826080E-003 -3.7505626678E-003 -3.5867094994E-005 +6.4015388489E-005 -3.5867691040E-002 +3.5720825195E-002
1105000000.000 +2.0065307617E-001 -9.5138549805E-002 -6.3672065735E-003 -2.5558471680E-004 -6.4548105001E-005 -7.8096985817E-005 -4.6785354614E-002 +3.8528442383E-002
1237500000.000 +1.9882202148E-001 -1.0623168945E-001 -5.2409172058E-003 +3.3855438232E-003 +7.3138624430E-005 +3.1549483538E-005 -5.8614730835E-002 +3.3985137939E-002
1370000000.000 +1.9512939453E-001 -1.1709594727E-001 -2.3891925812E-003 +5.7663917542E-003 -3.8765370846E-005 +6.6213309765E-005 -7.4161529541E-002 +2.7244567871E-002
1502500000.000 +1.9028472900E-001 -1.2448883057E-001 +1.3275146484E-003 +6.3321590424E-003 -7.1194022894E-005 -5.6236982346E-005 -8.8104248047E-002 +2.1652221680E-002
1635000000.000 +1.8984222412E-001 -1.3763427734E-001 +4.5554637909E-003 +4.2839050293E-003 +1.6407575458E-006 -4.1769817472E-006 -9.9353790283E-002 +1.2008666992E-002
1767500000.000 +1.8517303467E-001 -1.4733886719E-001 +6.2472820282E-003 +9.2053413391E-004 +3.9141625166E-005 +4.1782855988E-005 -1.1226272583E-001 +3.3760070801E-003
1900000000.000 +1.7899322510E-001 -1.5104675293E-001 +6.0756206512E-003 -2.8872489929E-003 -3.3386051655E-005 +2.4050474167E-005 -1.1402130127E-001 -3.1776428223E-003
2032500000.000 +1.7532348633E-001 -1.5972900391E-001 +3.3500194550E-003 -5.7756900787E-003 +7.4263662100E-005 -8.3070248365E-005 -1.1418914795E-001 -2.4230957031E-002
2165000000.000 +1.7164611816E-001 -1.6836547852E-001 -3.5381317139E-004 -6.8097114563E-003 +2.7970410883E-005 +2.2181309760E-005 -1.2311935425E-001 -4.1851043701E-002
2297500000.000 +1.6461181641E-001 -1.7517852783E-001 -4.0936470032E-003 -5.6533813477E-003 -5.1368027925E-005 +2.0332634449E-005 -1.2685394287E-001 -5.3253173828E-002
2430000000.000 +1.6026306152E-001 -1.8267059326E-001 -6.4475536346E-003 -2.5038719177E-003 +9.9256634712E-005 -1.1733546853E-004 -1.2724304199E-001 -6.4872741699E-002
2562500000.000 +1.5693664551E-001 -1.9206237793E-001 -6.7644119263E-003 +1.7278194427E-003 +7.2520226240E-005 +5.7473778725E-005 -1.2619781494E-001 -7.0587158203E-002
2695000000.000 +1.4999389648E-001 -1.9977569580E-001 -4.9405097961E-003 +5.0194263458E-003 -1.0877102613E-004 +5.0041824579E-005 -1.1401748657E-001 -7.2990417480E-002
2827500000.000 +1.4538574219E-001 -2.0600891113E-001 -1.2223720551E-003 +6.9384574890E-003 -3.6610290408E-005 -2.9467046261E-005 -9.8953247070E-002 -8.1844329834E-002
2960000000.000 +1.4332580566E-001 -2.1432495117E-001 +3.0012130737E-003 +6.4477920532E-003 +1.5394389629E-004 -3.8638710976E-005 -8.9302062988E-002 -8.6711883545E-002
3092500000.000 +1.3819885254E-001 -2.2362518311E-001 +6.2515735626E-003 +3.6358833313E-003 -2.0645558834E-005 +8.3573162556E-005 -7.1083068848E-002 -8.5552215576E-002
3225000000.000 +1.3182830811E-001 -2.3085021973E-001 +7.1451663971E-003 -5.3596496582E-004 -1.6026198864E-004 +1.6652047634E-005 -5.2242279053E-002 -9.1293334961E-002
3357500000.000 +1.2890625000E-001 -2.3805999756E-001 +5.4924488068E-003 -4.5564174652E-003 -2.5707297027E-005 +9.6634030342E-006 -4.2297363281E-002 -9.2128753662E-002
3490000000.000 +1.2470245361E-001 -2.4741363525E-001 +1.9366741180E-003 -6.9708824158E-003 -4.6263448894E-006 +1.3769604266E-005 -2.8926849365E-002 -8.3293914795E-002
3622500000.000 +1.1851501465E-001 -2.5622558594E-001 -2.4139881134E-003 -6.9313049316E-003 +4.1615217924E-005 +1.7888844013E-005 -1.1508941650E-002 -7.9143524170E-002
3755000000.000 +1.1260986328E-001 -2.6518249512E-001 -5.9709548950E-003 -4.1279792786E-003 +3.8603320718E-005 -1.3649463654E-005 -6.1988830566E-003 -7.3734283447E-002
3887500000.000 +1.0736083984E-001 -2.7378845215E-001 -7.2822570801E-003 +3.8623809814E-005 +4.2540952563E-005 +7.8640878201E-006 +1.4381408691E-003 -5.6499481201E-002
4020000000.000 +1.0160827637E-001 -2.7978515625E-001 -6.0212612152E-003 +4.1956901550E-003 -7.6998025179E-005 +1.9099563360E-005 +1.3084411621E-002 -4.4603347778E-002
4152500000.000 +9.6801757813E-002 -2.8784179688E-001 -2.5186538696E-003 +6.8087577820E-003 +5.6017190218E-005 -1.0474026203E-004 +1.5649795532E-002 -3.3224105835E-002
4285000000.000 +9.1217041016E-002 -2.9626464844E-001 +1.8360614777E-003 +6.9832801819E-003 +1.0516494513E-005 +7.9471617937E-005 +1.6966819763E-002 -1.3874053955E-002
4417500000.000 +8.5098266602E-002 -3.0230712891E-001 +5.5415630341E-003 +4.7142505646E-003 -4.3381005526E-005 -1.4994293451E-006 +2.5572776794E-002 +3.2739639282E-003
4550000000.000 +8.1863403320E-002 -3.0891418457E-001 +7.4038505554E-003 +6.3776969910E-004 +3.2747164369E-005 +1.3740733266E-005 +2.9296875000E-002 +9.1524124146E-003
4682500000.000 +7.8048706055E-002 -3.1974792480E-001 +6.0737133026E-003 -4.1720867157E-003 +5.9386715293E-005 +4.2388215661E-005 +2.6111602783E-002 +2.0104408264E-002
4815000000.000 +7.2448730469E-002 -3.2827758789E-001 +2.3453235626E-003 -7.1218013763E-003 -5.7112425566E-005 +6.9979578257E-006 +3.1593322754E-002 +2.6948928833E-002
4947500000.000 +6.9183349609E-002 -3.3546447754E-001 -2.4344921112E-003 -7.1990489960E-003 +2.8441660106E-005 +2.7818605304E-006 +2.8274536133E-002 +1.9354820251E-002
5080000000.000 +6.4849853516E-002 -3.4808349609E-001 -6.5529346466E-003 -3.6532878876E-003 +3.8927420974E-005 -5.2191317081E-005 +1.3949394226E-002 +2.0136833191E-002
5212500000.000 +5.7708740234E-002 -3.5800170898E-001 -7.2739124298E-003 +1.3108253479E-003 +2.6778317988E-005 +1.1877156794E-005 +9.8972320557E-003 +2.4542808533E-002
5345000000.000 +5.2886962891E-002 -3.6294555664E-001 -5.4128170013E-003 +5.5217742920E-003 +8.3819031715E-008 -4.3423846364E-005 +6.3009262085E-003 +1.5980720520E-002
5477500000.000 +4.7332763672E-002 -3.7133789063E-001 -5.6719779968E-004 +7.5385570526E-003 +7.3302537203E-005 -1.3921409845E-005 -8.5501670837E-003 +9.9930763245E-003
5610000000.000 +3.9474487305E-002 -3.8031005859E-001 +4.1356086731E-003 +5.8679580688E-003 +1.6168691218E-005 -1.1378899217E-005 -1.4388561249E-002 +1.4705181122E-002
5742500000.000 +3.2791137695E-002 -3.8525390625E-001 +7.0428848267E-003 +2.2985935211E-003 +2.5840476155E-005 +1.8651597202E-005 -1.0668754578E-002 +6.2103271484E-003
5875000000.000 +2.6931762695E-002 -3.8957214355E-001 +7.1127414703E-003 -2.4244785309E-003 +1.7005018890E-005 -5.5385753512E-006 -1.9580841064E-002 -3.3340454102E-003
6007500000.000 +1.9226074219E-002 -3.9523315430E-001 +3.6790370941E-003 -6.1745643616E-003 -1.1031515896E-005 +1.9549392164E-005 -2.2928237915E-002 +3.9672851563E-004
6140000000.000 +1.1611938477E-002 -4.0089416504E-001 -7.1382522583E-004 -7.0500373840E-003 -3.2950192690E-005 +1.3839453459E-005 -1.5068054199E-002 -2.1715164185E-003
6272500000.000 +4.7149658203E-003 -4.0515136719E-001 -4.8608779907E-003 -5.6011676788E-003 -1.5061348677E-005 +2.8347596526E-005 -1.5921592712E-002 -1.1219978333E-002
6405000000.000 -4.5013427734E-003 -4.0702819824E-001 -7.0047378540E-003 -1.5075206757E-003 +2.3935921490E-005 +1.0459683836E-005 -1.9267082214E-002 -6.1244964600E-003
6537500000.000 -1.0940551758E-002 -4.1047668457E-001 -6.1459541321E-003 +2.9926300049E-003 +1.3572163880E-005 +1.9498169422E-005 -9.4652175903E-003 -2.7723312378E-003
6670000000.000 -1.6326904297E-002 -4.1639709473E-001 -3.5123825073E-003 +6.3111782074E-003 +3.4556724131E-006 -1.1711381376E-005 -7.8935623169E-003 -6.5279006958E-003
6802500000.000 -2.7648925781E-002 -4.1984558105E-001 +9.0765953064E-004 +6.7427158356E-003 +1.7106533051E-005 -6.4037740231E-006 -1.1205196381E-002 +5.0735473633E-004
6935000000.000 -3.7094116211E-002 -4.1864013672E-001 +4.5218467712E-003 +4.3213367462E-003 -2.9763206840E-005 +9.7816810012E-006 -6.6657066345E-003 +9.8505020142E-003
7067500000.000 -4.0313720703E-002 -4.2291259766E-001 +6.4516067505E-003 +1.1274814606E-003 -8.6948275566E-006 -7.3451548815E-005 -5.3281784058E-003 +1.0638713837E-002
7200000000.000 -4.6493530273E-002 -4.2849731445E-001 +6.3295364380E-003 -2.7675628662E-003 +7.8730285168E-005 -1.1570751667E-005 -1.5151023865E-002 +1.7662048340E-002
7332500000.000 -5.7128906250E-002 -4.2936706543E-001 +3.0653476715E-003 -5.6014060974E-003 +6.1850994825E-005 +5.2053481340E-005 -1.7069816589E-002 +3.0612945557E-002
7465000000.000 -6.2530517578E-002 -4.3070983887E-001 -6.3037872314E-004 -6.2375068665E-003 -6.4037740231E-005 +6.8135559559E-006 -2.0431518555E-002 +3.0875205994E-002
7597500000.000 -6.6055297852E-002 -4.3652343750E-001 -4.2881965637E-003 -5.5868625641E-003 +6.4283609390E-005 -1.3180077076E-005 -3.6819458008E-002 +3.3868789673E-002
7730000000.000 -7.5027465820E-002 -4.3853759766E-001 -6.0803890228E-003 -1.5270709991E-003 -6.2789767981E-006 +1.2246426195E-005 -4.7904968262E-002 +4.3836593628E-002
7862500000.000 -8.2168579102E-002 -4.3872070313E-001 -5.3100585938E-003 +2.2463798523E-003 -4.5653432608E-005 -3.7394464016E-005 -5.3831100464E-002 +4.2089462280E-002
7995000000.000 -8.4777832031E-002 -4.4306945801E-001 -3.6714076996E-003 +5.1474571228E-003 +2.0874664187E-005 -4.6892091632E-005 -7.3474884033E-002 +3.5297393799E-002
8127500000.000 -9.0042114258E-002 -4.4801330566E-001 -1.2636184692E-005 +6.3493251801E-003 +3.6582350731E-005 +2.1401792765E-006 -9.1213226318E-002 +4.0081024170E-002
8260000000.000 -9.7579956055E-002 -4.4783020020E-001 +3.3998489380E-003 +4.6176910400E-003 -8.3658844233E-005 +1.2665987015E-006 -9.5348358154E-002 +3.4339904785E-002
8392500000.000 -1.0037231445E-001 -4.5097351074E-001 +5.5990219116E-003 +2.1235942841E-003 +2.7352944016E-005 -2.0380131900E-005 -1.1003875732E-001 +1.8642425537E-002
8525000000.000 -1.0356140137E-001 -4.5422363281E-001 +6.0167312622E-003 -1.3384819031E-003 -3.4948810935E-005 +1.1088326573E-005 -1.2204360962E-001 +1.5514373779E-002
8657500000.000 -1.0867309570E-001 -4.5518493652E-001 +3.5712718964E-003 -4.1909217834E-003 -4.8354268074E-005 +4.1419640183E-005 -1.1787033081E-001 +4.3373107910E-003
8790000000.000 -1.1288452148E-001 -4.5765686035E-001 +5.1760673523E-004 -5.4738521576E-003 +4.7493726015E-005 -3.9279460907E-005 -1.1988830566E-001 -1.6990661621E-002
8922500000.000 -1.1654663086E-001 -4.5930480957E-001 -2.5820732117E-003 -5.0354003906E-003 -1.9000843167E-005 +4.6635046601E-005 -1.2218093872E-001 -2.9960632324E-002
9055000000.000 -1.2022399902E-001 -4.6047973633E-001 -4.7721862793E-003 -2.4209022522E-003 -1.7585232854E-005 +1.5992671251E-005 -1.1123657227E-001 -4.4078826904E-002
9187500000.000 -1.2380981445E-001 -4.6131896973E-001 -5.1717758179E-003 +6.7162513733E-004 +1.7827376723E-005 -5.1666051149E-005 -1.0105895996E-001 -6.6146850586E-002
9320000000.000 -1.2966918945E-001 -4.6282958984E-001 -4.0688514709E-003 +3.4871101379E-003 -6.6254287958E-006 +3.9450824261E-005 -9.3734741211E-002 -7.8765869141E-002
9452500000.000 -1.3372802734E-001 -4.6331787109E-001 -1.3988018036E-003 +5.0392150879E-003 -3.8899481297E-005 +5.9921294451E-005 -7.4344635010E-002 -8.7032318115E-002
9585000000.000 -1.3775634766E-001 -4.6391296387E-001 +1.6784667969E-003 +4.5039653778E-003 +1.2628734112E-006 -1.7858110368E-005 -5.5488586426E-002 -1.0140991211E-001
9717500000.000 -1.4389038086E-001 -4.6662902832E-001 +4.0450096130E-003 +2.9115676880E-003 +5.8850273490E-006 -2.2451393306E-005 -4.1992187500E-002 -1.0617065430E-001
9850000000.000 -1.5068054199E-001 -4.6543884277E-001 +4.9073696136E-003 +5.0783157349E-005 -4.2956322432E-005 +7.6722353697E-005 -1.8795013428E-002 -1.0241317749E-001
9982500000.000 -1.5341186523E-001 -4.6611022949E-001 +3.7744045258E-003 -2.5538206100E-003 -5.5946409702E-005 +2.7831643820E-005 +5.4855346680E-003 -1.0431289673E-001
10115000000.000 -1.5808105469E-001 -4.6838378906E-001 +1.7585754395E-003 -4.1391849518E-003 +6.7465007305E-006 -2.0270235837E-005 +1.7894744873E-002 -9.9124908447E-002
10247500000.000 -1.6459655762E-001 -4.6919250488E-001 -8.6808204651E-004 -4.3895244598E-003 -5.7388097048E-006 +3.1711533666E-005 +3.5793304443E-002 -8.0070495605E-002
10380000000.000 -1.6932678223E-001 -4.6867370605E-001 -2.9820203781E-003 -2.8202533722E-003 -1.3533048332E-005 +2.0291656256E-005 +5.7300567627E-002 -6.9011688232E-002
10512500000.000 -1.7422485352E-001 -4.6997070313E-001 -4.0962696075E-003 -6.5016746521E-004 +2.3242086172E-005 -7.9602003098E-005 +6.1946868896E-002 -5.7252883911E-002
10645000000.000 -1.7930603027E-001 -4.7047424316E-001 -3.7729740143E-003 +1.6636848450E-003 +3.5548582673E-005 -4.5031309128E-005 +6.6017150879E-002 -2.9365539551E-002
10777500000.000 -1.8362426758E-001 -4.7131347656E-001 -1.9322633743E-003 +3.2927989960E-003 -3.5071745515E-005 +3.4624710679E-005 +7.8151702881E-002 -8.5678100586E-003
10910000000.000 -1.8870544434E-001 -4.7288513184E-001 +1.7118453979E-004 +3.6315917969E-003 -5.2284449339E-006 +1.1498574167E-005 +7.2807312012E-002 +3.8909912109E-003
11042500000.000 -1.9515991211E-001 -4.7445678711E-001 +2.2011995316E-003 +2.9199123383E-003 +7.8417360783E-006 -3.4814700484E-005 +5.9671401978E-002 +3.0550003052E-002
11175000000.000 -1.9917297363E-001 -4.7555541992E-001 +3.3177137375E-003 +1.2165307999E-003 -6.6082924604E-005 -3.7211924791E-005 +5.7659149170E-002 +5.2383422852E-002
11307500000.000 -2.0236206055E-001 -4.7628784180E-001 +3.1903982162E-003 -7.9882144928E-004 -1.0748393834E-005 +1.7043203115E-006 +4.4946670532E-002 +5.8034896851E-002
11440000000.000 -2.0745849609E-001 -4.7770690918E-001 +2.1235942841E-003 -2.4664402008E-003 +6.2629580498E-005 -2.7664005756E-005 +1.9016265869E-002 +7.1708679199E-002
11572500000.000 -2.1026611328E-001 -4.8106384277E-001 +4.0435791016E-004 -3.2173395157E-003 +4.8168003559E-005 +4.6296045184E-005 +5.4283142090E-003 +8.7581634521E-002
11705000000.000 -2.1411132813E-001 -4.8144531250E-001 -1.3217926025E-003 -2.7097463608E-003 -3.3576041460E-005 +4.0799379349E-005 -9.0866088867E-003 +8.1378936768E-002
11837500000.000 -2.1775817871E-001 -4.8333740234E-001 -2.6007890701E-003 -1.5075206757E-003 +5.5449083447E-005 -1.4947727323E-005 -4.1984558105E-002 +7.7423095703E-002
11970000000.000 -2.1995544434E-001 -4.8324584961E-001 -2.9222965240E-003 +1.3613700867E-004 +4.5582652092E-005 +5.6680291891E-006 -5.8227539063E-002 +8.3759307861E-002
12102500000.000 -2.2149658203E-001 -4.8410034180E-001 -2.2957324982E-003 +1.6336441040E-003 -5.1999464631E-005 +2.0330771804E-005 -6.5090179443E-002 +6.4903259277E-002
12235000000.000 -2.2586059570E-001 -4.8512268066E-001 -9.3984603882E-004 +2.6266574860E-003 -2.1051615477E-005 -3.2911077142E-005 -9.2952728271E-002 +4.5742034912E-002
12367500000.000 -2.2789001465E-001 -4.8498535156E-001 +5.9390068054E-004 +2.6816129684E-003 +2.7033500373E-005 +2.5227665901E-005 -1.0451889038E-001 +4.4429779053E-002
12500000000.000 -2.3255920410E-001 -4.8338317871E-001 +1.9699335098E-003 +1.6468763351E-003 -6.6857784986E-005 +3.9171427488E-005 -9.7103118896E-002 +2.0736694336E-002
12632500000.000 -2.3501586914E-001 -4.8512268066E-001 +2.4677515030E-003 +3.1912326813E-004 -6.3613057137E-005 -8.3893537521E-006 -1.1081314087E-001 -1.2271881104E-002
12765000000.000 -2.3825073242E-001 -4.8506164551E-001 +2.2542476654E-003 -1.0945796967E-003 -1.9751489162E-005 +1.6354024410E-005 -1.1762619019E-001 -1.5735626221E-002
12897500000.000 -2.4150085449E-001 -4.8257446289E-001 +1.1849403381E-003 -2.1243095398E-003 -2.9521062970E-005 -1.3912096620E-005 -9.1945648193E-002 -3.4305572510E-002
13030000000.000 -2.4348449707E-001 -4.8312377930E-001 -2.1016597748E-004 -2.3090839386E-003 -3.0517578125E-005 -5.0388276577E-005 -9.1514587402E-002 -7.1311950684E-002
13162500000.000 -2.4774169922E-001 -4.8449707031E-001 -1.3359785080E-003 -1.7650127411E-003 +5.8166682720E-005 -3.0281022191E-005 -9.3761444092E-002 -7.1155548096E-002
13295000000.000 -2.5140380859E-001 -4.8452758789E-001 -2.0729303360E-003 -6.4384937286E-004 -2.1331012249E-005 +4.9287453294E-005 -6.1359405518E-002 -7.8205108643E-002
13427500000.000 -2.5593566895E-001 -4.8257446289E-001 -1.9912719727E-003 +5.8841705322E-004 -4.3384730816E-005 -1.6447156668E-005 -4.7843933105E-002 -1.0549545288E-001
13560000000.000 -2.5529479980E-001 -4.8223876953E-001 -1.2963414192E-003 +1.6040205956E-003 +4.3097883463E-005 -1.2056529522E-004 -4.8637390137E-002 -1.0182952881E-001
13692500000.000 -2.5863647461E-001 -4.8461914063E-001 -1.9413232803E-004 +1.8907189369E-003 -6.9458037615E-006 +3.8685277104E-005 -1.8566131592E-002 -8.9229583740E-002
13825000000.000 -2.6351928711E-001 -4.8464965820E-001 +9.2566013336E-004 +1.7170906067E-003 -9.3851238489E-005 +2.5138258934E-005 +4.0359497070E-003 -1.0433578491E-001
13957500000.000 -2.6766967773E-001 -4.8223876953E-001 +1.5566349030E-003 +8.8751316071E-004 +5.3130090237E-005 -8.2872807980E-005 -9.0789794922E-004 -9.7026824951E-002
14090000000.000 -2.6870727539E-001 -4.8205566406E-001 +1.6450285912E-003 -4.2021274567E-005 +3.4146010876E-005 +1.4466047287E-004 +2.1553039551E-002 -7.1563720703E-002
14222500000.000 -2.7079772949E-001 -4.8405456543E-001 +1.3793110847E-003 -9.1439485550E-004 -1.5255995095E-005 +1.8058344722E-005 +4.3750762939E-002 -7.5191497803E-002
14355000000.000 -2.7699279785E-001 -4.8367309570E-001 +5.8662891388E-004 -1.6039609909E-003 -3.0666589737E-005 +5.0116330385E-005 +3.3878326416E-002 -6.7691802979E-002
14487500000.000 -2.7888488770E-001 -4.8278808594E-001 -3.5804510117E-004 -1.6779899597E-003 +9.9316239357E-005 -2.1599233150E-005 +4.1490554810E-002 -3.5469055176E-002
14620000000.000 -2.7925109863E-001 -4.8503112793E-001 -1.1935830116E-003 -1.1456608772E-003 -2.3528933525E-005 +5.2930787206E-005 +6.0787200928E-002 -3.2850265503E-002
14752500000.000 -2.8446960449E-001 -4.8841857910E-001 -1.5232563019E-003 -2.2107362747E-004 -6.7409127951E-005 -5.7566910982E-005 +4.3518066406E-002 -3.1503677368E-002
14885000000.000 -2.8811645508E-001 -4.8748779297E-001 -1.4355778694E-003 +6.4259767532E-004 +1.0359287262E-004 +6.3814222813E-006 +3.7824630737E-002 +1.5487670898E-003
15017500000.000 -2.8620910645E-001 -4.8976135254E-001 -8.2689523697E-004 +1.2561678886E-003 -2.3728236556E-005 -5.5857002735E-005 +5.3749084473E-002 +6.8798065186E-003
15150000000.000 -2.8782653809E-001 -4.9513244629E-001 +1.0609626770E-005 +1.5022754669E-003 -8.1267207861E-005 +1.7292797565E-005 +3.4143447876E-002 -9.5748901367E-004
15282500000.000 -2.9096984863E-001 -4.9719238281E-001 +6.5284967422E-004 +1.0491609573E-003 +1.0713934898E-004 -3.9558857679E-005 +1.5817642212E-002 +2.5194168091E-002
