!  2-Port S-parameters saved by WinCal
! VAR MeasName=S-Parameters (CALIBRATED_DATA) read from VNA (C)
! VAR MeasDate=10/5/2015 6:01:24 PM
! VAR NAME=M6079_2_7_3_2_20C_2.9mA_-17.5dBm
! VAR FILENAME=M6079_2_7_3_2_20C_2.9mA_-17.5dBm.S2P
! VAR DATE=10/5/2015 6:01:24 PM
! VAR PHYS_PORTS=2,1
! VAR ObjTypeName=DATASET
! VAR IndexType=Frequency
!
# Hz S RI R 50
45000000.000 +1.4075469971E-001 -1.0299682617E-003 -2.0303726196E-003 +9.1419219971E-003 +1.1414289474E-004 -5.9980154037E-004 +2.8065681458E-002 +3.7574768066E-003
177500000.000 +1.4041900635E-001 -1.0520935059E-002 +2.4566650391E-003 +6.6919326782E-003 +1.5392899513E-005 +1.9151717424E-004 +1.6354560852E-002 +1.6835212708E-002
310000000.000 +1.4056396484E-001 -1.9737243652E-002 +5.6905746460E-003 +4.4200420380E-003 -4.6744942665E-005 -9.4998627901E-005 +3.0029296875E-002 +6.1325073242E-002
442500000.000 +1.4030456543E-001 -2.9418945313E-002 +8.0809593201E-003 +1.6212463379E-005 -2.8826296329E-005 -8.0581754446E-005 +7.2799682617E-002 +2.2380828857E-002
575000000.000 +1.3967132568E-001 -3.9558410645E-002 +6.2305927277E-003 -4.3706893921E-003 +3.5064294934E-006 +1.2000091374E-005 +2.7505874634E-002 +1.1176109314E-002
707500000.000 +1.3842010498E-001 -4.8400878906E-002 +2.5942325592E-003 -7.0502758026E-003 -3.5541132092E-005 -5.0194561481E-005 +2.3937225342E-003 +1.8548965454E-002
840000000.000 +1.3764953613E-001 -5.8349609375E-002 -1.7397403717E-003 -7.1325302124E-003 +6.1839818954E-005 +2.3793429136E-005 -1.9994735718E-002 +2.6045799255E-002
972500000.000 +1.3668823242E-001 -6.7642211914E-002 -5.4416656494E-003 -4.9726963043E-003 +3.3358111978E-005 +5.8397650719E-005 -3.5810470581E-002 +3.5860061646E-002
1105000000.000 +1.3469696045E-001 -7.7339172363E-002 -7.1058273315E-003 -1.1770725250E-003 -3.1666830182E-005 -5.7367607951E-005 -4.6724319458E-002 +3.8486480713E-002
1237500000.000 +1.3299560547E-001 -8.6112976074E-002 -6.5045356750E-003 +3.1175613403E-003 +8.1248581409E-006 +4.0508806705E-005 -5.8683395386E-002 +3.3981323242E-002
1370000000.000 +1.3069915771E-001 -9.5687866211E-002 -3.6084651947E-003 +6.1867237091E-003 +1.7039477825E-005 -1.3877637684E-005 -7.4165344238E-002 +2.7374267578E-002
1502500000.000 +1.2863159180E-001 -1.0438537598E-001 +3.1828880310E-004 +7.1434974670E-003 +1.6722828150E-005 -5.9803947806E-005 -8.8073730469E-002 +2.1671295166E-002
1635000000.000 +1.2715148926E-001 -1.1338806152E-001 +4.2693614960E-003 +5.7017803192E-003 +3.2372772694E-006 -6.2920153141E-005 -9.9273681641E-002 +1.1932373047E-002
1767500000.000 +1.2421798706E-001 -1.2299728394E-001 +6.7546367645E-003 +2.2585391998E-003 +4.2852014303E-005 +2.7537345886E-005 -1.1222076416E-001 +3.3111572266E-003
1900000000.000 +1.2172698975E-001 -1.3077545166E-001 +6.7083835602E-003 -2.0143985748E-003 -3.6414712667E-005 +8.6631625891E-006 -1.1412429810E-001 -3.1204223633E-003
2032500000.000 +1.1901092529E-001 -1.3878631592E-001 +4.4882297516E-003 -5.4011344910E-003 +7.1484595537E-005 -3.9339065552E-006 -1.1421203613E-001 -2.4082183838E-002
2165000000.000 +1.1703491211E-001 -1.4806365967E-001 +7.5268745422E-004 -6.8707466125E-003 +2.5538727641E-005 +2.0600855350E-006 -1.2309265137E-001 -4.1801452637E-002
2297500000.000 +1.1356353760E-001 -1.5592193604E-001 -3.2207965851E-003 -6.1788558960E-003 -7.5060874224E-005 -3.9793550968E-005 -1.2685394287E-001 -5.3253173828E-002
2430000000.000 +1.1067199707E-001 -1.6301727295E-001 -6.1285495758E-003 -3.2389163971E-003 +7.9236924648E-005 -3.8772821426E-005 -1.2742614746E-001 -6.4888000488E-002
2562500000.000 +1.0803222656E-001 -1.7160034180E-001 -6.7553520203E-003 +6.5445899963E-004 +4.1054561734E-005 -4.0158629417E-005 -1.2636566162E-001 -7.0602416992E-002
2695000000.000 +1.0317230225E-001 -1.7859649658E-001 -5.2528381348E-003 +4.3416023254E-003 +7.5660645962E-006 -6.3475221395E-005 -1.1418914795E-001 -7.2910308838E-002
2827500000.000 +9.9334716797E-002 -1.8424224854E-001 -1.7509460449E-003 +6.5913200378E-003 -3.5395845771E-005 -9.2238187790E-006 -9.8999023438E-002 -8.1935882568E-002
2960000000.000 +9.6542358398E-002 -1.9139099121E-001 +2.1336078644E-003 +6.3748359680E-003 +5.9410929680E-005 +7.3835253716E-005 -8.9241027832E-002 -8.6708068848E-002
3092500000.000 +9.2033386230E-002 -1.9997406006E-001 +5.2831172943E-003 +4.2102336884E-003 -2.1137297153E-005 +1.0060518980E-004 -7.1128845215E-002 -8.5586547852E-002
3225000000.000 +8.6135864258E-002 -2.0626831055E-001 +6.6473484039E-003 +5.3596496582E-004 -6.3840299845E-005 -2.6136636734E-005 -5.2223205566E-002 -9.1236114502E-002
3357500000.000 +8.2664489746E-002 -2.1147918701E-001 +5.7790279388E-003 -3.3066272736E-003 +6.0919672251E-005 -7.4241310358E-005 -4.2121887207E-002 -9.2174530029E-002
3490000000.000 +7.8704833984E-002 -2.1954345703E-001 +3.0260086060E-003 -5.9986114502E-003 +1.3073533773E-004 +8.3483755589E-005 -2.8808593750E-002 -8.3187103271E-002
3622500000.000 +7.3562622070E-002 -2.2741699219E-001 -8.5210800171E-004 -6.7541599274E-003 -3.4667551517E-005 -6.2439590693E-005 -1.1604309082E-002 -7.9196929932E-002
3755000000.000 +6.8496704102E-002 -2.3429107666E-001 -4.3945312500E-003 -5.0575733185E-003 +4.2535364628E-005 +2.4892389774E-005 -5.9852600098E-003 -7.3638916016E-002
3887500000.000 +6.3941955566E-002 -2.4086761475E-001 -6.5667629242E-003 -1.8424987793E-003 -1.1175870895E-006 +5.3387135267E-005 +1.3771057129E-003 -5.6468963623E-002
4020000000.000 +5.9608459473E-002 -2.4682617188E-001 -6.5469741821E-003 +2.1340847015E-003 -2.6143155992E-005 -2.9316172004E-005 +1.3059616089E-002 -4.4528961182E-002
4152500000.000 +5.5648803711E-002 -2.5396728516E-001 -4.1341781616E-003 +5.3741931915E-003 +1.2822449207E-005 -1.6028061509E-006 +1.5577316284E-002 -3.3075332642E-002
4285000000.000 +5.0720214844E-002 -2.6107788086E-001 -3.9672851563E-004 +6.8509578705E-003 +1.4756806195E-005 +2.9207207263E-005 +1.6953468323E-002 -1.3855934143E-002
4417500000.000 +4.5471191406E-002 -2.6651000977E-001 +3.3476352692E-003 +5.8681964874E-003 -5.0855800509E-005 +1.9324943423E-005 +2.5656700134E-002 +3.1480789185E-003
4550000000.000 +4.2236328125E-002 -2.7233886719E-001 +6.0772895813E-003 +2.9015541077E-003 -2.6792287827E-005 -3.8407742977E-005 +2.9329299927E-002 +9.2039108276E-003
4682500000.000 +3.8055419922E-002 -2.7938842773E-001 +6.6626071930E-003 -9.2673301697E-004 +1.3170763850E-005 +4.9436464906E-005 +2.6031494141E-002 +2.0076751709E-002
4815000000.000 +3.2318115234E-002 -2.8532409668E-001 +5.0747394562E-003 -4.3363571167E-003 -3.3283606172E-005 +5.6440010667E-005 +3.1583786011E-002 +2.6954650879E-002
4947500000.000 +2.9113769531E-002 -2.9017639160E-001 +2.0062923431E-003 -6.4775943756E-003 -2.2416003048E-005 -7.2224065661E-006 +2.8115272522E-002 +1.9464492798E-002
5080000000.000 +2.6107788086E-002 -2.9638671875E-001 -1.9991397858E-003 -6.5848827362E-003 +8.0708414316E-005 +2.4206936359E-005 +1.3919830322E-002 +2.0139694214E-002
5212500000.000 +2.1179199219E-002 -3.0262756348E-001 -5.3741931915E-003 -4.3599605560E-003 +4.5148655772E-005 -1.1900439858E-005 +9.8609924316E-003 +2.4533271790E-002
5345000000.000 +1.6769409180E-002 -3.0659484863E-001 -6.9458484650E-003 -6.9046020508E-004 -3.5742297769E-005 -1.6150996089E-005 +6.3247680664E-003 +1.6017913818E-002
5477500000.000 +1.4541625977E-002 -3.1124877930E-001 -6.1321258545E-003 +3.4468173981E-003 +3.1907111406E-005 +8.6538493633E-006 -8.4958076477E-003 +1.0056018829E-002
5610000000.000 +1.0803222656E-002 -3.1738281250E-001 -3.0951499939E-003 +6.3714981079E-003 +2.3758038878E-005 +5.1382929087E-005 -1.4379978180E-002 +1.4645576477E-002
5742500000.000 +5.6762695313E-003 -3.2122802734E-001 +1.0094642639E-003 +7.0827007294E-003 -2.4525448680E-005 -5.9287995100E-005 -1.0792255402E-002 +6.2432289124E-003
5875000000.000 +1.8920898438E-003 -3.2431030273E-001 +4.8041343689E-003 +5.3339004517E-003 -2.0490027964E-005 -1.8253922462E-006 -1.9558906555E-002 -3.3798217773E-003
6007500000.000 -1.1444091797E-003 -3.2823181152E-001 +6.9787502289E-003 +1.6551017761E-003 +1.2241303921E-005 +4.0939077735E-005 -2.3013114929E-002 +3.2138824463E-004
6140000000.000 -5.5236816406E-003 -3.3367919922E-001 +6.6051483154E-003 -2.6247501373E-003 +2.0815059543E-006 +1.7076730728E-005 -1.5048980713E-002 -2.1529197693E-003
6272500000.000 -1.1672973633E-002 -3.3755493164E-001 +4.0056705475E-003 -5.8860778809E-003 +2.9996968806E-005 -2.2824853659E-005 -1.5909194946E-002 -1.1351585388E-002
6405000000.000 -1.7135620117E-002 -3.3944702148E-001 +4.2915344238E-005 -7.1101188660E-003 +5.9679150581E-005 -2.7859583497E-005 -1.9252777100E-002 -6.1130523682E-003
6537500000.000 -1.9638061523E-002 -3.4347534180E-001 -3.9765834808E-003 -5.8975219727E-003 -4.5018270612E-005 -3.3706426620E-005 -9.4962120056E-003 -2.8119087219E-003
6670000000.000 -2.4307250977E-002 -3.4930419922E-001 -6.5379142761E-003 -2.6042461395E-003 -2.1141022444E-005 -6.2674283981E-005 -7.8663825989E-003 -6.5922737122E-003
6802500000.000 -3.2043457031E-002 -3.5360717773E-001 -6.9184303284E-003 +1.4460086823E-003 -5.4184347391E-006 +3.8076192141E-005 -1.1154651642E-002 +4.6682357788E-004
6935000000.000 -3.7139892578E-002 -3.5462951660E-001 -4.8480033875E-003 +5.1064491272E-003 -2.1159648895E-005 +2.9467046261E-006 -6.5793991089E-003 +9.8171234131E-003
7067500000.000 -3.9489746094E-002 -3.5881042480E-001 -1.1463165283E-003 +6.9589614868E-003 -3.5515055060E-005 -2.5693327188E-005 -5.3896903992E-003 +1.0603427887E-002
7200000000.000 -4.5181274414E-002 -3.6456298828E-001 +2.8867721558E-003 +6.4194202423E-003 +3.3756718040E-005 +3.7133693695E-005 -1.5039443970E-002 +1.7629623413E-002
7332500000.000 -5.2581787109E-002 -3.6755371094E-001 +6.0486793518E-003 +3.6261081696E-003 -2.3374333978E-005 -1.0867603123E-005 -1.6890525818E-002 +3.0447959900E-002
7465000000.000 -5.6427001953E-002 -3.7010192871E-001 +7.0204734802E-003 -2.9301643372E-004 -3.6399811506E-005 -2.8016045690E-005 -2.0490646362E-002 +3.0915260315E-002
7597500000.000 -6.0531616211E-002 -3.7484741211E-001 +5.7044029236E-003 -4.1830539703E-003 +6.2465667725E-005 -2.8267502785E-005 -3.6849975586E-002 +3.3796310425E-002
7730000000.000 -6.6299438477E-002 -3.7991333008E-001 +2.4256706238E-003 -6.6184997559E-003 +3.3397227526E-005 +2.1340325475E-005 -4.7990798950E-002 +4.3796539307E-002
7862500000.000 -7.0907592773E-002 -3.8299560547E-001 -1.7654895782E-003 -6.8295001984E-003 -1.8136575818E-005 -2.6433728635E-005 -5.3905487061E-002 +4.2098999023E-002
7995000000.000 -7.3806762695E-002 -3.8619995117E-001 -5.1767826080E-003 -4.7745704651E-003 +8.3241611719E-005 -4.1712075472E-005 -7.3585510254E-002 +3.5194396973E-002
8127500000.000 -7.7941894531E-002 -3.9244079590E-001 -7.0445537567E-003 -1.0545253754E-003 +4.7856941819E-005 +1.8274411559E-005 -9.1259002686E-002 +4.0149688721E-002
8260000000.000 -8.3587646484E-002 -3.9538574219E-001 -6.4067840576E-003 +3.1023025513E-003 -2.9630959034E-005 +3.6776065826E-005 -9.5348358154E-002 +3.4164428711E-002
8392500000.000 -8.5830688477E-002 -3.9871215820E-001 -3.6282539368E-003 +6.1924457550E-003 -1.6111880541E-005 +1.5751458704E-005 -1.1002349854E-001 +1.8569946289E-002
8525000000.000 -8.8394165039E-002 -4.0258789063E-001 +3.9958953857E-004 +7.2622299194E-003 +2.5500543416E-005 +1.4527700841E-005 -1.2202072144E-001 +1.5426635742E-002
8657500000.000 -9.2102050781E-002 -4.0666198730E-001 +4.5342445374E-003 +5.7599544525E-003 -8.3222985268E-006 +3.3399090171E-005 -1.1787414551E-001 +4.4364929199E-003
8790000000.000 -9.5382690430E-002 -4.1044616699E-001 +7.0066452026E-003 +2.2459030151E-003 +3.7956982851E-005 +2.9856339097E-005 -1.1988067627E-001 -1.7028808594E-002
8922500000.000 -9.8648071289E-002 -4.1227722168E-001 +7.1568489075E-003 -2.1259784698E-003 +5.7375058532E-005 +1.0127201676E-005 -1.2212371826E-001 -2.9987335205E-002
9055000000.000 -1.0151672363E-001 -4.1574096680E-001 +4.6839714050E-003 -5.7880878448E-003 +1.7477199435E-005 +3.0724331737E-005 -1.1112213135E-001 -4.4136047363E-002
9187500000.000 -1.0472106934E-001 -4.1799926758E-001 +5.4931640625E-004 -7.5335502625E-003 -1.3832002878E-005 -2.7894973755E-005 -1.0098648071E-001 -6.6295623779E-002
9320000000.000 -1.1019897461E-001 -4.2016601563E-001 -3.7961006165E-003 -6.5932273865E-003 -1.7648562789E-006 -1.7308630049E-005 -9.3669891357E-002 -7.8861236572E-002
9452500000.000 -1.1370849609E-001 -4.2211914063E-001 -6.8688392639E-003 -3.3040046692E-003 +3.4758821130E-005 +3.8176774979E-005 -7.4188232422E-002 -8.7062835693E-002
9585000000.000 -1.1732482910E-001 -4.2469787598E-001 -7.6363086700E-003 +1.1930465698E-003 +6.8284571171E-006 -1.9829720259E-005 -5.5393218994E-002 -1.0153198242E-001
9717500000.000 -1.2294006348E-001 -4.2810058594E-001 -5.6118965149E-003 +5.2900314331E-003 +2.0045787096E-005 +4.7490000725E-005 -4.1805267334E-002 -1.0618209839E-001
9850000000.000 -1.2934875488E-001 -4.2842102051E-001 -1.6951560974E-003 +7.6282024384E-003 -3.6533921957E-005 -6.1467289925E-006 -1.8630981445E-002 -1.0255050659E-001
9982500000.000 -1.3192749023E-001 -4.3090820313E-001 +3.0412673950E-003 +7.3096752167E-003 +1.2181699276E-005 -3.4509226680E-005 +5.7106018066E-003 -1.0437393188E-001
10115000000.000 -1.3641357422E-001 -4.3431091309E-001 +6.6533088684E-003 +4.2400360107E-003 +3.2000243664E-006 -1.0342895985E-004 +1.8096923828E-002 -9.8995208740E-002
10247500000.000 -1.4276123047E-001 -4.3635559082E-001 +7.9798698425E-003 -2.0074844360E-004 +2.4039298296E-005 +5.5944547057E-006 +3.5919189453E-002 -7.9944610596E-002
10380000000.000 -1.4761352539E-001 -4.3785095215E-001 +6.4435005188E-003 -4.8627853394E-003 -1.9341707230E-005 +3.9668753743E-005 +5.7476043701E-002 -6.8870544434E-002
10512500000.000 -1.5238952637E-001 -4.3988037109E-001 +2.6328563690E-003 -7.6773166656E-003 +2.0867213607E-005 -4.0024518967E-005 +6.1939239502E-002 -5.7094573975E-002
10645000000.000 -1.5733337402E-001 -4.4132995605E-001 -2.2134780884E-003 -7.7922344208E-003 +1.7780810595E-005 +3.4686177969E-005 +6.6059112549E-002 -2.9178619385E-002
10777500000.000 -1.6174316406E-001 -4.4389343262E-001 -6.3152313232E-003 -5.1693916321E-003 -5.6564807892E-005 +1.1701136827E-005 +7.8166961670E-002 -8.3541870117E-003
10910000000.000 -1.6725158691E-001 -4.4688415527E-001 -8.2445144653E-003 -5.3358078003E-004 -5.2612274885E-005 -3.0100345612E-005 +7.2792053223E-002 +4.1313171387E-003
11042500000.000 -1.7369079590E-001 -4.4921875000E-001 -7.1973800659E-003 +4.0616989136E-003 +3.2300129533E-005 +2.9299408197E-005 +5.9593200684E-002 +3.0815124512E-002
11175000000.000 -1.7803955078E-001 -4.5155334473E-001 -3.6675930023E-003 +7.4353218079E-003 -4.5018270612E-005 +1.5961006284E-005 +5.7569503784E-002 +5.2637100220E-002
11307500000.000 -1.8165588379E-001 -4.5375061035E-001 +1.4295578003E-003 +8.3065032959E-003 -3.9238482714E-005 +7.9888850451E-006 +4.4694900513E-002 +5.8103561401E-002
11440000000.000 -1.8685913086E-001 -4.5584106445E-001 +5.8383941650E-003 +5.9480667114E-003 +2.4626962841E-005 -1.1152587831E-005 +1.8848419189E-002 +7.1865081787E-002
11572500000.000 -1.8984985352E-001 -4.6003723145E-001 +8.1434249878E-003 +1.6951560974E-003 -4.1538849473E-005 +5.3238123655E-005 +5.2223205566E-003 +8.7692260742E-002
11705000000.000 -1.9427490234E-001 -4.6156311035E-001 +7.7335834503E-003 -3.3755302429E-003 +2.4773180485E-005 -1.3796612620E-005 -9.2163085938E-003 +8.1417083740E-002
11837500000.000 -1.9819641113E-001 -4.6418762207E-001 +4.4193267822E-003 -7.2360038757E-003 +2.7618370950E-005 +1.6285106540E-005 -4.2224884033E-002 +7.7423095703E-002
11970000000.000 -2.0069885254E-001 -4.6475219727E-001 -3.5285949707E-004 -8.4471702576E-003 +1.6328878701E-005 +1.0825693607E-005 -5.8410644531E-002 +8.3789825439E-002
12102500000.000 -2.0285034180E-001 -4.6662902832E-001 -5.2323341370E-003 -6.6590309143E-003 -3.5371631384E-005 +3.3248215914E-006 -6.5238952637E-002 +6.4746856689E-002
12235000000.000 -2.0751953125E-001 -4.6841430664E-001 -8.1691741943E-003 -2.5339126587E-003 +3.9096921682E-006 -4.5960769057E-005 -9.3055725098E-002 +4.5562744141E-002
12367500000.000 -2.0979309082E-001 -4.6879577637E-001 -8.1067085266E-003 +2.5143623352E-003 +9.7788870335E-006 +4.5390799642E-005 -1.0462951660E-001 +4.4254302979E-002
12500000000.000 -2.1510314941E-001 -4.6849060059E-001 -5.0098896027E-003 +6.8314075470E-003 -4.6754255891E-005 +2.5952234864E-005 -9.7347259521E-002 +2.0431518555E-002
12632500000.000 -2.1817016602E-001 -4.7068786621E-001 -1.1062622070E-004 +8.4714889526E-003 -4.3798238039E-005 -2.4667009711E-005 -1.1088562012E-001 -1.2474060059E-002
12765000000.000 -2.2180175781E-001 -4.7114562988E-001 +4.6591758728E-003 +7.1020126343E-003 +1.7452985048E-005 +4.8594549298E-005 -1.1770248413E-001 -1.6040802002E-002
12897500000.000 -2.2563171387E-001 -4.6937561035E-001 +7.7729225159E-003 +3.0367374420E-003 +3.2920390368E-005 +1.4320015907E-005 -9.1842651367E-002 -3.4500122070E-002
13030000000.000 -2.2819519043E-001 -4.7029113770E-001 +8.0113410950E-003 -2.0685195923E-003 -2.0724721253E-005 +2.9439106584E-005 -9.1430664063E-002 -7.1613311768E-002
13162500000.000 -2.3304748535E-001 -4.7225952148E-001 +5.4755210876E-003 -6.1843395233E-003 +2.2408552468E-005 -9.5181167126E-007 -9.3631744385E-002 -7.1411132813E-002
13295000000.000 -2.3701477051E-001 -4.7248840332E-001 +8.9120864868E-004 -8.1367492676E-003 +3.7012621760E-005 -2.5425106287E-006 -6.1222076416E-002 -7.8464508057E-002
13427500000.000 -2.4235534668E-001 -4.7097778320E-001 -3.9007663727E-003 -7.0767402649E-003 -8.2980841398E-005 -3.9130449295E-005 -4.7813415527E-002 -1.0569381714E-001
13560000000.000 -2.4208068848E-001 -4.7093200684E-001 -7.2736740112E-003 -3.4558773041E-003 +4.3585896492E-006 -7.5478106737E-005 -4.8477172852E-002 -1.0202789307E-001
13692500000.000 -2.4592590332E-001 -4.7348022461E-001 -7.8639984131E-003 +1.2497901917E-003 +2.5607645512E-005 +9.7773969173E-005 -1.8394470215E-002 -8.9302062988E-002
13825000000.000 -2.5144958496E-001 -4.7399902344E-001 -5.5925846100E-003 +5.4948329926E-003 -1.2042373419E-004 -1.8097460270E-005 +4.0626525879E-003 -1.0423660278E-001
13957500000.000 -2.5613403320E-001 -4.7155761719E-001 -1.4214515686E-003 +7.5914859772E-003 +3.7454068661E-005 -5.2232295275E-005 -7.5531005859E-004 -9.6912384033E-002
14090000000.000 -2.5753784180E-001 -4.7145080566E-001 +3.2331943512E-003 +7.0700645447E-003 +6.2763690948E-005 -7.8044831753E-006 +2.1736145020E-002 -7.1426391602E-002
14222500000.000 -2.6019287109E-001 -4.7358703613E-001 +6.5000057220E-003 +3.7624835968E-003 +6.5211206675E-006 +4.1441991925E-005 +4.3865203857E-002 -7.5057983398E-002
14355000000.000 -2.6669311523E-001 -4.7337341309E-001 +7.4336528778E-003 -6.8068504333E-004 -3.5919249058E-005 -8.2079321146E-005 +3.3878326416E-002 -6.7401885986E-002
14487500000.000 -2.6919555664E-001 -4.7247314453E-001 +5.7911872864E-003 -4.7278404236E-003 +5.3910538554E-005 -1.6279518604E-005 +4.1475296021E-002 -3.5284042358E-002
14620000000.000 -2.6983642578E-001 -4.7477722168E-001 +1.9211769104E-003 -6.9863796234E-003 -9.3840062618E-006 +7.0057809353E-005 +6.0682296753E-002 -3.2730102539E-002
14752500000.000 -2.7549743652E-001 -4.7822570801E-001 -2.5036334991E-003 -6.7090988159E-003 -6.4134597778E-005 -2.5477260351E-005 +4.3405532837E-002 -3.1364440918E-002
14885000000.000 -2.7949523926E-001 -4.7729492188E-001 -5.8550834656E-003 -4.1449069977E-003 +7.2412192822E-005 +1.0244548321E-006 +3.7780761719E-002 +1.7032623291E-003
15017500000.000 -2.7790832520E-001 -4.7938537598E-001 -6.9553852081E-003 -4.5537948608E-005 -4.5713037252E-005 -2.1407380700E-005 +5.3833007813E-002 +6.9942474365E-003
15150000000.000 -2.7972412109E-001 -4.8468017578E-001 -5.5434703827E-003 +3.8104057312E-003 -6.0077756643E-005 -3.0098482966E-005 +3.4055709839E-002 -1.0051727295E-003
15282500000.000 -2.8303527832E-001 -4.8672485352E-001 -2.3660659790E-003 +6.2971115112E-003 +7.4964016676E-005 -9.7602605820E-006 +1.5987396240E-002 +2.5376319885E-002
