!  2-Port S-parameters saved by WinCal
! VAR MeasName=S-Parameters (CALIBRATED_DATA) read from VNA (C)
! VAR MeasDate=10/5/2015 4:48:48 PM
! VAR NAME=M6079_4_7_3_2_20C_1.5mA_-17.5dBm
! VAR FILENAME=M6079_4_7_3_2_20C_1.5mA_-17.5dBm.S2P
! VAR DATE=10/5/2015 4:48:48 PM
! VAR PHYS_PORTS=2,1
! VAR ObjTypeName=DATASET
! VAR IndexType=Frequency
!
# Hz S RI R 50
45000000.000 +2.3069763184E-001 -3.0746459961E-003 -1.8267631531E-003 +6.7889690399E-003 -1.8239766359E-004 -1.4964491129E-004 +2.8803825378E-002 +3.7164688110E-003
177500000.000 +2.2339630127E-001 -1.7265319824E-002 +2.2256374359E-003 +5.5906772614E-003 -1.5357881784E-004 +2.2239983082E-004 +1.6682624817E-002 +1.6702651978E-002
310000000.000 +2.2767639160E-001 -3.2424926758E-002 +4.2476654053E-003 +3.0586719513E-003 -1.0596588254E-004 +1.7844140530E-005 +3.0145645142E-002 +6.1267852783E-002
442500000.000 +2.1793365479E-001 -4.1099548340E-002 +6.5925121307E-003 -3.2162666321E-004 +1.2245029211E-005 -6.5829604864E-005 +7.2830200195E-002 +2.2319793701E-002
575000000.000 +2.1208190918E-001 -5.0941467285E-002 +4.8530101776E-003 -4.0006637573E-003 -4.5189633965E-005 -8.7544322014E-007 +2.7461051941E-002 +1.1300086975E-002
707500000.000 +2.1149444580E-001 -6.3194274902E-002 +1.7104148865E-003 -5.7928562164E-003 -2.2944062948E-005 -1.0922551155E-005 +2.4175643921E-003 +1.8577575684E-002
840000000.000 +2.0694732666E-001 -7.2433471680E-002 -1.8959045410E-003 -5.8293342590E-003 +4.9833208323E-005 +7.9069286585E-006 -1.9940376282E-002 +2.5984764099E-002
972500000.000 +2.0561981201E-001 -8.3404541016E-002 -4.7903060913E-003 -3.6313533783E-003 -5.0574541092E-005 +7.0687383413E-005 -3.5724639893E-002 +3.5755157471E-002
1105000000.000 +2.0341491699E-001 -9.5283508301E-002 -6.0501098633E-003 -2.3269653320E-004 -5.5132433772E-005 +3.5153701901E-005 -4.6777725220E-002 +3.8501739502E-002
1237500000.000 +2.0155334473E-001 -1.0623168945E-001 -4.9827098846E-003 +3.2620429993E-003 +4.0708109736E-005 -2.2791326046E-005 -5.8631896973E-002 +3.3916473389E-002
1370000000.000 +1.9779968262E-001 -1.1706542969E-001 -2.2778511047E-003 +5.4934024811E-003 -2.6641413569E-005 +1.8404796720E-005 -7.4172973633E-002 +2.7355194092E-002
1502500000.000 +1.9313049316E-001 -1.2436676025E-001 +1.2807846069E-003 +5.9106349945E-003 -2.3262575269E-005 -5.6857243180E-005 -8.8073730469E-002 +2.1648406982E-002
1635000000.000 +1.9254302979E-001 -1.3755035400E-001 +4.3306350708E-003 +4.0197372437E-003 +5.7658180594E-005 +1.8984079361E-005 -9.9216461182E-002 +1.1867523193E-002
1767500000.000 +1.8802642822E-001 -1.4705657959E-001 +5.9952735901E-003 +8.8047981262E-004 +3.0303373933E-005 +4.0743499994E-005 -1.1217117310E-001 +3.3264160156E-003
1900000000.000 +1.8177795410E-001 -1.5075683594E-001 +5.7835578918E-003 -2.7308464050E-003 +2.3856759071E-005 +6.5218657255E-005 -1.1401748657E-001 -3.1356811523E-003
2032500000.000 +1.7815399170E-001 -1.5952301025E-001 +3.1962394714E-003 -5.5890083313E-003 +4.1294842958E-005 -6.9778412580E-005 -1.1410140991E-001 -2.4188995361E-002
2165000000.000 +1.7418670654E-001 -1.6807556152E-001 -3.9720535278E-004 -6.5219402313E-003 -9.0178102255E-005 +2.2310763597E-005 -1.2302017212E-001 -4.1809082031E-002
2297500000.000 +1.6676330566E-001 -1.7548370361E-001 -3.7999153137E-003 -5.3832530975E-003 +6.2692910433E-005 -3.9294362068E-005 -1.2689208984E-001 -5.3253173828E-002
2430000000.000 +1.6254425049E-001 -1.8345642090E-001 -6.1421394348E-003 -2.3350715637E-003 +5.4348260164E-005 -1.8863007426E-005 -1.2746429443E-001 -6.4857482910E-002
2562500000.000 +1.5917968750E-001 -1.9270324707E-001 -6.4620971680E-003 +1.5032291412E-003 +1.6487389803E-004 -2.8684735298E-006 -1.2619018555E-001 -7.0579528809E-002
2695000000.000 +1.5198516846E-001 -2.0057678223E-001 -4.6787261963E-003 +4.7724246979E-003 -1.1406093836E-004 +2.0174682140E-004 -1.1423110962E-001 -7.2887420654E-002
2827500000.000 +1.4728546143E-001 -2.0669555664E-001 -1.1782646179E-003 +6.4301490784E-003 -3.6301091313E-005 +4.5144930482E-005 -9.9163055420E-002 -8.1901550293E-002
2960000000.000 +1.4526367188E-001 -2.1459197998E-001 +2.8066635132E-003 +5.9463977814E-003 +1.7326325178E-004 -6.4238905907E-005 -8.9401245117E-002 -8.6742401123E-002
3092500000.000 +1.3999176025E-001 -2.2390747070E-001 +5.7768821716E-003 +3.4270286560E-003 +3.1888484955E-006 +2.1665543318E-004 -7.1121215820E-002 -8.5285186768E-002
3225000000.000 +1.3372039795E-001 -2.3114013672E-001 +6.7756175995E-003 -4.7659873962E-004 +5.9863552451E-005 -1.4290213585E-005 -5.2341461182E-002 -9.1220855713E-002
3357500000.000 +1.3057708740E-001 -2.3820495605E-001 +5.2561759949E-003 -4.3330192566E-003 +7.2658061981E-005 +7.3611736298E-006 -4.2358398438E-002 -9.2182159424E-002
3490000000.000 +1.2645721436E-001 -2.4744415283E-001 +1.9202232361E-003 -6.4454078674E-003 +3.0947849154E-005 -1.5210360289E-005 -2.8919219971E-002 -8.3274841309E-002
3622500000.000 +1.2005615234E-001 -2.5624084473E-001 -2.2110939026E-003 -6.4666271210E-003 -1.0587647557E-004 -6.1821192503E-005 -1.1604309082E-002 -7.9223632813E-002
3755000000.000 +1.1430358887E-001 -2.6510620117E-001 -5.5410861969E-003 -3.9539337158E-003 +2.7195550501E-005 -2.2822991014E-005 -6.1950683594E-003 -7.3722839355E-002
3887500000.000 +1.0887145996E-001 -2.7343750000E-001 -6.8650245667E-003 -5.8412551880E-005 +4.8547983170E-005 +9.2722475529E-005 +1.4152526855E-003 -5.6621551514E-002
4020000000.000 +1.0313415527E-001 -2.7960205078E-001 -5.7871341705E-003 +3.8428306580E-003 -3.6302953959E-006 +1.3808254153E-005 +1.3055801392E-002 -4.4572830200E-002
4152500000.000 +9.8007202148E-002 -2.8752136230E-001 -2.5959014893E-003 +6.4301490784E-003 -4.5552849770E-005 -3.6476179957E-005 +1.5575408936E-002 -3.3136367798E-002
4285000000.000 +9.2407226563E-002 -2.9566955566E-001 +1.7604827881E-003 +6.6316127777E-003 -6.9527886808E-006 +1.2600794435E-005 +1.6965866089E-002 -1.3797760010E-002
4417500000.000 +8.6517333984E-002 -3.0166625977E-001 +5.2409172058E-003 +4.6033859253E-003 -3.4146010876E-005 -4.8732385039E-005 +2.5542259216E-002 +3.2329559326E-003
4550000000.000 +8.3023071289E-002 -3.0819702148E-001 +6.9434642792E-003 +6.1774253845E-004 +7.6092779636E-005 +2.1863728762E-005 +2.9393196106E-002 +9.1257095337E-003
4682500000.000 +7.9757690430E-002 -3.1880187988E-001 +5.7508945465E-003 -3.8723945618E-003 +5.2506104112E-005 -2.9521062970E-005 +2.6165008545E-002 +1.9848823547E-002
4815000000.000 +7.4325561523E-002 -3.2754516602E-001 +2.2325515747E-003 -6.8378448486E-003 +1.0501593351E-005 +3.7517398596E-005 +3.1637191772E-002 +2.6874542236E-002
4947500000.000 +7.1014404297E-002 -3.3486938477E-001 -2.2854804993E-003 -6.9227218628E-003 -2.1064653993E-005 -1.6594305634E-005 +2.8262138367E-002 +1.9341468811E-002
5080000000.000 +6.6650390625E-002 -3.4846496582E-001 -6.2336921692E-003 -3.3488273621E-003 +9.8366290331E-006 +6.0120597482E-005 +1.3868331909E-002 +1.9992828369E-002
5212500000.000 +5.9265136719E-002 -3.5873413086E-001 -6.9549083710E-003 +1.4390945435E-003 -6.5034255385E-006 +2.7136877179E-005 +9.9363327026E-003 +2.4402618408E-002
5345000000.000 +5.4428100586E-002 -3.6363220215E-001 -5.0306320190E-003 +5.4938793182E-003 +2.8898939490E-006 +1.5538185835E-005 +6.3619613647E-003 +1.5866279602E-002
5477500000.000 +4.8446655273E-002 -3.7217712402E-001 -2.5033950806E-004 +7.1561336517E-003 +6.1452388763E-005 -6.4838677645E-005 -8.5544586182E-003 +9.8285675049E-003
5610000000.000 +4.0206909180E-002 -3.8081359863E-001 +4.2552947998E-003 +5.3997039795E-003 -4.6148896217E-005 +2.1785497665E-005 -1.4318466187E-002 +1.4549732208E-002
5742500000.000 +3.3340454102E-002 -3.8587951660E-001 +6.8173408508E-003 +1.8477439880E-003 -2.0473264158E-005 +1.6003847122E-005 -1.0617256165E-002 +6.1864852905E-003
5875000000.000 +2.7221679688E-002 -3.9001464844E-001 +6.6154003143E-003 -2.6350021362E-003 +3.8184225559E-006 -5.9772282839E-005 -1.9492149353E-002 -3.4828186035E-003
6007500000.000 +1.9287109375E-002 -3.9582824707E-001 +3.1082630157E-003 -6.0150623322E-003 +2.5827437639E-005 +3.7603080273E-005 -2.2864341736E-002 +2.7656555176E-004
6140000000.000 +1.1795043945E-002 -4.0093994141E-001 -1.0380744934E-003 -6.5836906433E-003 -2.1360814571E-005 +3.5859644413E-005 -1.4917373657E-002 -2.2082328796E-003
6272500000.000 +4.6997070313E-003 -4.0513610840E-001 -4.8460960388E-003 -5.1057338715E-003 +4.7182664275E-005 -9.9278986454E-007 -1.5869140625E-002 -1.1439323425E-002
6405000000.000 -4.3487548828E-003 -4.0687561035E-001 -6.7172050476E-003 -1.0857582092E-003 +3.4987926483E-005 +5.5545940995E-005 -1.9168853760E-002 -6.1941146851E-003
6537500000.000 -1.0925292969E-002 -4.1001892090E-001 -5.6521892548E-003 +3.0820369720E-003 +9.0249814093E-006 +7.4305571616E-006 -9.3827247620E-003 -2.8362274170E-003
6670000000.000 -1.6387939453E-002 -4.1600036621E-001 -3.0908584595E-003 +6.0496330261E-003 -2.0910054445E-005 -1.1343508959E-006 -7.7545642853E-003 -6.4632892609E-003
6802500000.000 -2.7481079102E-002 -4.1920471191E-001 +1.1904239655E-003 +6.4301490784E-003 +2.0712614059E-005 -1.0328367352E-005 -1.1043071747E-002 +4.0578842163E-004
6935000000.000 -3.7048339844E-002 -4.1761779785E-001 +4.4100284576E-003 +3.9093494415E-003 -1.6117468476E-005 +5.5123120546E-005 -6.5774917603E-003 +9.8819732666E-003
7067500000.000 -4.0023803711E-002 -4.2193603516E-001 +6.1566829681E-003 +8.3446502686E-004 -1.5644356608E-005 -5.0336122513E-005 -5.2781105042E-003 +1.0663509369E-002
7200000000.000 -4.6188354492E-002 -4.2781066895E-001 +5.9564113617E-003 -2.8321743011E-003 +3.3657997847E-005 +3.1486153603E-005 -1.5014648438E-002 +1.7724037170E-002
7332500000.000 -5.6900024414E-002 -4.2834472656E-001 +2.7222633362E-003 -5.4783821106E-003 +9.5162540674E-006 +3.1158328056E-005 -1.7004966736E-002 +3.0558586121E-002
7465000000.000 -6.2301635742E-002 -4.2967224121E-001 -8.1038475037E-004 -6.0088634491E-003 -2.2201798856E-005 -3.0010938644E-005 -2.0457267761E-002 +3.1023025513E-002
7597500000.000 -6.5505981445E-002 -4.3557739258E-001 -4.2889118195E-003 -5.2623748779E-003 +1.3038516045E-007 -3.2197684050E-005 -3.6861419678E-002 +3.3861160278E-002
7730000000.000 -7.4447631836E-002 -4.3751525879E-001 -5.9442520142E-003 -1.2619495392E-003 +3.6293640733E-005 +2.2564083338E-005 -4.7878265381E-002 +4.3827056885E-002
7862500000.000 -8.1817626953E-002 -4.3762207031E-001 -4.9915313721E-003 +2.3238658905E-003 -4.8983842134E-005 +3.9786100388E-005 -5.3833007813E-002 +4.2108535767E-002
7995000000.000 -8.4228515625E-002 -4.4189453125E-001 -3.5088062286E-003 +5.1109790802E-003 +6.7275017500E-005 -4.8767775297E-005 -7.3497772217E-002 +3.5289764404E-002
8127500000.000 -8.9431762695E-002 -4.4679260254E-001 +3.5524368286E-005 +6.0067176819E-003 +2.8321519494E-005 +3.1085684896E-005 -9.1186523438E-002 +4.0195465088E-002
8260000000.000 -9.7152709961E-002 -4.4660949707E-001 +3.2958984375E-003 +4.4176578522E-003 -2.2361055017E-005 +2.1251849830E-005 -9.5390319824E-002 +3.4400939941E-002
8392500000.000 -9.9853515625E-002 -4.4953918457E-001 +5.3524971008E-003 +2.0484924316E-003 -3.0484050512E-005 +3.1823292375E-005 -1.0997390747E-001 +1.8692016602E-002
8525000000.000 -1.0296630859E-001 -4.5265197754E-001 +5.7153701782E-003 -1.3468265533E-003 +3.8757920265E-005 +1.6225501895E-005 -1.2203598022E-001 +1.5510559082E-002
8657500000.000 -1.0816955566E-001 -4.5367431641E-001 +3.3943653107E-003 -4.0719509125E-003 -6.0658901930E-005 -1.9554048777E-005 -1.1788940430E-001 +4.5089721680E-003
8790000000.000 -1.1230468750E-001 -4.5611572266E-001 +4.2510032654E-004 -5.0959587097E-003 +1.6577541828E-007 -5.9749931097E-005 -1.1981582642E-001 -1.6914367676E-002
8922500000.000 -1.1593627930E-001 -4.5755004883E-001 -2.4445056915E-003 -4.7914981842E-003 +1.3083219528E-005 -4.9686059356E-005 -1.2224578857E-001 -2.9964447021E-002
9055000000.000 -1.1965942383E-001 -4.5892333984E-001 -4.5285224915E-003 -2.3713111877E-003 -1.8555670977E-005 +5.0403177738E-005 -1.1129379272E-001 -4.3998718262E-002
9187500000.000 -1.2326049805E-001 -4.5962524414E-001 -4.8863887787E-003 +5.7983398438E-004 -3.3447518945E-005 -2.6324763894E-005 -1.0110092163E-001 -6.6127777100E-002
9320000000.000 -1.2911987305E-001 -4.6107482910E-001 -3.8985013962E-003 +3.2354593277E-003 +2.2527761757E-005 +2.6336871088E-005 -9.3757629395E-002 -7.8746795654E-002
9452500000.000 -1.3327026367E-001 -4.6162414551E-001 -1.2943744659E-003 +4.7776699066E-003 +2.0448118448E-005 +5.4785981774E-005 -7.4398040771E-002 -8.7028503418E-002
9585000000.000 -1.3734436035E-001 -4.6209716797E-001 +1.5721321106E-003 +4.3110847473E-003 -1.6577541828E-005 -1.5605241060E-005 -5.5610656738E-002 -1.0137939453E-001
9717500000.000 -1.4344787598E-001 -4.6475219727E-001 +3.7424564362E-003 +2.8003454208E-003 +5.6836754084E-005 +5.5059790611E-006 -4.2011260986E-002 -1.0614013672E-001
9850000000.000 -1.5031433105E-001 -4.6362304688E-001 +4.5990943909E-003 +1.1205673218E-004 +8.9887529612E-005 +4.6856701374E-005 -1.8890380859E-002 -1.0251998901E-001
9982500000.000 -1.5309143066E-001 -4.6424865723E-001 +3.6551952362E-003 -2.3162364960E-003 -5.2213668823E-005 +1.3601034880E-005 +5.4626464844E-003 -1.0459518433E-001
10115000000.000 -1.5780639648E-001 -4.6656799316E-001 +1.6934871674E-003 -3.9713382721E-003 +2.6424415410E-005 -2.2889114916E-005 +1.7833709717E-002 -9.9121093750E-002
10247500000.000 -1.6432189941E-001 -4.6746826172E-001 -8.2087516785E-004 -4.1778087616E-003 +4.8616901040E-005 +2.5745481253E-005 +3.5831451416E-002 -8.0024719238E-002
10380000000.000 -1.6889953613E-001 -4.6681213379E-001 -2.8620958328E-003 -2.7455091476E-003 -5.3020194173E-005 -1.9159168005E-005 +5.7277679443E-002 -6.9122314453E-002
10512500000.000 -1.7387390137E-001 -4.6809387207E-001 -3.8164854050E-003 -7.6067447662E-004 +9.2945992947E-006 -3.9204955101E-005 +6.1843872070E-002 -5.7367324829E-002
10645000000.000 -1.7915344238E-001 -4.6882629395E-001 -3.5864114761E-003 +1.5554428101E-003 +2.9630959034E-005 +4.6223402023E-005 +6.5971374512E-002 -2.9331207275E-002
10777500000.000 -1.8351745605E-001 -4.6943664551E-001 -1.9263029099E-003 +3.1456947327E-003 +2.2080726922E-005 -2.3030675948E-005 +7.8235626221E-002 -8.7585449219E-003
10910000000.000 -1.8875122070E-001 -4.7090148926E-001 +1.1694431305E-004 +3.4332275391E-003 -5.1556155086E-005 -3.2935291529E-005 +7.2929382324E-002 +3.8070678711E-003
11042500000.000 -1.9496154785E-001 -4.7257995605E-001 +1.9240379333E-003 +2.8985738754E-003 +2.6666559279E-005 +8.0903992057E-006 +5.9783935547E-002 +3.0548095703E-002
11175000000.000 -1.9915771484E-001 -4.7381591797E-001 +3.1962394714E-003 +1.1409521103E-003 -3.3248215914E-006 +5.0170347095E-005 +5.7786941528E-002 +5.2377700806E-002
11307500000.000 -2.0265197754E-001 -4.7442626953E-001 +3.0292272568E-003 -7.5662136078E-004 -2.1061860025E-005 -7.2829425335E-007 +4.5053482056E-002 +5.7888031006E-002
11440000000.000 -2.0756530762E-001 -4.7584533691E-001 +2.1816492081E-003 -2.2677183151E-003 +4.6735629439E-005 +1.6357749701E-005 +1.9294738770E-002 +7.1685791016E-002
11572500000.000 -2.1052551270E-001 -4.7903442383E-001 +5.0878524780E-004 -2.9458999634E-003 +9.7304582596E-006 +6.6015869379E-005 +5.4969787598E-003 +8.7642669678E-002
11705000000.000 -2.1463012695E-001 -4.7927856445E-001 -1.1864900589E-003 -2.5850534439E-003 -7.6085329056E-005 -3.9707869291E-005 -8.9378356934E-003 +8.1523895264E-002
11837500000.000 -2.1815490723E-001 -4.8118591309E-001 -2.4224519730E-003 -1.4857053757E-003 +4.2546540499E-005 +2.5540590286E-005 -4.1866302490E-002 +7.7651977539E-002
11970000000.000 -2.2027587891E-001 -4.8121643066E-001 -2.7738809586E-003 +9.0241432190E-005 +6.2078237534E-005 +6.2517821789E-005 -5.8055877686E-002 +8.4007263184E-002
12102500000.000 -2.2224426270E-001 -4.8197937012E-001 -2.1395683289E-003 +1.5336275101E-003 -4.1944906116E-005 -8.5067003965E-006 -6.5002441406E-002 +6.5086364746E-002
12235000000.000 -2.2668457031E-001 -4.8295593262E-001 -9.6535682678E-004 +2.4307966232E-003 +4.1220337152E-005 -6.7796558142E-005 -9.2933654785E-002 +4.5837402344E-002
12367500000.000 -2.2854614258E-001 -4.8268127441E-001 +6.2036514282E-004 +2.5267601013E-003 -1.1578202248E-005 +6.0157850385E-005 -1.0443496704E-001 +4.4666290283E-002
12500000000.000 -2.3333740234E-001 -4.8129272461E-001 +1.8202066422E-003 +1.6170144081E-003 -3.3387914300E-005 -6.7502260208E-006 -9.7133636475E-002 +2.0946502686E-002
12632500000.000 -2.3577880859E-001 -4.8292541504E-001 +2.3272037506E-003 +3.7908554077E-004 +2.4618580937E-005 -3.8640573621E-005 -1.1109542847E-001 -1.2222290039E-002
12765000000.000 -2.3912048340E-001 -4.8284912109E-001 +2.0942687988E-003 -9.4616413116E-004 +2.7446076274E-005 -7.5567513704E-006 -1.1770248413E-001 -1.5544891357E-002
12897500000.000 -2.4246215820E-001 -4.8052978516E-001 +1.1270046234E-003 -1.9122362137E-003 +5.9295445681E-005 +3.9407983422E-005 -9.1934204102E-002 -3.4103393555E-002
13030000000.000 -2.4450683594E-001 -4.8100280762E-001 -1.8489360809E-004 -2.2015571594E-003 -3.0953437090E-005 +2.3456290364E-005 -9.1651916504E-002 -7.1334838867E-002
13162500000.000 -2.4884033203E-001 -4.8226928711E-001 -1.3183355331E-003 -1.6252994537E-003 +3.6401674151E-005 -6.1281025410E-007 -9.4112396240E-002 -7.1125030518E-002
13295000000.000 -2.5251770020E-001 -4.8237609863E-001 -1.9236207008E-003 -6.7180395126E-004 -2.3759901524E-005 -2.1590851247E-005 -6.1645507813E-002 -7.8189849854E-002
13427500000.000 -2.5706481934E-001 -4.8051452637E-001 -1.8858909607E-003 +4.8333406448E-004 -8.7618827820E-005 -2.1718442440E-006 -4.8069000244E-002 -1.0570907593E-001
13560000000.000 -2.5666809082E-001 -4.8005676270E-001 -1.3245344162E-003 +1.3599991798E-003 +3.0580908060E-005 -3.7077814341E-005 -4.8950195313E-002 -1.0204315186E-001
13692500000.000 -2.6014709473E-001 -4.8225402832E-001 -2.2816658020E-004 +1.9003152847E-003 +7.6059252024E-005 +6.2257051468E-005 -1.8707275391E-002 -8.9374542236E-002
13825000000.000 -2.6521301270E-001 -4.8240661621E-001 +8.2182884216E-004 +1.5429854393E-003 -7.6439231634E-005 -7.0612877607E-005 +3.9749145508E-003 -1.0443115234E-001
13957500000.000 -2.6922607422E-001 -4.7990417480E-001 +1.4623999596E-003 +8.6015462875E-004 +3.4265220165E-005 -8.4541738033E-005 -9.6130371094E-004 -9.7309112549E-002
14090000000.000 -2.7049255371E-001 -4.7999572754E-001 +1.6799569130E-003 -9.6380710602E-005 +4.7748908401E-006 -1.8483027816E-005 +2.1480560303E-002 -7.1582794189E-002
14222500000.000 -2.7272033691E-001 -4.8173522949E-001 +1.4134645462E-003 -8.9496374130E-004 +6.7427754402E-006 -6.4961612225E-005 +4.3910980225E-002 -7.5515747070E-002
14355000000.000 -2.7897644043E-001 -4.8136901855E-001 +6.4313411713E-004 -1.5609860420E-003 +6.8824738264E-006 -4.8190355301E-005 +3.3889770508E-002 -6.7878723145E-002
14487500000.000 -2.8109741211E-001 -4.8069763184E-001 -3.1578540802E-004 -1.5020370483E-003 +7.2844326496E-005 +1.0542571545E-005 +4.1585922241E-002 -3.5623550415E-002
14620000000.000 -2.8158569336E-001 -4.8258972168E-001 -1.0395050049E-003 -1.0792016983E-003 -8.7469816208E-006 -1.3307202607E-005 +6.0873031616E-002 -3.2993316650E-002
14752500000.000 -2.8656005859E-001 -4.8605346680E-001 -1.3918876648E-003 -3.4934282303E-004 -1.1063367128E-004 -5.1774084568E-005 +4.3483734131E-002 -3.1511306763E-002
14885000000.000 -2.9048156738E-001 -4.8561096191E-001 -1.3044476509E-003 +5.4037570953E-004 +4.8354268074E-005 +3.3149495721E-005 +3.8076400757E-002 +1.5983581543E-003
15017500000.000 -2.8892517090E-001 -4.8712158203E-001 -7.7968835831E-004 +1.1230707169E-003 -5.8300793171E-006 +8.4735453129E-005 +5.3964614868E-002 +6.9236755371E-003
15150000000.000 -2.9019165039E-001 -4.9226379395E-001 -1.0412931442E-004 +1.4363527298E-003 -7.8193843365E-006 +1.1662021279E-005 +3.4399032593E-002 -1.0051727295E-003
15282500000.000 -2.9339599609E-001 -4.9478149414E-001 +7.0548057556E-004 +1.3109445572E-003 +7.6603144407E-005 +4.0680170059E-005 +1.5987396240E-002 +2.5490760803E-002
