!  2-Port S-parameters saved by WinCal
! VAR MeasName=S-Parameters (CALIBRATED_DATA) read from VNA (C)
! VAR MeasDate=10/5/2015 6:45:48 PM
! VAR NAME=M6079_2_7_3_3_20C_4.8mA_-17.5dBm
! VAR FILENAME=M6079_2_7_3_3_20C_4.8mA_-17.5dBm.S2P
! VAR DATE=10/5/2015 6:45:48 PM
! VAR PHYS_PORTS=2,1
! VAR ObjTypeName=DATASET
! VAR IndexType=Frequency
!
# Hz S RI R 50
45000000.000 +6.9068908691E-002 -4.7683715820E-004 -2.1657943726E-003 +8.0771446228E-003 -8.4662437439E-004 -8.3586573601E-004 +2.7640342712E-002 +3.4675598145E-003
177500000.000 +6.9953918457E-002 -8.2778930664E-003 +2.6440620422E-003 +6.7684650421E-003 -2.6828050613E-004 +2.5734305382E-005 +1.6128540039E-002 +1.6778945923E-002
310000000.000 +7.0175170898E-002 -1.5861511230E-002 +5.4390430450E-003 +4.2345523834E-003 -1.2750923634E-004 +8.4884464741E-005 +2.9951095581E-002 +6.1227798462E-002
442500000.000 +7.0213317871E-002 -2.3887634277E-002 +8.1229209900E-003 +5.7697296143E-005 +1.2495368719E-004 -3.7476420403E-005 +7.2723388672E-002 +2.2239685059E-002
575000000.000 +6.9923400879E-002 -3.2318115234E-002 +6.0501098633E-003 -4.3013095856E-003 +3.4140422940E-005 -3.8156285882E-005 +2.7439117432E-002 +1.1236190796E-002
707500000.000 +6.9011688232E-002 -3.9730072021E-002 +2.5701522827E-003 -6.9613456726E-003 -9.1031193733E-005 -7.5723975897E-005 +2.2726058960E-003 +1.8427848816E-002
840000000.000 +6.8599700928E-002 -4.7992706299E-002 -1.7101764679E-003 -7.1651935577E-003 +7.6275318861E-005 -2.5842338800E-005 -2.0013809204E-002 +2.5927543640E-002
972500000.000 +6.8080902100E-002 -5.5751800537E-002 -5.3796768188E-003 -4.9345493317E-003 -1.5981495380E-006 +9.7703188658E-005 -3.5837173462E-002 +3.5718917847E-002
1105000000.000 +6.6562652588E-002 -6.3953399658E-002 -7.0545673370E-003 -1.2168884277E-003 +2.2409483790E-005 -1.5832483768E-007 -4.6667098999E-002 +3.8349151611E-002
1237500000.000 +6.5399169922E-002 -7.1277618408E-002 -6.5059661865E-003 +2.9854774475E-003 +7.3183327913E-005 +2.4255365133E-005 -5.8639526367E-002 +3.3962249756E-002
1370000000.000 +6.3655853271E-002 -7.9223632813E-002 -3.6375522614E-003 +6.1466693878E-003 -8.8848173618E-006 +8.8112428784E-006 -7.4111938477E-002 +2.7194976807E-002
1502500000.000 +6.2137603760E-002 -8.6517333984E-002 +3.8218498230E-004 +7.0602893829E-003 -4.3284147978E-005 -2.6818364859E-005 -8.8027954102E-002 +2.1564483643E-002
1635000000.000 +6.1195373535E-002 -9.4173431396E-002 +4.2400360107E-003 +5.6266784668E-003 -1.6026198864E-005 -4.8698857427E-005 -9.9189758301E-002 +1.1859893799E-002
1767500000.000 +5.9017181396E-002 -1.0237503052E-001 +6.6752433777E-003 +2.2561550140E-003 +3.5805627704E-005 +2.7734786272E-005 -1.1210250854E-001 +3.1814575195E-003
1900000000.000 +5.7254791260E-002 -1.0881805420E-001 +6.8147182465E-003 -1.8866062164E-003 +9.1455876827E-006 -6.2610954046E-005 -1.1406707764E-001 -3.2348632813E-003
2032500000.000 +5.5301666260E-002 -1.1569976807E-001 +4.5475959778E-003 -5.2800178528E-003 +5.8416277170E-005 -4.5184046030E-005 -1.1400604248E-001 -2.4200439453E-002
2165000000.000 +5.3966522217E-002 -1.2376403809E-001 +7.8821182251E-004 -6.6592693329E-003 +1.4447607100E-005 +2.7042813599E-005 -1.2297058105E-001 -4.1980743408E-002
2297500000.000 +5.1399230957E-002 -1.3028717041E-001 -3.1778812408E-003 -6.0811042786E-003 -7.1443617344E-005 -3.4272670746E-007 -1.2677001953E-001 -5.3298950195E-002
2430000000.000 +4.9522399902E-002 -1.3648986816E-001 -5.9344768524E-003 -3.3030509949E-003 +1.0463595390E-004 -1.6551464796E-004 -1.2732696533E-001 -6.4903259277E-002
2562500000.000 +4.7210693359E-002 -1.4377593994E-001 -6.8619251251E-003 +8.0394744873E-004 +2.6086345315E-005 -3.0949711800E-005 -1.2610626221E-001 -7.0800781250E-002
2695000000.000 +4.3106079102E-002 -1.4973449707E-001 -5.3169727325E-003 +4.3814182281E-003 +4.3809413910E-005 +1.0089948773E-005 -1.1389541626E-001 -7.3097229004E-002
2827500000.000 +4.0122985840E-002 -1.5425872803E-001 -1.8832683563E-003 +6.4179897308E-003 -6.2052160501E-005 -1.1842325330E-004 -9.9010467529E-002 -8.2027435303E-002
2960000000.000 +3.8246154785E-002 -1.6065979004E-001 +2.0141601563E-003 +6.2758922577E-003 -8.6389482021E-006 +7.6979398727E-005 -8.9206695557E-002 -8.6814880371E-002
3092500000.000 +3.4629821777E-002 -1.6818237305E-001 +5.1946640015E-003 +4.1902065277E-003 +5.8591365814E-005 -4.2313709855E-005 -7.0926666260E-002 -8.5659027100E-002
3225000000.000 +2.9586791992E-002 -1.7356109619E-001 +6.5021514893E-003 +5.4216384888E-004 +7.6331198215E-006 -3.3963471651E-005 -5.2135467529E-002 -9.1320037842E-002
3357500000.000 +2.6618957520E-002 -1.7801666260E-001 +5.9876441956E-003 -3.2210350037E-003 +1.4713965356E-005 -2.1412037313E-005 -4.1877746582E-002 -9.2117309570E-002
3490000000.000 +2.3849487305E-002 -1.8496704102E-001 +3.0865669250E-003 -5.8116912842E-003 -9.9390745163E-005 -1.4968216419E-005 -2.8781890869E-002 -8.3259582520E-002
3622500000.000 +1.9744873047E-002 -1.9217681885E-001 -5.7625770569E-004 -6.5619945526E-003 +3.7429854274E-006 -2.2754073143E-005 -1.1489868164E-002 -7.9261779785E-002
3755000000.000 +1.5327453613E-002 -1.9832611084E-001 -4.1179656982E-003 -5.1293373108E-003 +5.8740377426E-005 -8.0943107605E-005 -6.0005187988E-003 -7.3665618896E-002
3887500000.000 +1.1795043945E-002 -2.0396423340E-001 -6.3107013702E-003 -2.0077228546E-003 +6.7157670856E-006 +4.6791974455E-006 +1.5182495117E-003 -5.6470870972E-002
4020000000.000 +8.5906982422E-003 -2.0923614502E-001 -6.4187049866E-003 +2.0966529846E-003 -2.5814399123E-005 +5.9014186263E-005 +1.3116836548E-002 -4.4561386108E-002
4152500000.000 +5.6076049805E-003 -2.1591186523E-001 -4.0862560272E-003 +5.1450729370E-003 +1.1082738638E-006 +5.1406677812E-006 +1.5609741211E-002 -3.2979965210E-002
4285000000.000 +1.3809204102E-003 -2.2221374512E-001 -5.0425529480E-004 +6.6277980804E-003 +1.0902062058E-004 +4.0028244257E-005 +1.7039299011E-002 -1.3674736023E-002
4417500000.000 -3.0059814453E-003 -2.2686767578E-001 +3.2513141632E-003 +5.6962966919E-003 -3.5567209125E-005 +3.5880133510E-005 +2.5697708130E-002 +3.3969879150E-003
4550000000.000 -5.2871704102E-003 -2.3215484619E-001 +5.7663917542E-003 +2.8388500214E-003 +3.3548101783E-005 +3.0016526580E-005 +2.9271125793E-002 +9.2706680298E-003
4682500000.000 -8.6441040039E-003 -2.3854827881E-001 +6.3340663910E-003 -8.1515312195E-004 +9.2931091785E-005 +3.2931566238E-006 +2.6051521301E-002 +2.0302772522E-002
4815000000.000 -1.3488769531E-002 -2.4398040771E-001 +4.9397945404E-003 -4.0776729584E-003 -4.7126784921E-005 +7.0724636316E-006 +3.1515121460E-002 +2.7103424072E-002
4947500000.000 -1.5922546387E-002 -2.4856567383E-001 +1.8985271454E-003 -6.0458183289E-003 +6.5863132477E-006 -4.5370310545E-005 +2.8134346008E-002 +1.9635200500E-002
5080000000.000 -1.8218994141E-002 -2.5398254395E-001 -1.8444061279E-003 -6.2401294708E-003 +4.8713758588E-005 -8.2422047853E-006 +1.3683319092E-002 +2.0367622375E-002
5212500000.000 -2.2186279297E-002 -2.5985717773E-001 -4.9626827240E-003 -4.1625499725E-003 +3.7869904190E-006 +6.9506932050E-006 +9.6483230591E-003 +2.4683952332E-002
5345000000.000 -2.5772094727E-002 -2.6356506348E-001 -6.5581798553E-003 -6.8449974060E-004 -1.8065795302E-005 -2.0989216864E-005 +6.1511993408E-003 +1.6178131104E-002
5477500000.000 -2.7435302734E-002 -2.6766967773E-001 -5.8338642120E-003 +3.1697750092E-003 +4.4370070100E-005 -5.7302415371E-005 -8.7871551514E-003 +1.0174274445E-002
5610000000.000 -3.0120849609E-002 -2.7319335938E-001 -3.0331611633E-003 +5.9449672699E-003 -5.6911259890E-005 +5.3651630878E-005 -1.4607906342E-002 +1.4765262604E-002
5742500000.000 -3.4423828125E-002 -2.7685546875E-001 +8.3565711975E-004 +6.5979957581E-003 -6.4037740231E-005 +2.8278678656E-005 -1.1047363281E-002 +6.3118934631E-003
5875000000.000 -3.7582397461E-002 -2.7946472168E-001 +4.4004917145E-003 +5.0170421600E-003 +4.3762847781E-006 +3.5229604691E-006 -1.9802093506E-002 -3.2529830933E-003
6007500000.000 -3.9916992188E-002 -2.8292846680E-001 +6.4373016357E-003 +1.7709732056E-003 -1.0732561350E-005 +2.7417205274E-005 -2.3162841797E-002 +3.3187866211E-004
6140000000.000 -4.3380737305E-002 -2.8782653809E-001 +6.3040256500E-003 -2.2094249725E-003 -4.0635466576E-005 -8.0484896898E-006 -1.5272140503E-002 -2.2759437561E-003
6272500000.000 -4.8721313477E-002 -2.9145812988E-001 +3.9236545563E-003 -5.4075717926E-003 -1.2177973986E-005 -3.0823051929E-005 -1.6201972961E-002 -1.1516571045E-002
6405000000.000 -5.3543090820E-002 -2.9273986816E-001 +2.8395652771E-004 -6.6723823547E-003 -1.2274831533E-006 +3.4766271710E-005 -1.9352912903E-002 -6.3180923462E-003
6537500000.000 -5.5358886719E-002 -2.9647827148E-001 -3.5257339478E-003 -5.6724548340E-003 -1.9202008843E-005 +1.5925616026E-005 -9.5877647400E-003 -3.0050277710E-003
6670000000.000 -5.9432983398E-002 -3.0213928223E-001 -5.9654712677E-003 -2.7031898499E-003 -4.2192637920E-005 -4.1723251343E-007 -7.9746246338E-003 -6.8922042847E-003
6802500000.000 -6.6146850586E-002 -3.0593872070E-001 -6.4151287079E-003 +1.1837482452E-003 +2.3187138140E-005 +1.8076971173E-006 -1.1163234711E-002 +2.7561187744E-004
6935000000.000 -7.0343017578E-002 -3.0654907227E-001 -4.7333240509E-003 +4.4858455658E-003 -6.2283128500E-005 +2.4586915970E-007 -6.5703392029E-003 +9.6530914307E-003
7067500000.000 -7.2204589844E-002 -3.1074523926E-001 -1.3949871063E-003 +6.4599514008E-003 -1.7578713596E-005 -1.2472271919E-005 -5.2304267883E-003 +1.0444641113E-002
7200000000.000 -7.6995849609E-002 -3.1611633301E-001 +2.3710727692E-003 +6.0949325562E-003 -2.8518028557E-005 -4.4414773583E-006 -1.5092849731E-002 +1.7515182495E-002
7332500000.000 -8.3435058594E-002 -3.1893920898E-001 +5.3682327271E-003 +3.7102699280E-003 -4.7329813242E-006 +5.2263960242E-005 -1.6820907593E-002 +3.0467987061E-002
7465000000.000 -8.6730957031E-002 -3.2138061523E-001 +6.4854621887E-003 +4.5537948608E-005 -7.9376623034E-006 -1.7958693206E-005 -2.0340919495E-002 +3.0888557434E-002
7597500000.000 -9.0164184570E-002 -3.2604980469E-001 +5.4497718811E-003 -3.4887790680E-003 -4.3388456106E-005 -2.3003667593E-006 -3.6861419678E-002 +3.3699035645E-002
7730000000.000 -9.5092773438E-002 -3.3081054688E-001 +2.5207996368E-003 -5.8975219727E-003 +5.1255337894E-006 +1.2532807887E-005 -4.7809600830E-002 +4.3779373169E-002
7862500000.000 -9.8922729492E-002 -3.3370971680E-001 -1.1868476868E-003 -6.3316822052E-003 -1.0913703591E-005 -7.9334713519E-006 -5.3710937500E-002 +4.2091369629E-002
7995000000.000 -1.0134887695E-001 -3.3692932129E-001 -4.5013427734E-003 -4.6472549438E-003 +3.4060329199E-005 +1.1852011085E-005 -7.3463439941E-002 +3.5202026367E-002
8127500000.000 -1.0487365723E-001 -3.4309387207E-001 -6.2727928162E-003 -1.3170242310E-003 +2.8684735298E-006 +3.4533441067E-005 -9.1171264648E-002 +4.0168762207E-002
8260000000.000 -1.0993957520E-001 -3.4573364258E-001 -6.0663223267E-003 +2.4333000183E-003 -3.6232173443E-005 -2.4275854230E-005 -9.5394134521E-002 +3.4179687500E-002
8392500000.000 -1.1160278320E-001 -3.4896850586E-001 -3.6785602570E-003 +5.2998065948E-003 +9.4398856163E-006 -4.3112784624E-005 -1.1008834839E-001 +1.8508911133E-002
8525000000.000 -1.1363220215E-001 -3.5281372070E-001 +3.4093856812E-005 +6.5224170685E-003 -7.9213641584E-006 +1.1406373233E-005 -1.2191772461E-001 +1.5331268311E-002
8657500000.000 -1.1676025391E-001 -3.5682678223E-001 +3.4928321838E-003 +5.3901672363E-003 +9.8240561783E-006 +1.1934898794E-005 -1.1786270142E-001 +4.1885375977E-003
8790000000.000 -1.1972045898E-001 -3.6045837402E-001 +5.9664249420E-003 +2.5196075439E-003 -1.1319294572E-005 +9.7588635981E-006 -1.1993408203E-001 -1.7349243164E-002
8922500000.000 -1.2242126465E-001 -3.6196899414E-001 +6.4027309418E-003 -1.3377666473E-003 +7.9307705164E-005 -6.5527856350E-006 -1.2214279175E-001 -3.0323028564E-002
9055000000.000 -1.2445068359E-001 -3.6531066895E-001 +4.4939517975E-003 -4.6107769012E-003 -6.5907370299E-006 +2.6677735150E-006 -1.1111068726E-001 -4.4445037842E-002
9187500000.000 -1.2733459473E-001 -3.6740112305E-001 +1.1775493622E-003 -6.4361095428E-003 -2.8839334846E-005 -5.3931027651E-005 -1.0078811646E-001 -6.6562652588E-002
9320000000.000 -1.3229370117E-001 -3.6923217773E-001 -2.5668144226E-003 -6.0324668884E-003 +2.1663494408E-005 +2.5749206543E-005 -9.3452453613E-002 -7.9143524170E-002
9452500000.000 -1.3522338867E-001 -3.7083435059E-001 -5.5630207062E-003 -3.4818649292E-003 +1.5380792320E-005 +1.2178905308E-005 -7.3955535889E-002 -8.7173461914E-002
9585000000.000 -1.3806152344E-001 -3.7351989746E-001 -6.6225528717E-003 +2.7132034302E-004 -8.0600380898E-005 -1.1760741472E-005 -5.5057525635E-002 -1.0162353516E-001
9717500000.000 -1.4347839355E-001 -3.7657165527E-001 -5.3822994232E-003 +3.9255619049E-003 +2.0842067897E-005 -1.8475577235E-005 -4.1507720947E-002 -1.0635757446E-001
9850000000.000 -1.4897155762E-001 -3.7652587891E-001 -2.2547245026E-003 +6.1662197113E-003 +6.5326690674E-005 +8.5175037384E-005 -1.8329620361E-002 -1.0254287720E-001
9982500000.000 -1.5113830566E-001 -3.7892150879E-001 +1.6584396362E-003 +6.3943862915E-003 -5.5031850934E-005 +4.2710453272E-006 +6.1798095703E-003 -1.0427093506E-001
10115000000.000 -1.5484619141E-001 -3.8211059570E-001 +4.8983097076E-003 +4.3079853058E-003 -1.6433186829E-005 -8.6845830083E-006 +1.8493652344E-002 -9.8896026611E-002
10247500000.000 -1.6070556641E-001 -3.8392639160E-001 +6.4597129822E-003 +9.0789794922E-004 +8.3227641881E-006 -1.2903474271E-006 +3.6083221436E-002 -7.9719543457E-002
10380000000.000 -1.6497802734E-001 -3.8513183594E-001 +5.8903694153E-003 -2.8917789459E-003 -7.1562826633E-005 -3.0025839806E-006 +5.7621002197E-002 -6.8439483643E-002
10512500000.000 -1.6900634766E-001 -3.8726806641E-001 +3.2155513763E-003 -5.6633949280E-003 -1.0734423995E-005 -4.0924176574E-005 +6.2116622925E-002 -5.6638717651E-002
10645000000.000 -1.7314147949E-001 -3.8851928711E-001 -3.6096572876E-004 -6.5283775330E-003 +6.2949955463E-005 +8.6426734924E-006 +6.6165924072E-002 -2.8827667236E-002
10777500000.000 -1.7695617676E-001 -3.9106750488E-001 -4.0152072906E-003 -5.1934719086E-003 -2.8159469366E-005 +6.5848231316E-005 +7.8182220459E-002 -7.9116821289E-003
10910000000.000 -1.8182373047E-001 -3.9363098145E-001 -6.3042640686E-003 -2.0370483398E-003 -2.5333836675E-005 -3.9296224713E-005 +7.2654724121E-002 +4.8789978027E-003
11042500000.000 -1.8740844727E-001 -3.9567565918E-001 -6.4129829407E-003 +1.8050670624E-003 +2.1155923605E-005 -2.9066577554E-005 +5.9364318848E-002 +3.1383514404E-002
11175000000.000 -1.9085693359E-001 -3.9851379395E-001 -4.2350292206E-003 +5.1078796387E-003 +4.7646462917E-006 +7.2736293077E-005 +5.7121276855E-002 +5.2932739258E-002
11307500000.000 -1.9398498535E-001 -4.0032958984E-001 -6.6661834717E-004 +6.6375732422E-003 -1.1334195733E-004 -3.8534402847E-005 +4.4250488281E-002 +5.8423995972E-002
11440000000.000 -1.9854736328E-001 -4.0237426758E-001 +3.1445026398E-003 +5.8217048645E-003 +7.4300915003E-006 -4.2727217078E-005 +1.8428802490E-002 +7.2170257568E-002
11572500000.000 -2.0053100586E-001 -4.0679931641E-001 +5.9161186218E-003 +3.1058788300E-003 +2.4773180485E-006 +7.9166144133E-005 +4.7683715820E-003 +8.7787628174E-002
11705000000.000 -2.0431518555E-001 -4.0841674805E-001 +6.6633224487E-003 -7.5817108154E-004 -5.1273033023E-005 -4.6636909246E-005 -9.8953247070E-003 +8.1264495850E-002
11837500000.000 -2.0783996582E-001 -4.1130065918E-001 +5.1302909851E-003 -4.2722225189E-003 -5.8850273490E-006 +1.7167069018E-005 -4.2926788330E-002 +7.7331542969E-002
11970000000.000 -2.0960998535E-001 -4.1203308105E-001 +1.7356872559E-003 -6.4663887024E-003 -2.6840716600E-005 -9.6559524536E-006 -5.8898925781E-002 +8.3381652832E-002
12102500000.000 -2.1090698242E-001 -4.1389465332E-001 -2.1853446960E-003 -6.3402652740E-003 +2.8050504625E-005 +2.5170855224E-005 -6.5582275391E-002 +6.4334869385E-002
12235000000.000 -2.1504211426E-001 -4.1587829590E-001 -5.3803920746E-003 -4.0390491486E-003 +3.6720186472E-005 -2.7548521757E-006 -9.3437194824E-002 +4.5070648193E-002
12367500000.000 -2.1655273438E-001 -4.1630554199E-001 -6.7560672760E-003 -2.9468536377E-004 +8.6434185505E-005 -3.1735748053E-005 -1.0503005981E-001 +4.3724060059E-002
12500000000.000 -2.2111511230E-001 -4.1575622559E-001 -5.6488513947E-003 +3.4787654877E-003 -1.5709549189E-005 +7.3455274105E-005 -9.7332000732E-002 +1.9855499268E-002
12632500000.000 -2.2372436523E-001 -4.1824340820E-001 -2.6731491089E-003 +6.0765743256E-003 +7.4710696936E-005 -1.3552606106E-005 -1.1071014404E-001 -1.3114929199E-002
12765000000.000 -2.2627258301E-001 -4.1905212402E-001 +1.1329650879E-003 +6.5462589264E-003 +6.1992555857E-005 +3.3758580685E-005 -1.1735916138E-001 -1.6391754150E-002
12897500000.000 -2.2970581055E-001 -4.1731262207E-001 +4.6830177307E-003 +4.7819614410E-003 -2.4490058422E-005 +1.5379860997E-005 -9.1598510742E-002 -3.4976959229E-002
13030000000.000 -2.3184204102E-001 -4.1822814941E-001 +6.5233707428E-003 +1.2621879578E-003 +1.2934207916E-005 -2.5708228350E-005 -9.0824127197E-002 -7.1960449219E-002
13162500000.000 -2.3577880859E-001 -4.2047119141E-001 +6.1490535736E-003 -2.6123523712E-003 +2.2619031370E-005 -2.4462118745E-005 -9.2937469482E-002 -7.1708679199E-002
13295000000.000 -2.3921203613E-001 -4.2120361328E-001 +3.5834312439E-003 -5.6538581848E-003 +9.7773969173E-005 +2.9768794775E-005 -6.0661315918E-002 -7.8540802002E-002
13427500000.000 -2.4391174316E-001 -4.2018127441E-001 -1.2707710266E-004 -6.7832469940E-003 -5.2198767662E-005 -3.9767473936E-005 -4.7126770020E-002 -1.0548019409E-001
13560000000.000 -2.4290466309E-001 -4.2012023926E-001 -3.8890838623E-003 -5.4607391357E-003 +4.0177255869E-006 +5.9584155679E-005 -4.7824859619E-002 -1.0173416138E-001
13692500000.000 -2.4604797363E-001 -4.2346191406E-001 -6.3755512238E-003 -2.3119449615E-003 +7.0035457611E-006 +4.0721148252E-005 -1.7932891846E-002 -8.8916778564E-002
13825000000.000 -2.5144958496E-001 -4.2413330078E-001 -6.5639019012E-003 +1.6627311707E-003 -4.1563063860E-005 -5.7118013501E-005 +4.4593811035E-003 -1.0375213623E-001
13957500000.000 -2.5506591797E-001 -4.2222595215E-001 -4.4658184052E-003 +5.0055980682E-003 -2.1085143089E-006 -3.3684074879E-005 -3.7384033203E-004 -9.6473693848E-002
14090000000.000 -2.5604248047E-001 -4.2268371582E-001 -8.9097023010E-004 +6.6902637482E-003 -3.6923214793E-005 +3.2067298889E-005 +2.1911621094E-002 -7.0716857910E-002
14222500000.000 -2.5843811035E-001 -4.2535400391E-001 +3.1249523163E-003 +6.1421394348E-003 -8.6080282927E-005 -9.4085931778E-005 +4.3811798096E-002 -7.4672698975E-002
14355000000.000 -2.6455688477E-001 -4.2568969727E-001 +5.9914588928E-003 +3.2691955566E-003 +1.8820166588E-005 -6.7688524723E-006 +3.3702850342E-002 -6.6909790039E-002
14487500000.000 -2.6666259766E-001 -4.2539978027E-001 +6.7026615143E-003 -6.8879127502E-004 -9.6186995506E-006 -5.9653073549E-005 +4.1254043579E-002 -3.4832000732E-002
14620000000.000 -2.6742553711E-001 -4.2814636230E-001 +5.1078796387E-003 -4.2741298676E-003 -3.9782375097E-005 +1.0532513261E-004 +6.0518264771E-002 -3.2405853271E-002
14752500000.000 -2.7232360840E-001 -4.3202209473E-001 +1.7011165619E-003 -6.5555572510E-003 -7.6543539762E-005 +9.5330178738E-006 +4.3123245239E-002 -3.1230926514E-002
14885000000.000 -2.7621459961E-001 -4.3191528320E-001 -2.2869110107E-003 -6.3505172729E-003 -4.5262277126E-006 +8.0477446318E-005 +3.7435531616E-002 +1.7852783203E-003
15017500000.000 -2.7476501465E-001 -4.3431091309E-001 -5.3961277008E-003 -3.8695335388E-003 +1.0954681784E-005 +9.8687596619E-006 +5.3586959839E-002 +7.1353912354E-003
15150000000.000 -2.7626037598E-001 -4.3997192383E-001 -6.6711902618E-003 -8.6545944214E-005 +1.7293728888E-005 +2.0544975996E-006 +3.3998489380E-002 -1.0051727295E-003
15282500000.000 -2.7935791016E-001 -4.4259643555E-001 -5.4850578308E-003 +3.6385059357E-003 +1.1511147022E-004 -8.7577849627E-005 +1.5398025513E-002 +2.5004386902E-002
