!  2-Port S-parameters saved by WinCal
! VAR MeasName=S-Parameters (CALIBRATED_DATA) read from VNA (C)
! VAR MeasDate=10/5/2015 4:53:45 PM
! VAR NAME=M6079_4_7_3_2_20C_3.8mA_-17.5dBm
! VAR FILENAME=M6079_4_7_3_2_20C_3.8mA_-17.5dBm.S2P
! VAR DATE=10/5/2015 4:53:45 PM
! VAR PHYS_PORTS=2,1
! VAR ObjTypeName=DATASET
! VAR IndexType=Frequency
!
# Hz S RI R 50
45000000.000 +1.1581039429E-001 -1.7547607422E-004 -1.3151168823E-003 +6.3107013702E-003 +4.4196844101E-004 +3.4363567829E-004 +2.8364181519E-002 +2.0351409912E-003
177500000.000 +1.1604309082E-001 -9.3116760254E-003 +2.2773742676E-003 +6.7076683044E-003 -3.1316652894E-005 -1.6156584024E-005 +1.6843795776E-002 +1.7002105713E-002
310000000.000 +1.1617279053E-001 -1.7929077148E-002 +5.4478645325E-003 +4.3728351593E-003 -1.0200589895E-004 -6.1672180891E-005 +3.0101776123E-002 +6.1271667480E-002
442500000.000 +1.1624145508E-001 -2.6737213135E-002 +7.8821182251E-003 +1.1444091797E-004 +3.4118071198E-005 -1.4079734683E-005 +7.2765350342E-002 +2.2373199463E-002
575000000.000 +1.1581802368E-001 -3.6190032959E-002 +6.0398578644E-003 -4.2822360992E-003 +1.7082318664E-005 +5.5477023125E-005 +2.7533531189E-002 +1.1305809021E-002
707500000.000 +1.1473464966E-001 -4.4498443604E-002 +2.5703907013E-003 -6.8054199219E-003 -4.1831284761E-005 -9.9875032902E-006 +2.4080276489E-003 +1.8555641174E-002
840000000.000 +1.1416625977E-001 -5.3672790527E-002 -1.6906261444E-003 -6.9153308868E-003 +4.3578445911E-005 -6.7073851824E-005 -1.9929885864E-002 +2.6056289673E-002
972500000.000 +1.1346435547E-001 -6.2355041504E-002 -5.1822662354E-003 -4.7731399536E-003 -1.6396865249E-005 +1.8357299268E-005 -3.5909652710E-002 +3.5867691040E-002
1105000000.000 +1.1169433594E-001 -7.1456909180E-002 -6.8428516388E-003 -1.1260509491E-003 -6.7450106144E-005 -5.8308243752E-005 -4.6716690063E-002 +3.8488388062E-002
1237500000.000 +1.1017227173E-001 -7.9696655273E-002 -6.3323974609E-003 +2.9170513153E-003 +6.4618885517E-005 -1.7080456018E-005 -5.8704376221E-002 +3.4032821655E-002
1370000000.000 +1.0825729370E-001 -8.8516235352E-002 -3.5512447357E-003 +5.9218406677E-003 -1.3728160411E-005 -1.1237803847E-005 -7.4157714844E-002 +2.7271270752E-002
1502500000.000 +1.0639190674E-001 -9.6694946289E-002 +3.1208992004E-004 +6.8731307983E-003 -7.4867159128E-005 -8.0466270447E-007 -8.8077545166E-002 +2.1671295166E-002
1635000000.000 +1.0520553589E-001 -1.0517120361E-001 +4.1451454163E-003 +5.5024623871E-003 +5.3783878684E-005 -2.3359432817E-005 -9.9227905273E-002 +1.1878967285E-002
1767500000.000 +1.0276412964E-001 -1.1413955688E-001 +6.4589977264E-003 +2.2406578064E-003 -1.9793398678E-005 +2.6133842766E-005 -1.1223220825E-001 +3.3378601074E-003
1900000000.000 +1.0063552856E-001 -1.2146377563E-001 +6.6728591919E-003 -1.8320083618E-003 -6.7617744207E-005 +3.5896897316E-005 -1.1404037476E-001 -3.1623840332E-003
2032500000.000 +9.8167419434E-002 -1.2910461426E-001 +4.4882297516E-003 -5.1031112671E-003 +1.0414049029E-005 +5.2191317081E-005 -1.1423492432E-001 -2.4177551270E-002
2165000000.000 +9.6557617188E-002 -1.3782501221E-001 +7.7867507935E-004 -6.7834854126E-003 +1.0363385081E-004 +6.4682215452E-005 -1.2298202515E-001 -4.1839599609E-002
2297500000.000 +9.3643188477E-002 -1.4524078369E-001 -3.0355453491E-003 -5.9373378754E-003 -6.0480087996E-006 +5.1962211728E-005 -1.2682342529E-001 -5.3237915039E-002
2430000000.000 +9.1133117676E-002 -1.5190124512E-001 -5.8796405792E-003 -3.1032562256E-003 -8.6002051830E-005 -1.9618123770E-004 -1.2731170654E-001 -6.4842224121E-002
2562500000.000 +8.8699340820E-002 -1.6014862061E-001 -6.5875053406E-003 +5.0592422485E-004 +3.6982819438E-005 -3.3833086491E-005 -1.2633514404E-001 -7.0510864258E-002
2695000000.000 +8.4228515625E-002 -1.6672515869E-001 -5.1598548889E-003 +4.1623115540E-003 -6.1977654696E-005 -1.6294419765E-005 -1.1402893066E-001 -7.2959899902E-002
2827500000.000 +8.0642700195E-002 -1.7208099365E-001 -2.0289421082E-003 +6.2768459320E-003 +9.1604888439E-006 -3.3635646105E-005 -9.8995208740E-002 -8.2027435303E-002
2960000000.000 +7.8300476074E-002 -1.7887878418E-001 +1.8084049225E-003 +6.2954425812E-003 +4.2002648115E-005 +7.3779374361E-005 -8.9206695557E-002 -8.6631774902E-002
3092500000.000 +7.4241638184E-002 -1.8717956543E-001 +4.8100948334E-003 +4.2238235474E-003 +2.1580606699E-005 +6.0945749283E-005 -7.1144104004E-002 -8.5437774658E-002
3225000000.000 +6.8771362305E-002 -1.9315338135E-001 +6.4775943756E-003 +9.3197822571E-004 +1.3902783394E-005 -2.0061619580E-005 -5.2227020264E-002 -9.1201782227E-002
3357500000.000 +6.5460205078E-002 -1.9802093506E-001 +5.8319568634E-003 -2.9098987579E-003 +5.0945207477E-005 -2.4663284421E-005 -4.2266845703E-002 -9.2201232910E-002
3490000000.000 +6.1996459961E-002 -2.0578002930E-001 +3.2799243927E-003 -5.5875778198E-003 +3.0085444450E-005 +1.8884241581E-004 -2.8945922852E-002 -8.3225250244E-002
3622500000.000 +5.7212829590E-002 -2.1327209473E-001 -4.0173530579E-004 -6.4861774445E-003 -2.4724751711E-005 +2.9718503356E-006 -1.1623382568E-002 -7.9212188721E-002
3755000000.000 +5.2513122559E-002 -2.1982574463E-001 -3.9100646973E-003 -5.2351951599E-003 +1.0493770242E-004 +6.6597014666E-005 -6.0806274414E-003 -7.3642730713E-002
3887500000.000 +4.8446655273E-002 -2.2618865967E-001 -6.0763359070E-003 -2.0422935486E-003 +7.1972608566E-006 +1.0365992785E-004 +1.4152526855E-003 -5.6465148926E-002
4020000000.000 +4.4380187988E-002 -2.3186492920E-001 -6.3030719757E-003 +1.6734600067E-003 +1.7592683434E-006 +1.3533979654E-005 +1.3036727905E-002 -4.4466018677E-002
4152500000.000 +4.0809631348E-002 -2.3895263672E-001 -4.2505264282E-003 +4.9695968628E-003 +4.3138861656E-006 -3.4675002098E-005 +1.5621185303E-002 -3.3185958862E-002
4285000000.000 +3.6163330078E-002 -2.4578094482E-001 -6.3681602478E-004 +6.3040256500E-003 +3.8720667362E-005 +8.8151544333E-005 +1.6775131226E-002 -1.3842582703E-002
4417500000.000 +3.1295776367E-002 -2.5106811523E-001 +3.0279159546E-003 +5.6173801422E-003 -1.0251998901E-005 -1.3480335474E-004 +2.5611877441E-002 +3.1890869141E-003
4550000000.000 +2.8305053711E-002 -2.5680541992E-001 +5.5489540100E-003 +2.8684139252E-003 -8.2280486822E-005 -1.9710510969E-005 +2.9382705688E-002 +9.0970993042E-003
4682500000.000 +2.4536132813E-002 -2.6356506348E-001 +6.1545372009E-003 -6.5088272095E-004 +1.0517425835E-005 -2.0737759769E-005 +2.6102066040E-002 +2.0035743713E-002
4815000000.000 +1.9134521484E-002 -2.6937866211E-001 +4.8012733459E-003 -3.8535594940E-003 -3.1895935535E-005 +2.6164576411E-005 +3.1623840332E-002 +2.6927947998E-002
4947500000.000 +1.6265869141E-002 -2.7406311035E-001 +1.9452571869E-003 -5.9385299683E-003 -8.5574574769E-006 -1.3016629964E-005 +2.8231620789E-002 +1.9302368164E-002
5080000000.000 +1.3442993164E-002 -2.8012084961E-001 -1.7046928406E-003 -6.0284137726E-003 +8.8233500719E-005 +2.2422522306E-005 +1.3963699341E-002 +2.0070075989E-002
5212500000.000 +8.8043212891E-003 -2.8616333008E-001 -4.7209262848E-003 -4.0941238403E-003 +2.4619512260E-005 +1.4238059521E-005 +9.8943710327E-003 +2.4494171143E-002
5345000000.000 +4.6844482422E-003 -2.9006958008E-001 -6.3128471375E-003 -8.1467628479E-004 +9.3430280685E-006 -5.7364813983E-006 +6.3991546631E-003 +1.5929222107E-002
5477500000.000 +2.7770996094E-003 -2.9457092285E-001 -5.7911872864E-003 +2.9084682465E-003 +1.1724233627E-004 -1.9934028387E-005 -8.5196495056E-003 +9.9420547485E-003
5610000000.000 -6.7138671875E-004 -3.0058288574E-001 -3.0858516693E-003 +5.6428909302E-003 +8.6501240730E-006 +7.8458338976E-005 -1.4416217804E-002 +1.4630794525E-002
5742500000.000 -5.5694580078E-003 -3.0432128906E-001 +6.1035156250E-004 +6.3786506653E-003 -3.9126724005E-005 -7.5105577707E-005 -1.0608673096E-002 +6.1788558960E-003
5875000000.000 -9.0026855469E-003 -3.0725097656E-001 +4.0757656097E-003 +4.9948692322E-003 -2.0489096642E-006 -8.1793405116E-006 -1.9518852234E-002 -3.3988952637E-003
6007500000.000 -1.1779785156E-002 -3.1115722656E-001 +6.2003135681E-003 +1.7938613892E-003 -1.1157244444E-006 -2.3297034204E-005 -2.2919654846E-002 +2.7561187744E-004
6140000000.000 -1.6021728516E-002 -3.1632995605E-001 +6.0861110687E-003 -1.9850730896E-003 -2.4146400392E-005 +1.0343268514E-005 -1.5008926392E-002 -2.2749900818E-003
6272500000.000 -2.1835327148E-002 -3.2011413574E-001 +3.9732456207E-003 -5.1138401031E-003 +1.2035947293E-005 +5.4123811424E-006 -1.5872001648E-002 -1.1250495911E-002
6405000000.000 -2.6992797852E-002 -3.2176208496E-001 +4.9567222595E-004 -6.4315795898E-003 +5.1263719797E-005 -1.6558915377E-006 -1.9170761108E-002 -6.1416625977E-003
6537500000.000 -2.9083251953E-002 -3.2563781738E-001 -3.2186508179E-003 -5.6130886078E-003 -4.6607106924E-005 +2.3171305656E-005 -9.4532966614E-003 -2.8100013733E-003
6670000000.000 -3.3630371094E-002 -3.3145141602E-001 -5.7494640350E-003 -2.8200149536E-003 +3.9190053940E-006 -5.1546841860E-005 -7.8334808350E-003 -6.4425468445E-003
6802500000.000 -4.1076660156E-002 -3.3561706543E-001 -6.3943862915E-003 +8.7809562683E-004 -1.0200776160E-005 +3.6247074604E-006 -1.1093139648E-002 +4.0626525879E-004
6935000000.000 -4.5867919922E-002 -3.3639526367E-001 -4.7886371613E-003 +4.2960643768E-003 +9.6354633570E-006 +5.1869079471E-005 -6.6270828247E-003 +9.9005699158E-003
7067500000.000 -4.8095703125E-002 -3.4056091309E-001 -1.6038417816E-003 +6.2425136566E-003 -5.2994582802E-006 +1.1853408068E-006 -5.3052902222E-003 +1.0636329651E-002
7200000000.000 -5.3314208984E-002 -3.4642028809E-001 +2.1772384644E-003 +6.0718059540E-003 +5.2172690630E-006 -2.8553418815E-005 -1.5084266663E-002 +1.7689704895E-002
7332500000.000 -6.0546875000E-002 -3.4934997559E-001 +5.1283836365E-003 +3.8053989410E-003 +3.2877549529E-005 +3.7437304854E-005 -1.7009735107E-002 +3.0517578125E-002
7465000000.000 -6.4285278320E-002 -3.5163879395E-001 +6.3753128052E-003 +3.2901763916E-004 +6.5681524575E-006 -1.1045485735E-006 -2.0533561707E-002 +3.0951499939E-002
7597500000.000 -6.7871093750E-002 -3.5659790039E-001 +5.4628849030E-003 -3.1485557556E-003 +5.0645321608E-006 +8.7274238467E-006 -3.6922454834E-002 +3.3832550049E-002
7730000000.000 -7.3379516602E-002 -3.6157226563E-001 +2.6776790619E-003 -5.7461261749E-003 +4.8421323299E-005 +2.0736828446E-005 -4.7948837280E-002 +4.3895721436E-002
7862500000.000 -7.7957153320E-002 -3.6457824707E-001 -1.0035037994E-003 -6.2122344971E-003 -6.2849372625E-005 -2.0891427994E-005 -5.3838729858E-002 +4.2076110840E-002
7995000000.000 -8.0596923828E-002 -3.6773681641E-001 -4.3473243713E-003 -4.7848224640E-003 +1.0583549738E-005 -4.0903687477E-005 -7.3551177979E-002 +3.5236358643E-002
8127500000.000 -8.4365844727E-002 -3.7409973145E-001 -6.1590671539E-003 -1.4369487762E-003 +8.3424150944E-005 -6.9923698902E-006 -9.1190338135E-002 +4.0157318115E-002
8260000000.000 -8.9950561523E-002 -3.7698364258E-001 -5.9497356415E-003 +2.2559165955E-003 -5.4055824876E-005 +4.4941902161E-005 -9.5371246338E-002 +3.4233093262E-002
8392500000.000 -9.2041015625E-002 -3.8020324707E-001 -3.7806034088E-003 +5.0845146179E-003 -2.9502436519E-005 -5.6641176343E-005 -1.1005783081E-001 +1.8741607666E-002
8525000000.000 -9.4375610352E-002 -3.8404846191E-001 -2.6679039001E-004 +6.4251422882E-003 +1.0683387518E-004 +5.4575502872E-005 -1.2200927734E-001 +1.5506744385E-002
8657500000.000 -9.7976684570E-002 -3.8793945313E-001 +3.3960342407E-003 +5.4762363434E-003 -5.9958547354E-005 +1.7259269953E-005 -1.1790847778E-001 +4.4822692871E-003
8790000000.000 -1.0113525391E-001 -3.9175415039E-001 +5.8903694153E-003 +2.6850700378E-003 -1.6588717699E-005 -1.7374753952E-005 -1.1989212036E-001 -1.6990661621E-002
8922500000.000 -1.0432434082E-001 -3.9344787598E-001 +6.2952041626E-003 -1.0609626770E-003 +1.9988976419E-005 +9.9670141935E-006 -1.2223815918E-001 -3.0071258545E-002
9055000000.000 -1.0699462891E-001 -3.9694213867E-001 +4.7073364258E-003 -4.5018196106E-003 -3.5675242543E-005 -3.0696392059E-006 -1.1122512817E-001 -4.4036865234E-002
9187500000.000 -1.0984802246E-001 -3.9907836914E-001 +1.4042854309E-003 -6.3343048096E-003 -2.6850029826E-005 -4.0326267481E-005 -1.0111618042E-001 -6.6219329834E-002
9320000000.000 -1.1523437500E-001 -4.0098571777E-001 -2.3972988129E-003 -6.0296058655E-003 +8.0945901573E-006 -8.3935447037E-006 -9.3776702881E-002 -7.8865051270E-002
9452500000.000 -1.1860656738E-001 -4.0301513672E-001 -5.3901672363E-003 -3.6890506744E-003 -3.6880373955E-006 +4.5983120799E-005 -7.4394226074E-002 -8.7070465088E-002
9585000000.000 -1.2196350098E-001 -4.0545654297E-001 -6.5608024597E-003 -2.6226043701E-006 +1.1153519154E-005 -1.3597775251E-005 -5.5603027344E-002 -1.0143280029E-001
9717500000.000 -1.2750244141E-001 -4.0870666504E-001 -5.4652690887E-003 +3.6489963531E-003 -1.7612241209E-005 +2.8317794204E-005 -4.1996002197E-002 -1.0615921021E-001
9850000000.000 -1.3359069824E-001 -4.0899658203E-001 -2.5222301483E-003 +6.1016082764E-003 -2.8503127396E-006 -1.1854805052E-005 -1.8871307373E-002 -1.0255050659E-001
9982500000.000 -1.3598632813E-001 -4.1125488281E-001 +1.4138221741E-003 +6.3116550446E-003 -5.1146373153E-005 -1.4649704099E-005 +5.5351257324E-003 -1.0442733765E-001
10115000000.000 -1.4035034180E-001 -4.1433715820E-001 +4.7130584717E-003 +4.5416355133E-003 +3.8482248783E-006 +1.6803853214E-005 +1.7925262451E-002 -9.9136352539E-002
10247500000.000 -1.4645385742E-001 -4.1636657715E-001 +6.4795017242E-003 +1.1539459229E-003 +1.1064112186E-005 +1.0473653674E-004 +3.5797119141E-002 -8.0059051514E-002
10380000000.000 -1.5081787109E-001 -4.1754150391E-001 +6.0589313507E-003 -2.7165412903E-003 -3.4995377064E-005 -5.0343573093E-005 +5.7346343994E-002 -6.9057464600E-002
10512500000.000 -1.5531921387E-001 -4.1960144043E-001 +3.5126209259E-003 -5.6350231171E-003 +6.4373016357E-006 -2.0663253963E-005 +6.1887741089E-002 -5.7291030884E-002
10645000000.000 -1.6009521484E-001 -4.2129516602E-001 -9.6797943115E-005 -6.6056251526E-003 +3.2888725400E-005 +1.7046928406E-005 +6.5975189209E-002 -2.9365539551E-002
10777500000.000 -1.6445922852E-001 -4.2350769043E-001 -3.9179325104E-003 -5.4857730865E-003 -3.7038698792E-005 -4.3027102947E-007 +7.8186035156E-002 -8.6364746094E-003
10910000000.000 -1.6958618164E-001 -4.2614746094E-001 -6.3481330872E-003 -2.2623538971E-003 -3.1068921089E-006 -5.0749629736E-005 +7.2971343994E-002 +3.8490295410E-003
11042500000.000 -1.7547607422E-001 -4.2858886719E-001 -6.4206123352E-003 +1.5532970428E-003 +5.3269788623E-005 +5.9897080064E-005 +5.9774398804E-002 +3.0479431152E-002
11175000000.000 -1.7955017090E-001 -4.3101501465E-001 -4.4612884521E-003 +5.0225257874E-003 -6.2592327595E-005 +1.4491379261E-006 +5.7636260986E-002 +5.2387237549E-002
11307500000.000 -1.8307495117E-001 -4.3286132813E-001 -8.8167190552E-004 +6.8662166595E-003 -1.4353077859E-005 +1.2938864529E-005 +4.4982910156E-002 +5.7941436768E-002
11440000000.000 -1.8778991699E-001 -4.3511962891E-001 +2.9578208923E-003 +6.0160160065E-003 +2.7503818274E-005 -7.7817589045E-005 +1.9207000732E-002 +7.1632385254E-002
11572500000.000 -1.9053649902E-001 -4.3927001953E-001 +5.8381557465E-003 +3.2796859741E-003 +4.4424086809E-005 -6.0679391026E-005 +5.5885314941E-003 +8.7593078613E-002
11705000000.000 -1.9468688965E-001 -4.4059753418E-001 +6.7069530487E-003 -6.4277648926E-004 -7.2885304689E-005 +3.6448240280E-005 -8.9759826660E-003 +8.1504821777E-002
11837500000.000 -1.9819641113E-001 -4.4326782227E-001 +5.1417350769E-003 -4.3692588806E-003 +5.5167824030E-005 -4.3937936425E-005 -4.2003631592E-002 +7.7568054199E-002
11970000000.000 -2.0034790039E-001 -4.4403076172E-001 +1.8577575684E-003 -6.4666271210E-003 +5.5089592934E-005 +3.3158808947E-005 -5.8044433594E-002 +8.3995819092E-002
12102500000.000 -2.0227050781E-001 -4.4580078125E-001 -2.1231174469E-003 -6.4630508423E-003 +3.3862888813E-005 +1.4072284102E-005 -6.5074920654E-002 +6.4968109131E-002
12235000000.000 -2.0671081543E-001 -4.4767761230E-001 -5.4709911346E-003 -4.1484832764E-003 +1.7881393433E-005 -8.0682337284E-005 -9.2918395996E-002 +4.5711517334E-002
12367500000.000 -2.0863342285E-001 -4.4778442383E-001 -6.9117546082E-003 -3.6668777466E-004 +1.3984739780E-005 -1.4046672732E-005 -1.0446166992E-001 +4.4601440430E-002
12500000000.000 -2.1322631836E-001 -4.4767761230E-001 -5.7761669159E-003 +3.4649372101E-003 -3.1029805541E-005 +1.1976808310E-006 -9.7106933594E-002 +2.0801544189E-002
12632500000.000 -2.1586608887E-001 -4.5005798340E-001 -2.7825832367E-003 +6.2313079834E-003 +9.5497816801E-006 -2.3933127522E-005 -1.1101531982E-001 -1.2233734131E-002
12765000000.000 -2.1925354004E-001 -4.5051574707E-001 +1.1832714081E-003 +6.6967010498E-003 +5.8291479945E-005 -5.4500997066E-006 -1.1767578125E-001 -1.5720367432E-002
12897500000.000 -2.2265625000E-001 -4.4908142090E-001 +4.7314167023E-003 +4.8387050629E-003 -1.1904630810E-005 +9.1851688921E-006 -9.1911315918E-002 -3.4263610840E-002
13030000000.000 -2.2479248047E-001 -4.5022583008E-001 +6.6552162170E-003 +1.2362003326E-003 -1.0269694030E-005 -2.8976239264E-005 -9.1430664063E-002 -7.1418762207E-002
13162500000.000 -2.2926330566E-001 -4.5217895508E-001 +6.2131881714E-003 -2.6285648346E-003 +2.5072135031E-005 +1.4563091099E-005 -9.3990325928E-002 -7.1285247803E-002
13295000000.000 -2.3298645020E-001 -4.5303344727E-001 +3.5970211029E-003 -5.7737827301E-003 +1.9907951355E-005 +1.0073184967E-004 -6.1542510986E-002 -7.8189849854E-002
13427500000.000 -2.3783874512E-001 -4.5188903809E-001 -2.3293495178E-004 -6.8204402924E-003 -4.2248517275E-005 -6.7785382271E-005 -4.7939300537E-002 -1.0560989380E-001
13560000000.000 -2.3751831055E-001 -4.5185852051E-001 -3.9808750153E-003 -5.3963661194E-003 -1.3824086636E-005 +3.3630058169E-006 -4.8854827881E-002 -1.0207748413E-001
13692500000.000 -2.4099731445E-001 -4.5475769043E-001 -6.4587593079E-003 -2.2137165070E-003 -1.7408281565E-005 +5.1779672503E-005 -1.8711090088E-002 -8.9302062988E-002
13825000000.000 -2.4623107910E-001 -4.5547485352E-001 -6.6232681274E-003 +1.6870498657E-003 -4.6785920858E-005 +7.2658061981E-005 +3.8375854492E-003 -1.0427093506E-001
13957500000.000 -2.5059509277E-001 -4.5343017578E-001 -4.4031143188E-003 +5.2654743195E-003 +8.3126127720E-005 -1.1825561523E-004 -8.5067749023E-004 -9.7152709961E-002
14090000000.000 -2.5193786621E-001 -4.5399475098E-001 -7.7366828918E-004 +6.7744255066E-003 +7.4841082096E-006 +3.3784657717E-005 +2.1511077881E-002 -7.1472167969E-002
14222500000.000 -2.5433349609E-001 -4.5643615723E-001 +3.2029151917E-003 +5.9001445770E-003 -7.8346580267E-005 -2.4978071451E-005 +4.3785095215E-002 -7.5397491455E-002
14355000000.000 -2.6075744629E-001 -4.5668029785E-001 +6.0949325562E-003 +3.0870437622E-003 +3.8281083107E-005 -1.0678172112E-004 +3.3874511719E-002 -6.7722320557E-002
14487500000.000 -2.6306152344E-001 -4.5646667480E-001 +6.7024230957E-003 -7.9679489136E-004 +5.7531520724E-005 -4.5448541641E-005 +4.1400909424E-002 -3.5413742065E-002
14620000000.000 -2.6393127441E-001 -4.5880126953E-001 +5.0554275513E-003 -4.6086311340E-003 +2.2079795599E-005 +5.4538249969E-005 +6.0733795166E-002 -3.2855987549E-002
14752500000.000 -2.6889038086E-001 -4.6267700195E-001 +1.5854835510E-003 -6.4582824707E-003 -1.1163949966E-004 +3.3389776945E-005 +4.3498992920E-002 -3.1663894653E-002
14885000000.000 -2.7313232422E-001 -4.6244812012E-001 -2.5019645691E-003 -6.2558650970E-003 +1.1287257075E-004 +2.6740133762E-005 +3.7845611572E-002 +1.5525817871E-003
15017500000.000 -2.7200317383E-001 -4.6449279785E-001 -5.5630207062E-003 -3.7121772766E-003 +1.4904886484E-005 +1.5577301383E-005 +5.3947448730E-002 +6.8511962891E-003
15150000000.000 -2.7349853516E-001 -4.6995544434E-001 -6.7896842957E-003 +1.2302398682E-004 -2.4227425456E-005 -2.4132430553E-005 +3.4223556519E-002 -1.0776519775E-003
15282500000.000 -2.7685546875E-001 -4.7267150879E-001 -5.3734779358E-003 +3.7457942963E-003 +7.1082264185E-005 +1.4360994101E-005 +1.5767097473E-002 +2.5295257568E-002
