!  2-Port S-parameters saved by WinCal
! VAR MeasName=S-Parameters (CALIBRATED_DATA) read from VNA (C)
! VAR MeasDate=10/5/2015 6:50:40 PM
! VAR NAME=M6079_2_7_3_3_20C_9.0mA_-17.5dBm
! VAR FILENAME=M6079_2_7_3_3_20C_9.0mA_-17.5dBm.S2P
! VAR DATE=10/5/2015 6:50:40 PM
! VAR PHYS_PORTS=2,1
! VAR ObjTypeName=DATASET
! VAR IndexType=Frequency
!
# Hz S RI R 50
45000000.000 +4.3120384216E-003 -1.5125274658E-003 -1.6756057739E-003 +5.0513744354E-003 -3.3020973206E-004 -6.4623355865E-004 +2.7569770813E-002 +3.3426284790E-003
177500000.000 +3.9234161377E-003 -6.5913200378E-003 +1.8553733826E-003 +5.2757263184E-003 -2.4501979351E-004 +2.3576617241E-004 +1.6146659851E-002 +1.6569137573E-002
310000000.000 +4.2910575867E-003 -1.2509346008E-002 +4.4846534729E-003 +3.7765502930E-003 -6.7424029112E-005 -5.1334500313E-006 +2.9991149902E-002 +6.1286926270E-002
442500000.000 +4.7426223755E-003 -1.8764495850E-002 +6.8740844727E-003 +1.7786026001E-004 +8.2243233919E-005 -2.3834407330E-005 +7.2628021240E-002 +2.2327423096E-002
575000000.000 +4.7245025635E-003 -2.5625228882E-002 +5.0473213196E-003 -3.5586357117E-003 +9.5237046480E-006 -3.7645921111E-005 +2.7425765991E-002 +1.1319160461E-002
707500000.000 +4.2743682861E-003 -3.1667709351E-002 +2.3050308228E-003 -5.6385993958E-003 -1.8396414816E-005 +1.8022954464E-005 +2.3002624512E-003 +1.8614768982E-002
840000000.000 +4.3373107910E-003 -3.8351058960E-002 -1.3985633850E-003 -5.9211254120E-003 +4.3738633394E-005 +4.5580789447E-005 -1.9912719727E-002 +2.5963783264E-002
972500000.000 +4.2247772217E-003 -4.4824600220E-002 -4.3487548828E-003 -4.0566921234E-003 -7.7970325947E-005 +8.3196908236E-005 -3.5810470581E-002 +3.5705566406E-002
1105000000.000 +3.2901763916E-003 -5.1618576050E-002 -5.9626102448E-003 -1.0557174683E-003 -5.6277960539E-005 -6.7833811045E-005 -4.6789169312E-002 +3.8400650024E-002
1237500000.000 +2.6664733887E-003 -5.7653427124E-002 -5.2978992462E-003 +2.4216175079E-003 +5.0392001867E-005 +1.6229227185E-005 -5.8572769165E-002 +3.3946990967E-002
1370000000.000 +1.4801025391E-003 -6.4201354980E-002 -3.1290054321E-003 +5.0091743469E-003 -2.1462328732E-005 +2.5893561542E-005 -7.4146270752E-002 +2.7156829834E-002
1502500000.000 +7.0190429688E-004 -7.0236206055E-002 +2.5200843811E-004 +5.9001445770E-003 +2.4449080229E-005 -2.1263025701E-005 -8.8005065918E-002 +2.1533966064E-002
1635000000.000 +2.2125244141E-004 -7.6820373535E-002 +3.4887790680E-003 +4.7438144684E-003 +8.0792233348E-006 -1.6199424863E-005 -9.9163055420E-002 +1.1840820313E-002
1767500000.000 -1.2664794922E-003 -8.3591461182E-002 +5.5165290833E-003 +1.9850730896E-003 -2.9305927455E-005 -4.3613836169E-006 -1.1213684082E-001 +3.1547546387E-003
1900000000.000 -2.2735595703E-003 -8.8935852051E-002 +5.5282115936E-003 -1.4650821686E-003 -6.0347840190E-005 -5.3081661463E-005 -1.1393737793E-001 -3.2539367676E-003
2032500000.000 -3.5018920898E-003 -9.4913482666E-002 +3.7603378296E-003 -4.3601989746E-003 -3.3695250750E-006 -3.0571594834E-005 -1.1398315430E-001 -2.4200439453E-002
2165000000.000 -4.2762756348E-003 -1.0188293457E-001 +7.3909759521E-004 -5.7621002197E-003 +1.4090910554E-005 +1.1445488781E-005 -1.2283325195E-001 -4.2049407959E-002
2297500000.000 -5.9547424316E-003 -1.0722351074E-001 -2.5482177734E-003 -5.0480365753E-003 -9.8850578070E-005 +1.7032027245E-005 -1.2675476074E-001 -5.3260803223E-002
2430000000.000 -6.9847106934E-003 -1.1264038086E-001 -4.9600601196E-003 -2.7472972870E-003 +9.1046094894E-005 -2.5033950806E-005 -1.2717437744E-001 -6.4880371094E-002
2562500000.000 -8.4304809570E-003 -1.1909866333E-001 -5.7120323181E-003 +5.6934356689E-004 +1.9278377295E-006 +3.4326687455E-005 -1.2590026855E-001 -7.0686340332E-002
2695000000.000 -1.1661529541E-002 -1.2397003174E-001 -4.3921470642E-003 +3.5374164581E-003 -6.7465007305E-005 +6.2301754951E-005 -1.1379241943E-001 -7.3005676270E-002
2827500000.000 -1.3992309570E-002 -1.2754058838E-001 -1.6694068909E-003 +5.1984786987E-003 -1.9939243793E-004 +1.7888844013E-005 -9.8960876465E-002 -8.2126617432E-002
2960000000.000 -1.5022277832E-002 -1.3320922852E-001 +1.6458034515E-003 +5.2211284637E-003 -9.3150883913E-006 +6.8861991167E-006 -8.8893890381E-002 -8.6688995361E-002
3092500000.000 -1.7837524414E-002 -1.3975524902E-001 +4.2684078217E-003 +3.3991336823E-003 -1.5664845705E-005 -2.9394403100E-005 -7.0823669434E-002 -8.5559844971E-002
3225000000.000 -2.2048950195E-002 -1.4447784424E-001 +5.3818225861E-003 +5.3191184998E-004 -1.0066106915E-004 +5.4147094488E-005 -5.1986694336E-002 -9.1106414795E-002
3357500000.000 -2.3986816406E-002 -1.4814758301E-001 +4.5921802521E-003 -2.5138854980E-003 +4.6037137508E-005 -1.3852119446E-004 -4.1904449463E-002 -9.1880798340E-002
3490000000.000 -2.6168823242E-002 -1.5433502197E-001 +2.5489330292E-003 -4.6832561493E-003 -1.2838281691E-006 +2.8496142477E-006 -2.8663635254E-002 -8.3190917969E-002
3622500000.000 -2.9533386230E-002 -1.6088867188E-001 -6.1655044556E-004 -5.3708553314E-003 +9.0636312962E-006 -4.1836872697E-005 -1.1417388916E-002 -7.9048156738E-002
3755000000.000 -3.2791137695E-002 -1.6635894775E-001 -3.5219192505E-003 -4.3339729309E-003 +6.3344836235E-005 +2.6375055313E-006 -6.0501098633E-003 -7.3337554932E-002
3887500000.000 -3.5629272461E-002 -1.7146301270E-001 -5.3496360779E-003 -1.6100406647E-003 +5.5843964219E-005 -5.9057027102E-005 +1.6479492188E-003 -5.6270599365E-002
4020000000.000 -3.7796020508E-002 -1.7584991455E-001 -5.1929950714E-003 +1.6918182373E-003 -2.9310584068E-005 +6.1389058828E-005 +1.3114929199E-002 -4.4443130493E-002
4152500000.000 -4.0130615234E-002 -1.8202209473E-001 -3.4964084625E-003 +4.3821334839E-003 -3.4932047129E-005 +2.1042302251E-005 +1.5531539917E-002 -3.2979965210E-002
4285000000.000 -4.3457031250E-002 -1.8792724609E-001 -4.2200088501E-004 +5.4724216461E-003 -4.0166079998E-005 +6.3687562943E-005 +1.6919136047E-002 -1.3465881348E-002
4417500000.000 -4.6798706055E-002 -1.9208526611E-001 +2.6535987854E-003 +4.7302246094E-003 -4.8771500587E-005 -7.2233378887E-006 +2.5591850281E-002 +3.4627914429E-003
4550000000.000 -4.8278808594E-002 -1.9686889648E-001 +4.6727657318E-003 +2.3875236511E-003 -2.3271888494E-005 -6.9342553616E-005 +2.9164314270E-002 +9.4594955444E-003
4682500000.000 -5.0743103027E-002 -2.0285797119E-001 +5.2268505096E-003 -5.7411193848E-004 +6.4369291067E-005 -2.1684914827E-005 +2.5849342346E-002 +2.0252227783E-002
4815000000.000 -5.4786682129E-002 -2.0780181885E-001 +4.0907859802E-003 -3.2892227173E-003 +1.0238494724E-005 -1.6088597476E-006 +3.1410217285E-002 +2.7263641357E-002
4947500000.000 -5.6320190430E-002 -2.1189880371E-001 +1.6417503357E-003 -4.9555301666E-003 -3.8029626012E-005 +3.4585595131E-005 +2.7939796448E-002 +1.9669532776E-002
5080000000.000 -5.7884216309E-002 -2.1702575684E-001 -1.3971328735E-003 -5.0556659698E-003 +4.7635287046E-005 +1.3044103980E-005 +1.3573646545E-002 +2.0350456238E-002
5212500000.000 -6.0958862305E-002 -2.2245025635E-001 -4.1525363922E-003 -3.4775733948E-003 +6.2081962824E-006 +3.4518539906E-005 +9.5081329346E-003 +2.4741172791E-002
5345000000.000 -6.3789367676E-002 -2.2579956055E-001 -5.4569244385E-003 -5.0997734070E-004 -1.5689060092E-005 +3.9540231228E-005 +5.9509277344E-003 +1.6165733337E-002
5477500000.000 -6.4643859863E-002 -2.2971343994E-001 -4.8625469208E-003 +2.6140213013E-003 +3.1339004636E-005 +1.2570992112E-005 -8.9416503906E-003 +1.0145664215E-002
5610000000.000 -6.6513061523E-002 -2.3474121094E-001 -2.5939941406E-003 +4.8258304596E-003 -2.3587606847E-005 +1.9563362002E-005 -1.4713764191E-002 +1.4676570892E-002
5742500000.000 -6.9923400879E-002 -2.3814392090E-001 +5.6862831116E-004 +5.4645538330E-003 -1.9408762455E-005 -1.9836239517E-005 -1.1113643646E-002 +6.1645507813E-003
5875000000.000 -7.2402954102E-002 -2.4050903320E-001 +3.5400390625E-003 +4.1308403015E-003 +5.9941783547E-005 -2.2718682885E-005 -1.9931793213E-002 -3.3836364746E-003
6007500000.000 -7.4089050293E-002 -2.4360656738E-001 +5.2080154419E-003 +1.5106201172E-003 +2.1785497665E-005 +7.5913965702E-005 -2.3280143738E-002 +2.4986267090E-004
6140000000.000 -7.6576232910E-002 -2.4826049805E-001 +5.0919055939E-003 -1.6865730286E-003 -2.3260712624E-005 -4.6057626605E-005 -1.5285968781E-002 -2.3565292358E-003
6272500000.000 -8.1192016602E-002 -2.5164794922E-001 +3.2408237457E-003 -4.3575763702E-003 +4.8596411943E-006 +3.2184645534E-005 -1.6205787659E-002 -1.1565208435E-002
6405000000.000 -8.5266113281E-002 -2.5265502930E-001 +2.4747848511E-004 -5.3341388702E-003 -3.5382807255E-005 +4.1108578444E-006 -1.9313812256E-002 -6.3629150391E-003
6537500000.000 -8.6318969727E-002 -2.5614929199E-001 -2.8257369995E-003 -4.5773983002E-003 -2.1440908313E-005 +5.9721991420E-005 -9.5496177673E-003 -3.0837059021E-003
6670000000.000 -8.9599609375E-002 -2.6158142090E-001 -4.8477649689E-003 -2.2258758545E-003 +2.6941299438E-005 -4.6640634537E-006 -7.9617500305E-003 -6.9489479065E-003
6802500000.000 -9.5657348633E-002 -2.6522827148E-001 -5.2564144135E-003 +8.4710121155E-004 +3.2637268305E-005 +1.3634562492E-006 -1.1108398438E-002 +2.4843215942E-004
6935000000.000 -9.9044799805E-002 -2.6560974121E-001 -3.9056539536E-003 +3.6437511444E-003 +2.1569430828E-006 +3.8966536522E-005 -6.5851211548E-003 +9.6230506897E-003
7067500000.000 -1.0020446777E-001 -2.6980590820E-001 -1.2483596802E-003 +5.1770210266E-003 +1.6936101019E-006 +5.8340374380E-006 -5.3267478943E-003 +1.0413169861E-002
7200000000.000 -1.0412597656E-001 -2.7510070801E-001 +1.9392967224E-003 +4.9679279327E-003 +4.3574720621E-005 +6.2305480242E-005 -1.4950752258E-002 +1.7462730408E-002
7332500000.000 -1.0971069336E-001 -2.7772521973E-001 +4.2815208435E-003 +2.9764175415E-003 -4.9501657486E-005 +3.4151598811E-005 -1.6827583313E-002 +3.0448913574E-002
7465000000.000 -1.1231994629E-001 -2.8018188477E-001 +5.2080154419E-003 +1.8143653870E-004 +1.8456950784E-005 -1.2408010662E-005 -2.0365715027E-002 +3.0863761902E-002
7597500000.000 -1.1508178711E-001 -2.8471374512E-001 +4.4038295746E-003 -2.8874874115E-003 +2.8667971492E-005 -1.3845041394E-005 -3.6748886108E-002 +3.3674240112E-002
7730000000.000 -1.1926269531E-001 -2.8942871094E-001 +2.0711421967E-003 -4.7812461853E-003 +3.8105994463E-005 +3.3108517528E-005 -4.7842025757E-002 +4.3809890747E-002
7862500000.000 -1.2243652344E-001 -2.9217529297E-001 -9.3102455139E-004 -5.0714015961E-003 -1.8289312720E-005 -4.8693269491E-005 -5.3689956665E-002 +4.2110443115E-002
7995000000.000 -1.2423706055E-001 -2.9539489746E-001 -3.5439729691E-003 -3.7392377853E-003 +1.6964972019E-005 -2.0630657673E-005 -7.3394775391E-002 +3.5301208496E-002
8127500000.000 -1.2701416016E-001 -3.0158996582E-001 -5.0477981567E-003 -1.0175704956E-003 -6.5900385380E-006 +8.9346431196E-006 -9.1152191162E-002 +4.0061950684E-002
8260000000.000 -1.3148498535E-001 -3.0413818359E-001 -4.7175884247E-003 +1.9049644470E-003 -4.2602419853E-005 +3.6789104342E-005 -9.5344543457E-002 +3.4187316895E-002
8392500000.000 -1.3240051270E-001 -3.0747985840E-001 -2.8676986694E-003 +4.2836666107E-003 +8.5309147835E-007 -3.3922493458E-005 -1.1005401611E-001 +1.8539428711E-002
8525000000.000 -1.3383483887E-001 -3.1121826172E-001 -5.0544738770E-005 +5.1453113556E-003 +4.3339096010E-006 +1.2281816453E-005 -1.2195205688E-001 +1.5262603760E-002
8657500000.000 -1.3632202148E-001 -3.1530761719E-001 +2.8686523438E-003 +4.3435096741E-003 -2.4426262826E-006 -1.0848743841E-006 -1.1787033081E-001 +4.1427612305E-003
8790000000.000 -1.3861083984E-001 -3.1877136230E-001 +4.6629905701E-003 +2.0809173584E-003 -5.3359195590E-005 -6.9811940193E-006 -1.1991119385E-001 -1.7223358154E-002
8922500000.000 -1.4074707031E-001 -3.2038879395E-001 +5.0847530365E-003 -1.1053085327E-003 +5.2683055401E-005 -2.2333115339E-006 -1.2213516235E-001 -3.0281066895E-002
9055000000.000 -1.4216613770E-001 -3.2360839844E-001 +3.6249160767E-003 -3.6034584045E-003 +5.2268151194E-006 +6.7702494562E-006 -1.1105346680E-001 -4.4368743896E-002
9187500000.000 -1.4451599121E-001 -3.2592773438E-001 +1.0499954224E-003 -4.9884319305E-003 +9.6391886473E-008 -8.2585029304E-006 -1.0085678101E-001 -6.6707611084E-002
9320000000.000 -1.4880371094E-001 -3.2762145996E-001 -1.9433498383E-003 -4.7099590302E-003 +2.6552006602E-006 +2.4951994419E-005 -9.3475341797E-002 -7.9147338867E-002
9452500000.000 -1.5121459961E-001 -3.2919311523E-001 -4.2450428009E-003 -2.8138160706E-003 +8.2317739725E-005 +5.3372234106E-005 -7.4012756348E-002 -8.7211608887E-002
9585000000.000 -1.5347290039E-001 -3.3180236816E-001 -5.1038265228E-003 +1.2469291687E-004 +1.7080456018E-006 +2.3752450943E-005 -5.5027008057E-002 -1.0163879395E-001
9717500000.000 -1.5812683105E-001 -3.3496093750E-001 -4.2037963867E-003 +2.8405189514E-003 +5.8693811297E-005 -5.0887465477E-005 -4.1606903076E-002 -1.0635375977E-001
9850000000.000 -1.6313171387E-001 -3.3509826660E-001 -1.8024444580E-003 +4.7473907471E-003 +6.5453350544E-006 +5.2198767662E-005 -1.8356323242E-002 -1.0247039795E-001
9982500000.000 -1.6458129883E-001 -3.3734130859E-001 +1.1618137360E-003 +4.8978328705E-003 -3.0517578125E-005 +2.0228326321E-006 +6.1302185059E-003 -1.0420989990E-001
10115000000.000 -1.6781616211E-001 -3.4065246582E-001 +3.7108659744E-003 +3.4521818161E-003 +6.2067061663E-005 -2.2843480110E-005 +1.8527984619E-002 -9.8846435547E-002
10247500000.000 -1.7306518555E-001 -3.4266662598E-001 +5.0370693207E-003 +7.8082084656E-004 -5.8868899941E-006 +1.2928154320E-005 +3.6251068115E-002 -7.9631805420E-002
10380000000.000 -1.7666625977E-001 -3.4379577637E-001 +4.5747756958E-003 -2.0794868469E-003 -1.2662261724E-005 +6.9737434387E-005 +5.7621002197E-002 -6.8374633789E-002
10512500000.000 -1.8008422852E-001 -3.4597778320E-001 +2.6648044586E-003 -4.2834281921E-003 +4.8931688070E-006 -1.1993106455E-005 +6.2177658081E-002 -5.6667327881E-002
10645000000.000 -1.8368530273E-001 -3.4741210938E-001 -1.5759468079E-004 -4.9602985382E-003 +5.5992975831E-005 +2.1319836378E-005 +6.6093444824E-002 -2.8701782227E-002
10777500000.000 -1.8708801270E-001 -3.5003662109E-001 -2.9194355011E-003 -4.0793418884E-003 -3.3229589462E-006 +1.6008503735E-005 +7.8144073486E-002 -7.7934265137E-003
10910000000.000 -1.9134521484E-001 -3.5269165039E-001 -4.6496391296E-003 -1.7602443695E-003 -4.9643218517E-005 -1.4455989003E-005 +7.2708129883E-002 +4.9476623535E-003
11042500000.000 -1.9627380371E-001 -3.5494995117E-001 -4.8680305481E-003 +1.1913776398E-003 -5.8162957430E-005 +3.5157427192E-005 +5.9236526489E-002 +3.1414031982E-002
11175000000.000 -1.9912719727E-001 -3.5783386230E-001 -3.3825635910E-003 +3.6619901657E-003 -3.2123178244E-005 +9.8302960396E-005 +5.6947708130E-002 +5.2888870239E-002
11307500000.000 -2.0179748535E-001 -3.5977172852E-001 -7.2050094604E-004 +4.9691200256E-003 +5.0533562899E-006 +2.2072345018E-005 +4.4183731079E-002 +5.8443069458E-002
11440000000.000 -2.0585632324E-001 -3.6201477051E-001 +2.0539760590E-003 +4.5373439789E-003 +5.0967559218E-005 -2.8828158975E-005 +1.8203735352E-002 +7.2254180908E-002
11572500000.000 -2.0739746094E-001 -3.6657714844E-001 +4.2717456818E-003 +2.5794506073E-003 -2.2467225790E-005 +6.2290579081E-005 +4.4097900391E-003 +8.7882995605E-002
11705000000.000 -2.1058654785E-001 -3.6843872070E-001 +5.0454139709E-003 -2.5939941406E-004 +1.1419877410E-005 +6.0491263866E-005 -1.0116577148E-002 +8.1310272217E-002
11837500000.000 -2.1371459961E-001 -3.7133789063E-001 +4.0335655212E-003 -3.0567646027E-003 -1.1168885976E-005 +1.9595026970E-006 -4.3064117432E-002 +7.7114105225E-002
11970000000.000 -2.1504211426E-001 -3.7216186523E-001 +1.5397071838E-003 -4.7378540039E-003 +2.1572923288E-006 +1.5023397282E-006 -5.9185028076E-002 +8.3374023438E-002
12102500000.000 -2.1580505371E-001 -3.7442016602E-001 -1.3856887817E-003 -4.7285556793E-003 -3.7649646401E-005 -2.2938475013E-005 -6.5822601318E-002 +6.4289093018E-002
12235000000.000 -2.1942138672E-001 -3.7644958496E-001 -3.7401914597E-003 -3.2657384872E-003 +3.5105273128E-005 -2.0889565349E-005 -9.3544006348E-002 +4.4754028320E-002
12367500000.000 -2.2074890137E-001 -3.7712097168E-001 -4.9116611481E-003 -6.0200691223E-004 +1.4340505004E-005 -2.3626722395E-005 -1.0509490967E-001 +4.3361663818E-002
12500000000.000 -2.2453308105E-001 -3.7649536133E-001 -4.3637752533E-003 +2.2943019867E-003 +5.6698918343E-006 +3.0538067222E-005 -9.7354888916E-002 +1.9565582275E-002
12632500000.000 -2.2657775879E-001 -3.7927246094E-001 -2.3081302643E-003 +4.3563842773E-003 +4.2336061597E-005 -2.7481466532E-005 -1.1056900024E-001 -1.3416290283E-002
12765000000.000 -2.2880554199E-001 -3.8018798828E-001 +4.1699409485E-004 +4.9219131470E-003 +7.7340751886E-005 -5.7816505432E-005 -1.1741638184E-001 -1.6845703125E-002
12897500000.000 -2.3179626465E-001 -3.7872314453E-001 +3.1238794327E-003 +3.7335157394E-003 +3.0199997127E-005 -1.4370307326E-005 -9.1655731201E-002 -3.5167694092E-002
13030000000.000 -2.3335266113E-001 -3.7980651855E-001 +4.6949386597E-003 +1.4138221741E-003 +1.3258308172E-005 -3.4706667066E-005 -9.0503692627E-002 -7.2166442871E-002
13162500000.000 -2.3686218262E-001 -3.8232421875E-001 +4.7132968903E-003 -1.4865398407E-003 +6.4395368099E-005 -1.6655772924E-005 -9.2536926270E-002 -7.1796417236E-002
13295000000.000 -2.4000549316E-001 -3.8310241699E-001 +3.1015872955E-003 -3.7492513657E-003 +1.0281801224E-006 +9.9286437035E-005 -6.0405731201E-002 -7.8651428223E-002
13427500000.000 -2.4412536621E-001 -3.8244628906E-001 +5.0449371338E-004 -4.7152042389E-003 +1.4381483197E-005 +1.4904886484E-005 -4.6794891357E-002 -1.0537719727E-001
13560000000.000 -2.4281311035E-001 -3.8256835938E-001 -2.2909641266E-003 -4.2757987976E-003 +1.3969838619E-005 -4.3330714107E-005 -4.7325134277E-002 -1.0172653198E-001
13692500000.000 -2.4554443359E-001 -3.8606262207E-001 -4.3251514435E-003 -2.2222995758E-003 +1.1228024960E-005 -5.0144270062E-005 -1.7635345459E-002 -8.8962554932E-002
13825000000.000 -2.5047302246E-001 -3.8691711426E-001 -4.7471523285E-003 +5.3501129150E-004 +2.5413930416E-005 -4.3863430619E-005 +4.7645568848E-003 -1.0350418091E-001
13957500000.000 -2.5363159180E-001 -3.8511657715E-001 -3.6566257477E-003 +3.2123327255E-003 +9.7952783108E-005 -1.4837086201E-004 -1.2969970703E-004 -9.6149444580E-002
14090000000.000 -2.5433349609E-001 -3.8584899902E-001 -1.3320446014E-003 +4.7268867493E-003 -4.0287151933E-005 +5.0982460380E-005 +2.2277832031E-002 -7.0529937744E-002
14222500000.000 -2.5624084473E-001 -3.8885498047E-001 +1.6813278198E-003 +4.5869350433E-003 -2.0612031221E-005 +6.2752515078E-005 +4.3998718262E-002 -7.4386596680E-002
14355000000.000 -2.6190185547E-001 -3.8934326172E-001 +3.8402080536E-003 +2.9510259628E-003 +3.2116658986E-006 +1.1839903891E-005 +3.3737182617E-002 -6.6711425781E-002
14487500000.000 -2.6373291016E-001 -3.8935852051E-001 +4.9583911896E-003 +1.9311904907E-004 +1.1341646314E-004 -3.3743679523E-005 +4.1313171387E-002 -3.4587860107E-002
14620000000.000 -2.6426696777E-001 -3.9233398438E-001 +4.0991306305E-003 -2.5210380554E-003 +5.1582232118E-005 -3.6187469959E-005 +6.0344696045E-002 -3.2136917114E-002
14752500000.000 -2.6872253418E-001 -3.9648437500E-001 +1.9705295563E-003 -4.3563842773E-003 +2.8252601624E-005 -9.4100832939E-005 +4.2970657349E-002 -3.0950546265E-002
14885000000.000 -2.7221679688E-001 -3.9656066895E-001 -7.8773498535E-004 -4.7342777252E-003 -2.7865171432E-005 +6.1534345150E-005 +3.6972045898E-002 +1.9073486328E-003
15017500000.000 -2.7050781250E-001 -3.9930725098E-001 -3.2734870911E-003 -3.3625364304E-003 -5.8623030782E-005 -1.7547979951E-005 +5.3234100342E-002 +7.3165893555E-003
15150000000.000 -2.7191162109E-001 -4.0509033203E-001 -4.7080516815E-003 -9.9325180054E-004 -5.1060691476E-005 -2.7723610401E-005 +3.3695220947E-002 -1.0700225830E-003
15282500000.000 -2.7473449707E-001 -4.0786743164E-001 -4.2328834534E-003 +1.8401145935E-003 +1.0427460074E-004 -9.1042369604E-005 +1.5433311462E-002 +2.4874687195E-002
