!  2-Port S-parameters saved by WinCal
! VAR MeasName=S-Parameters (CALIBRATED_DATA) read from VNA (C)
! VAR MeasDate=10/5/2015 4:50:22 PM
! VAR NAME=M6079_4_7_3_2_20C_2.1mA_-17.5dBm
! VAR FILENAME=M6079_4_7_3_2_20C_2.1mA_-17.5dBm.S2P
! VAR DATE=10/5/2015 4:50:22 PM
! VAR PHYS_PORTS=2,1
! VAR ObjTypeName=DATASET
! VAR IndexType=Frequency
!
# Hz S RI R 50
45000000.000 +1.7132568359E-001 -3.3111572266E-003 -1.0247230530E-003 +8.0084800720E-003 -6.5755844116E-004 -1.8501281738E-003 +2.8654098511E-002 +1.8157958984E-003
177500000.000 +1.7208099365E-001 -1.1589050293E-002 +2.2735595703E-003 +6.1235427856E-003 -7.8693032265E-005 +1.2444704771E-004 +1.6306877136E-002 +1.6921043396E-002
310000000.000 +1.7207336426E-001 -2.1720886230E-002 +5.2680969238E-003 +4.2133331299E-003 -3.6871060729E-005 +3.4803524613E-005 +3.0206680298E-002 +6.1298370361E-002
442500000.000 +1.7179107666E-001 -3.2066345215E-002 +7.5778961182E-003 -1.4710426331E-004 -5.7946890593E-006 +4.9049034715E-005 +7.2856903076E-002 +2.2361755371E-002
575000000.000 +1.7080688477E-001 -4.3113708496E-002 +5.6655406952E-003 -4.1399002075E-003 -1.8147751689E-005 -2.5911256671E-005 +2.7523040771E-002 +1.1374473572E-002
707500000.000 +1.6928863525E-001 -5.2856445313E-002 +2.3396015167E-003 -6.5128803253E-003 +3.1087547541E-005 -2.1556392312E-005 +2.3994445801E-003 +1.8534660339E-002
840000000.000 +1.6808319092E-001 -6.3522338867E-002 -1.6324520111E-003 -6.6189765930E-003 -1.3204291463E-005 +2.8189271688E-005 -2.0000457764E-002 +2.6040077209E-002
972500000.000 +1.6688537598E-001 -7.3486328125E-002 -4.9800872803E-003 -4.4014453888E-003 -4.3330714107E-005 +4.0210783482E-005 -3.5942077637E-002 +3.5783767700E-002
1105000000.000 +1.6448974609E-001 -8.3869934082E-002 -6.5894126892E-003 -8.4376335144E-004 +7.0347450674E-006 +1.2500677258E-005 -4.6770095825E-002 +3.8473129272E-002
1237500000.000 +1.6233825684E-001 -9.3276977539E-002 -5.8977603912E-003 +2.9938220978E-003 +2.5597400963E-006 +1.3847369701E-005 -5.8635711670E-002 +3.3912658691E-002
1370000000.000 +1.5981292725E-001 -1.0346221924E-001 -3.2396316528E-003 +5.8143138885E-003 +1.2524425983E-005 +8.7060034275E-005 -7.4207305908E-002 +2.7320861816E-002
1502500000.000 +1.5710449219E-001 -1.1277008057E-001 +5.5241584778E-004 +6.5510272980E-003 -5.2098184824E-006 +3.3354386687E-005 -8.8043212891E-002 +2.1636962891E-002
1635000000.000 +1.5518188477E-001 -1.2203216553E-001 +4.0893554688E-003 +5.1705837250E-003 +1.0494142771E-005 +3.5252422094E-005 -9.9224090576E-002 +1.1833190918E-002
1767500000.000 +1.5212249756E-001 -1.3226318359E-001 +6.3498020172E-003 +1.9738674164E-003 +1.4516990632E-005 -5.3751282394E-006 -1.1227416992E-001 +3.2920837402E-003
1900000000.000 +1.4893341064E-001 -1.4085388184E-001 +6.2489509583E-003 -1.9176006317E-003 -8.7082386017E-005 +5.0481408834E-005 -1.1404800415E-001 -3.1013488770E-003
2032500000.000 +1.4556884766E-001 -1.4927673340E-001 +4.1947364807E-003 -5.0537586212E-003 +4.5407563448E-005 -5.5653974414E-005 -1.1423110962E-001 -2.4124145508E-002
2165000000.000 +1.4321899414E-001 -1.5897369385E-001 +5.8746337891E-004 -6.4127445221E-003 -7.0650130510E-006 +5.8759003878E-005 -1.2295150757E-001 -4.1816711426E-002
2297500000.000 +1.3935089111E-001 -1.6738891602E-001 -3.1473636627E-003 -5.6011676788E-003 +2.5570392609E-005 +3.8597732782E-005 -1.2677001953E-001 -5.3230285645E-002
2430000000.000 +1.3580322266E-001 -1.7472839355E-001 -5.7389736176E-003 -2.9108524323E-003 -3.1143426895E-006 -1.2286007404E-004 -1.2738037109E-001 -6.4796447754E-002
2562500000.000 +1.3252258301E-001 -1.8363952637E-001 -6.3641071320E-003 +7.7438354492E-004 -2.0489096642E-007 +6.6433101892E-005 -1.2631988525E-001 -7.0281982422E-002
2695000000.000 +1.2715148926E-001 -1.9104003906E-001 -4.7276020050E-003 +4.2009353638E-003 -2.2422522306E-005 +4.9900263548E-005 -1.1432647705E-001 -7.2811126709E-002
2827500000.000 +1.2268066406E-001 -1.9702148438E-001 -1.6672611237E-003 +6.1001777649E-003 +2.5000423193E-005 -5.7287514210E-005 -9.9002838135E-002 -8.1916809082E-002
2960000000.000 +1.1969757080E-001 -2.0431518555E-001 +2.0322799683E-003 +5.9831142426E-003 +1.0493770242E-004 -2.6114284992E-006 -8.9260101318E-002 -8.6738586426E-002
3092500000.000 +1.1482238770E-001 -2.1315765381E-001 +5.0656795502E-003 +3.9846897125E-003 -8.6866319180E-005 +1.4317780733E-004 -7.1174621582E-002 -8.5540771484E-002
3225000000.000 +1.0833740234E-001 -2.1974945068E-001 +6.3714981079E-003 +3.1161308289E-004 -1.1687725782E-004 -1.2987107038E-004 -5.2295684814E-002 -9.1335296631E-002
3357500000.000 +1.0433959961E-001 -2.2515869141E-001 +5.6076049805E-003 -3.1220912933E-003 +8.9034438133E-005 -3.9361417294E-005 -4.2270660400E-002 -9.2178344727E-002
3490000000.000 +1.0024261475E-001 -2.3352813721E-001 +2.7799606323E-003 -5.8021545410E-003 -1.5463680029E-005 +3.2298266888E-005 -2.8823852539E-002 -8.3206176758E-002
3622500000.000 +9.4467163086E-002 -2.4136352539E-001 -7.7962875366E-004 -6.3779354095E-003 -3.8709491491E-005 -7.6990574598E-005 -1.1707305908E-002 -7.9044342041E-002
3755000000.000 +8.9286804199E-002 -2.4837493896E-001 -4.2235851288E-003 -4.7423839569E-003 +7.9069286585E-005 -1.9937753677E-005 -5.9928894043E-003 -7.3734283447E-002
3887500000.000 +8.4457397461E-002 -2.5520324707E-001 -6.3827037811E-003 -1.6260147095E-003 -5.0254166126E-005 +1.4800578356E-004 +1.4114379883E-003 -5.6520462036E-002
4020000000.000 +7.9666137695E-002 -2.6135253906E-001 -6.1755180359E-003 +2.2370815277E-003 +5.5331736803E-005 +3.4106895328E-005 +1.3011932373E-002 -4.4597625732E-002
4152500000.000 +7.5363159180E-002 -2.6861572266E-001 -3.8154125214E-003 +5.4111480713E-003 -2.9286369681E-005 -4.8369169235E-005 +1.5571594238E-002 -3.3246994019E-002
4285000000.000 +7.0251464844E-002 -2.7592468262E-001 -1.4328956604E-004 +6.5438747406E-003 +1.3826880604E-005 +4.0177255869E-006 +1.6912460327E-002 -1.3914108276E-002
4417500000.000 +6.4636230469E-002 -2.8169250488E-001 +3.6473274231E-003 +5.4967403412E-003 +1.9095838070E-005 +6.1269849539E-005 +2.5567054749E-002 +3.1738281250E-003
4550000000.000 +6.1248779297E-002 -2.8775024414E-001 +5.9952735901E-003 +2.4850368500E-003 +5.5041164160E-005 -4.6465545893E-005 +2.9438972473E-002 +9.1142654419E-003
4682500000.000 +5.7006835938E-002 -2.9519653320E-001 +6.3314437866E-003 -1.4247894287E-003 +4.5634806156E-006 +4.5297667384E-005 +2.6108741760E-002 +1.9967079163E-002
4815000000.000 +5.1025390625E-002 -3.0152893066E-001 +4.5940876007E-003 -4.6494007111E-003 -1.7890706658E-006 -6.0873571783E-006 +3.1696319580E-002 +2.6819229126E-002
4947500000.000 +4.7393798828E-002 -3.0670166016E-001 +1.2800693512E-003 -6.5283775330E-003 -1.5666708350E-005 -3.2443553209E-005 +2.8317451477E-002 +1.9338607788E-002
5080000000.000 +4.4158935547E-002 -3.1338500977E-001 -2.7186870575E-003 -6.1118602753E-003 +3.0473805964E-005 +3.0500814319E-006 +1.3997077942E-002 +2.0059585571E-002
5212500000.000 +3.8787841797E-002 -3.2002258301E-001 -5.8078765869E-003 -3.6475658417E-003 +8.8457018137E-006 +4.8268586397E-005 +9.9725723267E-003 +2.4482727051E-002
5345000000.000 +3.3782958984E-002 -3.2389831543E-001 -6.8726539612E-003 +2.2697448730E-004 -4.8149377108E-005 -7.6629221439E-006 +6.4411163330E-003 +1.5908241272E-002
5477500000.000 +3.1127929688E-002 -3.2896423340E-001 -5.5716037750E-003 +4.1515827179E-003 +6.5177679062E-005 -1.5422701836E-006 -8.4939002991E-003 +9.8671913147E-003
5610000000.000 +2.6901245117E-002 -3.3549499512E-001 -2.2056102753E-003 +6.7367553711E-003 +1.1922791600E-005 +5.1513314247E-005 -1.4268875122E-002 +1.4626979828E-002
5742500000.000 +2.1118164063E-002 -3.3917236328E-001 +1.9233226776E-003 +6.8795681000E-003 +7.6368451118E-007 -2.4199835025E-007 -1.0622501373E-002 +6.2584877014E-003
5875000000.000 +1.6921997070E-002 -3.4216308594E-001 +5.4299831390E-003 +4.6129226685E-003 +8.1654638052E-005 -2.0772218704E-005 -1.9530296326E-002 -3.3874511719E-003
6007500000.000 +1.3793945313E-002 -3.4640502930E-001 +7.2197914124E-003 +5.9795379639E-004 -3.8426369429E-006 +4.8780813813E-005 -2.2908210754E-002 +4.3296813965E-004
6140000000.000 +8.7127685547E-003 -3.5185241699E-001 +6.1922073364E-003 -3.5862922668E-003 +1.4870427549E-005 +2.1624378860E-005 -1.4904022217E-002 -2.1572113037E-003
6272500000.000 +2.2888183594E-003 -3.5537719727E-001 +3.2770633698E-003 -6.4795017242E-003 +1.9490718842E-005 -3.7612393498E-005 -1.5795707703E-002 -1.1329650879E-002
6405000000.000 -3.3874511719E-003 -3.5757446289E-001 -9.8013877869E-004 -7.1692466736E-003 +5.1215291023E-005 +4.2226165533E-006 -1.9162178040E-002 -6.0911178589E-003
6537500000.000 -6.1035156250E-003 -3.6166381836E-001 -4.9872398376E-003 -5.4275989532E-003 +1.7985701561E-005 +1.0560266674E-005 -9.4666481018E-003 -2.7031898499E-003
6670000000.000 -1.1245727539E-002 -3.6727905273E-001 -7.2522163391E-003 -1.6796588898E-003 -2.1112151444E-005 -9.1725960374E-006 -7.7667236328E-003 -6.4263343811E-003
6802500000.000 -1.9104003906E-002 -3.7188720703E-001 -6.9165229797E-003 +2.7220249176E-003 +2.7768313885E-005 -1.4460645616E-005 -1.1061191559E-002 +5.2690505981E-004
6935000000.000 -2.4414062500E-002 -3.7338256836E-001 -4.0287971497E-003 +6.3755512238E-003 -4.0918588638E-005 +2.7265399694E-005 -6.6394805908E-003 +9.9034309387E-003
7067500000.000 -2.7008056641E-002 -3.7748718262E-001 +1.9335746765E-004 +7.6327323914E-003 +2.7958303690E-006 -1.8220394850E-005 -5.3234100342E-003 +1.0684013367E-002
7200000000.000 -3.2852172852E-002 -3.8320922852E-001 +4.3909549713E-003 +6.2742233276E-003 -4.0451064706E-005 +2.7544796467E-005 -1.5000343323E-002 +1.7769813538E-002
7332500000.000 -4.0420532227E-002 -3.8696289063E-001 +7.3499679565E-003 +2.5539398193E-003 -1.5824101865E-005 -2.2951513529E-005 -1.6963958740E-002 +3.0498504639E-002
7465000000.000 -4.4647216797E-002 -3.8958740234E-001 +7.5154304504E-003 -2.1438598633E-003 -2.1274201572E-005 +1.2376345694E-005 -2.0526885986E-002 +3.0961990356E-002
7597500000.000 -4.8782348633E-002 -3.9410400391E-001 +5.2118301392E-003 -5.9189796448E-003 -2.9290094972E-006 -2.9861927032E-005 -3.6857604980E-002 +3.3880233765E-002
7730000000.000 -5.4763793945E-002 -4.0014648438E-001 +7.5101852417E-004 -7.9307556152E-003 -4.2332336307E-005 -1.3621523976E-005 -4.7988891602E-002 +4.3918609619E-002
7862500000.000 -5.9875488281E-002 -4.0472412109E-001 -4.3623447418E-003 -6.8490505219E-003 -1.6206875443E-005 -4.6370550990E-006 -5.3913116455E-002 +4.2022705078E-002
7995000000.000 -6.2774658203E-002 -4.0710449219E-001 -7.3571205139E-003 -3.5026073456E-003 +1.0259449482E-005 -6.8668276072E-005 -7.3562622070E-002 +3.5247802734E-002
8127500000.000 -6.7214965820E-002 -4.1392517090E-001 -8.0919265747E-003 +1.3413429260E-003 +1.9777566195E-005 +2.7761794627E-005 -9.1175079346E-002 +4.0145874023E-002
8260000000.000 -7.3638916016E-002 -4.1850280762E-001 -5.6252479553E-003 +6.1662197113E-003 -4.7303736210E-005 -1.4007091522E-006 -9.5294952393E-002 +3.4404754639E-002
8392500000.000 -7.6232910156E-002 -4.2140197754E-001 -1.3766288757E-003 +8.3365440369E-003 -1.7989426851E-005 -8.7618827820E-005 -1.1000823975E-001 +1.8714904785E-002
8525000000.000 -7.9238891602E-002 -4.2552185059E-001 +3.6425590515E-003 +7.7819824219E-003 +2.3901462555E-005 -1.7368234694E-005 -1.2203216553E-001 +1.5510559082E-002
8657500000.000 -8.4167480469E-002 -4.3164062500E-001 +7.8458786011E-003 +3.6401748657E-003 -3.9976090193E-005 +5.1246955991E-005 -1.1791610718E-001 +4.5623779297E-003
8790000000.000 -8.8317871094E-002 -4.3626403809E-001 +8.6731910706E-003 -1.7471313477E-003 -8.3923339844E-005 -5.0924718380E-005 -1.1988067627E-001 -1.6921997070E-002
8922500000.000 -9.1827392578E-002 -4.3745422363E-001 +6.4747333527E-003 -6.1035156250E-003 -5.6074932218E-006 +2.1649524570E-005 -1.2220001221E-001 -2.9956817627E-002
9055000000.000 -9.6359252930E-002 -4.4245910645E-001 +1.2631416321E-003 -8.8462829590E-003 +8.8326632977E-006 +5.5249780416E-005 -1.1124038696E-001 -4.4029235840E-002
9187500000.000 -1.0052490234E-001 -4.4506835938E-001 -4.2300224304E-003 -7.8787803650E-003 -1.9578728825E-006 -3.2841926441E-006 -1.0104370117E-001 -6.6200256348E-002
9320000000.000 -1.0643005371E-001 -4.4700622559E-001 -7.9112052917E-003 -4.2510032654E-003 +3.7994468585E-006 -3.2882671803E-006 -9.3669891357E-002 -7.8750610352E-002
9452500000.000 -1.1143493652E-001 -4.4950866699E-001 -8.8858604431E-003 +1.3761520386E-003 +3.2186508179E-006 -8.9192762971E-006 -7.4394226074E-002 -8.6990356445E-002
9585000000.000 -1.1741638184E-001 -4.5300292969E-001 -5.9115886688E-003 +6.6323280334E-003 +8.0955214798E-006 -1.2530479580E-005 -5.5511474609E-002 -1.0141372681E-001
9717500000.000 -1.2295532227E-001 -4.5555114746E-001 -1.6059875488E-003 +8.9564323425E-003 +2.9118731618E-005 -4.5724213123E-005 -4.2144775391E-002 -1.0615539551E-001
9850000000.000 -1.3102722168E-001 -4.5642089844E-001 +4.1279792786E-003 +8.0289840698E-003 -2.3376196623E-006 +5.1386654377E-005 -1.8859863281E-002 -1.0251617432E-001
9982500000.000 -1.3568115234E-001 -4.5877075195E-001 +7.9379081726E-003 +3.7240982056E-003 -2.5302171707E-005 -1.0894611478E-005 +5.4626464844E-003 -1.0448455811E-001
10115000000.000 -1.4065551758E-001 -4.6138000488E-001 +8.7485313416E-003 -1.3561248779E-003 -3.2816082239E-005 +2.4791806936E-006 +1.7990112305E-002 -9.9166870117E-002
10247500000.000 -1.4802551270E-001 -4.6311950684E-001 +6.3915252686E-003 -6.0026645660E-003 +2.2526830435E-005 +4.1291117668E-005 +3.5766601563E-002 -8.0097198486E-002
10380000000.000 -1.5550231934E-001 -4.6385192871E-001 +8.8548660278E-004 -8.3556175232E-003 -1.3717915863E-005 +1.1496245861E-005 +5.7281494141E-002 -6.9072723389E-002
10512500000.000 -1.6023254395E-001 -4.6548461914E-001 -3.6821365356E-003 -7.6363086700E-003 -3.2214447856E-005 +7.5120478868E-006 +6.1902999878E-002 -5.7527542114E-002
10645000000.000 -1.6517639160E-001 -4.6646118164E-001 -7.3266029358E-003 -4.5070648193E-003 +7.1547925472E-005 +4.3991953135E-005 +6.6005706787E-002 -2.9373168945E-002
10777500000.000 -1.7218017578E-001 -4.6795654297E-001 -8.1315040588E-003 +1.2207031250E-003 -9.3015842140E-006 -1.3001263142E-006 +7.8197479248E-002 -8.6555480957E-003
10910000000.000 -1.7872619629E-001 -4.6957397461E-001 -5.7394504547E-003 +5.5894851685E-003 -8.8494271040E-006 -2.1502375603E-005 +7.3024749756E-002 +3.9558410645E-003
11042500000.000 -1.8478393555E-001 -4.7152709961E-001 -1.9164085388E-003 +7.8406333923E-003 +7.6908618212E-006 -5.7144090533E-005 +5.9812545776E-002 +3.0544281006E-002
11175000000.000 -1.9018554688E-001 -4.7288513184E-001 +2.9187202454E-003 +7.2777271271E-003 -3.1752511859E-005 +4.2969360948E-005 +5.7662963867E-002 +5.2433013916E-002
11307500000.000 -1.9532775879E-001 -4.7332763672E-001 +6.4828395844E-003 +3.7910938263E-003 -3.1342729926E-005 -3.8480386138E-005 +4.5034408569E-002 +5.7979583740E-002
11440000000.000 -2.0043945313E-001 -4.7492980957E-001 +7.5573921204E-003 -4.2152404785E-004 +7.3485076427E-005 -2.6196241379E-005 +1.9187927246E-002 +7.1704864502E-002
11572500000.000 -2.0393371582E-001 -4.7817993164E-001 +5.8422088623E-003 -4.5881271362E-003 -3.1199306250E-005 -2.5197863579E-005 +5.5618286133E-003 +8.7596893311E-002
11705000000.000 -2.0915222168E-001 -4.7814941406E-001 +1.9886493683E-003 -6.8175792694E-003 +4.7236680984E-006 -8.4270723164E-006 -8.9073181152E-003 +8.1523895264E-002
11837500000.000 -2.1319580078E-001 -4.7999572754E-001 -2.2912025452E-003 -6.6657066345E-003 -8.2910992205E-006 +1.0007526726E-005 -4.1873931885E-002 +7.7537536621E-002
11970000000.000 -2.1559143066E-001 -4.7996520996E-001 -5.5391788483E-003 -4.1956901550E-003 +3.9394944906E-005 -3.5036355257E-006 -5.8109283447E-002 +8.4030151367E-002
12102500000.000 -2.1827697754E-001 -4.8043823242E-001 -6.6595077515E-003 -2.0933151245E-004 +2.9394403100E-005 +3.8633123040E-005 -6.4960479736E-002 +6.5071105957E-002
12235000000.000 -2.2305297852E-001 -4.8124694824E-001 -5.4209232330E-003 +3.7000179291E-003 +1.7981044948E-005 -1.0493211448E-005 -9.2933654785E-002 +4.5783996582E-002
12367500000.000 -2.2526550293E-001 -4.8107910156E-001 -2.5434494019E-003 +6.1018466949E-003 +1.7896294594E-005 -2.3571774364E-006 -1.0450744629E-001 +4.4586181641E-002
12500000000.000 -2.3057556152E-001 -4.7933959961E-001 +1.5697479248E-003 +6.0822963715E-003 -6.0571357608E-005 +5.7827681303E-005 -9.7003936768E-002 +2.0973205566E-002
12632500000.000 -2.3335266113E-001 -4.8049926758E-001 +4.5158863068E-003 +3.9618015289E-003 -4.8041343689E-005 -9.8317861557E-005 -1.1103820801E-001 -1.2187957764E-002
12765000000.000 -2.3674011230E-001 -4.8027038574E-001 +5.9142112732E-003 +7.0834159851E-004 +2.5913119316E-005 +1.5594996512E-005 -1.1779022217E-001 -1.5598297119E-002
12897500000.000 -2.4038696289E-001 -4.7779846191E-001 +5.0969123840E-003 -2.6590824127E-003 +7.7043659985E-006 +4.6216882765E-006 -9.2044830322E-002 -3.4133911133E-002
13030000000.000 -2.4258422852E-001 -4.7789001465E-001 +2.5651454926E-003 -4.9033164978E-003 -4.2596831918E-005 +3.2614916563E-005 -9.1560363770E-002 -7.1365356445E-002
13162500000.000 -2.4716186523E-001 -4.7898864746E-001 -6.7782402039E-004 -5.4204463959E-003 +1.2191012502E-006 -2.9503367841E-005 -9.4116210938E-002 -7.1289062500E-002
13295000000.000 -2.5109863281E-001 -4.7888183594E-001 -3.6134719849E-003 -4.0328502655E-003 -5.6700780988E-005 -3.3894553781E-005 -6.1683654785E-002 -7.8235626221E-002
13427500000.000 -2.5569152832E-001 -4.7662353516E-001 -5.0082206726E-003 -1.2047290802E-003 +6.7697837949E-006 -1.7845071852E-005 -4.7996520996E-002 -1.0562896729E-001
13560000000.000 -2.5541687012E-001 -4.7601318359E-001 -4.7421455383E-003 +1.7495155334E-003 -2.2526830435E-005 -5.6939199567E-005 -4.8965454102E-002 -1.0215377808E-001
13692500000.000 -2.5883483887E-001 -4.7814941406E-001 -2.7852058411E-003 +3.9744377136E-003 -3.8621947169E-006 +1.9914470613E-005 -1.8852233887E-002 -8.9374542236E-002
13825000000.000 -2.6394653320E-001 -4.7798156738E-001 -1.7881393433E-005 +4.5096874237E-003 +3.3985124901E-006 -3.2745301723E-006 +3.9863586426E-003 -1.0446548462E-001
13957500000.000 -2.6811218262E-001 -4.7514343262E-001 +2.4806261063E-003 +3.7587881088E-003 -3.3698976040E-005 -6.5449625254E-005 -8.9645385742E-004 -9.7290039063E-002
14090000000.000 -2.6937866211E-001 -4.7509765625E-001 +4.1534900665E-003 +1.6059875488E-003 +3.0299648643E-005 +4.9006193876E-006 +2.1469116211E-002 -7.1662902832E-002
14222500000.000 -2.7157592773E-001 -4.7686767578E-001 +4.1408538818E-003 -7.6699256897E-004 +1.2483447790E-005 -4.5076012611E-005 +4.3857574463E-002 -7.5450897217E-002
14355000000.000 -2.7770996094E-001 -4.7624206543E-001 +2.8866529465E-003 -3.0040740967E-003 -5.0306320190E-005 -1.2574717402E-005 +3.4049987793E-002 -6.7863464355E-002
14487500000.000 -2.7989196777E-001 -4.7550964355E-001 +7.3599815369E-004 -3.9305686951E-003 +5.1103532314E-005 +1.3048946857E-004 +4.1671752930E-002 -3.5617828369E-002
14620000000.000 -2.8042602539E-001 -4.7726440430E-001 -1.4927387238E-003 -3.6699771881E-003 -2.6453286409E-005 +7.3958188295E-005 +6.0953140259E-002 -3.3020019531E-002
14752500000.000 -2.8535461426E-001 -4.8052978516E-001 -3.2545328140E-003 -2.0380020142E-003 +6.9007277489E-005 -2.0157545805E-005 +4.3535232544E-002 -3.1541824341E-002
14885000000.000 -2.8903198242E-001 -4.7978210449E-001 -3.7801265717E-003 +6.9618225098E-005 +8.4768980742E-005 -4.8533082008E-005 +3.8103103638E-002 +1.6765594482E-003
15017500000.000 -2.8755187988E-001 -4.8136901855E-001 -2.9399394989E-003 +2.1057128906E-003 -5.2880495787E-005 +4.4122338295E-005 +5.4233551025E-002 +7.0133209229E-003
15150000000.000 -2.8883361816E-001 -4.8634338379E-001 -1.2241601944E-003 +3.2899379730E-003 -2.4620443583E-005 -4.3313950300E-005 +3.4412384033E-002 -9.2124938965E-004
15282500000.000 -2.9185485840E-001 -4.8887634277E-001 +7.2550773621E-004 +3.3960342407E-003 -1.1619180441E-005 -2.2533349693E-005 +1.5995979309E-002 +2.5469779968E-002
