!  2-Port S-parameters saved by WinCal
! VAR MeasName=S-Parameters (CALIBRATED_DATA) read from VNA (C)
! VAR MeasDate=10/5/2015 6:40:40 PM
! VAR NAME=M6079_2_7_3_3_20C_2.1mA_-17.5dBm
! VAR FILENAME=M6079_2_7_3_3_20C_2.1mA_-17.5dBm.S2P
! VAR DATE=10/5/2015 6:40:40 PM
! VAR PHYS_PORTS=2,1
! VAR ObjTypeName=DATASET
! VAR IndexType=Frequency
!
# Hz S RI R 50
45000000.000 +1.4443969727E-001 -1.7547607422E-004 -1.8150806427E-003 +7.0652961731E-003 +5.2216649055E-004 -2.7167797089E-004 +2.8591156006E-002 +3.4055709839E-003
177500000.000 +1.4525604248E-001 -1.1100769043E-002 +2.5763511658E-003 +6.7493915558E-003 -3.0510127544E-005 +1.6631186008E-004 +1.6685485840E-002 +1.6525268555E-002
310000000.000 +1.4559936523E-001 -2.0645141602E-002 +5.6612491608E-003 +4.2121410370E-003 -1.8551945686E-005 -3.8577243686E-005 +3.0014038086E-002 +6.1317443848E-002
442500000.000 +1.4495849609E-001 -3.0967712402E-002 +7.9736709595E-003 +1.7166137695E-005 +3.5142526031E-005 -5.1317736506E-005 +7.2772979736E-002 +2.2220611572E-002
575000000.000 +1.4408111572E-001 -4.1450500488E-002 +5.9912204742E-003 -4.3804645538E-003 -5.1263719797E-005 +1.7240643501E-005 +2.7358055115E-002 +1.1093139648E-002
707500000.000 +1.4244842529E-001 -5.0842285156E-002 +2.4397373199E-003 -6.7806243896E-003 -1.3721175492E-005 -2.5429762900E-005 +2.3136138916E-003 +1.8385887146E-002
840000000.000 +1.4126586914E-001 -6.0897827148E-002 -1.7778873444E-003 -6.9251060486E-003 +8.1947073340E-006 -2.5548972189E-005 -1.9928932190E-002 +2.5852203369E-002
972500000.000 +1.4018249512E-001 -7.0320129395E-002 -5.3982734680E-003 -4.7483444214E-003 +1.1620111763E-005 +5.0524249673E-006 -3.5831451416E-002 +3.5606384277E-002
1105000000.000 +1.3780212402E-001 -8.0116271973E-002 -7.0681571960E-003 -8.2373619080E-004 -3.1426548958E-005 -2.3525208235E-005 -4.6689987183E-002 +3.8316726685E-002
1237500000.000 +1.3578796387E-001 -8.8859558105E-002 -6.2558650970E-003 +3.2143592834E-003 +4.5323744416E-005 -3.3596530557E-005 -5.8666229248E-002 +3.3906936646E-002
1370000000.000 +1.3336181641E-001 -9.8243713379E-002 -3.3903121948E-003 +6.1633586884E-003 +6.3329935074E-006 +5.8406963944E-005 -7.4058532715E-002 +2.7172088623E-002
1502500000.000 +1.3063812256E-001 -1.0720062256E-001 +6.3157081604E-004 +7.0216655731E-003 -5.1902607083E-005 -2.7822330594E-005 -8.8047027588E-002 +2.1556854248E-002
1635000000.000 +1.2916564941E-001 -1.1592864990E-001 +4.5228004456E-003 +5.3625106812E-003 +2.1960586309E-006 +2.0414590836E-005 -9.9147796631E-002 +1.1871337891E-002
1767500000.000 +1.2597656250E-001 -1.2559509277E-001 +6.7055225372E-003 +1.8730163574E-003 -1.8451362848E-005 +8.3018094301E-005 -1.1209487915E-001 +3.2005310059E-003
1900000000.000 +1.2248992920E-001 -1.3371276855E-001 +6.6773891449E-003 -2.1862983704E-003 +1.4459714293E-005 -2.6904046535E-005 -1.1403274536E-001 -3.2119750977E-003
2032500000.000 +1.1947631836E-001 -1.4178466797E-001 +4.1766166687E-003 -5.4612159729E-003 +3.4920871258E-005 -4.1665509343E-005 -1.1391830444E-001 -2.4257659912E-002
2165000000.000 +1.1716461182E-001 -1.5093231201E-001 +4.2200088501E-004 -6.8719387054E-003 -8.0157071352E-005 +4.9583613873E-006 -1.2282943726E-001 -4.1954040527E-002
2297500000.000 +1.1328125000E-001 -1.5887451172E-001 -3.4265518188E-003 -5.8729648590E-003 -3.5511329770E-005 -1.6687437892E-005 -1.2667846680E-001 -5.3337097168E-002
2430000000.000 +1.0999298096E-001 -1.6587066650E-001 -6.1655044556E-003 -2.9759407043E-003 +2.8058886528E-005 -2.1777302027E-004 -1.2711334229E-001 -6.4918518066E-002
2562500000.000 +1.0707855225E-001 -1.7391204834E-001 -6.6821575165E-003 +1.0275840759E-003 -3.2637268305E-005 +1.0678917170E-004 -1.2583923340E-001 -7.0571899414E-002
2695000000.000 +1.0177612305E-001 -1.8118286133E-001 -5.0072669983E-003 +4.5058727264E-003 -1.2064352632E-005 +4.7452747822E-005 -1.1388397217E-001 -7.2860717773E-002
2827500000.000 +9.7549438477E-002 -1.8654632568E-001 -1.5325546265E-003 +6.6242218018E-003 -6.2584877014E-007 -1.9396841526E-004 -9.8880767822E-002 -8.1958770752E-002
2960000000.000 +9.4856262207E-002 -1.9344329834E-001 +2.3896694183E-003 +6.3533782959E-003 +6.3650310040E-005 -5.9109181166E-005 -8.9000701904E-002 -8.6635589600E-002
3092500000.000 +9.0103149414E-002 -2.0177459717E-001 +5.4240226746E-003 +4.0285587311E-003 -4.3652951717E-005 +3.3615157008E-005 -7.0835113525E-002 -8.5407257080E-002
3225000000.000 +8.4190368652E-002 -2.0803070068E-001 +6.7522525787E-003 +8.2015991211E-005 -1.4882534742E-006 -4.8009678721E-005 -5.2093505859E-002 -9.1220855713E-002
3357500000.000 +8.0322265625E-002 -2.1305084229E-001 +5.6931972504E-003 -3.6118030548E-003 +1.7508864403E-004 -1.0866671801E-004 -4.2106628418E-002 -9.2105865479E-002
3490000000.000 +7.6683044434E-002 -2.2071075439E-001 +2.8142929077E-003 -6.4563751221E-003 -2.8155744076E-005 +1.1206790805E-004 -2.8629302979E-002 -8.3099365234E-002
3622500000.000 +7.1609497070E-002 -2.2853851318E-001 -1.2640953064E-003 -6.9067478180E-003 -5.4305419326E-005 +5.2705407143E-005 -1.1489868164E-002 -7.9010009766E-002
3755000000.000 +6.6429138184E-002 -2.3532867432E-001 -4.9595832825E-003 -5.0621032715E-003 +4.3965876102E-005 -3.4052878618E-005 -5.9661865234E-003 -7.3421478271E-002
3887500000.000 +6.2301635742E-002 -2.4179840088E-001 -7.0157051086E-003 -1.3892650604E-003 +3.4254044294E-005 +3.6783516407E-005 +1.5316009521E-003 -5.6280136108E-002
4020000000.000 +5.8273315430E-002 -2.4763488770E-001 -6.5789222717E-003 +2.9017925262E-003 -8.1397593021E-005 -5.7354569435E-005 +1.3092041016E-002 -4.4498443604E-002
4152500000.000 +5.4504394531E-002 -2.5495910645E-001 -3.8571357727E-003 +6.1402320862E-003 -3.5872682929E-005 -3.9352104068E-005 +1.5476226807E-002 -3.2970428467E-002
4285000000.000 +4.9667358398E-002 -2.6211547852E-001 +5.0973892212E-004 +7.2381496429E-003 +2.1182000637E-005 +1.4091283083E-004 +1.6890525818E-002 -1.3560295105E-002
4417500000.000 +4.4525146484E-002 -2.6783752441E-001 +4.4326782227E-003 +5.5863857269E-003 -7.9162418842E-006 -2.9803253710E-005 +2.5495529175E-002 +3.4065246582E-003
4550000000.000 +4.1397094727E-002 -2.7378845215E-001 +6.8767070770E-003 +2.1958351135E-003 +5.7274475694E-005 -5.2791088820E-005 +2.9161453247E-002 +9.4194412231E-003
4682500000.000 +3.7292480469E-002 -2.8137207031E-001 +6.8526268005E-003 -2.1648406982E-003 +2.6885420084E-005 +3.7148594856E-005 +2.5961875916E-002 +2.0269393921E-002
4815000000.000 +3.1341552734E-002 -2.8742980957E-001 +4.5287609100E-003 -5.6338310242E-003 -2.0513311028E-005 -3.5015866160E-005 +3.1467437744E-002 +2.7175903320E-002
4947500000.000 +2.7770996094E-002 -2.9249572754E-001 +6.5565109253E-004 -7.3008537292E-003 -2.3094005883E-005 +2.8386712074E-006 +2.8043746948E-002 +1.9514083862E-002
5080000000.000 +2.4612426758E-002 -2.9876708984E-001 -3.6339759827E-003 -6.3939094543E-003 +7.4036419392E-005 +1.4055520296E-005 +1.3731002808E-002 +2.0325660706E-002
5212500000.000 +1.9622802734E-002 -3.0505371094E-001 -6.7062377930E-003 -3.3214092255E-003 +1.0844320059E-005 +5.5309385061E-005 +9.7303390503E-003 +2.4679183960E-002
5345000000.000 +1.5121459961E-002 -3.0886840820E-001 -7.5542926788E-003 +1.0113716125E-003 +2.3362226784E-005 -6.2864273787E-006 +6.0825347900E-003 +1.6118049622E-002
5477500000.000 +1.2710571289E-002 -3.1349182129E-001 -5.6936740875E-003 +5.1991939545E-003 +8.7753869593E-006 -1.2980308384E-005 -8.7766647339E-003 +1.0132312775E-002
5610000000.000 +9.1552734375E-003 -3.1965637207E-001 -1.5587806702E-003 +7.6909065247E-003 -3.8443133235E-005 +2.2977590561E-005 -1.4633178711E-002 +1.4650344849E-002
5742500000.000 +4.1046142578E-003 -3.2341003418E-001 +3.0822753906E-003 +7.3277950287E-003 +9.1344118118E-006 -5.8481469750E-005 -1.1041164398E-002 +6.1388015747E-003
5875000000.000 +2.8991699219E-004 -3.2627868652E-001 +6.7527294159E-003 +4.3554306030E-003 -1.4966353774E-006 -2.5057233870E-005 -1.9735336304E-002 -3.4360885620E-003
6007500000.000 -2.0599365234E-003 -3.3050537109E-001 +8.2249641418E-003 -5.5074691772E-004 +7.6293945313E-006 +6.6213309765E-005 -2.3222923279E-002 +1.6117095947E-004
6140000000.000 -6.4392089844E-003 -3.3607482910E-001 +6.5038204193E-003 -5.2301883698E-003 -1.8107704818E-005 -8.1658363342E-006 -1.5290260315E-002 -2.4433135986E-003
6272500000.000 -1.2481689453E-002 -3.3969116211E-001 +2.5048255920E-003 -8.0432891846E-003 +1.0306015611E-005 -3.5144388676E-005 -1.6133308411E-002 -1.1527061462E-002
6405000000.000 -1.7745971680E-002 -3.4194946289E-001 -2.6879310608E-003 -8.0919265747E-003 +3.2437965274E-006 +6.4135529101E-006 -1.9267082214E-002 -6.4001083374E-003
6537500000.000 -1.9897460938E-002 -3.4706115723E-001 -7.1461200714E-003 -4.8940181732E-003 -3.6461278796E-005 +2.3007392883E-005 -9.5329284668E-003 -3.0655860901E-003
6670000000.000 -2.4673461914E-002 -3.5263061523E-001 -8.8191032410E-003 -1.2969970703E-004 +2.8666108847E-005 -4.0598213673E-005 -7.8701972961E-003 -6.8631172180E-003
6802500000.000 -3.2043457031E-002 -3.5798645020E-001 -7.2169303894E-003 +5.2614212036E-003 +3.0776485801E-005 +1.0078772902E-005 -1.1108875275E-002 +2.5606155396E-004
6935000000.000 -3.6880493164E-002 -3.6224365234E-001 -2.0122528076E-003 +8.8119506836E-003 -2.9733404517E-005 +1.4779157937E-005 -6.3791275024E-003 +9.6149444580E-003
7067500000.000 -3.9321899414E-002 -3.6633300781E-001 +3.2258033752E-003 +8.6026191711E-003 +1.6309320927E-005 -4.3004751205E-005 -5.1841735840E-003 +1.0408401489E-002
7200000000.000 -4.4982910156E-002 -3.7142944336E-001 +7.4689388275E-003 +5.5155754089E-003 +2.4693086743E-005 +1.0125339031E-005 -1.5014648438E-002 +1.7525672913E-002
7332500000.000 -5.2917480469E-002 -3.7734985352E-001 +9.3164443970E-003 -6.6423416138E-004 +2.8657726943E-005 +1.6601756215E-005 -1.6783714294E-002 +3.0449867249E-002
7465000000.000 -5.7373046875E-002 -3.8107299805E-001 +7.2488784790E-003 -6.0818195343E-003 -6.9174915552E-005 -3.6772340536E-005 -2.0132064819E-002 +3.0915260315E-002
7597500000.000 -6.1157226563E-002 -3.8404846191E-001 +3.2615661621E-003 -9.0532302856E-003 +8.1796199083E-005 -3.8407742977E-005 -3.6703109741E-002 +3.3811569214E-002
7730000000.000 -6.8542480469E-002 -3.9268493652E-001 -3.6206245422E-003 -8.8219642639E-003 +3.7355348468E-005 +1.3485550880E-005 -4.7714233398E-002 +4.3884277344E-002
7862500000.000 -7.6751708984E-002 -3.9907836914E-001 -8.4671974182E-003 -3.8547515869E-003 -3.6912038922E-005 +1.7495825887E-005 -5.3689956665E-002 +4.2062759399E-002
7995000000.000 -7.8033447266E-002 -4.0023803711E-001 -9.6325874329E-003 +6.1416625977E-004 +1.6164034605E-005 +4.2254105210E-005 -7.3379516602E-002 +3.5282135010E-002
8127500000.000 -8.3251953125E-002 -4.0692138672E-001 -7.4484348297E-003 +6.1662197113E-003 +4.3671578169E-005 +5.0326809287E-005 -9.1167449951E-002 +4.0233612061E-002
8260000000.000 -9.3048095703E-002 -4.1203308105E-001 -1.2073516846E-003 +9.1505050659E-003 -5.2196905017E-005 +2.6987865567E-005 -9.5390319824E-002 +3.4221649170E-002
8392500000.000 -9.4940185547E-002 -4.1459655762E-001 +3.8604736328E-003 +8.7003707886E-003 +4.2337924242E-006 +3.8648024201E-005 -1.1003112793E-001 +1.8531799316E-002
8525000000.000 -9.7991943359E-002 -4.1824340820E-001 +8.1748962402E-003 +5.1488876343E-003 +1.0843575001E-004 -3.0077993870E-005 -1.2200546265E-001 +1.5419006348E-002
8657500000.000 -1.0580444336E-001 -4.2318725586E-001 +8.9902877808E-003 -1.4896392822E-003 +1.1687166989E-005 +2.2462569177E-005 -1.1791610718E-001 +4.2343139648E-003
8790000000.000 -1.1096191406E-001 -4.2680358887E-001 +6.2727928162E-003 -6.5741539001E-003 -2.2538006306E-007 -4.5672059059E-005 -1.1991119385E-001 -1.7177581787E-002
8922500000.000 -1.1358642578E-001 -4.2768859863E-001 +1.9745826721E-003 -9.0947151184E-003 +5.7473778725E-005 -1.0538846254E-005 -1.2219238281E-001 -3.0208587646E-002
9055000000.000 -1.1883544922E-001 -4.3055725098E-001 -3.8871765137E-003 -8.0723762512E-003 -1.3541430235E-005 +2.3908913136E-005 -1.1109924316E-001 -4.4345855713E-002
9187500000.000 -1.2373352051E-001 -4.3220520020E-001 -7.7114105225E-003 -4.1186809540E-003 +2.6630237699E-005 -7.9376623034E-006 -1.0097885132E-001 -6.6501617432E-002
9320000000.000 -1.2933349609E-001 -4.3357849121E-001 -8.8667869568E-003 +7.9631805420E-004 -6.9942325354E-005 -5.1483511925E-006 -9.3566894531E-002 -7.9113006592E-002
9452500000.000 -1.3420104980E-001 -4.3440246582E-001 -6.5717697144E-003 +5.7327747345E-003 -3.0584633350E-006 +7.2605907917E-005 -7.3928833008E-002 -8.7173461914E-002
9585000000.000 -1.3993835449E-001 -4.3592834473E-001 -1.5978813171E-003 +8.1868171692E-003 +2.2083520889E-005 +7.0529058576E-006 -5.5149078369E-002 -1.0161590576E-001
9717500000.000 -1.4547729492E-001 -4.3859863281E-001 +3.1256675720E-003 +8.0313682556E-003 +2.7108937502E-005 -3.5095959902E-005 -4.1675567627E-002 -1.0626983643E-001
9850000000.000 -1.5339660645E-001 -4.3774414063E-001 +7.1890354156E-003 +4.3580532074E-003 -1.4458782971E-005 +1.7660669982E-005 -1.8501281738E-002 -1.0256576538E-001
9982500000.000 -1.5724182129E-001 -4.3862915039E-001 +7.8840255737E-003 -6.2370300293E-004 +2.4851411581E-005 +9.8561868072E-006 +6.1645507813E-003 -1.0423278809E-001
10115000000.000 -1.6174316406E-001 -4.4104003906E-001 +6.2563419342E-003 -4.9703121185E-003 +5.3785741329E-005 -9.0733170509E-005 +1.8501281738E-002 -9.8918914795E-002
10247500000.000 -1.6864013672E-001 -4.4189453125E-001 +2.3002624512E-003 -7.5538158417E-003 +8.1654638052E-005 +1.8335878849E-005 +3.6121368408E-002 -7.9792022705E-002
10380000000.000 -1.7485046387E-001 -4.4111633301E-001 -2.5417804718E-003 -6.8480968475E-003 -2.4444423616E-005 -1.4309771359E-005 +5.7590484619E-002 -6.8466186523E-002
10512500000.000 -1.7938232422E-001 -4.4239807129E-001 -6.0262680054E-003 -4.3442249298E-003 +2.1837651730E-005 -3.7964433432E-005 +6.2015533447E-002 -5.6671142578E-002
10645000000.000 -1.8403625488E-001 -4.4337463379E-001 -7.4377059937E-003 -3.6931037903E-004 +7.8216195107E-005 +6.7539513111E-006 +6.6154479980E-002 -2.8816223145E-002
10777500000.000 -1.8966674805E-001 -4.4389343262E-001 -5.7294368744E-003 +4.0709972382E-003 -5.2297487855E-005 -1.5739351511E-006 +7.8166961670E-002 -7.9498291016E-003
10910000000.000 -1.9514465332E-001 -4.4494628906E-001 -2.2737979889E-003 +6.2329769135E-003 +6.8992376328E-006 -3.7644058466E-005 +7.2704315186E-002 +4.7874450684E-003
11042500000.000 -2.0126342773E-001 -4.4630432129E-001 +1.4414787292E-003 +6.5259933472E-003 -3.2577663660E-006 +3.2510608435E-005 +5.9366226196E-002 +3.1335830688E-002
11175000000.000 -2.0532226563E-001 -4.4755554199E-001 +4.8096179962E-003 +4.2598247528E-003 -8.0876052380E-006 +3.1568109989E-005 +5.7065963745E-002 +5.2907943726E-002
11307500000.000 -2.0916748047E-001 -4.4781494141E-001 +6.0815811157E-003 +6.7400932312E-004 -6.7558139563E-006 +2.6098452508E-005 +4.4277191162E-002 +5.8372497559E-002
11440000000.000 -2.1421813965E-001 -4.4898986816E-001 +5.4059028625E-003 -2.7885437012E-003 +3.7383288145E-005 -5.4400414228E-005 +1.8318176270E-002 +7.2204589844E-002
11572500000.000 -2.1661376953E-001 -4.5240783691E-001 +2.8655529022E-003 -5.2182674408E-003 -4.5141205192E-006 +2.5971792638E-005 +4.6577453613E-003 +8.7722778320E-002
11705000000.000 -2.2058105469E-001 -4.5260620117E-001 -6.5016746521E-004 -5.6073665619E-003 -6.0265883803E-005 -5.4202973843E-006 -9.9334716797E-003 +8.1329345703E-002
11837500000.000 -2.2456359863E-001 -4.5446777344E-001 -3.6532878876E-003 -4.1890144348E-003 +7.4587296695E-006 +7.2140246630E-006 -4.2984008789E-002 +7.7327728271E-002
11970000000.000 -2.2662353516E-001 -4.5442199707E-001 -5.2933692932E-003 -1.4564990997E-003 -7.0575624704E-006 +3.4241005778E-005 -5.8998107910E-002 +8.3354949951E-002
12102500000.000 -2.2817993164E-001 -4.5501708984E-001 -4.9207210541E-003 +1.8005371094E-003 -4.9877911806E-005 +4.7242268920E-005 -6.5727233887E-002 +6.4357757568E-002
12235000000.000 -2.3249816895E-001 -4.5603942871E-001 -2.8970241547E-003 +4.1813850403E-003 +1.0063871741E-005 -1.8368475139E-005 -9.3509674072E-002 +4.4929504395E-002
12367500000.000 -2.3448181152E-001 -4.5581054688E-001 -6.7234039307E-005 +5.1271915436E-003 +1.5259720385E-005 +2.7954578400E-005 -1.0503005981E-001 +4.3598175049E-002
12500000000.000 -2.3910522461E-001 -4.5378112793E-001 +2.7139186859E-003 +3.9310455322E-003 -1.6964972019E-005 +1.9157305360E-006 -9.7381591797E-002 +1.9756317139E-002
12632500000.000 -2.4176025391E-001 -4.5542907715E-001 +4.2378902435E-003 +1.6679763794E-003 -2.4158507586E-006 -3.8124620914E-005 -1.1076354980E-001 -1.3195037842E-002
12765000000.000 -2.4443054199E-001 -4.5538330078E-001 +4.3268203735E-003 -9.8586082458E-004 +8.8166445494E-005 +1.8190592527E-005 -1.1752319336E-001 -1.6555786133E-002
12897500000.000 -2.4792480469E-001 -4.5274353027E-001 +2.9162168503E-003 -3.1068325043E-003 -1.8866732717E-005 +3.2544136047E-005 -9.1678619385E-002 -3.5240173340E-002
13030000000.000 -2.5016784668E-001 -4.5280456543E-001 +6.6399574280E-004 -4.0893554688E-003 -3.3972784877E-005 -3.4991651773E-005 -9.0831756592E-002 -7.2277069092E-002
13162500000.000 -2.5389099121E-001 -4.5429992676E-001 -1.7255544662E-003 -3.6566257477E-003 +5.2573159337E-005 -3.8737431169E-005 -9.2796325684E-002 -7.1819305420E-002
13295000000.000 -2.5750732422E-001 -4.5417785645E-001 -3.4363269806E-003 -1.9694566727E-003 +1.4968216419E-005 +3.3725053072E-005 -6.0539245605E-002 -7.8681945801E-002
13427500000.000 -2.6214599609E-001 -4.5222473145E-001 -3.8501024246E-003 +2.6440620422E-004 -3.7863850594E-005 -5.3003430367E-005 -4.7046661377E-002 -1.0569763184E-001
13560000000.000 -2.6098632813E-001 -4.5164489746E-001 -2.8781890869E-003 +2.2315979004E-003 -3.8802623749E-005 -8.0354511738E-005 -4.7626495361E-002 -1.0190582275E-001
13692500000.000 -2.6419067383E-001 -4.5408630371E-001 -1.1526346207E-003 +3.3950805664E-003 -2.8892420232E-005 +2.2849068046E-005 -1.7642974854E-002 -8.9103698730E-002
13825000000.000 -2.6948547363E-001 -4.5404052734E-001 +8.5389614105E-004 +3.2362937927E-003 -7.3775649071E-005 -4.3127685785E-005 +4.7607421875E-003 -1.0377883911E-001
13957500000.000 -2.7288818359E-001 -4.5146179199E-001 +2.5362968445E-003 +2.1145343781E-003 -1.6514211893E-005 -1.0339543223E-004 -8.0108642578E-005 -9.6450805664E-002
14090000000.000 -2.7401733398E-001 -4.5133972168E-001 +3.1856298447E-003 +4.2378902435E-004 +9.0405344963E-005 +6.5844506025E-005 +2.2159576416E-002 -7.0835113525E-002
14222500000.000 -2.7615356445E-001 -4.5353698730E-001 +2.8085708618E-003 -1.4131069183E-003 -2.5281682611E-005 -7.2177499533E-006 +4.4090270996E-002 -7.4600219727E-002
14355000000.000 -2.8202819824E-001 -4.5312500000E-001 +1.5010833740E-003 -2.5953054428E-003 -3.2091513276E-005 -1.0680407286E-005 +3.3847808838E-002 -6.6852569580E-002
14487500000.000 -2.8405761719E-001 -4.5225524902E-001 -2.4569034576E-004 -2.8803348541E-003 +4.7575682402E-005 +6.5468251705E-005 +4.1378021240E-002 -3.4845352173E-002
14620000000.000 -2.8462219238E-001 -4.5434570313E-001 -1.7367601395E-003 -2.3187398911E-003 +7.1916729212E-006 -1.9893981516E-005 +6.0432434082E-002 -3.2367706299E-002
14752500000.000 -2.8936767578E-001 -4.5780944824E-001 -2.5525093079E-003 -8.8655948639E-004 -2.4842098355E-005 -4.4217333198E-005 +4.3045043945E-002 -3.1085968018E-002
14885000000.000 -2.9312133789E-001 -4.5718383789E-001 -2.6495456696E-003 +7.6901912689E-004 +5.4566189647E-005 +2.8926879168E-006 +3.7340164185E-002 +1.8386840820E-003
15017500000.000 -2.9156494141E-001 -4.5922851563E-001 -1.7642378807E-003 +1.9518733025E-003 +5.8388337493E-005 +4.8648566008E-005 +5.3461074829E-002 +7.2212219238E-003
15150000000.000 -2.9283142090E-001 -4.6446228027E-001 -2.5868415833E-004 +2.5305747986E-003 -5.6177377701E-005 -1.4080107212E-004 +3.3828735352E-002 -9.8991394043E-004
15282500000.000 -2.9573059082E-001 -4.6672058105E-001 +1.1531114578E-003 +2.2922754288E-003 +3.0323863029E-006 -8.1900507212E-005 +1.5465736389E-002 +2.5094985962E-002
