!  2-Port S-parameters saved by WinCal
! VAR MeasName=S-Parameters (CALIBRATED_DATA) read from VNA (C)
! VAR MeasDate=10/5/2015 4:47:20 PM
! VAR NAME=M6079_4_7_3_2_20C_1.1mA_-17.5dBm
! VAR FILENAME=M6079_4_7_3_2_20C_1.1mA_-17.5dBm.S2P
! VAR DATE=10/5/2015 4:47:20 PM
! VAR PHYS_PORTS=2,1
! VAR ObjTypeName=DATASET
! VAR IndexType=Frequency
!
# Hz S RI R 50
45000000.000 +3.1034851074E-001 -7.0190429688E-003 +1.4253854752E-003 +3.3477544785E-003 -1.2477040291E-003 -4.8947334290E-004 +2.7495384216E-002 +2.3756027222E-003
177500000.000 +3.2215881348E-001 -3.5705566406E-002 +1.5728473663E-003 +3.3266544342E-003 +1.1464953423E-004 +6.6556036472E-005 +1.6404151917E-002 +1.7011642456E-002
310000000.000 +3.1880187988E-001 -6.2545776367E-002 +2.4585723877E-003 +2.0254850388E-003 +1.0979361832E-005 -2.8032809496E-005 +3.0151367188E-002 +6.1361312866E-002
442500000.000 +3.0036926270E-001 -7.5469970703E-002 +4.4231414795E-003 -4.3702125549E-004 +2.5765970349E-005 -1.5832483768E-007 +7.2811126709E-002 +2.2411346436E-002
575000000.000 +2.8735351563E-001 -8.8241577148E-002 +3.0539035797E-003 -2.8775930405E-003 -2.0059756935E-005 -3.5790726542E-006 +2.7544975281E-002 +1.1260986328E-002
707500000.000 +2.8005981445E-001 -1.0380554199E-001 +7.7509880066E-004 -3.9069652557E-003 -1.7912127078E-005 -1.4940276742E-005 +2.4547576904E-003 +1.8572807312E-002
840000000.000 +2.7107238770E-001 -1.1451721191E-001 -1.6610622406E-003 -3.6368370056E-003 +4.6839937568E-005 +4.4777989388E-006 -1.9998550415E-002 +2.5933265686E-002
972500000.000 +2.6324462891E-001 -1.2600708008E-001 -3.4518241882E-003 -1.9351243973E-003 -1.2078322470E-005 +1.9905157387E-005 -3.5854339600E-002 +3.5806655884E-002
1105000000.000 +2.5674438477E-001 -1.3862609863E-001 -3.8737058640E-003 +4.7135353088E-004 +6.7576766014E-006 -6.8362802267E-005 -4.6688079834E-002 +3.8303375244E-002
1237500000.000 +2.5096130371E-001 -1.5086364746E-001 -2.7122497559E-003 +2.5651454926E-003 +8.1416219473E-006 +3.4313648939E-005 -5.8691024780E-002 +3.3906936646E-002
1370000000.000 +2.4269866943E-001 -1.6119384766E-001 -6.7496299744E-004 +3.6972761154E-003 -1.2487173080E-005 -3.2152980566E-005 -7.4169158936E-002 +2.7328491211E-002
1502500000.000 +2.3569488525E-001 -1.6852569580E-001 +1.5583038330E-003 +3.5370588303E-003 +1.7676502466E-006 +2.9847957194E-005 -8.8047027588E-002 +2.1678924561E-002
1635000000.000 +2.3136901855E-001 -1.8193054199E-001 +3.2440423965E-003 +1.7433166504E-003 +3.9312988520E-005 +1.5683472157E-005 -9.9231719971E-002 +1.1928558350E-002
1767500000.000 +2.2483062744E-001 -1.9187927246E-001 +3.6692619324E-003 -5.5813789368E-004 +2.8537586331E-005 -5.9336423874E-005 -1.1225128174E-001 +3.3073425293E-003
1900000000.000 +2.1807098389E-001 -1.9646453857E-001 +2.7687549591E-003 -2.7136802673E-003 -5.0799921155E-005 -1.2626871467E-005 -1.1402893066E-001 -3.1585693359E-003
2032500000.000 +2.1067047119E-001 -2.0523071289E-001 +7.6270103455E-004 -3.8329362869E-003 +6.8657100201E-006 -4.2984262109E-005 -1.1417770386E-001 -2.4108886719E-002
2165000000.000 +2.0532226563E-001 -2.1286773682E-001 -1.6274452209E-003 -3.7884712219E-003 +1.3057142496E-005 +9.9342316389E-005 -1.2299728394E-001 -4.1858673096E-002
2297500000.000 +1.9936370850E-001 -2.1610260010E-001 -3.8048028946E-003 -2.4142265320E-003 -1.2148544192E-004 -1.1634081602E-005 -1.2673950195E-001 -5.3237915039E-002
2430000000.000 +1.9525146484E-001 -2.2208404541E-001 -4.6532154083E-003 +3.3640861511E-004 -6.4499676228E-005 -1.1738389730E-005 -1.2738037109E-001 -6.4849853516E-002
2562500000.000 +1.9169616699E-001 -2.3197174072E-001 -3.6760568619E-003 +2.9602050781E-003 +1.3673305511E-004 +4.0248036385E-005 -1.2609100342E-001 -7.0579528809E-002
2695000000.000 +1.8806457520E-001 -2.3747253418E-001 -1.3701915741E-003 +5.0663948059E-003 -8.1621110439E-005 -9.9837779999E-006 -1.1396789551E-001 -7.2872161865E-002
2827500000.000 +1.8431854248E-001 -2.4570465088E-001 +2.0864009857E-003 +4.8186779022E-003 -4.4692307711E-005 -5.6082382798E-005 -9.9014282227E-002 -8.1813812256E-002
2960000000.000 +1.7953491211E-001 -2.5917053223E-001 +4.4391155243E-003 +2.2180080414E-003 +4.3805688620E-005 +5.5855140090E-005 -8.9214324951E-002 -8.6647033691E-002
3092500000.000 +1.7494201660E-001 -2.7165222168E-001 +5.0163269043E-003 -1.0888576508E-003 -3.4702941775E-005 -1.7235055566E-005 -7.1052551270E-002 -8.5487365723E-002
3225000000.000 +1.6766357422E-001 -2.8196716309E-001 +3.4255981445E-003 -4.0144920349E-003 +1.0248273611E-005 -7.1350485086E-005 -5.2371978760E-002 -9.1197967529E-002
3357500000.000 +1.5962219238E-001 -2.9275512695E-001 -1.4781951904E-005 -4.9443244934E-003 +4.2490661144E-005 +4.9516558647E-005 -4.2182922363E-002 -9.2098236084E-002
3490000000.000 +1.5200805664E-001 -3.0480957031E-001 -3.0555725098E-003 -3.7698745728E-003 -1.4510005713E-005 +9.9528580904E-005 -2.8930664063E-002 -8.3148956299E-002
3622500000.000 +1.4320373535E-001 -3.1626892090E-001 -4.7912597656E-003 -9.9897384644E-004 +4.9248337746E-006 -6.6634267569E-005 -1.1703491211E-002 -7.9074859619E-002
3755000000.000 +1.3154602051E-001 -3.2569885254E-001 -4.2812824249E-003 +2.0656585693E-003 +2.8967857361E-005 -4.1259452701E-005 -6.0920715332E-003 -7.3707580566E-002
3887500000.000 +1.2055969238E-001 -3.3360290527E-001 -1.7975568771E-003 +3.8981437683E-003 +2.3718923330E-005 -1.4181248844E-005 +1.2092590332E-003 -5.6552886963E-002
4020000000.000 +1.1172485352E-001 -3.4095764160E-001 +9.7942352295E-004 +4.2061805725E-003 -9.7952783108E-005 +2.1614134312E-005 +1.2994766235E-002 -4.4595718384E-002
4152500000.000 +1.0209655762E-001 -3.4817504883E-001 +3.2869577408E-003 +2.5703907013E-003 -4.0819868445E-006 -3.0498020351E-005 +1.5493392944E-002 -3.3182144165E-002
4285000000.000 +9.1781616211E-002 -3.5440063477E-001 +3.7732124329E-003 +1.0180473328E-004 -3.8444995880E-006 +1.2240558863E-004 +1.7052650452E-002 -1.3845443726E-002
4417500000.000 +8.1924438477E-002 -3.5948181152E-001 +2.8817653656E-003 -2.2035837173E-003 -9.2782080173E-005 +6.5490603447E-006 +2.5513648987E-002 +3.1166076660E-003
4550000000.000 +7.4371337891E-002 -3.6450195313E-001 +9.0956687927E-004 -3.3857822418E-003 +5.0712376833E-005 -6.8418681622E-005 +2.9388427734E-002 +9.1056823730E-003
4682500000.000 +6.6055297852E-002 -3.6895751953E-001 -1.1485815048E-003 -3.0194520950E-003 -1.1986121535E-006 -1.8370337784E-005 +2.6156425476E-002 +1.9962310791E-002
4815000000.000 +5.6732177734E-002 -3.7327575684E-001 -2.4909973145E-003 -1.7551183701E-003 -3.2315030694E-005 +2.7194619179E-005 +3.1789779663E-002 +2.6868820190E-002
4947500000.000 +5.0216674805E-002 -3.7689208984E-001 -3.0399560928E-003 +5.2571296692E-005 -5.0589442253E-006 -3.3741816878E-005 +2.8326034546E-002 +1.9317626953E-002
5080000000.000 +4.4219970703E-002 -3.8067626953E-001 -2.1702051163E-003 +1.7571449280E-003 +2.3949891329E-005 +4.4243410230E-005 +1.3965606689E-002 +2.0047187805E-002
5212500000.000 +3.6544799805E-002 -3.8482666016E-001 -8.4269046783E-004 +2.6093721390E-003 +2.3785978556E-005 +2.9368326068E-005 +9.9306106567E-003 +2.4407386780E-002
5345000000.000 +2.9830932617E-002 -3.8748168945E-001 +9.8216533661E-004 +2.6204586029E-003 -3.7364661694E-005 -4.5605003834E-005 +6.3276290894E-003 +1.5879631042E-002
5477500000.000 +2.5344848633E-002 -3.9004516602E-001 +2.0767450333E-003 +1.4942884445E-003 +3.1020492315E-005 -6.9756060839E-006 -8.5287094116E-003 +9.9091529846E-003
5610000000.000 +1.9683837891E-002 -3.9407348633E-001 +2.4566650391E-003 +5.8889389038E-005 +1.5108846128E-005 +7.1665272117E-006 -1.4373779297E-002 +1.4567375183E-002
5742500000.000 +1.2893676758E-002 -3.9627075195E-001 +1.9776821136E-003 -1.3351440430E-003 -4.7435984015E-005 -8.1975013018E-006 -1.0489940643E-002 +6.1869621277E-003
5875000000.000 +7.5836181641E-003 -3.9764404297E-001 +9.3007087708E-004 -2.1405220032E-003 +1.8609687686E-005 -1.6388483346E-005 -1.9464492798E-002 -3.3788681030E-003
6007500000.000 +3.0975341797E-003 -4.0007019043E-001 -5.0652027130E-004 -2.1109580994E-003 +3.5457313061E-005 +2.2681429982E-005 -2.2922515869E-002 +3.2520294189E-004
6140000000.000 -2.3956298828E-003 -4.0348815918E-001 -1.4723539352E-003 -1.5056133270E-003 -8.5039064288E-006 -6.8633817136E-006 -1.4916419983E-002 -2.2792816162E-003
6272500000.000 -9.4146728516E-003 -4.0579223633E-001 -2.1328926086E-003 -4.7039985657E-004 +2.3784115911E-005 +5.9755519032E-005 -1.5766143799E-002 -1.1352539063E-002
6405000000.000 -1.5747070313E-002 -4.0617370605E-001 -1.9371509552E-003 +6.1857700348E-004 -9.1805122793E-006 +7.7858567238E-007 -1.9198417664E-002 -6.1388015747E-003
6537500000.000 -1.9073486328E-002 -4.0861511230E-001 -1.2500882149E-003 +1.5432238579E-003 -2.6095658541E-006 +2.9076822102E-005 -9.3941688538E-003 -2.8214454651E-003
6670000000.000 -2.4505615234E-002 -4.1317749023E-001 -2.6226043701E-004 +1.9906759262E-003 -2.0306557417E-005 -1.8790364265E-005 -7.8277587891E-003 -6.4511299133E-003
6802500000.000 -3.3126831055E-002 -4.1604614258E-001 +8.3845853806E-004 +1.7707943916E-003 +5.2466988564E-005 -1.1978670955E-005 -1.1114120483E-002 +4.6110153198E-004
6935000000.000 -3.9413452148E-002 -4.1554260254E-001 +1.6098618507E-003 +9.5975399017E-004 -1.5957280993E-005 +2.7336180210E-005 -6.6332817078E-003 +9.7932815552E-003
7067500000.000 -4.2343139648E-002 -4.1865539551E-001 +1.9004940987E-003 -1.1920928955E-006 -5.1405280828E-005 +1.8980354071E-006 -5.2175521851E-003 +1.0703563690E-002
7200000000.000 -4.8599243164E-002 -4.2324829102E-001 +1.6245841980E-003 -1.0554194450E-003 -4.2024999857E-005 -3.5021454096E-005 -1.4874458313E-002 +1.7657279968E-002
7332500000.000 -5.7098388672E-002 -4.2503356934E-001 +7.2598457336E-004 -1.7096400261E-003 +2.4860724807E-005 +6.0157850385E-005 -1.6885757446E-002 +3.0509948730E-002
7465000000.000 -6.2072753906E-002 -4.2633056641E-001 -3.7747621536E-004 -1.7490983009E-003 -5.1606446505E-005 +8.8177621365E-006 -2.0368576050E-002 +3.0941963196E-002
7597500000.000 -6.6772460938E-002 -4.3029785156E-001 -1.3418197632E-003 -1.2474656105E-003 +1.6335397959E-005 -5.4756179452E-005 -3.6621093750E-002 +3.3966064453E-002
7730000000.000 -7.3287963867E-002 -4.3399047852E-001 -1.6964673996E-003 -2.1946430206E-004 +1.9265338778E-005 +9.1800466180E-006 -4.7815322876E-002 +4.3943405151E-002
7862500000.000 -7.9162597656E-002 -4.3579101563E-001 -1.4170408249E-003 +7.6824426651E-004 -7.7843666077E-005 +4.9062073231E-006 -5.3731918335E-002 +4.2139053345E-002
7995000000.000 -8.2672119141E-002 -4.3811035156E-001 -8.0549716949E-004 +1.5305280685E-003 +3.0981376767E-005 -5.4389238358E-006 -7.3402404785E-002 +3.5274505615E-002
8127500000.000 -8.7539672852E-002 -4.4323730469E-001 +2.7453899384E-004 +1.5758872032E-003 +2.4897977710E-005 +5.6348741055E-005 -9.1159820557E-002 +4.0267944336E-002
8260000000.000 -9.4070434570E-002 -4.4494628906E-001 +1.0125041008E-003 +1.1811256409E-003 +9.3742273748E-006 +7.1409158409E-006 -9.5268249512E-002 +3.4385681152E-002
8392500000.000 -9.6969604492E-002 -4.4721984863E-001 +1.5142560005E-003 +4.1288137436E-004 +7.6452270150E-006 -2.4108216166E-005 -1.1003494263E-001 +1.8733978271E-002
8525000000.000 -1.0031127930E-001 -4.4998168945E-001 +1.3606548309E-003 -5.9306621552E-004 +5.4687261581E-006 -1.3594981283E-005 -1.2208938599E-001 +1.5712738037E-002
8657500000.000 -1.0455322266E-001 -4.5285034180E-001 +8.2796812057E-004 -1.2259483337E-003 -1.8579885364E-005 +1.2668780982E-005 -1.1791229248E-001 +4.6577453613E-003
8790000000.000 -1.0842895508E-001 -4.5549011230E-001 -4.8518180847E-005 -1.4157295227E-003 -1.9416213036E-005 -7.3216855526E-005 -1.1990737915E-001 -1.6902923584E-002
8922500000.000 -1.1247253418E-001 -4.5632934570E-001 -9.4902515411E-004 -1.0772347450E-003 +1.2334436178E-005 -4.3267384171E-005 -1.2225723267E-001 -2.9846191406E-002
9055000000.000 -1.1573791504E-001 -4.5878601074E-001 -1.3340115547E-003 -3.7032365799E-004 -2.0941719413E-005 +7.9246237874E-006 -1.1140060425E-001 -4.3872833252E-002
9187500000.000 -1.1912536621E-001 -4.5985412598E-001 -1.2752413750E-003 +3.9541721344E-004 +3.4278491512E-006 -2.9533402994E-006 -1.0117721558E-001 -6.6001892090E-002
9320000000.000 -1.2522888184E-001 -4.6105957031E-001 -7.6252222061E-004 +1.0577440262E-003 +3.9367005229E-005 -1.4327466488E-005 -9.3818664551E-002 -7.8678131104E-002
9452500000.000 -1.2934875488E-001 -4.6217346191E-001 +1.1920928955E-007 +1.3398528099E-003 +2.0038336515E-005 +4.0791928768E-005 -7.4451446533E-002 -8.6906433105E-002
9585000000.000 -1.3311767578E-001 -4.6371459961E-001 +6.6691637039E-004 +1.0657906532E-003 -5.1053240895E-005 +8.4005296230E-006 -5.5713653564E-002 -1.0125350952E-001
9717500000.000 -1.3932800293E-001 -4.6603393555E-001 +1.1434555054E-003 +4.6044588089E-004 +2.8514303267E-005 -2.9269605875E-005 -4.2118072510E-002 -1.0615921021E-001
9850000000.000 -1.4604187012E-001 -4.6540832520E-001 +1.1994838715E-003 -2.9408931732E-004 +1.4711171389E-005 +7.9259276390E-005 -1.8974304199E-002 -1.0254669189E-001
9982500000.000 -1.4874267578E-001 -4.6669006348E-001 +7.8970193863E-004 -8.5723400116E-004 +9.9623575807E-006 +2.8215348721E-005 +5.4168701172E-003 -1.0462188721E-001
10115000000.000 -1.5371704102E-001 -4.6900939941E-001 +1.0305643082E-004 -1.0802745819E-003 -4.7514215112E-005 -6.0459598899E-005 +1.7757415771E-002 -9.9216461182E-002
10247500000.000 -1.6018676758E-001 -4.7018432617E-001 -5.7062506676E-004 -9.3862414360E-004 +4.2213127017E-005 +2.6823952794E-005 +3.5766601563E-002 -8.0081939697E-002
10380000000.000 -1.6490173340E-001 -4.7039794922E-001 -8.9499354362E-004 -5.0732493401E-004 +8.5313804448E-006 +6.8172812462E-006 +5.7308197021E-002 -6.9164276123E-002
10512500000.000 -1.6993713379E-001 -4.7164916992E-001 -1.0669827461E-003 +1.6611814499E-004 +2.8954818845E-006 -5.3890980780E-006 +6.1849594116E-002 -5.7455062866E-002
10645000000.000 -1.7523193359E-001 -4.7229003906E-001 -7.4017047882E-004 +6.0933828354E-004 +2.0153820515E-005 +6.2394887209E-005 +6.5906524658E-002 -2.9518127441E-002
10777500000.000 -1.7970275879E-001 -4.7364807129E-001 -3.0198693275E-004 +8.9344382286E-004 -1.8905848265E-007 +2.3397617042E-005 +7.8212738037E-002 -8.7585449219E-003
10910000000.000 -1.8510437012E-001 -4.7554016113E-001 +2.4977326393E-004 +8.7970495224E-004 -1.2550503016E-005 -6.8690627813E-005 +7.2963714600E-002 +3.8490295410E-003
11042500000.000 -1.9155883789E-001 -4.7715759277E-001 +6.5654516220E-004 +6.1711668968E-004 +2.7771107852E-005 -1.1363998055E-005 +5.9785842896E-002 +3.0467987061E-002
11175000000.000 -1.9583129883E-001 -4.7866821289E-001 +8.1828236580E-004 +5.9634447098E-005 +2.5900080800E-005 +1.2320466340E-005 +5.7723999023E-002 +5.2377700806E-002
11307500000.000 -1.9947814941E-001 -4.7975158691E-001 +7.5098872185E-004 -3.5551190376E-004 +9.7099691629E-006 -2.0274892449E-005 +4.5055389404E-002 +5.7903289795E-002
11440000000.000 -2.0462036133E-001 -4.8118591309E-001 +4.1031837463E-004 -7.0619583130E-004 +2.6668421924E-005 -6.0591846704E-006 +1.9237518311E-002 +7.1556091309E-002
11572500000.000 -2.0761108398E-001 -4.8443603516E-001 -2.3066997528E-005 -7.8648328781E-004 -2.8212554753E-005 +5.5618584156E-006 +5.6724548340E-003 +8.7516784668E-002
11705000000.000 -2.1188354492E-001 -4.8504638672E-001 -4.6712160110E-004 -5.9372186661E-004 -4.7668814659E-005 -3.8571655750E-005 -8.8882446289E-003 +8.1417083740E-002
11837500000.000 -2.1549987793E-001 -4.8713684082E-001 -7.3614716530E-004 -2.5805830956E-004 +3.6370009184E-005 -3.8882717490E-005 -4.1873931885E-002 +7.7400207520E-002
11970000000.000 -2.1795654297E-001 -4.8709106445E-001 -6.8846344948E-004 +1.1354684830E-004 +3.7811696529E-005 +2.7548521757E-005 -5.7983398438E-002 +8.3847045898E-002
12102500000.000 -2.2001647949E-001 -4.8803710938E-001 -4.9468874931E-004 +5.3086876869E-004 -8.9928507805E-006 -7.5949355960E-007 -6.4979553223E-002 +6.5006256104E-002
12235000000.000 -2.2453308105E-001 -4.8922729492E-001 -1.3715028763E-004 +7.1570277214E-004 -4.7205016017E-005 +1.4951452613E-005 -9.2876434326E-002 +4.5787811279E-002
12367500000.000 -2.2660827637E-001 -4.8895263672E-001 +3.2341480255E-004 +6.7192316055E-004 +5.9790909290E-005 +1.9291415811E-005 -1.0443878174E-001 +4.4628143311E-002
12500000000.000 -2.3144531250E-001 -4.8764038086E-001 +5.2711367607E-004 +3.7056207657E-004 -1.9475817680E-005 +3.4650787711E-005 -9.7072601318E-002 +2.0870208740E-002
12632500000.000 -2.3413085938E-001 -4.8951721191E-001 +7.0032477379E-004 +2.1100044250E-005 -1.9178725779E-005 -2.1871179342E-005 -1.1113357544E-001 -1.2165069580E-002
12765000000.000 -2.3754882813E-001 -4.8934936523E-001 +6.1079859734E-004 -3.6975741386E-004 +3.7884339690E-005 -1.1976808310E-005 -1.1775588989E-001 -1.5659332275E-002
12897500000.000 -2.4104309082E-001 -4.8719787598E-001 +2.0799040794E-004 -6.1038136482E-004 -2.3739412427E-005 +6.1485916376E-006 -9.1907501221E-002 -3.4160614014E-002
13030000000.000 -2.4313354492E-001 -4.8770141602E-001 -1.0091066360E-004 -5.5626034737E-004 -3.3110380173E-005 -2.8319656849E-005 -9.1552734375E-002 -7.1422576904E-002
13162500000.000 -2.4760437012E-001 -4.8907470703E-001 -4.8080086708E-004 -5.4299831390E-004 -7.4338167906E-006 -1.8564984202E-005 -9.4024658203E-002 -7.1243286133E-002
13295000000.000 -2.5144958496E-001 -4.8918151855E-001 -5.9789419174E-004 -7.8469514847E-005 +4.4943764806E-005 +3.2370910048E-005 -6.1576843262E-002 -7.8086853027E-002
13427500000.000 -2.5628662109E-001 -4.8733520508E-001 -5.0714612007E-004 +2.2497773170E-004 -2.0110979676E-005 -2.5890767574E-007 -4.8007965088E-002 -1.0567092896E-001
13560000000.000 -2.5605773926E-001 -4.8695373535E-001 -2.4195015430E-004 +4.4918060303E-004 -3.3201649785E-006 -2.2501684725E-005 -4.8973083496E-002 -1.0200881958E-001
13692500000.000 -2.5959777832E-001 -4.8919677734E-001 +7.9691410065E-005 +5.3343176842E-004 -2.6531517506E-005 +8.0306082964E-005 -1.8836975098E-002 -8.9195251465E-002
13825000000.000 -2.6461791992E-001 -4.8930358887E-001 +2.0834803581E-004 +3.7862360477E-004 -1.7013400793E-005 -7.1637332439E-005 +4.0283203125E-003 -1.0430908203E-001
13957500000.000 -2.6884460449E-001 -4.8674011230E-001 +4.4699013233E-004 +1.5199184418E-004 +7.3127448559E-006 -4.3150037527E-005 -1.0147094727E-003 -9.7137451172E-002
14090000000.000 -2.7037048340E-001 -4.8680114746E-001 +4.5199692249E-004 -1.4775991440E-004 +5.2168965340E-005 +6.8757683039E-005 +2.1320343018E-002 -7.1559906006E-002
14222500000.000 -2.7272033691E-001 -4.8858642578E-001 +2.9784440994E-004 -3.7012994289E-004 +4.1790306568E-005 -7.7784061432E-006 +4.3624877930E-002 -7.5454711914E-002
14355000000.000 -2.7886962891E-001 -4.8806762695E-001 +1.9724667072E-004 -4.4430792332E-004 +1.5426427126E-005 -6.2622129917E-005 +3.3809661865E-002 -6.7752838135E-002
14487500000.000 -2.8120422363E-001 -4.8760986328E-001 -1.2472271919E-004 -3.5265088081E-004 +5.8235600591E-005 +2.4214386940E-005 +4.1559219360E-002 -3.5549163818E-002
14620000000.000 -2.8179931641E-001 -4.8944091797E-001 -3.1556189060E-004 -2.5588274002E-004 +2.8755515814E-005 -3.5692006350E-005 +6.0741424561E-002 -3.2922744751E-002
14752500000.000 -2.8675842285E-001 -4.9279785156E-001 -4.6777725220E-004 +4.0531158447E-005 -2.2739171982E-005 -7.0050358772E-005 +4.3298721313E-002 -3.1431198120E-002
14885000000.000 -2.9075622559E-001 -4.9223327637E-001 -4.2843818665E-004 +1.8745660782E-004 +1.2326985598E-005 -4.9140304327E-005 +3.7975311279E-002 +1.5869140625E-003
15017500000.000 -2.8935241699E-001 -4.9377441406E-001 -1.6537308693E-004 +3.9425492287E-004 -2.4737790227E-005 +1.1856667697E-005 +5.3995132446E-002 +6.8931579590E-003
15150000000.000 -2.9071044922E-001 -4.9897766113E-001 +1.3583898544E-004 +4.7281384468E-004 -2.1222978830E-005 -1.1525675654E-004 +3.4109115601E-002 -1.0700225830E-003
15282500000.000 -2.9391479492E-001 -5.0149536133E-001 +3.2620131969E-004 +3.5171210766E-004 +4.3863430619E-005 -5.5212527514E-005 +1.5797615051E-002 +2.5551795959E-002
