!  2-Port S-parameters saved by WinCal
! VAR MeasName=S-Parameters (CALIBRATED_DATA) read from VNA (C)
! VAR MeasDate=10/5/2015 6:13:15 PM
! VAR NAME=M6079_2_7_3_2_20C_9.0mA_-17.5dBm
! VAR FILENAME=M6079_2_7_3_2_20C_9.0mA_-17.5dBm.S2P
! VAR DATE=10/5/2015 6:13:15 PM
! VAR PHYS_PORTS=2,1
! VAR ObjTypeName=DATASET
! VAR IndexType=Frequency
!
# Hz S RI R 50
45000000.000 +2.2615432739E-002 -1.2168884277E-003 -1.2130737305E-003 +5.5942535400E-003 -5.6555867195E-004 -6.4602494240E-004 +2.8072357178E-002 +3.8490295410E-003
177500000.000 +2.2921562195E-002 -6.9322586060E-003 +1.9266605377E-003 +5.6169033051E-003 +2.5421380997E-004 +2.7820467949E-005 +1.6549110413E-002 +1.6622543335E-002
310000000.000 +2.3438453674E-002 -1.2946128845E-002 +4.3859481812E-003 +3.6983489990E-003 -8.5309147835E-005 -2.3168325424E-004 +2.9836654663E-002 +6.1517715454E-002
442500000.000 +2.3944854736E-002 -1.9474029541E-002 +6.6907405853E-003 +2.1648406982E-004 +4.8236921430E-005 +2.6116147637E-005 +7.2860717773E-002 +2.2495269775E-002
575000000.000 +2.3939132690E-002 -2.6628494263E-002 +5.1329135895E-003 -3.5028457642E-003 -2.5066547096E-005 -2.0850449800E-005 +2.7606010437E-002 +1.1428833008E-002
707500000.000 +2.3424148560E-002 -3.2697677612E-002 +2.2945404053E-003 -5.6195259094E-003 -1.6832724214E-005 +1.2183561921E-005 +2.3021697998E-003 +1.8568038940E-002
840000000.000 +2.3588180542E-002 -3.9890289307E-002 -1.2760162354E-003 -5.8894157410E-003 +6.2081962824E-005 -2.1230429411E-005 -1.9979476929E-002 +2.6058197021E-002
972500000.000 +2.3323059082E-002 -4.6726226807E-002 -4.1890144348E-003 -4.1456222534E-003 -6.9525092840E-005 -2.0358711481E-005 -3.5882949829E-002 +3.5795211792E-002
1105000000.000 +2.2432327271E-002 -5.3710937500E-002 -5.8593750000E-003 -1.0116100311E-003 +2.5236979127E-005 -4.1034072638E-005 -4.6758651733E-002 +3.8490295410E-002
1237500000.000 +2.1800994873E-002 -6.0199737549E-002 -5.3005218506E-003 +2.3164749146E-003 +2.5989487767E-005 -3.7359073758E-005 -5.8547973633E-002 +3.4002304077E-002
1370000000.000 +2.0645141602E-002 -6.7134857178E-002 -3.0465126038E-003 +4.9896240234E-003 -2.1172687411E-005 +2.8475187719E-005 -7.4119567871E-002 +2.7328491211E-002
1502500000.000 +1.9832611084E-002 -7.3459625244E-002 +1.9979476929E-004 +5.7284832001E-003 -3.2939016819E-005 -3.2221898437E-005 -8.8092803955E-002 +2.1690368652E-002
1635000000.000 +1.9577026367E-002 -8.0307006836E-002 +3.2887458801E-003 +4.6944618225E-003 +7.7959150076E-005 -1.3049691916E-005 -9.9266052246E-002 +1.1955261230E-002
1767500000.000 +1.7978668213E-002 -8.7532043457E-002 +5.5055618286E-003 +2.0177364349E-003 -4.7683715820E-007 +4.7385692596E-005 -1.1222457886E-001 +3.3645629883E-003
1900000000.000 +1.6990661621E-002 -9.3242645264E-002 +5.3727626801E-003 -1.4383792877E-003 +2.7440488338E-005 +6.6749751568E-005 -1.1403274536E-001 -3.0975341797E-003
2032500000.000 +1.5739440918E-002 -9.9243164063E-002 +3.7028789520E-003 -4.2858123779E-003 -2.7548521757E-005 -9.1470777988E-005 -1.1432647705E-001 -2.4089813232E-002
2165000000.000 +1.5247344971E-002 -1.0654449463E-001 +8.7976455688E-004 -5.5468082428E-003 -1.5761703253E-005 +1.9132159650E-005 -1.2305831909E-001 -4.1790008545E-002
2297500000.000 +1.3225555420E-002 -1.1249160767E-001 -2.4266242981E-003 -5.1379203796E-003 -5.4497271776E-005 +2.7848407626E-005 -1.2683868408E-001 -5.3260803223E-002
2430000000.000 +1.2279510498E-002 -1.1783599854E-001 -4.8074722290E-003 -2.8343200684E-003 -3.0711293221E-005 -6.5919011831E-005 -1.2731170654E-001 -6.4895629883E-002
2562500000.000 +1.0704040527E-002 -1.2485122681E-001 -5.5160522461E-003 +2.7489662170E-004 +8.4161758423E-005 -3.7029385567E-006 -1.2618255615E-001 -7.0388793945E-002
2695000000.000 +7.4844360352E-003 -1.3006591797E-001 -4.1332244873E-003 +3.6416053772E-003 -1.1359527707E-004 +6.5546482801E-005 -1.1408233643E-001 -7.2948455811E-002
2827500000.000 +5.2490234375E-003 -1.3402557373E-001 -1.2235641479E-003 +5.1195621490E-003 -9.3332491815E-006 +1.3812445104E-005 -9.9079132080E-002 -8.1939697266E-002
2960000000.000 +4.2495727539E-003 -1.3990020752E-001 +1.7588138580E-003 +4.8091411591E-003 -5.2568502724E-006 -3.6000274122E-006 -8.9057922363E-002 -8.6666107178E-002
3092500000.000 +1.2893676758E-003 -1.4691925049E-001 +4.2452812195E-003 +3.1590461731E-003 +3.3006072044E-006 +5.6285411119E-005 -7.1140289307E-002 -8.5514068604E-002
3225000000.000 -2.7084350586E-003 -1.5202331543E-001 +4.9016475677E-003 +2.3984909058E-004 -1.0888651013E-004 -9.3769282103E-005 -5.2360534668E-002 -9.1381072998E-002
3357500000.000 -4.7531127930E-003 -1.5570068359E-001 +4.5979022980E-003 -2.6211738586E-003 +9.6265226603E-005 -6.1374157667E-005 -4.2156219482E-002 -9.2117309570E-002
3490000000.000 -7.0037841797E-003 -1.6252136230E-001 +2.2237300873E-003 -4.6882629395E-003 +1.4828518033E-005 +5.8883801103E-005 -2.8812408447E-002 -8.3335876465E-002
3622500000.000 -1.0551452637E-002 -1.6899871826E-001 -5.8388710022E-004 -4.8658847809E-003 -8.7492167950E-005 -2.9604882002E-005 -1.1520385742E-002 -7.9307556152E-002
3755000000.000 -1.3885498047E-002 -1.7478942871E-001 -3.3504962921E-003 -4.0531158447E-003 +1.3828277588E-004 -7.5086951256E-005 -6.0997009277E-003 -7.3867797852E-002
3887500000.000 -1.6815185547E-002 -1.8039703369E-001 -4.9092769623E-003 -1.4796257019E-003 +3.4312251955E-006 +4.0060840547E-006 +1.4286041260E-003 -5.6644439697E-002
4020000000.000 -1.9485473633E-002 -1.8513488770E-001 -5.0103664398E-003 +1.6119480133E-003 -4.4759362936E-005 +1.3839453459E-005 +1.3158798218E-002 -4.4654846191E-002
4152500000.000 -2.1705627441E-002 -1.9149017334E-001 -3.4692287445E-003 +4.1553974152E-003 -2.2231834009E-006 +1.3795215636E-006 +1.5567779541E-002 -3.3115386963E-002
4285000000.000 -2.5161743164E-002 -1.9776153564E-001 -4.6658515930E-004 +5.5327415466E-003 +5.8846548200E-005 -3.0646100640E-005 +1.6897201538E-002 -1.3842582703E-002
4417500000.000 -2.8953552246E-002 -2.0216369629E-001 +2.5818347931E-003 +4.6625137329E-003 -4.0901824832E-005 -2.0451843739E-005 +2.5690078735E-002 +3.1967163086E-003
4550000000.000 -3.0410766602E-002 -2.0726013184E-001 +4.6334266663E-003 +2.4456977844E-003 +7.5856223702E-006 -2.3310072720E-005 +2.9410362244E-002 +9.2058181763E-003
4682500000.000 -3.2905578613E-002 -2.1355438232E-001 +5.3102970123E-003 -5.5885314941E-004 +5.6002289057E-005 -2.0209699869E-005 +2.6127815247E-002 +2.0051002502E-002
4815000000.000 -3.7124633789E-002 -2.1867370605E-001 +4.2123794556E-003 -3.1397342682E-003 -4.7150999308E-005 +2.8857961297E-005 +3.1686782837E-002 +2.6929855347E-002
4947500000.000 -3.8833618164E-002 -2.2296905518E-001 +1.7898082733E-003 -5.0354003906E-003 -3.2415613532E-005 +1.4044344425E-006 +2.8188705444E-002 +1.9363403320E-002
5080000000.000 -4.0283203125E-002 -2.2853088379E-001 -1.3065338135E-003 -5.2802562714E-003 -3.3397227526E-006 +2.8143636882E-005 +1.3954162598E-002 +2.0071029663E-002
5212500000.000 -4.3670654297E-002 -2.3411560059E-001 -4.1062831879E-003 -3.6687850952E-003 -2.5326386094E-005 +5.3904950619E-005 +9.8657608032E-003 +2.4442672729E-002
5345000000.000 -4.6554565430E-002 -2.3757934570E-001 -5.5007934570E-003 -6.8664550781E-004 +6.2556937337E-006 +1.9525177777E-006 +6.2990188599E-003 +1.5995979309E-002
5477500000.000 -4.7348022461E-002 -2.4167633057E-001 -5.0246715546E-003 +2.4790763855E-003 +2.6844441891E-005 -2.8020702302E-005 -8.5072517395E-003 +9.9759101868E-003
5610000000.000 -4.9629211426E-002 -2.4719238281E-001 -2.8455257416E-003 +5.0318241119E-003 +3.9871782064E-005 +7.4464827776E-005 -1.4338493347E-002 +1.4648914337E-002
5742500000.000 -5.3253173828E-002 -2.5061035156E-001 +4.9996376038E-004 +5.5897235870E-003 -6.4596533775E-006 +1.2872740626E-005 -1.0707378387E-002 +6.2003135681E-003
5875000000.000 -5.5633544922E-002 -2.5323486328E-001 +3.5490989685E-003 +4.3451786041E-003 -1.4850404114E-005 +7.7765434980E-006 -1.9557952881E-002 -3.4332275391E-003
6007500000.000 -5.7449340820E-002 -2.5674438477E-001 +5.3415298462E-003 +1.6593933105E-003 +4.2095780373E-005 +1.9952654839E-005 -2.2893905640E-002 +3.3855438232E-004
6140000000.000 -6.0272216797E-002 -2.6168823242E-001 +5.3889751434E-003 -1.7640590668E-003 -5.9267506003E-005 -1.1725351214E-005 -1.4987468719E-002 -2.1042823792E-003
6272500000.000 -6.4773559570E-002 -2.6515197754E-001 +3.4651756287E-003 -4.3988227844E-003 +5.2230432630E-005 -1.2721866369E-005 -1.5918731689E-002 -1.1233329773E-002
6405000000.000 -6.8832397461E-002 -2.6654052734E-001 +4.4488906860E-004 -5.5999755859E-003 +1.6773119569E-005 +7.7104195952E-006 -1.9171714783E-002 -6.1283111572E-003
6537500000.000 -7.0129394531E-002 -2.7018737793E-001 -2.7999877930E-003 -4.8365592957E-003 -3.6420300603E-005 +2.1651387215E-005 -9.4351768494E-003 -2.7608871460E-003
6670000000.000 -7.3379516602E-002 -2.7578735352E-001 -4.9226284027E-003 -2.3849010468E-003 +6.6403299570E-006 -4.8259273171E-005 -7.8740119934E-003 -6.5550804138E-003
6802500000.000 -7.9574584961E-002 -2.7978515625E-001 -5.5377483368E-003 +8.3613395691E-004 +4.7143548727E-005 +5.8181583881E-005 -1.1047840118E-002 +4.6682357788E-004
6935000000.000 -8.3282470703E-002 -2.8033447266E-001 -4.0657520294E-003 +3.7317276001E-003 -2.7522444725E-005 +4.5189633965E-005 -6.6280364990E-003 +9.8042488098E-003
7067500000.000 -8.4335327148E-002 -2.8456115723E-001 -1.2667179108E-003 +5.3277015686E-003 -1.2678094208E-005 -2.8647482395E-005 -5.4297447205E-003 +1.0679721832E-002
7200000000.000 -8.8607788086E-002 -2.9028320313E-001 +1.8370151520E-003 +5.1565170288E-003 +7.1033835411E-005 +9.5441937447E-006 -1.5092849731E-002 +1.7752647400E-002
7332500000.000 -9.4558715820E-002 -2.9310607910E-001 +4.5173168182E-003 +3.1397342682E-003 -3.8683414459E-005 +6.5110623837E-005 -1.7026901245E-002 +3.0522346497E-002
7465000000.000 -9.7137451172E-002 -2.9537963867E-001 +5.3851604462E-003 +1.4543533325E-004 +1.9250437617E-006 -1.9306316972E-005 -2.0439147949E-002 +3.0926704407E-002
7597500000.000 -9.9884033203E-002 -3.0043029785E-001 +4.4522285461E-003 -2.8874874115E-003 +3.0789524317E-005 -3.4559518099E-005 -3.6785125732E-002 +3.3929824829E-002
7730000000.000 -1.0432434082E-001 -3.0531311035E-001 +2.1221637726E-003 -4.7361850739E-003 +3.0383467674E-005 +7.4394047260E-005 -4.7998428345E-002 +4.3827056885E-002
7862500000.000 -1.0766601563E-001 -3.0821228027E-001 -7.8225135803E-004 -5.2490234375E-003 -2.1235086024E-005 -1.4835968614E-005 -5.3756713867E-002 +4.2222976685E-002
7995000000.000 -1.0948181152E-001 -3.1169128418E-001 -3.6871433258E-003 -3.8617849350E-003 +4.5698136091E-005 -2.4432316422E-005 -7.3448181152E-002 +3.5270690918E-002
8127500000.000 -1.1227416992E-001 -3.1805419922E-001 -5.1553249359E-003 -1.1572837830E-003 +7.8938901424E-006 +8.2075595856E-005 -9.1148376465E-002 +4.0210723877E-002
8260000000.000 -1.1679077148E-001 -3.2064819336E-001 -4.9345493317E-003 +1.9164085388E-003 -5.4519623518E-006 -5.4074451327E-005 -9.5340728760E-002 +3.4301757813E-002
8392500000.000 -1.1781311035E-001 -3.2420349121E-001 -2.9206275940E-003 +4.4023990631E-003 +6.4410269260E-006 -6.8221241236E-005 -1.1000442505E-001 +1.8768310547E-002
8525000000.000 -1.1938476563E-001 -3.2824707031E-001 -5.8650970459E-005 +5.2354335785E-003 -1.9797123969E-005 -1.6045756638E-005 -1.2195587158E-001 +1.5522003174E-002
8657500000.000 -1.2187194824E-001 -3.3219909668E-001 +2.8429031372E-003 +4.4057369232E-003 -6.1269849539E-005 +9.2681497335E-005 -1.1785888672E-001 +4.4441223145E-003
8790000000.000 -1.2422180176E-001 -3.3595275879E-001 +4.8601627350E-003 +2.0794868469E-003 +9.9819153547E-006 -3.6934390664E-005 -1.1983108521E-001 -1.6895294189E-002
8922500000.000 -1.2654113770E-001 -3.3793640137E-001 +5.0477981567E-003 -9.7465515137E-004 +8.0615282059E-005 +1.4379620552E-006 -1.2218856812E-001 -2.9907226563E-002
9055000000.000 -1.2829589844E-001 -3.4126281738E-001 +3.6813020706E-003 -3.7992000580E-003 -5.8535486460E-005 -2.0088627934E-005 -1.1117553711E-001 -4.4033050537E-002
9187500000.000 -1.3049316406E-001 -3.4356689453E-001 +9.8896026611E-004 -5.1550865173E-003 +2.6645138860E-006 -2.9161572456E-005 -1.0111618042E-001 -6.6139221191E-002
9320000000.000 -1.3479614258E-001 -3.4567260742E-001 -2.0647048950E-003 -4.7616958618E-003 +5.4700300097E-005 +1.6951933503E-005 -9.3727111816E-002 -7.8823089600E-002
9452500000.000 -1.3745117188E-001 -3.4770202637E-001 -4.4734477997E-003 -2.8128623962E-003 -1.2353062630E-005 +4.2408704758E-005 -7.4443817139E-002 -8.6959838867E-002
9585000000.000 -1.3987731934E-001 -3.5017395020E-001 -5.2173137665E-003 +3.9100646973E-005 +3.9162114263E-005 +2.1664425731E-005 -5.5614471436E-002 -1.0134887695E-001
9717500000.000 -1.4453125000E-001 -3.5363769531E-001 -4.1916370392E-003 +2.9103755951E-003 +1.9645318389E-005 -4.6463683248E-005 -4.1938781738E-002 -1.0614013672E-001
9850000000.000 -1.4971923828E-001 -3.5394287109E-001 -1.8289089203E-003 +4.7545433044E-003 -4.4070184231E-006 +7.8710727394E-006 -1.8875122070E-002 -1.0248565674E-001
9982500000.000 -1.5141296387E-001 -3.5641479492E-001 +1.1038780212E-003 +4.9581527710E-003 -1.8557533622E-005 +3.6735087633E-005 +5.5046081543E-003 -1.0445785522E-001
10115000000.000 -1.5483093262E-001 -3.5969543457E-001 +3.6461353302E-003 +3.5043954849E-003 +2.1628104150E-005 -9.8096206784E-006 +1.7898559570E-002 -9.9140167236E-002
10247500000.000 -1.6006469727E-001 -3.6175537109E-001 +5.0203800201E-003 +8.5210800171E-004 +4.2896717787E-005 -5.4933130741E-005 +3.5812377930E-002 -8.0101013184E-002
10380000000.000 -1.6368103027E-001 -3.6323547363E-001 +4.5537948608E-003 -1.9638538361E-003 +3.9730221033E-006 -1.7618760467E-005 +5.7292938232E-002 -6.8996429443E-002
10512500000.000 -1.6728210449E-001 -3.6555480957E-001 +2.7153491974E-003 -4.3568611145E-003 -6.5742060542E-006 +1.8370337784E-007 +6.1889648438E-002 -5.7252883911E-002
10645000000.000 -1.7135620117E-001 -3.6708068848E-001 -8.2969665527E-005 -4.9698352814E-003 +5.3301453590E-005 -8.1211328506E-007 +6.6017150879E-002 -2.9373168945E-002
10777500000.000 -1.7463684082E-001 -3.6964416504E-001 -2.8691291809E-003 -4.1749477386E-003 +1.2647360563E-006 +2.4708919227E-005 +7.8193664551E-002 -8.6784362793E-003
10910000000.000 -1.7893981934E-001 -3.7260437012E-001 -4.6069622040E-003 -1.9676685333E-003 -1.0648742318E-005 +7.1520917118E-006 +7.2895050049E-002 +3.9787292480E-003
11042500000.000 -1.8421936035E-001 -3.7525939941E-001 -4.9149990082E-003 +9.7489356995E-004 -2.0377337933E-005 -2.0781531930E-005 +5.9751510620E-002 +3.0546188354E-002
11175000000.000 -1.8730163574E-001 -3.7783813477E-001 -3.4307241440E-003 +3.7226676941E-003 -7.7221542597E-005 +4.4781714678E-005 +5.7723999023E-002 +5.2349090576E-002
11307500000.000 -1.9012451172E-001 -3.7988281250E-001 -8.1396102905E-004 +4.9662590027E-003 -3.7325546145E-005 -4.4237822294E-006 +4.4878005981E-002 +5.7884216309E-002
11440000000.000 -1.9416809082E-001 -3.8238525391E-001 +1.9471645355E-003 +4.6784877777E-003 +1.1662952602E-005 +2.5443732738E-005 +1.9145965576E-002 +7.1647644043E-002
11572500000.000 -1.9619750977E-001 -3.8687133789E-001 +4.2371749878E-003 +2.8038024902E-003 +1.8450431526E-005 +2.3995526135E-005 +5.4626464844E-003 +8.7646484375E-002
11705000000.000 -1.9958496094E-001 -3.8853454590E-001 +5.0680637360E-003 -3.0994415283E-006 -3.1119212508E-005 -6.3013285398E-006 -8.9149475098E-003 +8.1226348877E-002
11837500000.000 -2.0249938965E-001 -3.9155578613E-001 +4.2314529419E-003 -2.8355121613E-003 +1.2870877981E-006 -1.7112120986E-005 -4.1912078857E-002 +7.7415466309E-002
11970000000.000 -2.0399475098E-001 -3.9263916016E-001 +1.8277168274E-003 -4.7068595886E-003 +2.9441900551E-005 -7.6666474342E-006 -5.8078765869E-002 +8.3896636963E-002
12102500000.000 -2.0495605469E-001 -3.9451599121E-001 -1.1200904846E-003 -4.9712657928E-003 +2.1066516638E-005 -2.5451183319E-005 -6.4987182617E-002 +6.4945220947E-002
12235000000.000 -2.0872497559E-001 -3.9666748047E-001 -3.6720037460E-003 -3.5173892975E-003 +9.9074095488E-006 -4.2304396629E-005 -9.2670440674E-002 +4.5783996582E-002
12367500000.000 -2.1009826660E-001 -3.9730834961E-001 -4.9865245819E-003 -8.7070465088E-004 +4.5606866479E-005 -8.0838799477E-007 -1.0450744629E-001 +4.4475555420E-002
12500000000.000 -2.1400451660E-001 -3.9704895020E-001 -4.6613216400E-003 +2.1340847015E-003 -1.7412006855E-005 -6.3590705395E-005 -9.7137451172E-002 +2.0847320557E-002
12632500000.000 -2.1594238281E-001 -3.9984130859E-001 -2.6822090149E-003 +4.2660236359E-003 +1.4817342162E-006 -1.2127682567E-005 -1.1090850830E-001 -1.2268066406E-002
12765000000.000 -2.1865844727E-001 -4.0065002441E-001 +5.3405761719E-005 +5.0709247589E-003 +4.2751431465E-005 +2.9230490327E-005 -1.1767959595E-001 -1.5785217285E-002
12897500000.000 -2.2137451172E-001 -3.9929199219E-001 +3.1092166901E-003 +4.1980743408E-003 -1.3296026736E-005 +2.1695159376E-006 -9.1926574707E-002 -3.4263610840E-002
13030000000.000 -2.2277832031E-001 -4.0072631836E-001 +4.6977996826E-003 +1.7228126526E-003 +4.4278800488E-005 -4.3692067266E-005 -9.1564178467E-002 -7.1369171143E-002
13162500000.000 -2.2660827637E-001 -4.0313720703E-001 +4.9607753754E-003 -1.2195110321E-003 +7.2106719017E-005 -1.2166798115E-005 -9.3803405762E-002 -7.1163177490E-002
13295000000.000 -2.2987365723E-001 -4.0405273438E-001 +3.5192966461E-003 -3.8514137268E-003 +3.9249658585E-005 -3.1767413020E-005 -6.1603546143E-002 -7.8281402588E-002
13427500000.000 -2.3387145996E-001 -4.0316772461E-001 +6.3633918762E-004 -5.0432682037E-003 -1.4133751392E-005 -5.3733587265E-005 -4.8168182373E-002 -1.0572052002E-001
13560000000.000 -2.3287963867E-001 -4.0371704102E-001 -2.1874904633E-003 -4.5402050018E-003 +3.5235658288E-005 +4.1194260120E-005 -4.8793792725E-002 -1.0202026367E-001
13692500000.000 -2.3568725586E-001 -4.0686035156E-001 -4.4527053833E-003 -2.6154518127E-003 +9.2893838882E-005 +3.4138560295E-005 -1.8676757813E-002 -8.9374542236E-002
13825000000.000 -2.4037170410E-001 -4.0805053711E-001 -5.1426887512E-003 +2.6297569275E-004 -4.6433880925E-005 -4.4088810682E-006 +3.9634704590E-003 -1.0441207886E-001
13957500000.000 -2.4407958984E-001 -4.0623474121E-001 -3.9801597595E-003 +3.0524730682E-003 +4.8134475946E-005 -8.0198049545E-005 -8.3160400391E-004 -9.7221374512E-002
14090000000.000 -2.4467468262E-001 -4.0698242188E-001 -1.6191005707E-003 +4.9884319305E-003 +3.1739473343E-005 -7.2352588177E-005 +2.1583557129E-002 -7.1720123291E-002
14222500000.000 -2.4652099609E-001 -4.1011047363E-001 +1.4145374298E-003 +4.9867630005E-003 +1.4887191355E-005 +9.0072862804E-006 +4.3945312500E-002 -7.5408935547E-002
14355000000.000 -2.5236511230E-001 -4.1055297852E-001 +4.0543079376E-003 +3.1869411469E-003 +3.7200748920E-005 -3.9046630263E-005 +3.3931732178E-002 -6.7756652832E-002
14487500000.000 -2.5419616699E-001 -4.1062927246E-001 +5.0652027130E-003 +4.0102005005E-004 +5.7300552726E-005 +3.4276396036E-005 +4.1606903076E-002 -3.5505294800E-002
14620000000.000 -2.5424194336E-001 -4.1375732422E-001 +4.4717788696E-003 -2.5696754456E-003 -8.0630183220E-005 +9.2871487141E-006 +6.0817718506E-002 -3.2882690430E-002
14752500000.000 -2.5929260254E-001 -4.1801452637E-001 +2.3012161255E-003 -4.7020912170E-003 -3.4522265196E-005 -7.6323747635E-005 +4.3512344360E-002 -3.1551361084E-002
14885000000.000 -2.6260375977E-001 -4.1766357422E-001 -7.9870223999E-004 -5.0101280212E-003 +6.0293823481E-005 -3.7088990211E-005 +3.7916183472E-002 +1.5010833740E-003
15017500000.000 -2.6054382324E-001 -4.2060852051E-001 -3.3520460129E-003 -3.7474632263E-003 -2.3992732167E-005 +3.7560239434E-005 +5.3918838501E-002 +7.0629119873E-003
15150000000.000 -2.6211547852E-001 -4.2674255371E-001 -4.9676895142E-003 -1.0466575623E-003 -9.1914087534E-005 +1.8529593945E-005 +3.4271240234E-002 -1.0070800781E-003
15282500000.000 -2.6501464844E-001 -4.2948913574E-001 -4.5640468597E-003 +1.8472671509E-003 -8.6743384600E-006 -5.3951516747E-006 +1.5906333923E-002 +2.5406837463E-002
