!  2-Port S-parameters saved by WinCal
! VAR MeasName=S-Parameters (CALIBRATED_DATA) read from VNA (C)
! VAR MeasDate=10/5/2015 5:02:24 PM
! VAR NAME=M6079_4_7_3_2_20C_9.0mA_-17.5dBm
! VAR FILENAME=M6079_4_7_3_2_20C_9.0mA_-17.5dBm.S2P
! VAR DATE=10/5/2015 5:02:24 PM
! VAR PHYS_PORTS=2,1
! VAR ObjTypeName=DATASET
! VAR IndexType=Frequency
!
# Hz S RI R 50
45000000.000 +2.1240234375E-002 -1.6422271729E-003 -3.0398368835E-003 +5.6924819946E-003 +1.7712712288E-003 -2.5451183319E-004 +2.8197288513E-002 +2.5138854980E-003
177500000.000 +2.2826194763E-002 -6.8941116333E-003 +2.0358562469E-003 +5.6378841400E-003 +6.6500157118E-005 +3.6921352148E-005 +1.6031265259E-002 +1.6985893250E-002
310000000.000 +2.3238182068E-002 -1.2794494629E-002 +4.3287277222E-003 +3.7579536438E-003 -7.9944729805E-005 -1.6757100821E-004 +2.9882431030E-002 +6.1342239380E-002
442500000.000 +2.3828506470E-002 -1.9090652466E-002 +6.4537525177E-003 +8.8453292847E-005 +1.2966990471E-004 +1.5653669834E-005 +7.2677612305E-002 +2.2396087646E-002
575000000.000 +2.3704528809E-002 -2.6167869568E-002 +5.0501823425E-003 -3.4470558167E-003 -4.6286731958E-007 -2.2512394935E-006 +2.7505874634E-002 +1.1369705200E-002
707500000.000 +2.3284912109E-002 -3.2320022583E-002 +2.0937919617E-003 -5.4495334625E-003 -1.0445713997E-004 -7.4528157711E-005 +2.3841857910E-003 +1.8562316895E-002
840000000.000 +2.3324966431E-002 -3.9468765259E-002 -1.2447834015E-003 -5.7880878448E-003 +4.7542154789E-005 +1.3409182429E-005 -1.9957542419E-002 +2.5950431824E-002
972500000.000 +2.3185729980E-002 -4.6169281006E-002 -4.2808055878E-003 -4.0574073792E-003 -5.1280483603E-005 +5.2625313401E-005 -3.5820007324E-002 +3.5825729370E-002
1105000000.000 +2.2317886353E-002 -5.3236007690E-002 -5.7377815247E-003 -1.0523796082E-003 -3.0951574445E-005 +9.6205621958E-006 -4.6802520752E-002 +3.8499832153E-002
1237500000.000 +2.1579742432E-002 -5.9602737427E-002 -5.2375793457E-003 +2.3519992828E-003 -4.2725354433E-005 -1.1920928955E-005 -5.8593750000E-002 +3.3966064453E-002
1370000000.000 +2.0523071289E-002 -6.6493988037E-002 -3.0140876770E-003 +4.8174858093E-003 +3.7072226405E-005 +4.3649226427E-005 -7.4138641357E-002 +2.7343750000E-002
1502500000.000 +1.9767761230E-002 -7.2738647461E-002 +2.0766258240E-004 +5.6073665619E-003 +1.7345882952E-006 -7.4394047260E-006 -8.8047027588E-002 +2.1621704102E-002
1635000000.000 +1.9359588623E-002 -7.9624176025E-002 +3.3380985260E-003 +4.6582221985E-003 +5.1397830248E-005 +3.3639371395E-006 -9.9250793457E-002 +1.1856079102E-002
1767500000.000 +1.8001556396E-002 -8.6746215820E-002 +5.2995681763E-003 +1.9690990448E-003 +5.4128468037E-005 -7.5977295637E-006 -1.1216735840E-001 +3.2463073730E-003
1900000000.000 +1.6849517822E-002 -9.2327117920E-002 +5.6462287903E-003 -1.3763904572E-003 -6.9430097938E-007 +5.2168034017E-006 -1.1403274536E-001 -3.1089782715E-003
2032500000.000 +1.5560150146E-002 -9.8354339600E-002 +3.7405490875E-003 -4.2865276337E-003 +9.3020498753E-006 -8.2515180111E-005 -1.1410140991E-001 -2.4120330811E-002
2165000000.000 +1.4972686768E-002 -1.0565567017E-001 +8.1539154053E-004 -5.5475234985E-003 +9.7256153822E-005 -2.7947127819E-005 -1.2294006348E-001 -4.1908264160E-002
2297500000.000 +1.3141632080E-002 -1.1145019531E-001 -2.5613307953E-003 -5.0652027130E-003 -1.4808028936E-005 +1.1977553368E-004 -1.2682342529E-001 -5.3298950195E-002
2430000000.000 +1.1909484863E-002 -1.1687088013E-001 -4.7812461853E-003 -2.6662349701E-003 +4.3690204620E-005 -1.5010684729E-004 -1.2741851807E-001 -6.4926147461E-002
2562500000.000 +1.0482788086E-002 -1.2371444702E-001 -5.4893493652E-003 +3.1971931458E-004 +2.1159648895E-005 -4.9902126193E-005 -1.2631988525E-001 -7.0732116699E-002
2695000000.000 +7.2784423828E-003 -1.2908935547E-001 -4.4002532959E-003 +3.2854080200E-003 -6.8943947554E-005 -2.8420239687E-005 -1.1422348022E-001 -7.2956085205E-002
2827500000.000 +4.8217773438E-003 -1.3291931152E-001 -1.9171237946E-003 +5.2242279053E-003 -3.1983479857E-005 -5.8738514781E-005 -9.9018096924E-002 -8.1932067871E-002
2960000000.000 +3.9596557617E-003 -1.3877868652E-001 +1.2645721436E-003 +5.2731037140E-003 -3.8882717490E-005 +3.7811696529E-006 -8.9412689209E-002 -8.6769104004E-002
3092500000.000 +8.8500976563E-004 -1.4565277100E-001 +4.1167736053E-003 +3.7775039673E-003 -3.9333477616E-005 +1.8239021301E-005 -7.1090698242E-002 -8.5361480713E-002
3225000000.000 -3.1509399414E-003 -1.5061187744E-001 +5.5546760559E-003 +9.0909004211E-004 -1.1100247502E-004 -7.2777271271E-005 -5.2253723145E-002 -9.1220855713E-002
3357500000.000 -5.1345825195E-003 -1.5448760986E-001 +4.9138069153E-003 -2.1269321442E-003 +1.2210756540E-004 -3.6209821701E-006 -4.2133331299E-002 -9.2121124268E-002
3490000000.000 -7.4462890625E-003 -1.6094970703E-001 +2.9768943787E-003 -4.5995712280E-003 -2.3011118174E-005 +6.4026564360E-005 -2.8846740723E-002 -8.3179473877E-002
3622500000.000 -1.0887145996E-002 -1.6750335693E-001 -1.4758110046E-004 -5.7003498077E-003 -4.3392181396E-005 -1.1754035950E-004 -1.1600494385E-002 -7.9189300537E-002
3755000000.000 -1.4312744141E-002 -1.7321014404E-001 -3.0953884125E-003 -4.2812824249E-003 +1.1570379138E-004 -2.9072165489E-005 -6.0920715332E-003 -7.3719024658E-002
3887500000.000 -1.7127990723E-002 -1.7859649658E-001 -5.0139427185E-003 -1.8184185028E-003 -1.4273077250E-004 +6.1616301537E-005 +1.3771057129E-003 -5.6459426880E-002
4020000000.000 -1.9844055176E-002 -1.8350982666E-001 -5.3873062134E-003 +1.3220310211E-003 -5.1580369473E-005 +2.2273510695E-005 +1.3013839722E-002 -4.4534683228E-002
4152500000.000 -2.1957397461E-002 -1.8972015381E-001 -3.6365985870E-003 +3.9455890656E-003 -7.3432922363E-005 -4.5713037252E-005 +1.5661239624E-002 -3.2995223999E-002
4285000000.000 -2.5543212891E-002 -1.9580078125E-001 -6.5064430237E-004 +5.2313804626E-003 -7.2028487921E-006 -1.7127953470E-005 +1.6965866089E-002 -1.3946533203E-002
4417500000.000 -2.9159545898E-002 -2.0044708252E-001 +2.4216175079E-003 +4.7106742859E-003 -1.1684373021E-005 +4.0033832192E-005 +2.5512695313E-002 +3.3731460571E-003
4550000000.000 -3.0723571777E-002 -2.0536804199E-001 +4.5721530914E-003 +2.6080608368E-003 +4.6901404858E-006 -1.1218711734E-004 +2.9323577881E-002 +9.1333389282E-003
4682500000.000 -3.3218383789E-002 -2.1153259277E-001 +5.0899982452E-003 -3.8337707520E-004 +8.9179724455E-005 +4.1127204895E-006 +2.6118278503E-002 +1.9904136658E-002
4815000000.000 -3.7322998047E-002 -2.1678161621E-001 +4.0214061737E-003 -3.0755996704E-003 -1.6144476831E-005 -8.9211389422E-006 +3.1692504883E-002 +2.6878356934E-002
4947500000.000 -3.9031982422E-002 -2.2097015381E-001 +1.7368793488E-003 -4.8601627350E-003 -8.9555978775E-006 -5.0783157349E-005 +2.8285980225E-002 +1.9337654114E-002
5080000000.000 -4.0649414063E-002 -2.2640228271E-001 -1.2328624725E-003 -4.9121379852E-003 +3.2003968954E-005 +2.1111220121E-005 +1.3936996460E-002 +2.0110130310E-002
5212500000.000 -4.3869018555E-002 -2.3205566406E-001 -3.8208961487E-003 -3.4836530685E-003 -4.8747286201E-005 +1.6018748283E-007 +9.8600387573E-003 +2.4440765381E-002
5345000000.000 -4.6821594238E-002 -2.3548126221E-001 -5.1255226135E-003 -8.1229209900E-004 -6.8780034781E-005 -1.1105090380E-005 +6.2999725342E-003 +1.5879631042E-002
5477500000.000 -4.7706604004E-002 -2.3952484131E-001 -4.6811103821E-003 +2.2706985474E-003 +5.8684498072E-005 -2.1176412702E-005 -8.5911750793E-003 +9.9496841431E-003
5610000000.000 -4.9842834473E-002 -2.4494934082E-001 -2.5606155396E-003 +4.4689178467E-003 -3.8031488657E-005 +2.1867454052E-005 -1.4322280884E-002 +1.4569282532E-002
5742500000.000 -5.3558349609E-002 -2.4842834473E-001 +3.5762786865E-004 +5.1789283752E-003 -1.0404735804E-005 -1.0741408914E-005 -1.0584354401E-002 +6.1831474304E-003
5875000000.000 -5.5999755859E-002 -2.5091552734E-001 +3.0574798584E-003 +4.0414333344E-003 +3.1242147088E-005 +4.8745423555E-005 -1.9503593445E-002 -3.3226013184E-003
6007500000.000 -5.7632446289E-002 -2.5448608398E-001 +4.8778057098E-003 +1.5735626221E-003 +5.8310106397E-005 +2.6281923056E-005 -2.2908210754E-002 +3.3950805664E-004
6140000000.000 -6.0501098633E-002 -2.5932312012E-001 +5.0125122070E-003 -1.4533996582E-003 -4.3876469135E-005 +2.7852132916E-005 -1.4943599701E-002 -2.2602081299E-003
6272500000.000 -6.5216064453E-002 -2.6278686523E-001 +3.3733844757E-003 -3.9935112000E-003 -6.7348591983E-006 -9.5819123089E-006 -1.5810966492E-002 -1.1280059814E-002
6405000000.000 -6.9198608398E-002 -2.6416015625E-001 +5.8698654175E-004 -5.1627159119E-003 +3.3522024751E-005 +5.9362500906E-006 -1.9159317017E-002 -6.0787200928E-003
6537500000.000 -7.0449829102E-002 -2.6768493652E-001 -2.4120807648E-003 -4.5895576477E-003 -3.2488256693E-005 +6.0498714447E-005 -9.4699859619E-003 -2.7604103088E-003
6670000000.000 -7.3730468750E-002 -2.7328491211E-001 -4.4920444489E-003 -2.3927688599E-003 +4.7104433179E-005 -5.7578086853E-005 -7.7757835388E-003 -6.4754486084E-003
6802500000.000 -8.0001831055E-002 -2.7722167969E-001 -4.9967765808E-003 +5.1236152649E-004 +5.7224184275E-005 -6.1839818954E-007 -1.1103153229E-002 +4.5919418335E-004
6935000000.000 -8.3770751953E-002 -2.7774047852E-001 -3.8753747940E-003 +3.1965970993E-003 +9.3542039394E-006 +5.5583193898E-005 -6.5646171570E-003 +9.8519325256E-003
7067500000.000 -8.4838867188E-002 -2.8190612793E-001 -1.4057159424E-003 +4.7814846039E-003 +3.5535544157E-005 -7.0966780186E-006 -5.1965713501E-003 +1.0673999786E-002
7200000000.000 -8.9019775391E-002 -2.8753662109E-001 +1.4419555664E-003 +4.8158168793E-003 +4.1870400310E-005 -2.9223039746E-005 -1.4981269836E-002 +1.7738342285E-002
7332500000.000 -9.5016479492E-002 -2.9037475586E-001 +3.8514137268E-003 +3.0611753464E-003 -6.9532543421E-006 +5.0386413932E-005 -1.6872406006E-002 +3.0617713928E-002
7465000000.000 -9.7717285156E-002 -2.9258728027E-001 +5.0024986267E-003 +4.5156478882E-004 -4.2364001274E-005 -5.0034373999E-005 -2.0466804504E-002 +3.0949592590E-002
7597500000.000 -1.0026550293E-001 -2.9760742188E-001 +4.3787956238E-003 -2.3534297943E-003 +5.6045129895E-005 +9.1437250376E-006 -3.6729812622E-002 +3.3908843994E-002
7730000000.000 -1.0475158691E-001 -3.0245971680E-001 +2.3782253265E-003 -4.3201446533E-003 -6.1336904764E-006 +4.1488558054E-005 -4.7853469849E-002 +4.3947219849E-002
7862500000.000 -1.0832214355E-001 -3.0532836914E-001 -4.9734115601E-004 -4.8789978027E-003 -3.9860606194E-005 -2.9744580388E-005 -5.3831100464E-002 +4.2182922363E-002
7995000000.000 -1.1001586914E-001 -3.0859375000E-001 -3.0897855759E-003 -3.7263631821E-003 +1.6083940864E-005 -5.7695433497E-006 -7.3493957520E-002 +3.5243988037E-002
8127500000.000 -1.1270141602E-001 -3.1501770020E-001 -4.7621726990E-003 -1.5344619751E-003 +4.3697655201E-005 +7.8223645687E-005 -9.1156005859E-002 +4.0264129639E-002
8260000000.000 -1.1740112305E-001 -3.1771850586E-001 -4.6973228455E-003 +1.3394355774E-003 +5.8766454458E-006 +3.7938356400E-005 -9.5302581787E-002 +3.4381866455E-002
8392500000.000 -1.1837768555E-001 -3.2112121582E-001 -3.1598806381E-003 +3.8532018661E-003 +1.1390075088E-005 -3.1104311347E-005 -1.0997390747E-001 +1.8726348877E-002
8525000000.000 -1.2004089355E-001 -3.2511901855E-001 -5.4740905762E-004 +4.8139095306E-003 +1.4599412680E-005 +3.2229349017E-005 -1.2200546265E-001 +1.5625000000E-002
8657500000.000 -1.2261962891E-001 -3.2905578613E-001 +2.3076534271E-003 +4.3368339539E-003 -3.2659620047E-005 +2.4463981390E-005 -1.1788940430E-001 +4.6234130859E-003
8790000000.000 -1.2498474121E-001 -3.3270263672E-001 +4.3716430664E-003 +2.3462772369E-003 -5.1967799664E-005 -5.3940340877E-005 -1.1985778809E-001 -1.6872406006E-002
8922500000.000 -1.2721252441E-001 -3.3467102051E-001 +5.0613880157E-003 -5.0473213196E-004 +4.6465545893E-005 +3.3020973206E-005 -1.2220001221E-001 -2.9933929443E-002
9055000000.000 -1.2916564941E-001 -3.3796691895E-001 +3.7608146667E-003 -3.1890869141E-003 -7.5541436672E-005 -1.3690441847E-005 -1.1134719849E-001 -4.3918609619E-002
9187500000.000 -1.3119506836E-001 -3.4019470215E-001 +1.3604164124E-003 -4.7156810760E-003 -1.7658807337E-005 -1.7434358597E-006 -1.0111236572E-001 -6.6062927246E-002
9320000000.000 -1.3557434082E-001 -3.4216308594E-001 -1.4705657959E-003 -4.7082901001E-003 +3.5239383578E-005 -1.7421320081E-005 -9.3814849854E-002 -7.8739166260E-002
9452500000.000 -1.3824462891E-001 -3.4425354004E-001 -3.9522647858E-003 -3.1356811523E-003 +2.3430213332E-005 +2.5740824640E-005 -7.4459075928E-002 -8.6986541748E-002
9585000000.000 -1.4067077637E-001 -3.4669494629E-001 -5.0661563873E-003 -3.8123130798E-004 -5.3096562624E-005 -4.2060390115E-005 -5.5671691895E-002 -1.0137176514E-001
9717500000.000 -1.4537048340E-001 -3.5005187988E-001 -4.3289661407E-003 +2.3939609528E-003 +8.4498897195E-006 -1.3578217477E-005 -4.2076110840E-002 -1.0613632202E-001
9850000000.000 -1.5052795410E-001 -3.5037231445E-001 -2.2835731506E-003 +4.4627189636E-003 +4.8018991947E-006 +7.2717666626E-005 -1.8859863281E-002 -1.0255432129E-001
9982500000.000 -1.5209960938E-001 -3.5273742676E-001 +6.9308280945E-004 +4.9242973328E-003 -2.5222077966E-005 -1.9706785679E-006 +5.3291320801E-003 -1.0445022583E-001
10115000000.000 -1.5560913086E-001 -3.5603332520E-001 +3.2196044922E-003 +3.6872625351E-003 +8.4871426225E-006 +1.2307427824E-006 +1.7753601074E-002 -9.9239349365E-002
10247500000.000 -1.6093444824E-001 -3.5818481445E-001 +4.8277378082E-003 +1.3179779053E-003 -2.2364780307E-005 +2.6384368539E-006 +3.5724639893E-002 -8.0127716064E-002
10380000000.000 -1.6450500488E-001 -3.5937500000E-001 +4.7521591187E-003 -1.6906261444E-003 -1.5160068870E-005 -1.7642043531E-005 +5.7273864746E-002 -6.9095611572E-002
10512500000.000 -1.6827392578E-001 -3.6169433594E-001 +2.8946399689E-003 -3.9598941803E-003 +9.0124085546E-006 -1.8963590264E-005 +6.1834335327E-002 -5.7382583618E-002
10645000000.000 -1.7214965820E-001 -3.6337280273E-001 +3.4332275391E-004 -4.9417018890E-003 +2.7991831303E-005 +5.1140785217E-005 +6.5963745117E-002 -2.9422760010E-002
10777500000.000 -1.7553710938E-001 -3.6575317383E-001 -2.5355815887E-003 -4.1759014130E-003 -5.8313831687E-005 +1.2969598174E-005 +7.8220367432E-002 -8.6097717285E-003
10910000000.000 -1.7997741699E-001 -3.6869812012E-001 -4.4112205505E-003 -2.0389556885E-003 -1.0330229998E-005 -7.6133757830E-005 +7.2933197021E-002 +3.8795471191E-003
11042500000.000 -1.8511962891E-001 -3.7141418457E-001 -4.7280788422E-003 +6.9212913513E-004 -1.1113937944E-005 +8.3222985268E-006 +5.9812545776E-002 +3.0542373657E-002
11175000000.000 -1.8829345703E-001 -3.7388610840E-001 -3.5536289215E-003 +3.2747983932E-003 -2.3858621716E-005 +4.4377520680E-005 +5.7754516602E-002 +5.2404403687E-002
11307500000.000 -1.9107055664E-001 -3.7599182129E-001 -1.0704994202E-003 +4.7938823700E-003 -3.8070604205E-005 -3.8839876652E-005 +4.4952392578E-002 +5.8050155640E-002
11440000000.000 -1.9509887695E-001 -3.7858581543E-001 +1.6951560974E-003 +4.4898986816E-003 +4.9935653806E-005 +1.8442049623E-005 +1.9214630127E-002 +7.1788787842E-002
11572500000.000 -1.9732666016E-001 -3.8299560547E-001 +3.8542747498E-003 +2.8251409531E-003 -6.4074993134E-005 -4.5519322157E-005 +5.5122375488E-003 +8.7566375732E-002
11705000000.000 -2.0057678223E-001 -3.8458251953E-001 +4.8735141754E-003 +1.1110305786E-004 -5.8870762587E-005 -3.2756477594E-005 -8.8348388672E-003 +8.1367492676E-002
11837500000.000 -2.0350646973E-001 -3.8743591309E-001 +4.0824413300E-003 -2.6373863220E-003 +1.8985010684E-005 -1.3597309589E-007 -4.1858673096E-002 +7.7426910400E-002
11970000000.000 -2.0497131348E-001 -3.8842773438E-001 +1.8935203552E-003 -4.3270587921E-003 -1.9673258066E-005 +1.1252239347E-005 -5.7998657227E-002 +8.3934783936E-002
12102500000.000 -2.0620727539E-001 -3.9048767090E-001 -8.4638595581E-004 -4.8134326935E-003 -2.6739202440E-005 +4.8885121942E-006 -6.4964294434E-002 +6.4949035645E-002
12235000000.000 -2.1002197266E-001 -3.9265441895E-001 -3.4025907516E-003 -3.2864809036E-003 +2.8535723686E-005 -7.8640878201E-005 -9.2830657959E-002 +4.5761108398E-002
12367500000.000 -2.1133422852E-001 -3.9317321777E-001 -4.6873092651E-003 -8.6760520935E-004 +7.5481832027E-005 +5.2638351917E-006 -1.0440826416E-001 +4.4597625732E-002
12500000000.000 -2.1530151367E-001 -3.9283752441E-001 -4.4150352478E-003 +1.8544197083E-003 -3.4714117646E-005 +3.5714358091E-005 -9.7122192383E-002 +2.0828247070E-002
12632500000.000 -2.1713256836E-001 -3.9579772949E-001 -2.5780200958E-003 +3.9789676666E-003 +5.5586919188E-005 -1.4940276742E-005 -1.1093521118E-001 -1.2153625488E-002
12765000000.000 -2.1992492676E-001 -3.9649963379E-001 +1.3089179993E-004 +4.6539306641E-003 +1.9681639969E-005 -1.3880431652E-005 -1.1776733398E-001 -1.5651702881E-002
12897500000.000 -2.2264099121E-001 -3.9529418945E-001 +2.6209354401E-003 +3.7690401077E-003 -2.0438805223E-005 +3.4753233194E-005 -9.1903686523E-002 -3.4149169922E-002
13030000000.000 -2.2409057617E-001 -3.9665222168E-001 +4.2881965637E-003 +1.6808509827E-003 -3.8065016270E-005 -6.0480087996E-006 -9.1518402100E-002 -7.1353912354E-002
13162500000.000 -2.2807312012E-001 -3.9888000488E-001 +4.5504570007E-003 -1.0027885437E-003 -2.4707987905E-005 +2.9377639294E-005 -9.3925476074E-002 -7.1083068848E-002
13295000000.000 -2.3129272461E-001 -4.0002441406E-001 +3.1255483627E-003 -3.2697916031E-003 -6.9737434387E-006 +1.0589137673E-004 -6.1527252197E-002 -7.8170776367E-002
13427500000.000 -2.3522949219E-001 -3.9921569824E-001 +6.7353248596E-004 -4.4612884521E-003 +2.1738000214E-005 -2.7706846595E-006 -4.7996520996E-002 -1.0559463501E-001
13560000000.000 -2.3440551758E-001 -3.9967346191E-001 -1.8825531006E-003 -4.1713714600E-003 +3.0826777220E-006 +2.2470019758E-005 -4.8866271973E-002 -1.0197067261E-001
13692500000.000 -2.3745727539E-001 -4.0286254883E-001 -3.9184093475E-003 -2.3005008698E-003 -1.4703720808E-005 +3.6241486669E-005 -1.8722534180E-002 -8.9233398438E-002
13825000000.000 -2.4191284180E-001 -4.0382385254E-001 -4.5335292816E-003 +9.3698501587E-005 -1.1825561523E-004 +4.0598213673E-005 +3.8528442383E-003 -1.0432052612E-001
13957500000.000 -2.4563598633E-001 -4.0199279785E-001 -3.7267208099E-003 +2.6537179947E-003 +4.3744221330E-006 -1.5299767256E-005 -9.3841552734E-004 -9.7183227539E-002
14090000000.000 -2.4647521973E-001 -4.0286254883E-001 -1.5974044800E-003 +4.3098926544E-003 +4.0076673031E-005 +8.3237886429E-005 +2.1404266357E-002 -7.1681976318E-002
14222500000.000 -2.4836730957E-001 -4.0588378906E-001 +1.1379718781E-003 +4.3520927429E-003 +3.3898977563E-006 +1.0483199731E-006 +4.3933868408E-002 -7.5401306152E-002
14355000000.000 -2.5422668457E-001 -4.0631103516E-001 +3.3482313156E-003 +3.2277107239E-003 +3.3124815673E-006 -5.9448648244E-006 +3.3843994141E-002 -6.7775726318E-002
14487500000.000 -2.5607299805E-001 -4.0658569336E-001 +4.5402050018E-003 +7.3885917664E-004 -1.6739591956E-005 +3.9575621486E-005 +4.1496276855E-002 -3.5539627075E-002
14620000000.000 -2.5646972656E-001 -4.0943908691E-001 +3.9820671082E-003 -1.9607543945E-003 -1.2447685003E-004 +2.7552247047E-005 +6.0808181763E-002 -3.2882690430E-002
14752500000.000 -2.6106262207E-001 -4.1368103027E-001 +2.3468732834E-003 -3.8535594940E-003 +3.2851472497E-005 -2.0576640964E-005 +4.3460845947E-002 -3.1604766846E-002
14885000000.000 -2.6475524902E-001 -4.1366577148E-001 -3.7217140198E-004 -4.5492649078E-003 +7.9505145550E-005 -9.2238187790E-006 +3.7900924683E-002 +1.4305114746E-003
15017500000.000 -2.6303100586E-001 -4.1609191895E-001 -2.7524232864E-003 -3.5585165024E-003 -5.9735029936E-005 +7.4729323387E-005 +5.3934097290E-002 +6.8244934082E-003
15150000000.000 -2.6426696777E-001 -4.2205810547E-001 -4.1718482971E-003 -1.4452934265E-003 -1.8366612494E-005 -2.5823712349E-005 +3.4231185913E-002 -1.0814666748E-003
15282500000.000 -2.6736450195E-001 -4.2497253418E-001 -4.2986869812E-003 +1.2319087982E-003 +4.1844323277E-006 -1.9749626517E-005 +1.5866279602E-002 +2.5338172913E-002
