!  2-Port S-parameters saved by WinCal
! VAR MeasName=S-Parameters (CALIBRATED_DATA) read from VNA (C)
! VAR MeasDate=10/5/2015 4:58:02 PM
! VAR NAME=M6079_4_7_3_2_20C_6.0mA_-17.5dBm
! VAR FILENAME=M6079_4_7_3_2_20C_6.0mA_-17.5dBm.S2P
! VAR DATE=10/5/2015 4:58:02 PM
! VAR PHYS_PORTS=2,1
! VAR ObjTypeName=DATASET
! VAR IndexType=Frequency
!
# Hz S RI R 50
45000000.000 +6.4701080322E-002 -7.5149536133E-004 -6.4587593079E-004 +6.5135955811E-003 +9.4664096832E-004 +6.0489773750E-004 +2.9034614563E-002 +4.4565200806E-003
177500000.000 +6.5895080566E-002 -7.7247619629E-003 +2.2463798523E-003 +6.7214965820E-003 -5.8643519878E-005 +1.2344121933E-004 +1.6824722290E-002 +1.6914367676E-002
310000000.000 +6.6150665283E-002 -1.4881134033E-002 +5.2175521851E-003 +4.3303966522E-003 -6.9439411163E-006 -1.6421079636E-004 +3.0012130737E-002 +6.1357498169E-002
442500000.000 +6.6474914551E-002 -2.2438049316E-002 +7.9517364502E-003 +8.6784362793E-005 +5.7607889175E-005 -5.8675184846E-005 +7.2910308838E-002 +2.2514343262E-002
575000000.000 +6.6169738770E-002 -3.0567169189E-002 +5.9704780579E-003 -4.1270256042E-003 -1.3042241335E-005 +9.8466873169E-005 +2.7584075928E-002 +1.1410713196E-002
707500000.000 +6.5467834473E-002 -3.7700653076E-002 +2.6121139526E-003 -6.6781044006E-003 +2.1754764020E-005 -2.5467947125E-005 +2.4290084839E-003 +1.8551826477E-002
840000000.000 +6.5334320068E-002 -4.5772552490E-002 -1.5943050385E-003 -6.9541931152E-003 +7.0124864578E-005 -3.2607465982E-005 -1.9937515259E-002 +2.6021003723E-002
972500000.000 +6.4910888672E-002 -5.3325653076E-002 -5.0790309906E-003 -4.7922134399E-003 +6.9923698902E-006 +3.9163976908E-005 -3.5850524902E-002 +3.5852432251E-002
1105000000.000 +6.3541412354E-002 -6.1225891113E-002 -6.9208145142E-003 -1.1978149414E-003 -1.6462057829E-005 -3.7267804146E-005 -4.6712875366E-002 +3.8536071777E-002
1237500000.000 +6.2637329102E-002 -6.8378448486E-002 -6.1769485474E-003 +2.8104782104E-003 +3.6641955376E-005 -1.8401071429E-005 -5.8681488037E-002 +3.4030914307E-002
1370000000.000 +6.1195373535E-002 -7.6293945313E-002 -3.5669803619E-003 +5.8550834656E-003 -3.9195641875E-005 -1.6633421183E-006 -7.4153900146E-002 +2.7362823486E-002
1502500000.000 +5.9928894043E-002 -8.3335876465E-002 +2.6321411133E-004 +6.7882537842E-003 -1.7240643501E-005 -3.2491981983E-005 -8.8077545166E-002 +2.1709442139E-002
1635000000.000 +5.9192657471E-002 -9.0930938721E-002 +3.9820671082E-003 +5.5246353149E-003 -4.8689544201E-005 -2.0395964384E-006 -9.9254608154E-002 +1.1951446533E-002
1767500000.000 +5.7342529297E-002 -9.8903656006E-002 +6.3266754150E-003 +2.2983551025E-003 +5.7443976402E-006 +3.7426128983E-005 -1.1225509644E-001 +3.3149719238E-003
1900000000.000 +5.5839538574E-002 -1.0530471802E-001 +6.6623687744E-003 -1.7056465149E-003 +5.0103291869E-005 -4.8195943236E-005 -1.1418533325E-001 -3.0746459961E-003
2032500000.000 +5.4039001465E-002 -1.1199188232E-001 +4.4968128204E-003 -5.0806999207E-003 -1.7243437469E-005 -2.6402063668E-005 -1.1421966553E-001 -2.4120330811E-002
2165000000.000 +5.3043365479E-002 -1.1993026733E-001 +1.0087490082E-003 -6.6356658936E-003 +2.2649765015E-006 +6.1698257923E-005 -1.2302017212E-001 -4.1854858398E-002
2297500000.000 +5.0796508789E-002 -1.2647247314E-001 -3.1080245972E-003 -6.0577392578E-003 +2.9853545129E-005 +1.1496245861E-005 -1.2692260742E-001 -5.3222656250E-002
2430000000.000 +4.8889160156E-002 -1.3256072998E-001 -5.6402683258E-003 -3.1986236572E-003 +1.5528872609E-005 -3.6802142859E-005 -1.2738037109E-001 -6.4697265625E-002
2562500000.000 +4.7149658203E-002 -1.4006042480E-001 -6.5429210663E-003 +4.2152404785E-004 -2.5842338800E-005 -7.3049217463E-005 -1.2616729736E-001 -7.0686340332E-002
2695000000.000 +4.3327331543E-002 -1.4596557617E-001 -5.2964687347E-003 +3.9381980896E-003 -1.5407055616E-004 +8.1896781921E-005 -1.1432266235E-001 -7.3070526123E-002
2827500000.000 +4.0473937988E-002 -1.5045928955E-001 -2.2549629211E-003 +6.2990188599E-003 -1.0654330254E-006 -9.7479671240E-005 -9.9121093750E-002 -8.2054138184E-002
2960000000.000 +3.8818359375E-002 -1.5675354004E-001 +1.6133785248E-003 +6.3939094543E-003 +8.3129853010E-005 -1.6879290342E-005 -8.9317321777E-002 -8.6822509766E-002
3092500000.000 +3.5453796387E-002 -1.6426849365E-001 +4.8022270203E-003 +4.4131278992E-003 +3.0802562833E-005 -2.6172026992E-005 -7.1182250977E-002 -8.5578918457E-002
3225000000.000 +3.0860900879E-002 -1.6966247559E-001 +6.5248012543E-003 +1.0156631470E-003 -3.7625432014E-005 -9.3318521976E-005 -5.2246093750E-002 -9.1304779053E-002
3357500000.000 +2.8419494629E-002 -1.7404937744E-001 +5.9189796448E-003 -2.7515888214E-003 +8.1919133663E-005 +1.4182180166E-005 -4.2201995850E-002 -9.2235565186E-002
3490000000.000 +2.5695800781E-002 -1.8127441406E-001 +3.3752918243E-003 -5.6853294373E-003 +6.7437067628E-006 +1.7859973013E-005 -2.8995513916E-002 -8.3282470703E-002
3622500000.000 +2.1453857422E-002 -1.8823242188E-001 -3.4689903259E-004 -6.6020488739E-003 +1.2114644051E-005 +3.5015866160E-005 -1.1566162109E-002 -7.9109191895E-002
3755000000.000 +1.7387390137E-002 -1.9423675537E-001 -3.7572383881E-003 -5.1953792572E-003 +7.6048076153E-005 -3.9413571358E-006 -6.1264038086E-003 -7.3726654053E-002
3887500000.000 +1.3923645020E-002 -2.0026397705E-001 -6.1221122742E-003 -2.1159648895E-003 +8.9738518000E-005 +1.0852143168E-004 +1.4705657959E-003 -5.6533813477E-002
4020000000.000 +1.0810852051E-002 -2.0544433594E-001 -6.3767433167E-003 +1.5234947205E-003 -2.8148293495E-005 +6.5717846155E-005 +1.3076782227E-002 -4.4572830200E-002
4152500000.000 +7.9421997070E-003 -2.1212005615E-001 -4.2219161987E-003 +4.9083232880E-003 -5.6028366089E-005 -3.9655715227E-006 +1.5712738037E-002 -3.3184051514E-002
4285000000.000 +3.8833618164E-003 -2.1864318848E-001 -8.5043907166E-004 +6.2327384949E-003 -6.4957886934E-005 +9.4406306744E-005 +1.6871452332E-002 -1.3908386230E-002
4417500000.000 -2.3651123047E-004 -2.2343444824E-001 +2.9149055481E-003 +5.5868625641E-003 -2.2802501917E-005 +2.6890076697E-005 +2.5622367859E-002 +3.1681060791E-003
4550000000.000 -2.4337768555E-003 -2.2885131836E-001 +5.4347515106E-003 +3.1244754791E-003 -2.3122876883E-005 -1.2083910406E-005 +2.9458045959E-002 +9.0065002441E-003
4682500000.000 -5.5313110352E-003 -2.3532104492E-001 +5.9237480164E-003 -4.0459632874E-004 -1.5005469322E-005 -5.0736591220E-005 +2.6155471802E-002 +1.9971847534E-002
4815000000.000 -1.0231018066E-002 -2.4076843262E-001 +4.8096179962E-003 -3.5808086395E-003 -4.2552128434E-005 +2.9725953937E-005 +3.1785964966E-002 +2.6914596558E-002
4947500000.000 -1.2458801270E-002 -2.4532318115E-001 +2.0015239716E-003 -5.6796073914E-003 -1.5034340322E-005 -2.3141503334E-005 +2.8347969055E-002 +1.9367218018E-002
5080000000.000 -1.4511108398E-002 -2.5106811523E-001 -1.5077590942E-003 -5.8712959290E-003 +2.9063783586E-005 +1.5896745026E-005 +1.4003753662E-002 +2.0060539246E-002
5212500000.000 -1.8554687500E-002 -2.5689697266E-001 -4.5361518860E-003 -4.1608810425E-003 +2.5777146220E-005 +5.9910118580E-005 +1.0056495667E-002 +2.4479866028E-002
5345000000.000 -2.1957397461E-002 -2.6057434082E-001 -6.0627460480E-003 -8.9550018311E-004 -4.9468129873E-005 -5.4121017456E-005 +6.4172744751E-003 +1.5995025635E-002
5477500000.000 -2.3284912109E-002 -2.6487731934E-001 -5.7020187378E-003 +2.6910305023E-003 -1.1634081602E-005 -1.0143965483E-005 -8.4457397461E-003 +9.9964141846E-003
5610000000.000 -2.6092529297E-002 -2.7058410645E-001 -3.0488967896E-003 +5.2626132965E-003 +1.5988945961E-005 +3.1419098377E-005 -1.4245986938E-002 +1.4619350433E-002
5742500000.000 -3.0395507813E-002 -2.7416992188E-001 +3.7217140198E-004 +6.2398910522E-003 -7.5707212090E-006 -1.0866671801E-005 -1.0544776917E-002 +6.3199996948E-003
5875000000.000 -3.3325195313E-002 -2.7699279785E-001 +3.7088394165E-003 +5.0067901611E-003 +2.0407140255E-005 +3.6492943764E-005 -1.9417762756E-002 -3.3559799194E-003
6007500000.000 -3.5385131836E-002 -2.8071594238E-001 +5.7959556580E-003 +1.9798278809E-003 +5.0928443670E-005 +3.5781413317E-006 -2.2914886475E-002 +3.7479400635E-004
6140000000.000 -3.9001464844E-002 -2.8565979004E-001 +5.9652328491E-003 -1.7304420471E-003 -6.0405582190E-005 +2.3931264877E-005 -1.4979839325E-002 -2.0060539246E-003
6272500000.000 -4.4113159180E-002 -2.8927612305E-001 +4.0071010590E-003 -4.6415328979E-003 -3.6988407373E-005 -2.8820708394E-005 -1.5769958496E-002 -1.1233329773E-002
6405000000.000 -4.8706054688E-002 -2.9086303711E-001 +6.7043304443E-004 -6.0751438141E-003 +3.5723671317E-005 +5.8785080910E-006 -1.9214630127E-002 -5.9356689453E-003
6537500000.000 -5.0415039063E-002 -2.9458618164E-001 -2.7785301208E-003 -5.4044723511E-003 -2.0181760192E-006 +1.9335187972E-005 -9.4857215881E-003 -2.6946067810E-003
6670000000.000 -5.4199218750E-002 -3.0027770996E-001 -5.3913593292E-003 -2.9559135437E-003 -5.7373195887E-005 +9.7379088402E-006 -7.9288482666E-003 -6.3667297363E-003
6802500000.000 -6.0974121094E-002 -3.0438232422E-001 -6.0653686523E-003 +5.4168701172E-004 -3.9018690586E-005 +1.8589198589E-005 -1.1183261871E-002 +5.8650970459E-004
6935000000.000 -6.5231323242E-002 -3.0496215820E-001 -4.6782493591E-003 +3.8185119629E-003 -3.7210062146E-005 +5.6128948927E-005 -6.7596435547E-003 +9.9573135376E-003
7067500000.000 -6.6894531250E-002 -3.0912780762E-001 -1.7595291138E-003 +5.8217048645E-003 -3.3928081393E-005 -3.4492462873E-005 -5.4492950439E-003 +1.0688781738E-002
7200000000.000 -7.1487426758E-002 -3.1501770020E-001 +1.6567707062E-003 +5.8226585388E-003 -8.3772465587E-006 +2.9540620744E-005 -1.5282630920E-002 +1.7764091492E-002
7332500000.000 -7.8079223633E-002 -3.1782531738E-001 +4.6288967133E-003 +3.8762092590E-003 +2.3167580366E-005 +2.3351050913E-005 -1.7051696777E-002 +3.0529022217E-002
7465000000.000 -8.1329345703E-002 -3.2019042969E-001 +5.9256553650E-003 +6.6184997559E-004 -2.1499581635E-005 +7.7299773693E-006 -2.0547866821E-002 +3.0883789063E-002
7597500000.000 -8.4320068359E-002 -3.2511901855E-001 +5.2378177643E-003 -2.8159618378E-003 +5.8475881815E-005 -6.6485255957E-005 -3.6886215210E-002 +3.3884048462E-002
7730000000.000 -8.9416503906E-002 -3.3004760742E-001 +2.9535293579E-003 -5.2399635315E-003 -1.9682571292E-005 -4.8791989684E-006 -4.8034667969E-002 +4.3886184692E-002
7862500000.000 -9.3414306641E-002 -3.3300781250E-001 -5.5074691772E-004 -5.9015750885E-003 +2.0461156964E-005 -1.6038306057E-005 -5.3787231445E-002 +4.2024612427E-002
7995000000.000 -9.5565795898E-002 -3.3619689941E-001 -3.6582946777E-003 -4.6296119690E-003 +2.7366913855E-005 -1.2762844563E-005 -7.3513031006E-002 +3.5194396973E-002
8127500000.000 -9.8709106445E-002 -3.4263610840E-001 -5.5449008942E-003 -1.8038749695E-003 +8.3606690168E-005 +3.6165118217E-005 -9.1232299805E-002 +4.0222167969E-002
8260000000.000 -1.0383605957E-001 -3.4548950195E-001 -5.7196617126E-003 +1.5966892242E-003 -4.3746083975E-005 +3.5503879189E-005 -9.5367431641E-002 +3.4252166748E-002
8392500000.000 -1.0540771484E-001 -3.4877014160E-001 -3.8800239563E-003 +4.5001506805E-003 +9.0360641479E-005 -5.4344534874E-005 -1.1002731323E-001 +1.8711090088E-002
8525000000.000 -1.0739135742E-001 -3.5272216797E-001 -7.3766708374E-004 +5.8648586273E-003 +1.0859221220E-006 +1.8361024559E-005 -1.2202835083E-001 +1.5514373779E-002
8657500000.000 -1.1036682129E-001 -3.5664367676E-001 +2.6986598969E-003 +5.3303241730E-003 -5.9814192355E-006 -7.3229894042E-006 -1.1792373657E-001 +4.4250488281E-003
8790000000.000 -1.1323547363E-001 -3.6029052734E-001 +5.2216053009E-003 +2.8977394104E-003 +1.5173107386E-005 -7.8775919974E-006 -1.1983108521E-001 -1.6986846924E-002
8922500000.000 -1.1585998535E-001 -3.6219787598E-001 +5.9354305267E-003 -4.4155120850E-004 +4.2628496885E-005 +4.6115368605E-005 -1.2213134766E-001 -3.0021667480E-002
9055000000.000 -1.1801147461E-001 -3.6561584473E-001 +4.7376155853E-003 -3.6678314209E-003 -7.2196125984E-006 +9.9740922451E-005 -1.1115646362E-001 -4.4067382813E-002
9187500000.000 -1.2059020996E-001 -3.6779785156E-001 +1.8846988678E-003 -5.6753158569E-003 -6.5620988607E-006 -6.0843303800E-005 -1.0099792480E-001 -6.6204071045E-002
9320000000.000 -1.2542724609E-001 -3.6991882324E-001 -1.6853809357E-003 -5.7232379913E-003 +2.4201348424E-005 -5.2100047469E-005 -9.3658447266E-002 -7.8842163086E-002
9452500000.000 -1.2847900391E-001 -3.7181091309E-001 -4.6014785767E-003 -3.8352012634E-003 +4.2878091335E-006 -3.1273812056E-005 -7.4314117432E-002 -8.7043762207E-002
9585000000.000 -1.3131713867E-001 -3.7414550781E-001 -5.9335231781E-003 -6.1893463135E-004 -2.4616718292E-005 -7.2874128819E-005 -5.5423736572E-002 -1.0136795044E-001
9717500000.000 -1.3641357422E-001 -3.7753295898E-001 -5.2564144135E-003 +2.7346611023E-003 +2.2862106562E-005 -3.2875686884E-006 -4.1847229004E-002 -1.0622024536E-001
9850000000.000 -1.4193725586E-001 -3.7789916992E-001 -2.8526782990E-003 +5.2206516266E-003 -5.8412551880E-006 +4.4548884034E-005 -1.8798828125E-002 -1.0245132446E-001
9982500000.000 -1.4401245117E-001 -3.8015747070E-001 +5.2642822266E-004 +5.9425830841E-003 -4.3625012040E-005 +5.1964074373E-005 +5.6343078613E-003 -1.0443496704E-001
10115000000.000 -1.4781188965E-001 -3.8336181641E-001 +3.8428306580E-003 +4.6062469482E-003 +4.1969120502E-005 -1.3172626495E-005 +1.8066406250E-002 -9.9086761475E-002
10247500000.000 -1.5357971191E-001 -3.8540649414E-001 +5.6529045105E-003 +1.7447471619E-003 +7.0482492447E-005 +2.8915703297E-005 +3.5900115967E-002 -8.0051422119E-002
10380000000.000 -1.5759277344E-001 -3.8659667969E-001 +5.6924819946E-003 -1.7201900482E-003 -6.7956745625E-005 -2.0779669285E-005 +5.7312011719E-002 -6.9015502930E-002
10512500000.000 -1.6172790527E-001 -3.8883972168E-001 +3.6857128143E-003 -4.6145915985E-003 -1.4638528228E-005 -1.6766600311E-005 +6.1922073364E-002 -5.7271957397E-002
10645000000.000 -1.6600036621E-001 -3.9039611816E-001 +5.6505203247E-004 -5.7845115662E-003 +2.7418136597E-006 +3.4483149648E-005 +6.6001892090E-002 -2.9380798340E-002
10777500000.000 -1.6987609863E-001 -3.9274597168E-001 -2.8705596924E-003 -5.1822662354E-003 +8.3521008492E-006 +5.5233016610E-005 +7.8262329102E-002 -8.5601806641E-003
10910000000.000 -1.7451477051E-001 -3.9555358887E-001 -5.2387714386E-003 -2.6688575745E-003 -1.3835728168E-005 -3.5034492612E-005 +7.2940826416E-002 +4.0740966797E-003
11042500000.000 -1.8013000488E-001 -3.9813232422E-001 -5.7621002197E-003 +6.0153007507E-004 +1.2390315533E-005 -5.2269548178E-005 +5.9873580933E-002 +3.0714035034E-002
11175000000.000 -1.8370056152E-001 -4.0060424805E-001 -4.5685768127E-003 +3.8053989410E-003 +3.0752271414E-005 +7.0773065090E-005 +5.7685852051E-002 +5.2392959595E-002
11307500000.000 -1.8670654297E-001 -4.0258789063E-001 -1.6300678253E-003 +5.7408809662E-003 +2.7895905077E-005 -8.2319602370E-006 +4.4942855835E-002 +5.8017730713E-002
11440000000.000 -1.9110107422E-001 -4.0495300293E-001 +1.7781257629E-003 +5.5270195007E-003 +4.4427812099E-005 +1.0620802641E-005 +1.9115447998E-002 +7.1678161621E-002
11572500000.000 -1.9354248047E-001 -4.0924072266E-001 +4.5483112335E-003 +3.5691261292E-003 -7.9758465290E-006 +5.7743862271E-005 +5.5923461914E-003 +8.7612152100E-002
11705000000.000 -1.9729614258E-001 -4.1067504883E-001 +5.9540271759E-003 +3.9935112000E-004 -1.0393559933E-004 +2.2493302822E-005 -8.8157653809E-003 +8.1333160400E-002
11837500000.000 -2.0045471191E-001 -4.1343688965E-001 +5.0461292267E-003 -2.9799938202E-003 +6.7003071308E-005 -7.0039182901E-005 -4.1915893555E-002 +7.7568054199E-002
11970000000.000 -2.0222473145E-001 -4.1444396973E-001 +2.6481151581E-003 -5.2747726440E-003 +7.4569135904E-005 +2.6781111956E-005 -5.8166503906E-002 +8.3938598633E-002
12102500000.000 -2.0387268066E-001 -4.1625976563E-001 -8.2993507385E-004 -5.7306289673E-003 +1.4072284102E-006 -1.6427598894E-005 -6.5002441406E-002 +6.5074920654E-002
12235000000.000 -2.0777893066E-001 -4.1828918457E-001 -3.8657188416E-003 -4.4133663177E-003 -3.2901763916E-005 -6.6056847572E-005 -9.2861175537E-002 +4.5715332031E-002
12367500000.000 -2.0939636230E-001 -4.1862487793E-001 -5.5983066559E-003 -1.3582706451E-003 -2.2733584046E-005 +3.8141384721E-005 -1.0450363159E-001 +4.4612884521E-002
12500000000.000 -2.1366882324E-001 -4.1838073730E-001 -5.4044723511E-003 +2.0189285278E-003 +6.1420723796E-006 -2.2503547370E-005 -9.7164154053E-002 +2.0797729492E-002
12632500000.000 -2.1592712402E-001 -4.2103576660E-001 -3.4356117249E-003 +4.6720504761E-003 +1.6577541828E-007 -2.7943402529E-005 -1.1112213135E-001 -1.2203216553E-002
12765000000.000 -2.1894836426E-001 -4.2169189453E-001 -1.3446807861E-004 +5.7332515717E-003 +6.7174434662E-005 +7.9665333033E-005 -1.1784362793E-001 -1.5720367432E-002
12897500000.000 -2.2186279297E-001 -4.2022705078E-001 +3.0386447906E-003 +4.7838687897E-003 +2.6557594538E-005 +5.0682574511E-006 -9.2010498047E-002 -3.4202575684E-002
13030000000.000 -2.2358703613E-001 -4.2153930664E-001 +5.2511692047E-003 +2.3505687714E-003 +2.4860724807E-005 -4.9568712711E-005 -9.1503143311E-002 -7.1342468262E-002
13162500000.000 -2.2779846191E-001 -4.2359924316E-001 +5.5749416351E-003 -9.6678733826E-004 +6.2063336372E-005 -1.5430152416E-005 -9.3994140625E-002 -7.1357727051E-002
13295000000.000 -2.3115539551E-001 -4.2453002930E-001 +4.0621757507E-003 -3.8883686066E-003 +3.7359073758E-005 +3.0204653740E-005 -6.1569213867E-002 -7.8224182129E-002
13427500000.000 -2.3554992676E-001 -4.2355346680E-001 +1.2314319611E-003 -5.5098533630E-003 +1.2551434338E-005 -2.1185725927E-005 -4.8015594482E-002 -1.0576248169E-001
13560000000.000 -2.3484802246E-001 -4.2382812500E-001 -2.1541118622E-003 -5.2807331085E-003 +2.9470771551E-005 -9.4164162874E-005 -4.8851013184E-002 -1.0205459595E-001
13692500000.000 -2.3825073242E-001 -4.2684936523E-001 -4.6560764313E-003 -3.2391548157E-003 +8.1349164248E-005 +2.9899179935E-005 -1.8898010254E-002 -8.9382171631E-002
13825000000.000 -2.4288940430E-001 -4.2773437500E-001 -5.5410861969E-003 -1.3494491577E-004 -5.6030228734E-005 -2.0641833544E-005 +4.0588378906E-003 -1.0450744629E-001
13957500000.000 -2.4688720703E-001 -4.2584228516E-001 -4.6329498291E-003 +3.1230449677E-003 +1.4416873455E-005 +2.6427209377E-005 -8.6593627930E-004 -9.7232818604E-002
14090000000.000 -2.4797058105E-001 -4.2655944824E-001 -2.3221969604E-003 +5.1190853119E-003 +6.3769519329E-005 +1.2595206499E-004 +2.1492004395E-002 -7.1769714355E-002
14222500000.000 -2.5003051758E-001 -4.2926025391E-001 +1.0657310486E-003 +5.5334568024E-003 -7.3783099651E-005 -9.7677111626E-006 +4.3807983398E-002 -7.5584411621E-002
14355000000.000 -2.5614929199E-001 -4.2965698242E-001 +3.9696693420E-003 +4.0290355682E-003 -6.9651752710E-005 -8.7354332209E-005 +3.3977508545E-002 -6.7909240723E-002
14487500000.000 -2.5810241699E-001 -4.2967224121E-001 +5.6204795837E-003 +1.1937618256E-003 -3.8253143430E-005 +4.6059489250E-005 +4.1547775269E-002 -3.5541534424E-002
14620000000.000 -2.5863647461E-001 -4.3231201172E-001 +5.2077770233E-003 -2.2523403168E-003 +3.4850090742E-006 +2.7087517083E-005 +6.0951232910E-002 -3.3018112183E-002
14752500000.000 -2.6356506348E-001 -4.3635559082E-001 +3.1058788300E-003 -4.7836303711E-003 -4.1998922825E-005 -5.3530558944E-005 +4.3451309204E-002 -3.1579971313E-002
14885000000.000 -2.6722717285E-001 -4.3627929688E-001 -3.1232833862E-005 -5.6772232056E-003 +1.8483027816E-005 +4.9551948905E-005 +3.7965774536E-002 +1.6155242920E-003
15017500000.000 -2.6580810547E-001 -4.3865966797E-001 -3.2703876495E-003 -4.4801235199E-003 -1.3732165098E-004 +1.8686056137E-005 +5.4084777832E-002 +7.0304870605E-003
15150000000.000 -2.6712036133E-001 -4.4432067871E-001 -5.1436424255E-003 -1.9974708557E-003 +2.9347836971E-005 -7.2132796049E-005 +3.4318923950E-002 -1.0318756104E-003
15282500000.000 -2.7029418945E-001 -4.4723510742E-001 -5.4540634155E-003 +1.3573169708E-003 +5.3774565458E-006 -3.8713216782E-005 +1.5953063965E-002 +2.5280952454E-002
