!  2-Port S-parameters saved by WinCal
! VAR MeasName=S-Parameters (CALIBRATED_DATA) read from VNA (C)
! VAR MeasDate=10/5/2015 6:10:06 PM
! VAR NAME=M6079_2_7_3_2_20C_7.4mA_-17.5dBm
! VAR FILENAME=M6079_2_7_3_2_20C_7.4mA_-17.5dBm.S2P
! VAR DATE=10/5/2015 6:10:06 PM
! VAR PHYS_PORTS=2,1
! VAR ObjTypeName=DATASET
! VAR IndexType=Frequency
!
# Hz S RI R 50
45000000.000 +4.2461395264E-002 -2.7084350586E-004 -1.8973350525E-003 +7.1592330933E-003 +1.5586614609E-004 +1.0667443275E-003 +2.8204917908E-002 +1.6012191772E-003
177500000.000 +4.2770385742E-002 -7.3928833008E-003 +2.2208690643E-003 +6.3464641571E-003 +2.5425106287E-005 +6.2983483076E-005 +1.6530990601E-002 +1.6863822937E-002
310000000.000 +4.3052673340E-002 -1.3967514038E-002 +5.1529407501E-003 +4.2417049408E-003 -1.0398030281E-004 -1.5985220671E-004 +2.9678344727E-002 +6.1376571655E-002
442500000.000 +4.3355941772E-002 -2.0917892456E-002 +7.3425769806E-003 +1.7762184143E-004 +9.7651034594E-005 -4.0061771870E-005 +7.2879791260E-002 +2.2377014160E-002
575000000.000 +4.3327331543E-002 -2.8608322144E-002 +5.8298110962E-003 -3.8979053497E-003 -3.2333657146E-005 +5.9127807617E-005 +2.7525901794E-002 +1.1330604553E-002
707500000.000 +4.2703628540E-002 -3.5211563110E-002 +2.6059150696E-003 -6.3724517822E-003 -5.4307281971E-005 -4.7579407692E-005 +2.4042129517E-003 +1.8637657166E-002
840000000.000 +4.2772293091E-002 -4.2757034302E-002 -1.4073848724E-003 -6.5462589264E-003 -2.3023458198E-006 -3.1663803384E-006 -1.9948959351E-002 +2.6073455811E-002
972500000.000 +4.2402267456E-002 -4.9997329712E-002 -4.8072338104E-003 -4.6687126160E-003 +2.8972513974E-005 +1.9991770387E-005 -3.5800933838E-002 +3.5854339600E-002
1105000000.000 +4.1328430176E-002 -5.7458877563E-002 -6.4275264740E-003 -1.1985301971E-003 -5.2504241467E-005 -6.7688524723E-006 -4.6743392944E-002 +3.8507461548E-002
1237500000.000 +4.0554046631E-002 -6.4201354980E-002 -6.1686038971E-003 +2.6240348816E-003 +2.6006251574E-005 -7.8067183495E-005 -5.8589935303E-002 +3.3939361572E-002
1370000000.000 +3.9218902588E-002 -7.1559906006E-002 -3.4852027893E-003 +5.6512355804E-003 -2.7913600206E-005 +3.3253803849E-005 -7.4165344238E-002 +2.7294158936E-002
1502500000.000 +3.8223266602E-002 -7.8296661377E-002 +2.4843215942E-004 +6.4949989319E-003 +1.6868114471E-005 -4.3040141463E-005 -8.8127136230E-002 +2.1591186523E-002
1635000000.000 +3.7712097168E-002 -8.5502624512E-002 +3.6981105804E-003 +5.3231716156E-003 +5.4838601500E-006 +4.6310015023E-007 -9.9205017090E-002 +1.1943817139E-002
1767500000.000 +3.6006927490E-002 -9.3120574951E-002 +6.0627460480E-003 +2.3307800293E-003 -6.5173953772E-005 +2.5551766157E-005 -1.1225128174E-001 +3.2997131348E-003
1900000000.000 +3.4824371338E-002 -9.9040985107E-002 +6.2890052795E-003 -1.6343593597E-003 -4.1805207729E-005 -3.6230310798E-005 -1.1405181885E-001 -3.1242370605E-003
2032500000.000 +3.3359527588E-002 -1.0554122925E-001 +4.3537616730E-003 -4.9250125885E-003 -2.8444454074E-005 -5.6566670537E-005 -1.1408996582E-001 -2.4139404297E-002
2165000000.000 +3.2611846924E-002 -1.1320495605E-001 +9.6559524536E-004 -6.3636302948E-003 +8.4664672613E-005 +4.8734247684E-005 -1.2302398682E-001 -4.1854858398E-002
2297500000.000 +3.0296325684E-002 -1.1939239502E-001 -2.7298927307E-003 -5.9635639191E-003 -2.8084032238E-005 -1.3243407011E-006 -1.2683868408E-001 -5.3291320801E-002
2430000000.000 +2.8938293457E-002 -1.2535858154E-001 -5.4666996002E-003 -3.3190250397E-003 +1.4157593250E-004 -7.6815485954E-005 -1.2725067139E-001 -6.5017700195E-002
2562500000.000 +2.7412414551E-002 -1.3234710693E-001 -6.1941146851E-003 +2.4175643921E-004 -1.0786950588E-004 +2.3715198040E-005 -1.2611389160E-001 -7.0518493652E-002
2695000000.000 +2.4009704590E-002 -1.3787078857E-001 -4.6255588531E-003 +3.9794445038E-003 -4.1872262955E-005 +6.5676867962E-005 -1.1417388916E-001 -7.2994232178E-002
2827500000.000 +2.1492004395E-002 -1.4210510254E-001 -1.3401508331E-003 +5.9852600098E-003 -3.9761886001E-005 +5.7321041822E-005 -9.9006652832E-002 -8.2008361816E-002
2960000000.000 +2.0187377930E-002 -1.4810943604E-001 +1.8270015717E-003 +5.5696964264E-003 +1.2718886137E-004 +1.2894719839E-004 -8.9233398438E-002 -8.6627960205E-002
3092500000.000 +1.6983032227E-002 -1.5551757813E-001 +4.6927928925E-003 +3.7603378296E-003 +7.1123242378E-005 +5.3226947784E-005 -7.0957183838E-002 -8.5414886475E-002
3225000000.000 +1.2611389160E-002 -1.6075897217E-001 +5.7618618011E-003 +2.7585029602E-004 -1.4409422874E-005 -3.9115548134E-006 -5.2169799805E-002 -9.1197967529E-002
3357500000.000 +1.0398864746E-002 -1.6487884521E-001 +5.1522254944E-003 -2.7987957001E-003 +1.1274963617E-004 -7.0001929998E-005 -4.2331695557E-002 -9.1972351074E-002
3490000000.000 +8.0032348633E-003 -1.7164611816E-001 +2.8307437897E-003 -5.2938461304E-003 +6.4179301262E-005 -4.6573579311E-005 -2.8930664063E-002 -8.3145141602E-002
3622500000.000 +4.1351318359E-003 -1.7859649658E-001 -6.4229965210E-004 -5.8038234711E-003 +3.8053840399E-005 -8.8326632977E-006 -1.1547088623E-002 -7.9132080078E-002
3755000000.000 +4.9591064453E-004 -1.8456268311E-001 -3.7741661072E-003 -4.7492980957E-003 +1.0617077351E-006 -7.2333961725E-005 -6.1798095703E-003 -7.3623657227E-002
3887500000.000 -2.6779174805E-003 -1.9022369385E-001 -5.7046413422E-003 -1.8138885498E-003 -6.1383470893E-006 +2.4817883968E-005 +1.4915466309E-003 -5.6427001953E-002
4020000000.000 -5.5694580078E-003 -1.9525146484E-001 -5.7785511017E-003 +1.6965866089E-003 -4.6724453568E-005 +2.2538006306E-005 +1.3017654419E-002 -4.4538497925E-002
4152500000.000 -7.9956054688E-003 -2.0182037354E-001 -3.9160251617E-003 +4.8127174377E-003 -2.3413449526E-005 -4.0948390961E-005 +1.5411376953E-002 -3.3090591431E-002
4285000000.000 -1.1833190918E-002 -2.0819854736E-001 -6.5565109253E-004 +6.0396194458E-003 -4.1637569666E-005 +2.2904947400E-005 +1.6961097717E-002 -1.3936996460E-002
4417500000.000 -1.5762329102E-002 -2.1289062500E-001 +2.7489662170E-003 +5.4538249969E-003 -4.5519322157E-005 -2.6836991310E-005 +2.5516510010E-002 +3.0889511108E-003
4550000000.000 -1.7547607422E-002 -2.1817779541E-001 +5.1751136780E-003 +2.9301643372E-003 -5.0291419029E-006 -3.3654272556E-005 +2.9298782349E-002 +9.1838836670E-003
4682500000.000 -2.0355224609E-002 -2.2457122803E-001 +6.0539245605E-003 -3.6311149597E-004 +1.3343989849E-005 +4.7396868467E-005 +2.5967597961E-002 +1.9967079163E-002
4815000000.000 -2.4818420410E-002 -2.2981262207E-001 +4.8863887787E-003 -3.6473274231E-003 -3.4924596548E-005 +8.4061175585E-005 +3.1658172607E-002 +2.6824951172E-002
4947500000.000 -2.6641845703E-002 -2.3426055908E-001 +2.0616054535E-003 -5.7096481323E-003 -4.4872984290E-005 +1.0823830962E-005 +2.8188705444E-002 +1.9256591797E-002
5080000000.000 -2.8373718262E-002 -2.3990631104E-001 -1.4715194702E-003 -6.0172080994E-003 +1.0175630450E-005 +2.5490298867E-005 +1.3941764832E-002 +1.9982337952E-002
5212500000.000 -3.2081604004E-002 -2.4569702148E-001 -4.6329498291E-003 -4.2762756348E-003 -2.3323111236E-005 +1.4640390873E-005 +9.8619461060E-003 +2.4374961853E-002
5345000000.000 -3.5331726074E-002 -2.4921417236E-001 -6.2737464905E-003 -9.5486640930E-004 -4.5336782932E-005 +2.2610649467E-005 +6.3571929932E-003 +1.5774726868E-002
5477500000.000 -3.6270141602E-002 -2.5352478027E-001 -5.7337284088E-003 +2.7070045471E-003 +2.9748305678E-005 -1.8935650587E-005 -8.5415840149E-003 +9.8800659180E-003
5610000000.000 -3.8772583008E-002 -2.5904846191E-001 -3.2744407654E-003 +5.5699348450E-003 -2.3655593395E-006 +4.9220398068E-005 -1.4297962189E-002 +1.4529228210E-002
5742500000.000 -4.2709350586E-002 -2.6260375977E-001 +4.8089027405E-004 +6.5031051636E-003 -5.5145472288E-005 -4.7788023949E-005 -1.0644912720E-002 +6.2184333801E-003
5875000000.000 -4.5288085938E-002 -2.6535034180E-001 +3.9837360382E-003 +5.0044059753E-003 +3.4520402551E-005 +1.4031305909E-005 -1.9382476807E-002 -3.4246444702E-003
6007500000.000 -4.7271728516E-002 -2.6898193359E-001 +6.1902999878E-003 +1.9676685333E-003 +1.9096769392E-005 +1.2899748981E-005 -2.2887229919E-002 +3.2901763916E-004
6140000000.000 -5.0445556641E-002 -2.7392578125E-001 +6.1278343201E-003 -1.8565654755E-003 -4.5506283641E-005 -3.8942322135E-005 -1.4926433563E-002 -2.2392272949E-003
6272500000.000 -5.5267333984E-002 -2.7755737305E-001 +3.9951801300E-003 -4.9121379852E-003 +5.4026022553E-005 -1.9097700715E-005 -1.5796661377E-002 -1.1349678040E-002
6405000000.000 -5.9600830078E-002 -2.7905273438E-001 +6.2894821167E-004 -6.2510967255E-003 +2.4756416678E-005 +1.4442019165E-005 -1.9094467163E-002 -6.0548782349E-003
6537500000.000 -6.1111450195E-002 -2.8269958496E-001 -3.0786991119E-003 -5.5198669434E-003 +1.9370578229E-005 -2.8796494007E-006 -9.3650817871E-003 -2.7751922607E-003
6670000000.000 -6.4590454102E-002 -2.8840637207E-001 -5.6002140045E-003 -2.8829574585E-003 +2.3858621716E-005 +2.6059336960E-005 -7.8387260437E-003 -6.4067840576E-003
6802500000.000 -7.1044921875E-002 -2.9243469238E-001 -6.1428546906E-003 +7.4911117554E-004 +1.6291625798E-005 -8.2813203335E-006 -1.1058330536E-002 +5.1689147949E-004
6935000000.000 -7.5012207031E-002 -2.9304504395E-001 -4.7090053558E-003 +4.0473937988E-003 -5.6978315115E-005 +1.1555850506E-005 -6.5779685974E-003 +9.8972320557E-003
7067500000.000 -7.6293945313E-002 -2.9718017578E-001 -1.6188621521E-003 +5.9268474579E-003 +4.6061351895E-005 +2.9811635613E-005 -5.4359436035E-003 +1.0709762573E-002
7200000000.000 -8.0764770508E-002 -3.0296325684E-001 +2.0160675049E-003 +5.8138370514E-003 +3.0280090868E-005 -9.0310350060E-006 -1.5062332153E-002 +1.7777442932E-002
7332500000.000 -8.6990356445E-002 -3.0584716797E-001 +4.8370361328E-003 +3.6916732788E-003 -5.1613897085E-006 +3.5254284739E-005 -1.7001152039E-002 +3.0545234680E-002
7465000000.000 -8.9843750000E-002 -3.0828857422E-001 +6.0093402863E-003 +3.7670135498E-004 -3.5688281059E-005 +7.1264803410E-006 -2.0589828491E-002 +3.0936241150E-002
7597500000.000 -9.2788696289E-002 -3.1323242188E-001 +5.1999092102E-003 -3.1065940857E-003 +1.8044374883E-005 +1.1020340025E-005 -3.6724090576E-002 +3.3885955811E-002
7730000000.000 -9.7564697266E-002 -3.1809997559E-001 +2.6960372925E-003 -5.3379535675E-003 -2.2288411856E-005 +7.2170048952E-005 -4.7988891602E-002 +4.3905258179E-002
7862500000.000 -1.0110473633E-001 -3.2110595703E-001 -7.8225135803E-004 -5.9313774109E-003 -9.2894770205E-006 -2.2905878723E-006 -5.3871154785E-002 +4.2144775391E-002
7995000000.000 -1.0295104980E-001 -3.2447814941E-001 -3.9157867432E-003 -4.3635368347E-003 -2.3522414267E-005 -2.3332424462E-005 -7.3493957520E-002 +3.5350799561E-002
8127500000.000 -1.0598754883E-001 -3.3087158203E-001 -5.6982040405E-003 -1.5034675598E-003 +9.5825642347E-005 +1.4059245586E-005 -9.1136932373E-002 +4.0050506592E-002
8260000000.000 -1.1090087891E-001 -3.3351135254E-001 -5.5882930756E-003 +1.8858909607E-003 +4.5560300350E-006 -4.7286972404E-005 -9.5363616943E-002 +3.4271240234E-002
8392500000.000 -1.1199951172E-001 -3.3697509766E-001 -3.6184787750E-003 +4.7590732574E-003 -1.8295831978E-005 +5.6335702538E-006 -1.0998535156E-001 +1.8741607666E-002
8525000000.000 -1.1383056641E-001 -3.4097290039E-001 -3.3879280090E-004 +5.8844089508E-003 +1.7866492271E-005 +8.9816749096E-006 -1.2193298340E-001 +1.5541076660E-002
8657500000.000 -1.1656188965E-001 -3.4509277344E-001 +3.0317306519E-003 +5.0756931305E-003 -4.9186870456E-005 +1.6808509827E-005 -1.1793136597E-001 +4.4364929199E-003
8790000000.000 -1.1907958984E-001 -3.4872436523E-001 +5.3484439850E-003 +2.5241374969E-003 -3.4324824810E-005 -2.3450702429E-005 -1.1985015869E-001 -1.6880035400E-002
8922500000.000 -1.2162780762E-001 -3.5072326660E-001 +5.8383941650E-003 -8.7261199951E-004 +5.1245093346E-005 +9.1511756182E-005 -1.2212753296E-001 -2.9891967773E-002
9055000000.000 -1.2359619141E-001 -3.5411071777E-001 +4.2958259583E-003 -3.9479732513E-003 +3.5591423512E-005 +7.8175216913E-006 -1.1109542847E-001 -4.3956756592E-002
9187500000.000 -1.2593078613E-001 -3.5630798340E-001 +1.4607906342E-003 -5.6593418121E-003 -4.4515356421E-005 -8.8773667812E-006 -1.0098266602E-001 -6.6047668457E-002
9320000000.000 -1.3040161133E-001 -3.5841369629E-001 -2.0499229431E-003 -5.4175853729E-003 +2.5095418096E-005 +6.2389299273E-006 -9.3723297119E-002 -7.8716278076E-002
9452500000.000 -1.3317871094E-001 -3.6041259766E-001 -4.7724246979E-003 -3.4072399139E-003 -2.2876076400E-005 +2.4534761906E-005 -7.4447631836E-002 -8.6975097656E-002
9585000000.000 -1.3591003418E-001 -3.6289978027E-001 -5.8567523956E-003 -2.2530555725E-004 +1.8037855625E-005 +2.0126812160E-005 -5.5641174316E-002 -1.0133743286E-001
9717500000.000 -1.4083862305E-001 -3.6639404297E-001 -4.9574375153E-003 +3.0763149261E-003 +9.0792775154E-005 -2.2944062948E-005 -4.2037963867E-002 -1.0606765747E-001
9850000000.000 -1.4614868164E-001 -3.6671447754E-001 -2.2869110107E-003 +5.2540302277E-003 -3.1258910894E-005 +6.1022117734E-005 -1.8962860107E-002 -1.0245132446E-001
9982500000.000 -1.4790344238E-001 -3.6900329590E-001 +9.8013877869E-004 +5.7098865509E-003 -8.1736594439E-005 -2.2575259209E-005 +5.4702758789E-003 -1.0442733765E-001
10115000000.000 -1.5153503418E-001 -3.7231445313E-001 +3.8766860962E-003 +4.1928291321E-003 +2.3866072297E-005 -2.2233463824E-005 +1.7768859863E-002 -9.9212646484E-002
10247500000.000 -1.5698242188E-001 -3.7435913086E-001 +5.6068897247E-003 +1.2960433960E-003 +7.9818069935E-005 +7.6167285442E-005 +3.5690307617E-002 -8.0181121826E-002
10380000000.000 -1.6076660156E-001 -3.7574768066E-001 +5.2356719971E-003 -2.0225048065E-003 -7.9806894064E-005 -3.1042844057E-005 +5.7090759277E-002 -6.9160461426E-002
10512500000.000 -1.6459655762E-001 -3.7806701660E-001 +3.3793449402E-003 -4.5959949493E-003 +6.5691769123E-005 +1.6491860151E-005 +6.1777114868E-002 -5.7449340820E-002
10645000000.000 -1.6879272461E-001 -3.7959289551E-001 +1.5616416931E-004 -5.7554244995E-003 +3.9473176003E-005 +1.1762604117E-005 +6.5910339355E-002 -2.9411315918E-002
10777500000.000 -1.7222595215E-001 -3.8204956055E-001 -2.9828548431E-003 -4.8868656158E-003 -9.0003013611E-006 +2.3850239813E-005 +7.8125000000E-002 -8.8310241699E-003
10910000000.000 -1.7687988281E-001 -3.8500976563E-001 -5.0902366638E-003 -2.4266242981E-003 -5.0328671932E-005 +3.7495046854E-006 +7.2875976563E-002 +3.7612915039E-003
11042500000.000 -1.8215942383E-001 -3.8757324219E-001 -5.6309700012E-003 +8.8620185852E-004 +5.2079558372E-005 +1.1947005987E-005 +5.9761047363E-002 +3.0450820923E-002
11175000000.000 -1.8547058105E-001 -3.9015197754E-001 -4.1608810425E-003 +3.8518905640E-003 -2.8980895877E-005 +3.9525330067E-005 +5.7826995850E-002 +5.2331924438E-002
11307500000.000 -1.8843078613E-001 -3.9208984375E-001 -1.4503002167E-003 +5.5656433105E-003 +8.5867941380E-006 -2.6250258088E-005 +4.5015335083E-002 +5.7844161987E-002
11440000000.000 -1.9264221191E-001 -3.9462280273E-001 +1.8451213837E-003 +5.4345130920E-003 +5.0026923418E-005 -3.1972303987E-005 +1.9142150879E-002 +7.1701049805E-002
11572500000.000 -1.9480895996E-001 -3.9900207520E-001 +4.5387744904E-003 +3.4272670746E-003 -2.5518238544E-007 +5.8175995946E-005 +5.6190490723E-003 +8.7501525879E-002
11705000000.000 -1.9824218750E-001 -4.0057373047E-001 +5.7804584503E-003 +2.5153160095E-004 -7.0180743933E-005 +2.6624649763E-005 -8.6631774902E-003 +8.1211090088E-002
11837500000.000 -2.0130920410E-001 -4.0350341797E-001 +5.0051212311E-003 -2.8827190399E-003 +7.5660645962E-005 -3.7457793951E-005 -4.1709899902E-002 +7.7541351318E-002
11970000000.000 -2.0304870605E-001 -4.0435791016E-001 +2.4807453156E-003 -5.0609111786E-003 +2.7131289244E-005 +4.8719346523E-005 -5.8013916016E-002 +8.3946228027E-002
12102500000.000 -2.0410156250E-001 -4.0628051758E-001 -8.4161758423E-004 -5.5918693542E-003 -1.0789558291E-004 +1.7277896404E-005 -6.4823150635E-002 +6.5048217773E-002
12235000000.000 -2.0790100098E-001 -4.0844726563E-001 -3.7906169891E-003 -4.3237209320E-003 +2.5907531381E-005 -4.9630180001E-006 -9.2620849609E-002 +4.5921325684E-002
12367500000.000 -2.0951843262E-001 -4.0888977051E-001 -5.6281089783E-003 -1.3158321381E-003 +1.1456385255E-004 +3.7439167500E-006 -1.0430526733E-001 +4.4620513916E-002
12500000000.000 -2.1351623535E-001 -4.0870666504E-001 -5.4337978363E-003 +1.9760131836E-003 -1.9934028387E-005 +7.3775649071E-005 -9.7045898438E-002 +2.0961761475E-002
12632500000.000 -2.1560668945E-001 -4.1131591797E-001 -3.4182071686E-003 +4.6844482422E-003 +1.4007091522E-005 -5.6564807892E-005 -1.1091613770E-001 -1.1909484863E-002
12765000000.000 -2.1842956543E-001 -4.1209411621E-001 -2.5081634521E-004 +5.7594776154E-003 +6.3899904490E-005 -2.1580606699E-005 -1.1753845215E-001 -1.5399932861E-002
12897500000.000 -2.2125244141E-001 -4.1062927246E-001 +3.0293464661E-003 +4.9145221710E-003 -2.6538968086E-005 +5.8054924011E-005 -9.1903686523E-002 -3.4042358398E-002
13030000000.000 -2.2280883789E-001 -4.1209411621E-001 +5.2359104156E-003 +2.3050308228E-003 -3.8640573621E-005 +4.6793371439E-005 -9.1510772705E-002 -7.1056365967E-002
13162500000.000 -2.2679138184E-001 -4.1444396973E-001 +5.6874752045E-003 -9.6225738525E-004 -1.0786578059E-005 -5.9600919485E-005 -9.3971252441E-002 -7.0999145508E-002
13295000000.000 -2.3010253906E-001 -4.1526794434E-001 +4.2054653168E-003 -3.8981437683E-003 -5.2202492952E-005 +3.1717121601E-005 -6.1584472656E-002 -7.8125000000E-002
13427500000.000 -2.3422241211E-001 -4.1432189941E-001 +1.2958049774E-003 -5.5372714996E-003 -5.0166621804E-005 -4.9706548452E-005 -4.8225402832E-002 -1.0572052002E-001
13560000000.000 -2.3333740234E-001 -4.1481018066E-001 -2.0761489868E-003 -5.4533481598E-003 +3.1346455216E-005 +1.0097399354E-005 -4.8946380615E-002 -1.0203552246E-001
13692500000.000 -2.3625183105E-001 -4.1789245605E-001 -4.7793388367E-003 -3.2260417938E-003 +4.1119754314E-005 +4.2712315917E-005 -1.8718719482E-002 -8.9324951172E-002
13825000000.000 -2.4093627930E-001 -4.1893005371E-001 -5.7322978973E-003 -1.4853477478E-004 -2.4809502065E-005 +2.2780150175E-006 +3.8452148438E-003 -1.0454940796E-001
13957500000.000 -2.4490356445E-001 -4.1709899902E-001 -4.9409866333E-003 +3.1516551971E-003 +5.3843483329E-005 -2.6727095246E-005 -1.0375976563E-003 -9.7259521484E-002
14090000000.000 -2.4557495117E-001 -4.1769409180E-001 -2.3856163025E-003 +5.3687095642E-003 -2.7619302273E-005 +1.8604099751E-005 +2.1392822266E-002 -7.1716308594E-002
14222500000.000 -2.4728393555E-001 -4.2083740234E-001 +1.1453628540E-003 +5.6469440460E-003 -1.3696029782E-005 -2.8388574719E-005 +4.3777465820E-002 -7.5420379639E-002
14355000000.000 -2.5349426270E-001 -4.2120361328E-001 +4.0574073792E-003 +3.9501190186E-003 -3.7979334593E-005 +2.4948269129E-005 +3.4000396729E-002 -6.7832946777E-002
14487500000.000 -2.5535583496E-001 -4.2109680176E-001 +5.7647228241E-003 +9.7489356995E-004 +1.2188777328E-004 +2.3618340492E-005 +4.1584014893E-002 -3.5795211792E-002
14620000000.000 -2.5532531738E-001 -4.2413330078E-001 +5.3291320801E-003 -2.4209022522E-003 +1.6149133444E-005 +7.3079019785E-005 +6.0708999634E-002 -3.3000946045E-002
14752500000.000 -2.6066589355E-001 -4.2840576172E-001 +2.8984546661E-003 -5.0902366638E-003 -5.8647245169E-005 -5.4884701967E-005 +4.3661117554E-002 -3.1679153442E-002
14885000000.000 -2.6405334473E-001 -4.2787170410E-001 -2.6822090149E-004 -5.6920051575E-003 +5.7358294725E-005 +1.1123716831E-005 +3.7940979004E-002 +1.3580322266E-003
15017500000.000 -2.6205444336E-001 -4.3080139160E-001 -3.4899711609E-003 -4.4877529144E-003 +7.2703696787E-006 +1.4895573258E-005 +5.4018020630E-002 +6.7996978760E-003
15150000000.000 -2.6351928711E-001 -4.3690490723E-001 -5.4016113281E-003 -1.9574165344E-003 -1.7130747437E-005 -2.7784146369E-005 +3.4370422363E-002 -7.9536437988E-004
15282500000.000 -2.6666259766E-001 -4.3960571289E-001 -5.3369998932E-003 +1.5995502472E-003 +1.9737519324E-005 -7.4962154031E-006 +1.5961647034E-002 +2.5321006775E-002
