!  2-Port S-parameters saved by WinCal
! VAR MeasName=S-Parameters (CALIBRATED_DATA) read from VNA (C)
! VAR MeasDate=10/5/2015 5:59:47 PM
! VAR NAME=M6079_2_7_3_2_20C_2.1mA_-17.5dBm
! VAR FILENAME=M6079_2_7_3_2_20C_2.1mA_-17.5dBm.S2P
! VAR DATE=10/5/2015 5:59:47 PM
! VAR PHYS_PORTS=2,1
! VAR ObjTypeName=DATASET
! VAR IndexType=Frequency
!
# Hz S RI R 50
45000000.000 +1.6817474365E-001 -1.1062622070E-003 -1.4290809631E-003 +7.7793598175E-003 -1.9550323486E-005 -1.4079213142E-003 +2.7688980103E-002 +3.9415359497E-003
177500000.000 +1.6913604736E-001 -1.1634826660E-002 +2.5794506073E-003 +6.9229602814E-003 +1.1742115021E-004 -3.9935112000E-005 +1.6440391541E-002 +1.6975402832E-002
310000000.000 +1.6926574707E-001 -2.1690368652E-002 +5.5239200592E-003 +4.5495033264E-003 +3.9577484131E-005 -5.6535005569E-005 +3.0105590820E-002 +6.1372756958E-002
442500000.000 +1.6870880127E-001 -3.1913757324E-002 +8.0208778381E-003 -2.9182434082E-004 +9.0029090643E-005 -5.2653253078E-005 +7.2799682617E-002 +2.2514343262E-002
575000000.000 +1.6800689697E-001 -4.2884826660E-002 +5.9690475464E-003 -4.3792724609E-003 -3.9247795939E-005 -3.5390257835E-007 +2.7578353882E-002 +1.1271476746E-002
707500000.000 +1.6645812988E-001 -5.2528381348E-002 +2.4242401123E-003 -6.8731307983E-003 -2.1632760763E-005 -4.1756778955E-005 +2.3517608643E-003 +1.8538475037E-002
840000000.000 +1.6538238525E-001 -6.3194274902E-002 -1.7130374908E-003 -6.9971084595E-003 +5.3983181715E-005 +2.6077032089E-008 -1.9873619080E-002 +2.6054382324E-002
972500000.000 +1.6414642334E-001 -7.3173522949E-002 -5.3749084473E-003 -4.7869682312E-003 +7.1257352829E-005 +5.0377100706E-005 -3.5776138306E-002 +3.5823822021E-002
1105000000.000 +1.6197967529E-001 -8.3427429199E-002 -7.0457458496E-003 -8.9669227600E-004 -5.1826238632E-005 -3.8573518395E-005 -4.6697616577E-002 +3.8421630859E-002
1237500000.000 +1.5994262695E-001 -9.2887878418E-002 -6.3140392303E-003 +3.1406879425E-003 +5.6374818087E-005 +4.5074149966E-005 -5.8658599854E-002 +3.3924102783E-002
1370000000.000 +1.5729522705E-001 -1.0298919678E-001 -3.4956932068E-003 +6.0915946960E-003 -2.5926157832E-005 +4.5925378799E-005 -7.4192047119E-002 +2.7378082275E-002
1502500000.000 +1.5473175049E-001 -1.1234283447E-001 +5.7387351990E-004 +7.0135593414E-003 -2.2772699594E-005 -9.4961374998E-005 -8.8069915771E-002 +2.1675109863E-002
1635000000.000 +1.5307617188E-001 -1.2171936035E-001 +4.3349266052E-003 +5.4619312286E-003 +7.4706971645E-005 -5.8244913816E-005 -9.9227905273E-002 +1.1917114258E-002
1767500000.000 +1.4977264404E-001 -1.3192749023E-001 +6.6606998444E-003 +2.0828247070E-003 -1.1598691344E-005 +1.8113292754E-005 -1.1227798462E-001 +3.3035278320E-003
1900000000.000 +1.4669799805E-001 -1.4039611816E-001 +6.6566467285E-003 -1.9748210907E-003 -1.4070421457E-005 -7.2997063398E-005 -1.1415863037E-001 -3.1166076660E-003
2032500000.000 +1.4346313477E-001 -1.4886474609E-001 +4.3957233429E-003 -5.4144859314E-003 -4.8711895943E-005 -4.2058527470E-006 -1.1423492432E-001 -2.4158477783E-002
2165000000.000 +1.4108276367E-001 -1.5871429443E-001 +5.7697296143E-004 -6.8919658661E-003 +1.3072043657E-005 +4.2947009206E-005 -1.2304687500E-001 -4.1931152344E-002
2297500000.000 +1.3710784912E-001 -1.6718292236E-001 -3.3564567566E-003 -5.9480667114E-003 -8.4429979324E-005 +1.6219913960E-005 -1.2689208984E-001 -5.3337097168E-002
2430000000.000 +1.3402557373E-001 -1.7448425293E-001 -6.1268806458E-003 -3.1929016113E-003 +4.6681612730E-005 -1.8859282136E-005 -1.2743377686E-001 -6.4880371094E-002
2562500000.000 +1.3079833984E-001 -1.8344879150E-001 -6.8154335022E-003 +6.6137313843E-004 +1.0440126061E-004 -5.5577605963E-005 -1.2626647949E-001 -7.0709228516E-002
2695000000.000 +1.2525939941E-001 -1.9117736816E-001 -4.9214363098E-003 +4.4631958008E-003 -1.5871971846E-004 +1.2879073620E-004 -1.1417388916E-001 -7.3032379150E-002
2827500000.000 +1.2097930908E-001 -1.9677734375E-001 -1.7733573914E-003 +6.4764022827E-003 +2.3765489459E-005 +3.7649646401E-005 -9.9094390869E-002 -8.2126617432E-002
2960000000.000 +1.1793518066E-001 -2.0430755615E-001 +2.0272731781E-003 +6.4389705658E-003 +1.3021379709E-004 +5.3115189075E-005 -8.9252471924E-002 -8.6635589600E-002
3092500000.000 +1.1289215088E-001 -2.1309661865E-001 +5.3939819336E-003 +4.1615962982E-003 -1.1194497347E-005 +7.6100230217E-005 -7.1128845215E-002 -8.5601806641E-002
3225000000.000 +1.0694122314E-001 -2.1984100342E-001 +6.6895484924E-003 +2.8419494629E-004 -3.6917626858E-006 -4.0791928768E-005 -5.2082061768E-002 -9.1342926025E-002
3357500000.000 +1.0290527344E-001 -2.2515106201E-001 +5.7415962219E-003 -3.3078193665E-003 -5.9872865677E-005 -9.4950199127E-005 -4.2224884033E-002 -9.2071533203E-002
3490000000.000 +9.8731994629E-002 -2.3354339600E-001 +2.9072761536E-003 -6.1910152435E-003 -1.6500055790E-004 -3.4570693970E-006 -2.8850555420E-002 -8.3194732666E-002
3622500000.000 +9.3132019043E-002 -2.4154663086E-001 -9.9539756775E-004 -6.8397521973E-003 -8.5756182671E-005 +2.9798597097E-005 -1.1577606201E-002 -7.9280853271E-002
3755000000.000 +8.7730407715E-002 -2.4864959717E-001 -4.6219825745E-003 -5.1686763763E-003 +7.9022720456E-006 -2.3373402655E-005 -6.1569213867E-003 -7.3719024658E-002
3887500000.000 +8.3023071289E-002 -2.5544738770E-001 -6.7815780640E-003 -1.6598701477E-003 -9.5691531897E-005 -6.8396329880E-006 +1.5144348145E-003 -5.6650161743E-002
4020000000.000 +7.8414916992E-002 -2.6164245605E-001 -6.5033435822E-003 +2.4561882019E-003 -1.1209025979E-004 -3.3531337976E-005 +1.3057708740E-002 -4.4656753540E-002
4152500000.000 +7.4371337891E-002 -2.6911926270E-001 -3.9954185486E-003 +5.7206153870E-003 +3.5572797060E-005 -2.9671937227E-005 +1.5602111816E-002 -3.3126831055E-002
4285000000.000 +6.9107055664E-002 -2.7651977539E-001 +4.6968460083E-005 +6.9878101349E-003 +1.3170763850E-005 -4.7106295824E-006 +1.6991615295E-002 -1.3831138611E-002
4417500000.000 +6.3659667969E-002 -2.8221130371E-001 +3.8843154907E-003 +5.8648586273E-003 +2.5337561965E-005 -3.4024938941E-005 +2.5634765625E-002 +3.2386779785E-003
4550000000.000 +6.0089111328E-002 -2.8833007813E-001 +6.4561367035E-003 +2.6090145111E-003 -2.1802261472E-006 -2.4267472327E-005 +2.9353141785E-002 +9.2134475708E-003
4682500000.000 +5.6015014648E-002 -2.9583740234E-001 +6.7903995514E-003 -1.5113353729E-003 +6.7189335823E-005 -1.0665506124E-005 +2.6140213013E-002 +2.0094871521E-002
4815000000.000 +4.9957275391E-002 -3.0218505859E-001 +4.9598217010E-003 -4.9431324005E-003 -3.4155324101E-005 +1.7741695046E-005 +3.1593322754E-002 +2.7006149292E-002
4947500000.000 +4.6295166016E-002 -3.0751037598E-001 +1.2900829315E-003 -6.9508552551E-003 +2.8759241104E-006 -1.4749821275E-005 +2.8224945068E-002 +1.9453048706E-002
5080000000.000 +4.3136596680E-002 -3.1423950195E-001 -2.9532909393E-003 -6.5193176270E-003 +5.7598575950E-005 +6.8359076977E-006 +1.3931274414E-002 +2.0138740540E-002
5212500000.000 +3.7780761719E-002 -3.2084655762E-001 -6.2234401703E-003 -3.7846565247E-003 +2.9280781746E-006 +2.0918436348E-005 +9.8485946655E-003 +2.4572372437E-002
5345000000.000 +3.2913208008E-002 -3.2487487793E-001 -7.3361396790E-003 +3.1042098999E-004 -3.5217031837E-005 -3.2719224691E-005 +6.3524246216E-003 +1.5995979309E-002
5477500000.000 +3.0212402344E-002 -3.2998657227E-001 -5.9056282043E-003 +4.5373439789E-003 +5.3355470300E-006 +2.7128495276E-005 -8.5196495056E-003 +9.9415779114E-003
5610000000.000 +2.6046752930E-002 -3.3642578125E-001 -2.2099018097E-003 +7.1358680725E-003 +2.5909394026E-005 +4.0158629417E-006 -1.4364719391E-002 +1.4650344849E-002
5742500000.000 +2.0431518555E-002 -3.4014892578E-001 +2.1421909332E-003 +7.1618556976E-003 -5.3245574236E-005 -2.9707327485E-005 -1.0775566101E-002 +6.2546730042E-003
5875000000.000 +1.6220092773E-002 -3.4326171875E-001 +5.9239864349E-003 +4.8129558563E-003 +3.5263597965E-005 -7.0851296186E-005 -1.9565582275E-002 -3.3073425293E-003
6007500000.000 +1.2832641602E-002 -3.4747314453E-001 +7.6751708984E-003 +5.6457519531E-004 +5.3159892559E-006 +3.6245211959E-005 -2.2963523865E-002 +3.4236907959E-004
6140000000.000 +8.1024169922E-003 -3.5296630859E-001 +6.6249370575E-003 -3.8831233978E-003 +2.8179027140E-005 +1.8050894141E-005 -1.5032291412E-002 -2.2253990173E-003
6272500000.000 +1.6784667969E-003 -3.5656738281E-001 +3.3807754517E-003 -7.0388317108E-003 +2.6687979698E-005 -5.7708472013E-005 -1.5920639038E-002 -1.1316299438E-002
6405000000.000 -4.0435791016E-003 -3.5876464844E-001 -1.2402534485E-003 -7.7445507050E-003 -7.9972669482E-006 -2.3946166039E-005 -1.9274711609E-002 -6.1178207397E-003
6537500000.000 -6.8817138672E-003 -3.6302185059E-001 -5.4612159729E-003 -5.6176185608E-003 -2.4593435228E-005 -1.0074116290E-005 -9.4275474548E-003 -2.8614997864E-003
6670000000.000 -1.1657714844E-002 -3.6857604980E-001 -7.7164173126E-003 -1.6915798187E-003 +2.0823441446E-005 -2.2623687983E-005 -7.9088211060E-003 -6.5307617188E-003
6802500000.000 -1.9683837891E-002 -3.7329101563E-001 -7.3590278625E-003 +3.0629634857E-003 -8.7665393949E-006 +2.3723579943E-005 -1.1113166809E-002 +4.4536590576E-004
6935000000.000 -2.4902343750E-002 -3.7493896484E-001 -4.0965080261E-003 +6.8411827087E-003 -2.0888634026E-005 -1.6150064766E-005 -6.6561698914E-003 +9.8266601563E-003
7067500000.000 -2.7328491211E-002 -3.7915039063E-001 +3.2663345337E-004 +8.0738067627E-003 -2.0438805223E-005 -5.0151720643E-005 -5.2647590637E-003 +1.0587215424E-002
7200000000.000 -3.3172607422E-002 -3.8476562500E-001 +4.8966407776E-003 +6.6182613373E-003 -2.8593465686E-005 -4.3734908104E-005 -1.5061378479E-002 +1.7645835876E-002
7332500000.000 -4.0802001953E-002 -3.8854980469E-001 +7.8458786011E-003 +2.5386810303E-003 -7.5986608863E-006 +1.8333084881E-005 -1.7072677612E-002 +3.0479431152E-002
7465000000.000 -4.4845581055E-002 -3.9131164551E-001 +8.0375671387E-003 -2.4790763855E-003 +6.4703635871E-006 -1.0144431144E-006 -2.0470619202E-002 +3.0937194824E-002
7597500000.000 -4.8950195313E-002 -3.9581298828E-001 +5.4724216461E-003 -6.4554214478E-003 +2.1177344024E-005 +3.6563724279E-006 -3.6853790283E-002 +3.3866882324E-002
7730000000.000 -5.4992675781E-002 -4.0197753906E-001 +5.1021575928E-004 -8.4896087646E-003 -1.3973563910E-005 +6.6354870796E-005 -4.7981262207E-002 +4.3792724609E-002
7862500000.000 -5.9936523438E-002 -4.0664672852E-001 -4.8921108246E-003 -7.0981979370E-003 -7.0482492447E-006 -5.8483332396E-005 -5.3810119629E-002 +4.2055130005E-002
7995000000.000 -6.3034057617E-002 -4.0916442871E-001 -8.0442428589E-003 -3.5467147827E-003 +3.1106173992E-007 -6.0284510255E-005 -7.3505401611E-002 +3.5217285156E-002
8127500000.000 -6.7443847656E-002 -4.1587829590E-001 -8.6884498596E-003 +1.7585754395E-003 +5.4704025388E-005 +1.7087906599E-005 -9.1140747070E-002 +4.0050506592E-002
8260000000.000 -7.3791503906E-002 -4.2076110840E-001 -5.7611465454E-003 +6.8933963776E-003 -7.2956085205E-005 -3.9558857679E-005 -9.5317840576E-002 +3.4267425537E-002
8392500000.000 -7.6278686523E-002 -4.2385864258E-001 -1.0943412781E-003 +9.0351104736E-003 -7.3388218880E-006 -1.3090670109E-004 -1.1000061035E-001 +1.8459320068E-002
8525000000.000 -7.9238891602E-002 -4.2797851563E-001 +4.1446685791E-003 +8.2154273987E-003 +5.1446259022E-005 -1.5251338482E-005 -1.2201690674E-001 +1.5403747559E-002
8657500000.000 -8.4411621094E-002 -4.3418884277E-001 +8.5263252258E-003 +3.6015510559E-003 +3.2037496567E-007 +6.2610954046E-005 -1.1792373657E-001 +4.3983459473E-003
8790000000.000 -8.8546752930E-002 -4.3893432617E-001 +9.1323852539E-003 -2.1810531616E-003 -1.6277655959E-005 -5.4992735386E-005 -1.1991500854E-001 -1.7009735107E-002
8922500000.000 -9.2041015625E-002 -4.4015502930E-001 +6.6099166870E-003 -6.7906379700E-003 +7.6051801443E-006 -2.7256086469E-005 -1.2228775024E-001 -3.0075073242E-002
9055000000.000 -9.6511840820E-002 -4.4503784180E-001 +9.3221664429E-004 -9.3460083008E-003 +1.5512108803E-005 +2.4777837098E-005 -1.1121749878E-001 -4.4082641602E-002
9187500000.000 -1.0096740723E-001 -4.4802856445E-001 -4.8923492432E-003 -8.1262588501E-003 -7.2635710239E-005 -3.6355108023E-005 -1.0094833374E-001 -6.6299438477E-002
9320000000.000 -1.0658264160E-001 -4.4976806641E-001 -8.6073875427E-003 -4.1856765747E-003 +6.9309026003E-006 -2.3163855076E-005 -9.3666076660E-002 -7.8914642334E-002
9452500000.000 -1.1161804199E-001 -4.5225524902E-001 -9.3607902527E-003 +1.8529891968E-003 -2.0633451641E-005 +1.2540258467E-005 -7.4222564697E-002 -8.7142944336E-002
9585000000.000 -1.1775207520E-001 -4.5579528809E-001 -5.8939456940E-003 +7.2019100189E-003 -1.9920989871E-005 -1.5115365386E-006 -5.5431365967E-002 -1.0148620605E-001
9717500000.000 -1.2332153320E-001 -4.5848083496E-001 -1.2521743774E-003 +9.4733238220E-003 -4.7812238336E-005 -5.5616721511E-005 -4.1950225830E-002 -1.0619735718E-001
9850000000.000 -1.3145446777E-001 -4.5907592773E-001 +4.7488212585E-003 +8.2664489746E-003 -3.4343451262E-005 +2.5345012546E-005 -1.8699645996E-002 -1.0249328613E-001
9982500000.000 -1.3619995117E-001 -4.6139526367E-001 +8.5444450378E-003 +3.5295486450E-003 -9.1247260571E-005 -5.0961971283E-006 +5.6495666504E-003 -1.0440444946E-001
10115000000.000 -1.4102172852E-001 -4.6417236328E-001 +9.1481208801E-003 -1.7976760864E-003 -4.0698796511E-006 +3.9501115680E-005 +1.8016815186E-002 -9.9021911621E-002
10247500000.000 -1.4823913574E-001 -4.6569824219E-001 +6.5441131592E-003 -6.5753459930E-003 -5.7872384787E-006 +1.0546296835E-005 +3.5957336426E-002 -7.9906463623E-002
10380000000.000 -1.5599060059E-001 -4.6646118164E-001 +6.2656402588E-004 -8.8148117065E-003 -2.2964552045E-005 +3.7118792534E-005 +5.7369232178E-002 -6.8801879883E-002
10512500000.000 -1.6064453125E-001 -4.6803283691E-001 -4.2476654053E-003 -7.9073905945E-003 +1.6611069441E-005 -5.6831166148E-005 +6.1944961548E-002 -5.7086944580E-002
10645000000.000 -1.6566467285E-001 -4.6893310547E-001 -7.9374313354E-003 -4.3992996216E-003 +2.6213936508E-005 -2.4069100618E-005 +6.5990447998E-002 -2.9136657715E-002
10777500000.000 -1.7239379883E-001 -4.7058105469E-001 -8.5592269897E-003 +1.5373229980E-003 +1.4835037291E-005 +5.1204115152E-006 +7.8277587891E-002 -8.3732604980E-003
10910000000.000 -1.7907714844E-001 -4.7216796875E-001 -5.6915283203E-003 +6.1020851135E-003 +1.5320256352E-007 -8.6859799922E-006 +7.2795867920E-002 +4.2152404785E-003
11042500000.000 -1.8527221680E-001 -4.7395324707E-001 -1.6279220581E-003 +8.3441734314E-003 +2.1446496248E-005 -4.1404739022E-005 +5.9627532959E-002 +3.0948638916E-002
11175000000.000 -1.9036865234E-001 -4.7534179688E-001 +3.5314559937E-003 +7.5461864471E-003 +1.4726072550E-005 +3.5950914025E-005 +5.7527542114E-002 +5.2572250366E-002
11307500000.000 -1.9526672363E-001 -4.7576904297E-001 +6.9084167480E-003 +3.6907196045E-003 +1.3846904039E-005 -3.7476420403E-005 +4.4620513916E-002 +5.8176040649E-002
11440000000.000 -2.0045471191E-001 -4.7734069824E-001 +7.9207420349E-003 -7.6103210449E-004 +3.4172087908E-005 -8.3237886429E-005 +1.8821716309E-002 +7.1834564209E-002
11572500000.000 -2.0384216309E-001 -4.8065185547E-001 +5.9092044830E-003 -5.0926208496E-003 +4.7383829951E-005 -1.4208257198E-005 +5.1231384277E-003 +8.7650299072E-002
11705000000.000 -2.0877075195E-001 -4.8069763184E-001 +1.7497539520E-003 -7.2999000549E-003 -5.0194561481E-005 +3.4635886550E-005 -9.2620849609E-003 +8.1371307373E-002
11837500000.000 -2.1286010742E-001 -4.8257446289E-001 -2.7151107788E-003 -6.9158077240E-003 -5.4420903325E-005 -4.2347237468E-005 -4.2263031006E-002 +7.7465057373E-002
11970000000.000 -2.1531677246E-001 -4.8246765137E-001 -6.0679912567E-003 -4.3485164642E-003 +9.2010013759E-006 +2.3776665330E-006 -5.8380126953E-002 +8.3705902100E-002
12102500000.000 -2.1763610840E-001 -4.8286437988E-001 -7.1163177490E-003 +4.5537948608E-005 -5.2792951465E-005 +2.7265399694E-005 -6.5242767334E-002 +6.4815521240E-002
12235000000.000 -2.2235107422E-001 -4.8377990723E-001 -5.7165622711E-003 +4.1136741638E-003 -1.6761943698E-005 -3.1057745218E-005 -9.3048095703E-002 +4.5471191406E-002
12367500000.000 -2.2462463379E-001 -4.8364257813E-001 -2.5167465210E-003 +6.5109729767E-003 +4.4841319323E-005 +7.4226409197E-006 -1.0471343994E-001 +4.4200897217E-002
12500000000.000 -2.2994995117E-001 -4.8182678223E-001 +1.8630027771E-003 +6.3567161560E-003 -3.3644959331E-005 +1.2712553144E-005 -9.7320556641E-002 +2.0401000977E-002
12632500000.000 -2.3268127441E-001 -4.8303222656E-001 +5.0044059753E-003 +4.0106773376E-003 +1.0860152543E-005 -1.5472061932E-005 -1.1089706421E-001 -1.2546539307E-002
12765000000.000 -2.3611450195E-001 -4.8281860352E-001 +6.3309669495E-003 +4.6801567078E-004 +6.4030289650E-005 +4.4248998165E-005 -1.1767578125E-001 -1.5914916992E-002
12897500000.000 -2.3957824707E-001 -4.8014831543E-001 +5.3162574768E-003 -3.0379295349E-003 +3.8705766201E-006 +4.1548162699E-005 -9.1873168945E-002 -3.4599304199E-002
13030000000.000 -2.4179077148E-001 -4.8023986816E-001 +2.5649070740E-003 -5.3191184998E-003 +1.0449904948E-005 +1.2280419469E-005 -9.1327667236E-002 -7.1689605713E-002
13162500000.000 -2.4620056152E-001 -4.8149108887E-001 -8.4018707275E-004 -5.6247711182E-003 +3.2778829336E-005 -5.1792711020E-005 -9.3540191650E-002 -7.1372985840E-002
13295000000.000 -2.4989318848E-001 -4.8124694824E-001 -3.8001537323E-003 -4.1465759277E-003 +2.2609718144E-005 +2.0381063223E-005 -6.1161041260E-002 -7.8273773193E-002
13427500000.000 -2.5466918945E-001 -4.7904968262E-001 -5.3334236145E-003 -1.1131763458E-003 -4.7581270337E-005 +5.0401315093E-005 -4.7756195068E-002 -1.0571289063E-001
13560000000.000 -2.5410461426E-001 -4.7842407227E-001 -4.8649311066E-003 +1.9743442535E-003 +2.8189271688E-005 -7.5504183769E-005 -4.8553466797E-002 -1.0211181641E-001
13692500000.000 -2.5753784180E-001 -4.8060607910E-001 -2.7821063995E-003 +4.3313503265E-003 +5.0514936447E-006 +8.4869563580E-005 -1.8249511719E-002 -8.9282989502E-002
13825000000.000 -2.6245117188E-001 -4.8048400879E-001 +6.7949295044E-005 +4.9514770508E-003 -7.3544681072E-005 -5.3558498621E-005 +4.1618347168E-003 -1.0420227051E-001
13957500000.000 -2.6655578613E-001 -4.7778320313E-001 +2.8743743896E-003 +3.8983821869E-003 -2.3990869522E-005 -4.3882057071E-005 -7.3242187500E-004 -9.7038269043E-002
14090000000.000 -2.6762390137E-001 -4.7737121582E-001 +4.4631958008E-003 +1.6784667969E-003 -5.5305659771E-005 -1.5418976545E-005 +2.1640777588E-002 -7.1460723877E-002
14222500000.000 -2.6976013184E-001 -4.7930908203E-001 +4.3771266937E-003 -1.0299682617E-003 -3.8761645555E-005 -2.3344531655E-005 +4.3903350830E-002 -7.5183868408E-002
14355000000.000 -2.7593994141E-001 -4.7882080078E-001 +3.0282735825E-003 -3.1228065491E-003 -6.5816566348E-006 +7.7146105468E-006 +3.3943176270E-002 -6.7359924316E-002
14487500000.000 -2.7789306641E-001 -4.7769165039E-001 +5.7077407837E-004 -4.1515827179E-003 +1.8848106265E-005 +1.1477619410E-005 +4.1511535645E-002 -3.5348892212E-002
14620000000.000 -2.7813720703E-001 -4.7982788086E-001 -1.7212629318E-003 -3.7722587585E-003 -2.0563602448E-005 +6.9551169872E-005 +6.0720443726E-002 -3.2728195190E-002
14752500000.000 -2.8335571289E-001 -4.8316955566E-001 -3.5006999969E-003 -2.0509958267E-003 -1.8718652427E-005 -2.4698674679E-005 +4.3380737305E-002 -3.1446456909E-002
14885000000.000 -2.8681945801E-001 -4.8200988770E-001 -3.9632320404E-003 +2.3365020752E-004 +6.0278922319E-005 +5.3701922297E-005 +3.7841796875E-002 +1.5239715576E-003
15017500000.000 -2.8495788574E-001 -4.8431396484E-001 -2.8898715973E-003 +2.4836063385E-003 +3.4909695387E-005 +1.1498853564E-004 +5.3779602051E-002 +7.0037841797E-003
15150000000.000 -2.8648376465E-001 -4.8951721191E-001 -1.0771751404E-003 +3.5068988800E-003 -1.1623278260E-004 -5.6400895119E-005 +3.4132003784E-002 -8.5639953613E-004
15282500000.000 -2.8944396973E-001 -4.9156188965E-001 +1.0620355606E-003 +3.5222768784E-003 -2.4273991585E-005 -1.2580305338E-004 +1.5799522400E-002 +2.5384902954E-002
