!  2-Port S-parameters saved by WinCal
! VAR MeasName=S-Parameters (CALIBRATED_DATA) read from VNA (C)
! VAR MeasDate=10/5/2015 6:49:10 PM
! VAR NAME=M6079_2_7_3_3_20C_7.4mA_-17.5dBm
! VAR FILENAME=M6079_2_7_3_3_20C_7.4mA_-17.5dBm.S2P
! VAR DATE=10/5/2015 6:49:10 PM
! VAR PHYS_PORTS=2,1
! VAR ObjTypeName=DATASET
! VAR IndexType=Frequency
!
# Hz S RI R 50
45000000.000 +2.3452758789E-002 -1.0442733765E-003 -3.0698776245E-003 +7.6832771301E-003 +5.6141614914E-004 -1.9699335098E-004 +2.8852462769E-002 +2.5863647461E-003
177500000.000 +2.3830413818E-002 -6.9389343262E-003 +2.4805068970E-003 +6.2997341156E-003 +1.0706484318E-005 +1.5304237604E-004 +1.6454696655E-002 +1.6471862793E-002
310000000.000 +2.3921012878E-002 -1.3456344604E-002 +5.1915645599E-003 +4.1263103485E-003 -1.0772049427E-004 -2.2722035646E-004 +2.9781341553E-002 +6.1128616333E-002
442500000.000 +2.4457931519E-002 -2.0033836365E-002 +7.3852539063E-003 +9.9182128906E-005 -2.1904706955E-005 -4.6268105507E-005 +7.2582244873E-002 +2.2556304932E-002
575000000.000 +2.4307250977E-002 -2.7434349060E-002 +5.6860446930E-003 -3.9825439453E-003 -1.1414289474E-005 +3.0072405934E-005 +2.7476310730E-002 +1.1285781860E-002
707500000.000 +2.3668289185E-002 -3.3901214600E-002 +2.4597644806E-003 -6.3173770905E-003 -3.0826777220E-006 -1.6492791474E-005 +2.1800994873E-003 +1.8519401550E-002
840000000.000 +2.3582458496E-002 -4.1040420532E-002 -1.4390945435E-003 -6.5801143646E-003 +3.3164396882E-005 -4.4101849198E-005 -2.0009994507E-002 +2.6002883911E-002
972500000.000 +2.3351669312E-002 -4.7948837280E-002 -4.8809051514E-003 -4.6350955963E-003 -4.3561682105E-005 +3.6330893636E-005 -3.5840988159E-002 +3.5644531250E-002
1105000000.000 +2.2264480591E-002 -5.5084228516E-002 -6.5796375275E-003 -1.1515617371E-003 -3.2212585211E-005 -6.1452388763E-005 -4.6752929688E-002 +3.8375854492E-002
1237500000.000 +2.1442413330E-002 -6.1481475830E-002 -6.1116218567E-003 +2.6979446411E-003 +3.4432858229E-005 +1.7024576664E-006 -5.8559417725E-002 +3.3945083618E-002
1370000000.000 +2.0118713379E-002 -6.8508148193E-002 -3.4825801849E-003 +5.6250095367E-003 +1.9784085453E-005 +1.2187287211E-005 -7.4150085449E-002 +2.7240753174E-002
1502500000.000 +1.9115447998E-002 -7.4863433838E-002 +2.7799606323E-004 +6.5240859985E-003 -4.8207119107E-005 +2.6877969503E-006 -8.8027954102E-002 +2.1568298340E-002
1635000000.000 +1.8592834473E-002 -8.1775665283E-002 +3.8738250732E-003 +5.3067207336E-003 -1.8975697458E-005 -2.0778737962E-005 -9.9117279053E-002 +1.1817932129E-002
1767500000.000 +1.6857147217E-002 -8.9004516602E-002 +6.1817169189E-003 +2.1290779114E-003 -8.8103115559E-007 +5.7194381952E-005 -1.1212539673E-001 +3.2005310059E-003
1900000000.000 +1.5705108643E-002 -9.4665527344E-002 +6.2747001648E-003 -1.7178058624E-003 -5.6924298406E-005 +3.8409605622E-005 -1.1397933960E-001 -3.2768249512E-003
2032500000.000 +1.4209747314E-002 -1.0084915161E-001 +4.2612552643E-003 -4.8208236694E-003 +6.4756721258E-005 -3.1199306250E-005 -1.1408233643E-001 -2.4169921875E-002
2165000000.000 +1.3469696045E-002 -1.0814285278E-001 +9.0122222900E-004 -6.3107013702E-003 +5.4880976677E-005 +4.1685998440E-005 -1.2282180786E-001 -4.1919708252E-002
2297500000.000 +1.1440277100E-002 -1.1389541626E-001 -2.9349327087E-003 -5.7806968689E-003 -2.1293759346E-005 -5.9423968196E-005 -1.2678527832E-001 -5.3283691406E-002
2430000000.000 +1.0150909424E-002 -1.1959075928E-001 -5.7389736176E-003 -3.0982494354E-003 +1.0269880295E-004 -1.2890249491E-004 -1.2715148926E-001 -6.4933776855E-002
2562500000.000 +8.5678100586E-003 -1.2624359131E-001 -6.2837600708E-003 +4.7874450684E-004 +1.0013580322E-004 +9.3914568424E-006 -1.2590789795E-001 -7.0709228516E-002
2695000000.000 +4.8980712891E-003 -1.3149261475E-001 -4.7645568848E-003 +3.9284229279E-003 -3.7619844079E-005 -9.8533928394E-006 -1.1395645142E-001 -7.2814941406E-002
2827500000.000 +2.5253295898E-003 -1.3543701172E-001 -1.8627643585E-003 +5.7191848755E-003 +3.7243589759E-005 -2.0381063223E-005 -9.8949432373E-002 -8.2118988037E-002
2960000000.000 +1.1978149414E-003 -1.4107513428E-001 +1.8346309662E-003 +6.1647891998E-003 +1.8019229174E-005 +1.0206922889E-004 -8.9027404785E-002 -8.6833953857E-002
3092500000.000 -1.9531250000E-003 -1.4797973633E-001 +4.6761035919E-003 +3.8187503815E-003 -2.1758489311E-005 +5.7360157371E-006 -7.0976257324E-002 -8.5685729980E-002
3225000000.000 -6.1569213867E-003 -1.5307617188E-001 +6.1926841736E-003 +4.3678283691E-004 -6.5427273512E-005 +4.1272491217E-005 -5.2169799805E-002 -9.1339111328E-002
3357500000.000 -8.3999633789E-003 -1.5690612793E-001 +5.2142143250E-003 -2.8505325317E-003 +7.8484416008E-005 -5.0432980061E-005 -4.1839599609E-002 -9.2113494873E-002
3490000000.000 -1.0902404785E-002 -1.6329956055E-001 +2.9160976410E-003 -5.2804946899E-003 -9.0863555670E-005 +8.5491687059E-005 -2.8537750244E-002 -8.3274841309E-002
3622500000.000 -1.4282226563E-002 -1.7002868652E-001 -5.0067901611E-004 -5.8336257935E-003 +1.7529353499E-005 -5.5907294154E-006 -1.1379241943E-002 -7.9257965088E-002
3755000000.000 -1.8081665039E-002 -1.7586517334E-001 -3.7970542908E-003 -4.7819614410E-003 +1.0757241398E-005 -1.5140976757E-005 -6.0272216797E-003 -7.3478698730E-002
3887500000.000 -2.0927429199E-002 -1.8103790283E-001 -5.9630870819E-003 -1.8737316132E-003 +1.1930242181E-005 +4.7793611884E-005 +1.6155242920E-003 -5.6337356567E-002
4020000000.000 -2.3483276367E-002 -1.8574523926E-001 -5.9423446655E-003 +1.7497539520E-003 -4.6860426664E-005 -8.4578990936E-005 +1.3011932373E-002 -4.4452667236E-002
4152500000.000 -2.5909423828E-002 -1.9204711914E-001 -3.8189888000E-003 +4.7440528870E-003 +1.0770186782E-004 +3.8109719753E-006 +1.5571594238E-002 -3.2852172852E-002
4285000000.000 -2.9533386230E-002 -1.9806671143E-001 -5.9032440186E-004 +5.9719085693E-003 +1.0850653052E-004 +4.4502317905E-005 +1.6908645630E-002 -1.3501167297E-002
4417500000.000 -3.3157348633E-002 -2.0236206055E-001 +2.6764869690E-003 +5.2330493927E-003 -3.5492703319E-005 +8.5681676865E-007 +2.5580406189E-002 +3.3884048462E-003
4550000000.000 -3.4942626953E-002 -2.0726013184E-001 +5.3615570068E-003 +2.7194023132E-003 +5.6370627135E-006 +2.8396025300E-006 +2.9314994812E-002 +9.3660354614E-003
4682500000.000 -3.7681579590E-002 -2.1341705322E-001 +5.8166980743E-003 -5.7983398438E-004 -5.9146434069E-005 +2.4970620871E-005 +2.5923728943E-002 +2.0207405090E-002
4815000000.000 -4.1900634766E-002 -2.1848297119E-001 +4.6017169952E-003 -3.5488605499E-003 -3.2754614949E-005 +1.0000541806E-005 +3.1511306763E-002 +2.7154922485E-002
4947500000.000 -4.3830871582E-002 -2.2277832031E-001 +1.7731189728E-003 -5.6478977203E-003 -1.8428079784E-005 -2.3447908461E-005 +2.8109550476E-002 +1.9633293152E-002
5080000000.000 -4.5509338379E-002 -2.2801208496E-001 -1.4739036560E-003 -5.7256221771E-003 +3.5846605897E-005 -1.7106533051E-005 +1.3624191284E-002 +2.0359992981E-002
5212500000.000 -4.8789978027E-002 -2.3363494873E-001 -4.6198368073E-003 -3.9846897125E-003 -1.7579644918E-005 +3.6051496863E-006 +9.6836090088E-003 +2.4742126465E-002
5345000000.000 -5.1895141602E-002 -2.3714447021E-001 -6.0343742371E-003 -7.2741508484E-004 +1.6621779650E-006 -6.8014487624E-006 +6.0701370239E-003 +1.6157150269E-002
5477500000.000 -5.3039550781E-002 -2.4105072021E-001 -5.4402351379E-003 +2.7456283569E-003 +3.9974227548E-005 -2.1345913410E-006 -8.8758468628E-003 +1.0152339935E-002
5610000000.000 -5.5107116699E-002 -2.4628448486E-001 -2.9821395874E-003 +5.3336620331E-003 +6.8217515945E-005 -9.9055469036E-006 -1.4698505402E-002 +1.4682292938E-002
5742500000.000 -5.8929443359E-002 -2.4977874756E-001 +5.9080123901E-004 +6.0813426971E-003 -3.7092715502E-005 -7.4040144682E-006 -1.1073112488E-002 +6.2117576599E-003
5875000000.000 -6.1538696289E-002 -2.5213623047E-001 +3.8774013519E-003 +4.6987533569E-003 +3.0064955354E-005 -5.6767836213E-005 -1.9848823547E-002 -3.3941268921E-003
6007500000.000 -6.3339233398E-002 -2.5538635254E-001 +5.9278011322E-003 +1.6710758209E-003 -3.3525750041E-005 +4.9749389291E-005 -2.3230552673E-002 +2.4223327637E-004
6140000000.000 -6.6207885742E-002 -2.6016235352E-001 +5.7795047760E-003 -1.9314289093E-003 +6.7297369242E-006 +5.3731724620E-005 -1.5250682831E-002 -2.3655891418E-003
6272500000.000 -7.0983886719E-002 -2.6361083984E-001 +3.6900043488E-003 -4.8019886017E-003 +1.3969838619E-007 -4.8616901040E-005 -1.6087532043E-002 -1.1412620544E-002
6405000000.000 -7.5271606445E-002 -2.6470947266E-001 +3.7789344788E-004 -6.0861110687E-003 +4.1753519326E-006 +5.6889839470E-006 -1.9295692444E-002 -6.2932968140E-003
6537500000.000 -7.6568603516E-002 -2.6826477051E-001 -3.0126571655E-003 -5.1195621490E-003 -7.2605907917E-006 -3.2261013985E-005 -9.5586776733E-003 -3.0627250671E-003
6670000000.000 -8.0078125000E-002 -2.7375793457E-001 -5.4206848145E-003 -2.5236606598E-003 -1.2130010873E-005 -2.0661391318E-006 -7.9956054688E-003 -6.7887306213E-003
6802500000.000 -8.6288452148E-002 -2.7751159668E-001 -5.8984756470E-003 +8.1253051758E-004 -2.9266811907E-005 -1.3194978237E-005 -1.1146545410E-002 +2.9659271240E-004
6935000000.000 -8.9965820313E-002 -2.7799987793E-001 -4.4336318970E-003 +3.9801597595E-003 +1.3515353203E-005 -2.1469779313E-005 -6.4983367920E-003 +9.6707344055E-003
7067500000.000 -9.1384887695E-002 -2.8224182129E-001 -1.4138221741E-003 +5.7358741760E-003 -5.6108459830E-005 -5.4867938161E-005 -5.2008628845E-003 +1.0407924652E-002
7200000000.000 -9.5565795898E-002 -2.8750610352E-001 +1.9245147705E-003 +5.5403709412E-003 +3.6062672734E-005 +8.3167105913E-006 -1.5008926392E-002 +1.7498016357E-002
7332500000.000 -1.0144042969E-001 -2.9019165039E-001 +4.7354698181E-003 +3.4706592560E-003 +4.9781054258E-005 +2.0664185286E-005 -1.6846656799E-002 +3.0461311340E-002
7465000000.000 -1.0415649414E-001 -2.9261779785E-001 +5.8875083923E-003 +2.6559829712E-004 -4.7300010920E-005 -5.2547082305E-005 -2.0365715027E-002 +3.0840873718E-002
7597500000.000 -1.0717773438E-001 -2.9716491699E-001 +4.9009323120E-003 -3.0283927917E-003 +2.1250918508E-005 -3.6180019379E-005 -3.6779403687E-002 +3.3700942993E-002
7730000000.000 -1.1151123047E-001 -3.0203247070E-001 +2.4867057800E-003 -5.2335262299E-003 +4.2097643018E-005 +1.0838732123E-005 -4.7834396362E-002 +4.3798446655E-002
7862500000.000 -1.1502075195E-001 -3.0484008789E-001 -8.3780288696E-004 -5.6769847870E-003 -1.4476478100E-005 -2.9907561839E-005 -5.3678512573E-002 +4.2083740234E-002
7995000000.000 -1.1691284180E-001 -3.0807495117E-001 -3.8433074951E-003 -4.2393207550E-003 -2.6854686439E-005 +2.0897015929E-005 -7.3459625244E-002 +3.5198211670E-002
8127500000.000 -1.1993408203E-001 -3.1428527832E-001 -5.5112838745E-003 -1.3244152069E-003 +4.8095360398E-005 +5.7054683566E-005 -9.1182708740E-002 +4.0214538574E-002
8260000000.000 -1.2460327148E-001 -3.1680297852E-001 -5.4018497467E-003 +1.9476413727E-003 -6.3654035330E-005 -1.1049211025E-005 -9.5371246338E-002 +3.4221649170E-002
8392500000.000 -1.2573242188E-001 -3.2009887695E-001 -3.4320354462E-003 +4.6110153198E-003 +1.8753111362E-005 -7.5712800026E-005 -1.1009597778E-001 +1.8596649170E-002
8525000000.000 -1.2731933594E-001 -3.2402038574E-001 -2.0098686218E-004 +5.6517124176E-003 +6.5419822931E-005 +9.0394169092E-005 -1.2194442749E-001 +1.5293121338E-002
8657500000.000 -1.2998962402E-001 -3.2791137695E-001 +2.9513835907E-003 +4.9121379852E-003 -3.8165599108E-005 -1.1492520571E-006 -1.1790466309E-001 +4.1923522949E-003
8790000000.000 -1.3269042969E-001 -3.3142089844E-001 +5.2554607391E-003 +2.3789405823E-003 -5.2945688367E-006 -2.4866312742E-005 -1.1990737915E-001 -1.7177581787E-002
8922500000.000 -1.3481140137E-001 -3.3309936523E-001 +5.6078433990E-003 -8.4519386292E-004 +3.1080096960E-005 +2.5775283575E-005 -1.2218093872E-001 -3.0284881592E-002
9055000000.000 -1.3667297363E-001 -3.3607482910E-001 +4.1325092316E-003 -3.9207935333E-003 +1.1185184121E-006 +1.5410594642E-005 -1.1110305786E-001 -4.4361114502E-002
9187500000.000 -1.3914489746E-001 -3.3833312988E-001 +1.2936592102E-003 -5.5992603302E-003 -1.1347606778E-004 -1.3988465071E-005 -1.0087203979E-001 -6.6532135010E-002
9320000000.000 -1.4366149902E-001 -3.4007263184E-001 -2.0983219147E-003 -5.3966045380E-003 +3.4693628550E-005 -5.3502619267E-005 -9.3585968018E-002 -7.9055786133E-002
9452500000.000 -1.4624023438E-001 -3.4170532227E-001 -4.7178268433E-003 -3.2837390900E-003 -8.7101012468E-005 +2.1219253540E-005 -7.4024200439E-002 -8.7131500244E-002
9585000000.000 -1.4859008789E-001 -3.4437561035E-001 -5.6941509247E-003 -9.6082687378E-005 -7.0165842772E-006 -3.0498020351E-005 -5.5122375488E-002 -1.0162734985E-001
9717500000.000 -1.5344238281E-001 -3.4747314453E-001 -4.7121047974E-003 +3.1192302704E-003 +1.4992430806E-005 -4.7022476792E-005 -4.1557312012E-002 -1.0629653931E-001
9850000000.000 -1.5861511230E-001 -3.4754943848E-001 -2.2311210632E-003 +5.1684379578E-003 +8.3595514297E-006 +3.1072646379E-005 -1.8451690674E-002 -1.0247039795E-001
9982500000.000 -1.6032409668E-001 -3.4988403320E-001 +9.5510482788E-004 +5.5196285248E-003 -6.6719949245E-005 +1.9706785679E-006 +6.0310363770E-003 -1.0416793823E-001
10115000000.000 -1.6361999512E-001 -3.5313415527E-001 +3.9966106415E-003 +4.0271282196E-003 +2.2310763597E-005 -2.0524486899E-005 +1.8505096436E-002 -9.9010467529E-002
10247500000.000 -1.6921997070E-001 -3.5501098633E-001 +5.5084228516E-003 +1.1703968048E-003 +8.1580132246E-005 +6.8433582783E-006 +3.6125183105E-002 -7.9635620117E-002
10380000000.000 -1.7283630371E-001 -3.5626220703E-001 +5.1975250244E-003 -2.1553039551E-003 -4.4452026486E-005 +3.2195821404E-005 +5.7655334473E-002 -6.8351745605E-002
10512500000.000 -1.7637634277E-001 -3.5839843750E-001 +3.1836032867E-003 -4.6322345734E-003 +5.8300793171E-007 -1.1775176972E-005 +6.2084197998E-002 -5.6715011597E-002
10645000000.000 -1.8011474609E-001 -3.5983276367E-001 -1.6689300537E-006 -5.5985450745E-003 +4.6383589506E-005 -1.3060867786E-005 +6.6108703613E-002 -2.8858184814E-002
10777500000.000 -1.8380737305E-001 -3.6233520508E-001 -3.1378269196E-003 -4.7066211700E-003 -2.9936432838E-005 +8.0289319158E-006 +7.8063964844E-002 -8.0375671387E-003
10910000000.000 -1.8826293945E-001 -3.6500549316E-001 -5.2149295807E-003 -2.1829605103E-003 -5.5458396673E-005 -3.0482187867E-005 +7.2673797607E-002 +4.7988891602E-003
11042500000.000 -1.9316101074E-001 -3.6717224121E-001 -5.4936408997E-003 +1.0154247284E-003 +5.1736831665E-005 -1.4174729586E-005 +5.9366226196E-002 +3.1400680542E-002
11175000000.000 -1.9619750977E-001 -3.7010192871E-001 -3.9258003235E-003 +3.9865970612E-003 -1.3755634427E-005 -1.3805925846E-005 +5.7111740112E-002 +5.2820205688E-002
11307500000.000 -1.9902038574E-001 -3.7207031250E-001 -1.0769367218E-003 +5.4967403412E-003 -2.9318034649E-006 -1.6004778445E-005 +4.4300079346E-002 +5.8490753174E-002
11440000000.000 -2.0329284668E-001 -3.7420654297E-001 +2.1669864655E-003 +5.1577091217E-003 +4.4658780098E-005 -3.6090612411E-005 +1.8333435059E-002 +7.2219848633E-002
11572500000.000 -2.0500183105E-001 -3.7870788574E-001 +4.7314167023E-003 +3.0477046967E-003 +2.4952925742E-005 +1.9554048777E-005 +4.5967102051E-003 +8.7741851807E-002
11705000000.000 -2.0829772949E-001 -3.8046264648E-001 +5.5704116821E-003 -3.6716461182E-005 -5.3081661463E-005 +7.6744705439E-005 -9.9334716797E-003 +8.1291198730E-002
11837500000.000 -2.1148681641E-001 -3.8330078125E-001 +4.5418739319E-003 -3.1139850616E-003 +4.1328370571E-005 -1.9252300262E-005 -4.2930603027E-002 +7.7213287354E-002
11970000000.000 -2.1308898926E-001 -3.8421630859E-001 +2.0163059235E-003 -5.1968097687E-003 +1.0317191482E-005 +3.6407262087E-005 -5.9047698975E-002 +8.3358764648E-002
12102500000.000 -2.1395874023E-001 -3.8629150391E-001 -1.3272762299E-003 -5.4485797882E-003 -5.3061172366E-005 +5.3411349654E-005 -6.5658569336E-002 +6.4357757568E-002
12235000000.000 -2.1772766113E-001 -3.8827514648E-001 -4.0748119354E-003 -3.8418769836E-003 +1.7389655113E-005 -6.2324106693E-005 -9.3418121338E-002 +4.4849395752E-002
12367500000.000 -2.1916198730E-001 -3.8900756836E-001 -5.5279731750E-003 -9.0837478638E-004 +5.1684677601E-005 +4.1332095861E-006 -1.0507583618E-001 +4.3502807617E-002
12500000000.000 -2.2306823730E-001 -3.8836669922E-001 -5.0144195557E-003 +2.2778511047E-003 -6.5561383963E-005 -4.3697655201E-006 -9.7320556641E-002 +1.9660949707E-002
12632500000.000 -2.2531127930E-001 -3.9086914063E-001 -2.8653144836E-003 +4.7538280487E-003 +4.4094398618E-005 -1.1516734958E-005 -1.1072158813E-001 -1.3313293457E-002
12765000000.000 -2.2766113281E-001 -3.9195251465E-001 +1.5711784363E-004 +5.5518150330E-003 +2.1409243345E-005 -6.8921595812E-005 -1.1739349365E-001 -1.6693115234E-002
12897500000.000 -2.3068237305E-001 -3.9041137695E-001 +3.2987594604E-003 +4.4035911560E-003 +2.8781592846E-005 -1.1530704796E-005 -9.1644287109E-002 -3.5160064697E-002
13030000000.000 -2.3252868652E-001 -3.9128112793E-001 +5.1732063293E-003 +1.8162727356E-003 -4.2580068111E-006 -4.3539330363E-005 -9.0740203857E-002 -7.2135925293E-002
13162500000.000 -2.3617553711E-001 -3.9364624023E-001 +5.4030418396E-003 -1.3604164124E-003 +4.0030106902E-005 -6.7967921495E-006 -9.2761993408E-002 -7.1865081787E-002
13295000000.000 -2.3924255371E-001 -3.9453125000E-001 +3.6585330963E-003 -4.1747093201E-003 +2.0841136575E-005 -3.6869198084E-005 -6.0558319092E-002 -7.8620910645E-002
13427500000.000 -2.4343872070E-001 -3.9373779297E-001 +6.8330764771E-004 -5.3989887238E-003 +1.3587996364E-005 -4.0402635932E-005 -4.6939849854E-002 -1.0551834106E-001
13560000000.000 -2.4256896973E-001 -3.9375305176E-001 -2.4437904358E-003 -4.9221515656E-003 -2.9460527003E-005 -1.3050623238E-005 -4.7443389893E-002 -1.0175323486E-001
13692500000.000 -2.4537658691E-001 -3.9718627930E-001 -4.7135353088E-003 -2.7906894684E-003 -2.3801811039E-005 -1.4227814972E-005 -1.7692565918E-002 -8.9073181152E-002
13825000000.000 -2.5030517578E-001 -3.9805603027E-001 -5.3851604462E-003 +4.1365623474E-004 -1.0723248124E-004 +1.7210841179E-006 +4.6844482422E-003 -1.0368347168E-001
13957500000.000 -2.5370788574E-001 -3.9614868164E-001 -4.2479038239E-003 +3.3674240112E-003 -3.0027702451E-005 -2.1901912987E-005 -6.8664550781E-005 -9.6328735352E-002
14090000000.000 -2.5444030762E-001 -3.9677429199E-001 -1.7580986023E-003 +5.1012039185E-003 +1.1455267668E-005 +8.5808336735E-005 +2.2083282471E-002 -7.0674896240E-002
14222500000.000 -2.5639343262E-001 -3.9971923828E-001 +1.5492439270E-003 +5.3608417511E-003 -4.0080398321E-005 +1.1350587010E-004 +4.4044494629E-002 -7.4550628662E-002
14355000000.000 -2.6240539551E-001 -4.0023803711E-001 +4.2636394501E-003 +3.4928321838E-003 -6.6444277763E-005 -9.1418623924E-005 +3.3824920654E-002 -6.6825866699E-002
14487500000.000 -2.6429748535E-001 -4.0016174316E-001 +5.4945945740E-003 +5.2380561829E-004 +3.3941119909E-005 -3.6517158151E-005 +4.1309356689E-002 -3.4650802612E-002
14620000000.000 -2.6469421387E-001 -4.0301513672E-001 +4.8871040344E-003 -2.6872158051E-003 +1.4461576939E-005 -7.2456896305E-005 +6.0436248779E-002 -3.2230377197E-002
14752500000.000 -2.6933288574E-001 -4.0708923340E-001 +2.4268627167E-003 -4.8799514771E-003 +4.1965395212E-006 -4.8829242587E-005 +4.2959213257E-002 -3.1206130981E-002
14885000000.000 -2.7296447754E-001 -4.0715026855E-001 -6.8521499634E-004 -5.3939819336E-003 +1.1118873954E-004 -4.5102089643E-005 +3.7117004395E-002 +1.7700195313E-003
15017500000.000 -2.7122497559E-001 -4.0969848633E-001 -3.5803318024E-003 -3.9973258972E-003 -4.9620866776E-006 +1.0552257299E-004 +5.3377151489E-002 +7.3566436768E-003
15150000000.000 -2.7267456055E-001 -4.1540527344E-001 -5.3553581238E-003 -1.3310909271E-003 -6.8515539169E-005 -5.6281685829E-005 +3.3849716187E-002 -1.0223388672E-003
15282500000.000 -2.7560424805E-001 -4.1828918457E-001 -5.0015449524E-003 +1.7964839935E-003 +3.1851232052E-005 -2.2998079658E-005 +1.5431404114E-002 +2.5058746338E-002
