!  2-Port S-parameters saved by WinCal
! VAR MeasName=S-Parameters (CALIBRATED_DATA) read from VNA (C)
! VAR MeasDate=10/5/2015 4:45:38 PM
! VAR NAME=M6079_4_7_3_2_20C_0.9mA_-17.5dBm
! VAR FILENAME=M6079_4_7_3_2_20C_0.9mA_-17.5dBm.S2P
! VAR DATE=10/5/2015 4:45:38 PM
! VAR PHYS_PORTS=2,1
! VAR ObjTypeName=DATASET
! VAR IndexType=Frequency
!
# Hz S RI R 50
45000000.000 +3.9520263672E-001 -1.4877319336E-002 -1.1336803436E-003 +2.0773410797E-003 +3.1936168671E-004 +1.3242363930E-003 +2.7928352356E-002 +4.8961639404E-003
177500000.000 +3.8519287109E-001 -4.9575805664E-002 +1.0192394257E-003 +2.6340484619E-003 -4.9695372581E-006 +1.8880516291E-004 +1.6369819641E-002 +1.7043113708E-002
310000000.000 +3.8394165039E-001 -8.6669921875E-002 +1.7094612122E-003 +1.6838908195E-003 -1.2149661779E-004 -5.7302415371E-005 +3.0153274536E-002 +6.1283111572E-002
442500000.000 +3.5125732422E-001 -1.0018920898E-001 +3.1874179840E-003 -5.3632259369E-004 +2.5123357773E-005 -6.3482671976E-005 +7.2700500488E-002 +2.2365570068E-002
575000000.000 +3.3294677734E-001 -1.1608886719E-001 +1.9961595535E-003 -2.1685361862E-003 -3.3915042877E-005 +3.7463381886E-005 +2.7547836304E-002 +1.1202812195E-002
707500000.000 +3.1999206543E-001 -1.3264465332E-001 +3.4272670746E-004 -2.8159618378E-003 -9.9935568869E-006 +1.2359581888E-005 +2.3784637451E-003 +1.8654823303E-002
840000000.000 +3.0734252930E-001 -1.4485168457E-001 -1.4216899872E-003 -2.4091005325E-003 +7.3522329330E-005 -2.0492821932E-005 -1.9945144653E-002 +2.6022911072E-002
972500000.000 +2.9522705078E-001 -1.5667724609E-001 -2.4515390396E-003 -1.0370016098E-003 -4.2505562305E-006 +3.0526891351E-005 -3.5840988159E-002 +3.5837173462E-002
1105000000.000 +2.8500366211E-001 -1.6894531250E-001 -2.6347637177E-003 +5.9127807617E-004 -7.4636191130E-005 -6.4373016357E-006 -4.6705245972E-002 +3.8452148438E-002
1237500000.000 +2.7655029297E-001 -1.8069458008E-001 -1.5506744385E-003 +2.0264387131E-003 +8.0861151218E-005 +5.1762908697E-005 -5.8647155762E-002 +3.3910751343E-002
1370000000.000 +2.6571655273E-001 -1.9125366211E-001 -1.9431114197E-005 +2.4303197861E-003 -3.8729980588E-005 +3.5403296351E-005 -7.4218750000E-002 +2.7309417725E-002
1502500000.000 +2.5436401367E-001 -1.9960021973E-001 +1.3569593430E-003 +1.9876956940E-003 +1.0751187801E-005 -3.8659200072E-005 -8.8085174561E-002 +2.1678924561E-002
1635000000.000 +2.4637603760E-001 -2.1027374268E-001 +2.1642446518E-003 +8.1503391266E-004 +1.6624107957E-005 +1.2293457985E-007 -9.9243164063E-002 +1.1878967285E-002
1767500000.000 +2.3819732666E-001 -2.1920013428E-001 +2.3086071014E-003 -6.9820880890E-004 +2.4013221264E-005 +6.7200511694E-005 -1.1213302612E-001 +3.2310485840E-003
1900000000.000 +2.3269653320E-001 -2.2594451904E-001 +1.2640953064E-003 -2.1127462387E-003 +1.3638753444E-005 -9.0720131993E-006 -1.1398696899E-001 -3.1204223633E-003
2032500000.000 +2.2680664063E-001 -2.3571014404E-001 -4.4858455658E-004 -2.4936199188E-003 +8.2448124886E-005 -3.9082020521E-005 -1.1411285400E-001 -2.4101257324E-002
2165000000.000 +2.2175598145E-001 -2.4720001221E-001 -1.9086003304E-003 -1.5793442726E-003 +4.4539570808E-005 -1.2215971947E-004 -1.2298583984E-001 -4.1820526123E-002
2297500000.000 +2.1493530273E-001 -2.5791931152E-001 -2.5484561920E-003 +1.1074542999E-004 -6.2953680754E-005 +3.6135315895E-005 -1.2677764893E-001 -5.3268432617E-002
2430000000.000 +2.0715332031E-001 -2.6721191406E-001 -1.6731023788E-003 +1.7721056938E-003 -1.5173107386E-005 -2.8403475881E-005 -1.2725067139E-001 -6.5032958984E-002
2562500000.000 +1.9841003418E-001 -2.7792358398E-001 -2.8681755066E-004 +2.2609233856E-003 -1.0017305613E-005 +3.3859163523E-005 -1.2629699707E-001 -7.0472717285E-002
2695000000.000 +1.8717956543E-001 -2.8727722168E-001 +1.3322234154E-003 +1.9427537918E-003 -4.8322603106E-005 +3.1173229218E-005 -1.1414718628E-001 -7.2940826416E-002
2827500000.000 +1.7663574219E-001 -2.9313659668E-001 +2.0596981049E-003 +3.8993358612E-004 +6.0316175222E-005 -6.6746026278E-005 -9.9212646484E-002 -8.2084655762E-002
2960000000.000 +1.6790771484E-001 -2.9943847656E-001 +1.8526315689E-003 -6.8098306656E-004 +5.9656798840E-005 +1.2424588203E-004 -8.9324951172E-002 -8.6711883545E-002
3092500000.000 +1.5756225586E-001 -3.0746459961E-001 +9.8240375519E-004 -1.6341805458E-003 -4.3433159590E-005 +9.1481953859E-005 -7.1090698242E-002 -8.5529327393E-002
3225000000.000 +1.4607238770E-001 -3.1291198730E-001 -1.6391277313E-004 -1.7238259315E-003 -6.7900866270E-005 +8.5011124611E-006 -5.2318572998E-002 -9.1255187988E-002
3357500000.000 +1.3768005371E-001 -3.1637573242E-001 -1.0442733765E-003 -1.4549493790E-003 +6.0034915805E-005 +2.4132430553E-005 -4.2186737061E-002 -9.2105865479E-002
3490000000.000 +1.2934875488E-001 -3.2269287109E-001 -1.6144514084E-003 -4.5406818390E-004 +2.8580427170E-005 +1.1195242405E-004 -2.8980255127E-002 -8.3358764648E-002
3622500000.000 +1.1950683594E-001 -3.2885742188E-001 -1.3962388039E-003 +6.3437223434E-004 +5.8909878135E-005 -1.8719583750E-005 -1.1459350586E-002 -7.9181671143E-002
3755000000.000 +1.1065673828E-001 -3.3346557617E-001 -7.8290700912E-004 +1.2045502663E-003 +4.6201050282E-005 +1.0769814253E-005 -6.0615539551E-003 -7.3501586914E-002
3887500000.000 +1.0302734375E-001 -3.3801269531E-001 +2.6524066925E-005 +1.3292431831E-003 +8.0406665802E-005 +6.6868960857E-005 +1.4076232910E-003 -5.6556701660E-002
4020000000.000 +9.5367431641E-002 -3.4219360352E-001 +8.4221363068E-004 +1.0359883308E-003 -1.5579164028E-004 -2.3752450943E-005 +1.3082504272E-002 -4.4519424438E-002
4152500000.000 +8.8363647461E-002 -3.4725952148E-001 +1.1524558067E-003 +3.0106306076E-004 +1.8425285816E-005 -1.0788440704E-005 +1.5626907349E-002 -3.3166885376E-002
4285000000.000 +8.0978393555E-002 -3.5247802734E-001 +1.0673999786E-003 -4.7492980957E-004 +1.1286512017E-004 -3.4768134356E-005 +1.6996383667E-002 -1.3978958130E-002
4417500000.000 +7.3028564453E-002 -3.5620117188E-001 +5.3852796555E-004 -1.0542869568E-003 -3.4172087908E-005 -2.0576640964E-005 +2.5617599487E-002 +3.2052993774E-003
4550000000.000 +6.7306518555E-002 -3.6018371582E-001 -9.6857547760E-005 -1.1093616486E-003 +1.1187978089E-005 -2.1920539439E-005 +2.9370307922E-002 +9.1199874878E-003
4682500000.000 +6.1492919922E-002 -3.6524963379E-001 -5.5271387100E-004 -7.6624751091E-004 +6.4358115196E-005 +3.2790005207E-005 +2.6080131531E-002 +1.9956588745E-002
4815000000.000 +5.3680419922E-002 -3.6947631836E-001 -8.6653232574E-004 -3.5634636879E-004 -6.0040503740E-005 +5.5363401771E-005 +3.1764984131E-002 +2.6954650879E-002
4947500000.000 +4.8461914063E-002 -3.7281799316E-001 -8.1509351730E-004 +1.8283724785E-004 -2.4241395295E-005 -2.0009465516E-005 +2.8234481812E-002 +1.9392013550E-002
5080000000.000 +4.3762207031E-002 -3.7724304199E-001 -4.6351552010E-004 +5.8797001839E-004 +2.6305206120E-005 -9.7993761301E-006 +1.3980865479E-002 +2.0107269287E-002
5212500000.000 +3.7139892578E-002 -3.8186645508E-001 -6.1333179474E-005 +7.1874260902E-004 -2.3666769266E-005 +7.4476003647E-005 +9.9763870239E-003 +2.4513244629E-002
5345000000.000 +3.1188964844E-002 -3.8427734375E-001 +4.7612190247E-004 +5.7792663574E-004 +4.0559098125E-006 -1.1856202036E-005 +6.2980651855E-003 +1.5931129456E-002
5477500000.000 +2.7496337891E-002 -3.8751220703E-001 +6.3022971153E-004 +2.3248791695E-004 +2.2314488888E-006 -3.3881515265E-006 -8.6565017700E-003 +9.9148750305E-003
5610000000.000 +2.2399902344E-002 -3.9218139648E-001 +6.6104531288E-004 -1.0943412781E-004 +2.1242536604E-005 -2.8926879168E-005 -1.4429569244E-002 +1.4610290527E-002
5742500000.000 +1.5884399414E-002 -3.9457702637E-001 +4.3076276779E-004 -4.4400990009E-004 -1.8758699298E-005 +1.1608935893E-005 -1.0646820068E-002 +6.1655044556E-003
5875000000.000 +1.0650634766E-002 -3.9630126953E-001 +5.6713819504E-005 -6.1020255089E-004 +5.4122880101E-005 +4.9322843552E-006 -1.9505500793E-002 -3.3779144287E-003
6007500000.000 +6.5765380859E-003 -3.9933776855E-001 -2.7501583099E-004 -4.8279762268E-004 -1.3355165720E-006 +4.6009197831E-005 -2.3003578186E-002 +2.1839141846E-004
6140000000.000 +9.9182128906E-004 -4.0319824219E-001 -5.0342082977E-004 -2.3937225342E-004 -1.2011267245E-005 -1.7456710339E-005 -1.4923095703E-002 -2.1419525146E-003
6272500000.000 -6.3323974609E-003 -4.0567016602E-001 -5.5602192879E-004 +2.5182962418E-005 +4.5187771320E-006 -7.8897923231E-005 -1.5825271606E-002 -1.1353492737E-002
6405000000.000 -1.2802124023E-002 -4.0647888184E-001 -3.7099421024E-004 +2.6173889637E-004 -1.7506070435E-005 -1.6272999346E-005 -1.9163131714E-002 -6.2551498413E-003
6537500000.000 -1.6143798828E-002 -4.0925598145E-001 -1.4118850231E-004 +4.6588480473E-004 -2.3521482944E-005 +6.0889869928E-006 -9.4590187073E-003 -2.8190612793E-003
6670000000.000 -2.1957397461E-002 -4.1390991211E-001 +1.1241436005E-004 +4.2176246643E-004 -1.8484890461E-005 -6.8552792072E-005 -7.7707767487E-003 -6.5467357635E-003
6802500000.000 -3.0639648438E-002 -4.1711425781E-001 +3.3247470856E-004 +3.2468140125E-004 +1.2414529920E-005 -3.1452625990E-005 -1.1051654816E-002 +4.2629241943E-004
6935000000.000 -3.6621093750E-002 -4.1690063477E-001 +4.5585632324E-004 +3.3259391785E-005 -2.0377337933E-005 -2.2297725081E-005 -6.6208839417E-003 +9.8834037781E-003
7067500000.000 -3.9855957031E-002 -4.2008972168E-001 +3.5077333450E-004 -2.5765597820E-004 -3.2942742109E-005 -3.3931806684E-005 -5.3529739380E-003 +1.0677337646E-002
7200000000.000 -4.6356201172E-002 -4.2480468750E-001 +2.2460520267E-004 -4.1742622852E-004 +3.5040080547E-005 +1.8427148461E-005 -1.5065193176E-002 +1.7745971680E-002
7332500000.000 -5.4565429688E-002 -4.2675781250E-001 -1.3606250286E-004 -4.3261051178E-004 +2.6285648346E-005 -7.0516020060E-005 -1.6942977905E-002 +3.0495643616E-002
7465000000.000 -5.9463500977E-002 -4.2807006836E-001 -2.6930868626E-004 -3.2012164593E-004 -5.8468431234E-006 +3.5716220737E-005 -2.0566940308E-002 +3.1034469604E-002
7597500000.000 -6.4056396484E-002 -4.3212890625E-001 -3.9729475975E-004 -3.2961368561E-005 +5.0013884902E-005 +2.9286369681E-005 -3.6911010742E-002 +3.3872604370E-002
7730000000.000 -7.0388793945E-002 -4.3608093262E-001 -3.5893917084E-004 +1.9299983978E-004 -1.5364959836E-005 -2.9863789678E-005 -4.7868728638E-002 +4.3895721436E-002
7862500000.000 -7.5744628906E-002 -4.3795776367E-001 -2.0362436771E-004 +3.5668909550E-004 +2.0988285542E-005 +6.2234699726E-005 -5.3859710693E-002 +4.2045593262E-002
7995000000.000 -7.9376220703E-002 -4.4020080566E-001 +3.5762786865E-005 +2.9338896275E-004 -3.7940219045E-005 -2.5704503059E-007 -7.3547363281E-002 +3.5301208496E-002
8127500000.000 -8.3969116211E-002 -4.4558715820E-001 +2.0782649517E-004 +2.9265880585E-004 +2.7907080948E-005 +2.8734095395E-005 -9.1266632080E-002 +4.0126800537E-002
8260000000.000 -9.0301513672E-002 -4.4763183594E-001 +3.0611455441E-004 +8.4266066551E-005 +5.3152441978E-005 +2.2070482373E-005 -9.5432281494E-002 +3.4141540527E-002
8392500000.000 -9.3231201172E-002 -4.4982910156E-001 +3.7287175655E-004 -9.3355774879E-005 +7.9628080130E-007 +7.8994780779E-006 -1.1005401611E-001 +1.8623352051E-002
8525000000.000 -9.6282958984E-002 -4.5285034180E-001 +1.7721951008E-004 -2.3286789656E-004 +5.0831586123E-005 +9.9409371614E-006 -1.2204360962E-001 +1.5579223633E-002
8657500000.000 -1.0041809082E-001 -4.5587158203E-001 +2.7269124985E-005 -2.6218593121E-004 -1.0510440916E-005 +6.9676898420E-006 -1.1796951294E-001 +4.5394897461E-003
8790000000.000 -1.0426330566E-001 -4.5886230469E-001 -1.4093518257E-004 -2.5980174541E-004 -9.4692222774E-006 +4.5108608902E-006 -1.1987304688E-001 -1.6899108887E-002
8922500000.000 -1.0824584961E-001 -4.5982360840E-001 -2.3708492517E-004 -9.0107321739E-005 +6.6343694925E-005 -1.0635703802E-005 -1.2220001221E-001 -3.0014038086E-002
9055000000.000 -1.1158752441E-001 -4.6241760254E-001 -2.7410686016E-004 +1.8730759621E-005 -5.4797157645E-005 +2.3502856493E-005 -1.1130142212E-001 -4.4082641602E-002
9187500000.000 -1.1508178711E-001 -4.6366882324E-001 -1.8947571516E-004 +9.3832612038E-005 -4.5362859964E-005 -1.5599653125E-005 -1.0107421875E-001 -6.6089630127E-002
9320000000.000 -1.2101745605E-001 -4.6502685547E-001 -7.8424811363E-005 +2.5139749050E-004 +1.7738901079E-005 +6.0284510255E-006 -9.3708038330E-002 -7.8784942627E-002
9452500000.000 -1.2512207031E-001 -4.6624755859E-001 +1.9729137421E-005 +1.8531084061E-004 +5.5097043514E-006 +3.6880373955E-005 -7.4333190918E-002 -8.7024688721E-002
9585000000.000 -1.2898254395E-001 -4.6791076660E-001 +1.4349818230E-004 +2.7599930763E-004 -4.0918588638E-005 +1.8998980522E-007 -5.5557250977E-002 -1.0138702393E-001
9717500000.000 -1.3533020020E-001 -4.7032165527E-001 +2.8802454472E-004 +8.7782740593E-005 +2.5334767997E-005 -2.2378750145E-005 -4.1999816895E-002 -1.0622787476E-001
9850000000.000 -1.4213562012E-001 -4.7000122070E-001 +2.4761259556E-004 -7.7858567238E-005 +1.1676922441E-005 -4.4133514166E-005 -1.8795013428E-002 -1.0255813599E-001
9982500000.000 -1.4503479004E-001 -4.7143554688E-001 +1.4232099056E-004 -1.7495453358E-004 +7.8571029007E-006 +3.0687078834E-007 +5.5732727051E-003 -1.0448837280E-001
10115000000.000 -1.5008544922E-001 -4.7369384766E-001 -2.9057264328E-006 -2.4410337210E-004 +2.2312626243E-005 +1.2863427401E-005 +1.7951965332E-002 -9.9170684814E-002
10247500000.000 -1.5664672852E-001 -4.7482299805E-001 -1.7432868481E-004 -1.6573816538E-004 -3.6824494600E-005 +7.1711838245E-006 +3.5865783691E-002 -8.0024719238E-002
10380000000.000 -1.6156005859E-001 -4.7529602051E-001 -2.2799521685E-004 -1.1468678713E-004 -2.4859793484E-005 -1.2559816241E-005 +5.7319641113E-002 -6.9042205811E-002
10512500000.000 -1.6673278809E-001 -4.7660827637E-001 -1.9325315952E-004 +7.8305602074E-005 +3.8936734200E-005 -1.2756884098E-004 +6.1891555786E-002 -5.7447433472E-002
10645000000.000 -1.7205810547E-001 -4.7727966309E-001 -1.8724799156E-004 +1.6485899687E-004 +6.0841441154E-005 +2.9554590583E-005 +6.5986633301E-002 -2.9415130615E-002
10777500000.000 -1.7662048340E-001 -4.7877502441E-001 -4.3667852879E-005 +1.9711256027E-004 -5.6955963373E-005 +1.5839934349E-005 +7.8216552734E-002 -8.6288452148E-003
10910000000.000 -1.8209838867E-001 -4.8060607910E-001 +1.2456625700E-004 +1.8274039030E-004 -2.7520582080E-006 -8.8941305876E-006 +7.2982788086E-002 +3.8223266602E-003
11042500000.000 -1.8878173828E-001 -4.8222351074E-001 +1.6824156046E-004 +3.9197504520E-005 +2.1254643798E-005 -1.2322328985E-005 +5.9766769409E-002 +3.0624389648E-002
11175000000.000 -1.9313049316E-001 -4.8385620117E-001 +2.1514296532E-004 +3.0770897865E-006 -5.9431418777E-005 +4.4560059905E-005 +5.7670593262E-002 +5.2452087402E-002
11307500000.000 -1.9674682617E-001 -4.8495483398E-001 +8.8889151812E-005 -9.8995864391E-005 +7.8007578850E-006 +8.6347572505E-006 +4.5000076294E-002 +5.7909011841E-002
11440000000.000 -2.0196533203E-001 -4.8640441895E-001 +9.1232359409E-005 -7.5746327639E-005 +5.1904469728E-005 +3.1311064959E-006 +1.9172668457E-002 +7.1651458740E-002
11572500000.000 -2.0504760742E-001 -4.8973083496E-001 +6.2920153141E-005 -1.7613917589E-004 -3.6701560020E-005 +2.3942440748E-005 +5.4817199707E-003 +8.7562561035E-002
11705000000.000 -2.0948791504E-001 -4.9031066895E-001 -1.0047107935E-004 -5.4635107517E-005 -5.1872804761E-005 +2.0382925868E-005 -8.8958740234E-003 +8.1420898438E-002
11837500000.000 -2.1321105957E-001 -4.9238586426E-001 -7.6241791248E-005 +8.3744525909E-006 +1.5776604414E-005 -6.3948333263E-005 -4.1915893555E-002 +7.7522277832E-002
11970000000.000 -2.1568298340E-001 -4.9232482910E-001 -2.0752102137E-004 -6.7122280598E-005 +4.1937455535E-005 +2.9485672712E-006 -5.8216094971E-002 +8.4053039551E-002
12102500000.000 -2.1798706055E-001 -4.9339294434E-001 -1.3182312250E-004 +6.9655478001E-005 -9.7136944532E-006 -5.3133815527E-005 -6.5086364746E-002 +6.4979553223E-002
12235000000.000 -2.2261047363E-001 -4.9452209473E-001 +1.8529593945E-005 +1.1715665460E-004 +2.4352222681E-005 -4.3898820877E-005 -9.3002319336E-002 +4.5715332031E-002
12367500000.000 -2.2462463379E-001 -4.9429321289E-001 +1.2386590242E-004 +1.7754733562E-004 +5.8915466070E-005 +3.5520642996E-006 -1.0465240479E-001 +4.4609069824E-002
12500000000.000 -2.2972106934E-001 -4.9320983887E-001 +1.1254101992E-004 +6.6343694925E-005 -4.7409906983E-005 +2.4171546102E-005 -9.7175598145E-002 +2.0744323730E-002
12632500000.000 -2.3239135742E-001 -4.9479675293E-001 +1.5224516392E-004 -1.1697411537E-006 -1.6029924154E-005 -6.5706670284E-005 -1.1104202271E-001 -1.2248992920E-002
12765000000.000 -2.3600769043E-001 -4.9465942383E-001 +1.4697015285E-004 -9.0427696705E-005 +4.2505562305E-005 -5.7183206081E-006 -1.1773681641E-001 -1.5647888184E-002
12897500000.000 -2.3957824707E-001 -4.9247741699E-001 +6.3225626945E-005 -1.1549144983E-004 -2.4057924747E-005 +5.0930306315E-005 -9.1888427734E-002 -3.4255981445E-002
13030000000.000 -2.4169921875E-001 -4.9299621582E-001 +1.1175870895E-006 -1.3867765665E-004 -2.8277747333E-005 -6.7241489887E-007 -9.1495513916E-002 -7.1437835693E-002
13162500000.000 -2.4629211426E-001 -4.9430847168E-001 -1.2665241957E-004 -8.7291002274E-005 -2.6185065508E-005 +8.0177560449E-006 -9.4097137451E-002 -7.1208953857E-002
13295000000.000 -2.5019836426E-001 -4.9440002441E-001 -1.8028169870E-004 +5.4880976677E-005 -7.0556998253E-006 +5.8991834521E-005 -6.1470031738E-002 -7.8178405762E-002
13427500000.000 -2.5511169434E-001 -4.9256896973E-001 -9.1325491667E-005 +5.8360397816E-005 -6.6258013248E-005 -2.9135495424E-005 -4.7969818115E-002 -1.0560607910E-001
13560000000.000 -2.5489807129E-001 -4.9198913574E-001 -5.0578266382E-005 +1.0044872761E-004 +4.5798718929E-005 -5.9546902776E-005 -4.8885345459E-002 -1.0218429565E-001
13692500000.000 -2.5851440430E-001 -4.9436950684E-001 +9.7136944532E-005 +6.1493366957E-005 -3.7664547563E-005 +4.3384730816E-005 -1.8730163574E-002 -8.9241027832E-002
13825000000.000 -2.6368713379E-001 -4.9432373047E-001 +1.1607632041E-004 +1.0874122381E-005 -1.2379884720E-004 -1.0110437870E-004 +4.0359497070E-003 -1.0439300537E-001
13957500000.000 -2.6800537109E-001 -4.9183654785E-001 +6.4678490162E-005 -2.2307038307E-005 +1.1529773474E-006 -4.3088570237E-005 -9.0026855469E-004 -9.7148895264E-002
14090000000.000 -2.6947021484E-001 -4.9192810059E-001 +1.4011561871E-004 -5.9776008129E-005 +4.7760084271E-005 +2.1371990442E-005 +2.1453857422E-002 -7.1681976318E-002
14222500000.000 -2.7191162109E-001 -4.9368286133E-001 +9.9413096905E-005 -5.6829303503E-005 -4.6156346798E-005 -3.7016347051E-005 +4.3762207031E-002 -7.5325012207E-002
14355000000.000 -2.7819824219E-001 -4.9331665039E-001 +3.3056363463E-005 -6.0938298702E-005 -2.6151537895E-005 -1.0284036398E-004 +3.3905029297E-002 -6.7775726318E-002
14487500000.000 -2.8048706055E-001 -4.9266052246E-001 +2.6982277632E-005 -7.4636191130E-005 +8.2701444626E-006 +6.8113207817E-005 +4.1593551636E-002 -3.5516738892E-002
14620000000.000 -2.8134155273E-001 -4.9444580078E-001 -6.8254768848E-005 -1.4146417379E-004 -3.6391429603E-006 +7.7616423368E-006 +6.0684204102E-002 -3.3006668091E-002
14752500000.000 -2.8608703613E-001 -4.9775695801E-001 -5.7000666857E-005 -3.2054260373E-005 +3.8195401430E-005 +5.8673322201E-006 +4.3436050415E-002 -3.1372070313E-002
14885000000.000 -2.9032897949E-001 -4.9717712402E-001 -7.4837356806E-005 -1.8473714590E-005 +5.6875869632E-005 +3.2242387533E-005 +3.7971496582E-002 +1.6517639160E-003
15017500000.000 -2.8886413574E-001 -4.9876403809E-001 -1.0785460472E-004 +8.5294246674E-005 +1.1693686247E-005 +1.1763349175E-004 +5.4008483887E-002 +6.9885253906E-003
15150000000.000 -2.9031372070E-001 -5.0384521484E-001 +6.5665692091E-005 +8.2984566689E-005 -2.3942440748E-005 -6.8206340075E-005 +3.4185409546E-002 -9.8609924316E-004
15282500000.000 -2.9345703125E-001 -5.0625610352E-001 +8.4072351456E-005 +1.3924390078E-004 +3.4963712096E-005 -4.2460858822E-005 +1.5956878662E-002 +2.5442123413E-002
