!  2-Port S-parameters saved by WinCal
! VAR MeasName=S-Parameters (CALIBRATED_DATA) read from VNA (C)
! VAR MeasDate=10/5/2015 6:03:09 PM
! VAR NAME=M6079_2_7_3_2_20C_3.8mA_-17.5dBm
! VAR FILENAME=M6079_2_7_3_2_20C_3.8mA_-17.5dBm.S2P
! VAR DATE=10/5/2015 6:03:09 PM
! VAR PHYS_PORTS=2,1
! VAR ObjTypeName=DATASET
! VAR IndexType=Frequency
!
# Hz S RI R 50
45000000.000 +1.1453628540E-001 -1.3389587402E-003 -1.2180805206E-003 +7.3864459991E-003 +1.2728571892E-004 +5.4764747620E-004 +2.9585838318E-002 +3.1805038452E-003
177500000.000 +1.1475372314E-001 -9.5863342285E-003 +2.6624202728E-003 +6.9119930267E-003 +3.7369132042E-004 -5.3659081459E-005 +1.6343116760E-002 +1.6964912415E-002
310000000.000 +1.1501312256E-001 -1.7951965332E-002 +5.5863857269E-003 +4.5819282532E-003 -1.3718008995E-004 -1.0058283806E-006 +2.9941558838E-002 +6.1536788940E-002
442500000.000 +1.1487579346E-001 -2.6901245117E-002 +8.0032348633E-003 +9.4413757324E-005 +6.6131353378E-005 +4.8503279686E-006 +7.2837829590E-002 +2.2434234619E-002
575000000.000 +1.1445617676E-001 -3.6396026611E-002 +6.3264369965E-003 -4.4734477997E-003 -4.7910958529E-005 +1.1846795678E-004 +2.7522087097E-002 +1.1416435242E-002
707500000.000 +1.1337280273E-001 -4.4582366943E-002 +2.6078224182E-003 -6.9813728333E-003 -1.0985881090E-004 +1.2185424566E-005 +2.4242401123E-003 +1.8634796143E-002
840000000.000 +1.1275863647E-001 -5.3924560547E-002 -1.7478466034E-003 -7.2727203369E-003 +3.4796539694E-006 -6.7239161581E-006 -1.9960403442E-002 +2.6034355164E-002
972500000.000 +1.1199569702E-001 -6.2564849854E-002 -5.3119659424E-003 -5.0292015076E-003 +2.1131709218E-005 +5.5547803640E-005 -3.5867691040E-002 +3.5957336426E-002
1105000000.000 +1.1037063599E-001 -7.1750640869E-002 -7.1883201599E-003 -1.1892318726E-003 -3.8275495172E-005 -5.0712376833E-005 -4.6689987183E-002 +3.8446426392E-002
1237500000.000 +1.0892868042E-001 -7.9910278320E-002 -6.5879821777E-003 +3.0109882355E-003 -1.2923032045E-005 -5.0971284509E-005 -5.8620452881E-002 +3.3996582031E-002
1370000000.000 +1.0691070557E-001 -8.8863372803E-002 -3.7193298340E-003 +6.2019824982E-003 +2.4832785130E-005 +7.7646225691E-005 -7.4146270752E-002 +2.7290344238E-002
1502500000.000 +1.0515213013E-001 -9.7026824951E-002 +3.0398368835E-004 +7.1976184845E-003 +9.3709677458E-006 -4.0644779801E-005 -8.8081359863E-002 +2.1625518799E-002
1635000000.000 +1.0390853882E-001 -1.0548782349E-001 +4.2722225189E-003 +5.7623386383E-003 +3.8733705878E-006 -1.6220845282E-005 -9.9323272705E-002 +1.1882781982E-002
1767500000.000 +1.0149002075E-001 -1.1454391479E-001 +6.7813396454E-003 +2.4032592773E-003 +2.7177855372E-005 +2.3783184588E-005 -1.1218643188E-001 +3.2691955566E-003
1900000000.000 +9.9441528320E-002 -1.2190628052E-001 +6.8621635437E-003 -2.0260810852E-003 -2.9742717743E-005 +3.4639611840E-005 -1.1407470703E-001 -3.1585693359E-003
2032500000.000 +9.6954345703E-002 -1.2945556641E-001 +4.5862197876E-003 -5.4292678833E-003 +1.9816681743E-005 -5.3007155657E-005 -1.1416244507E-001 -2.4131774902E-002
2165000000.000 +9.5443725586E-002 -1.3835144043E-001 +9.1099739075E-004 -6.9656372070E-003 +5.4022297263E-005 -1.2854114175E-005 -1.2288284302E-001 -4.1912078857E-002
2297500000.000 +9.2391967773E-002 -1.4575195313E-001 -3.1170845032E-003 -6.3650608063E-003 -5.4696574807E-005 -5.7786703110E-005 -1.2689971924E-001 -5.3245544434E-002
2430000000.000 +9.0133666992E-002 -1.5257263184E-001 -6.0780048370E-003 -3.3719539642E-003 -4.0186569095E-005 -6.0964375734E-005 -1.2733459473E-001 -6.4964294434E-002
2562500000.000 +8.7593078613E-002 -1.6069030762E-001 -6.8795681000E-003 +6.5684318542E-004 +1.5355646610E-004 +5.9075653553E-005 -1.2624359131E-001 -7.0625305176E-002
2695000000.000 +8.3007812500E-002 -1.6736602783E-001 -5.2154064178E-003 +4.5711994171E-003 -5.8429315686E-005 -1.2256205082E-006 -1.1402511597E-001 -7.2967529297E-002
2827500000.000 +7.9589843750E-002 -1.7250061035E-001 -1.8026828766E-003 +6.5946578979E-003 -5.4575502872E-006 -1.0069459677E-004 -9.9025726318E-002 -8.1954956055E-002
2960000000.000 +7.7346801758E-002 -1.7950439453E-001 +2.1049976349E-003 +6.4368247986E-003 -2.9861927032E-005 +7.9531222582E-005 -8.9347839355E-002 -8.6769104004E-002
3092500000.000 +7.3158264160E-002 -1.8774414063E-001 +5.4335594177E-003 +4.1353702545E-003 +2.6337802410E-005 +3.4181401134E-005 -7.1060180664E-002 -8.5639953613E-002
3225000000.000 +6.7741394043E-002 -1.9387054443E-001 +6.6461563110E-003 +4.2867660522E-004 -4.5904889703E-005 +2.2621825337E-005 -5.2200317383E-002 -9.1388702393E-002
3357500000.000 +6.4506530762E-002 -1.9883728027E-001 +5.8228969574E-003 -3.2527446747E-003 +8.0637633801E-005 -4.9099326134E-005 -4.2110443115E-002 -9.2315673828E-002
3490000000.000 +6.0966491699E-002 -2.0662689209E-001 +3.0608177185E-003 -5.8455467224E-003 +7.3250383139E-005 +1.4569610357E-005 -2.8873443604E-002 -8.3301544189E-002
3622500000.000 +5.6243896484E-002 -2.1424865723E-001 -8.5854530334E-004 -6.6895484924E-003 -4.1145831347E-005 -8.8386237621E-005 -1.1516571045E-002 -7.9135894775E-002
3755000000.000 +5.1429748535E-002 -2.2095489502E-001 -4.3547153473E-003 -5.2502155304E-003 +3.6586076021E-005 -6.1452388763E-005 -6.1378479004E-003 -7.3638916016E-002
3887500000.000 +4.7271728516E-002 -2.2732543945E-001 -6.4673423767E-003 -1.8332004547E-003 +4.9434602261E-006 +9.5773488283E-005 +1.4648437500E-003 -5.6457519531E-002
4020000000.000 +4.3510437012E-002 -2.3298645020E-001 -6.3607692719E-003 +1.9569396973E-003 -1.5243887901E-005 -1.4075636864E-004 +1.2964248657E-002 -4.4498443604E-002
4152500000.000 +4.0023803711E-002 -2.4002075195E-001 -4.2614936829E-003 +5.3465366364E-003 +3.6619603634E-005 -5.0773844123E-005 +1.5590667725E-002 -3.3176422119E-002
4285000000.000 +3.5232543945E-002 -2.4705505371E-001 -4.4775009155E-004 +6.7625045776E-003 +3.1435862184E-005 +1.4008954167E-005 +1.7049789429E-002 -1.3795852661E-002
4417500000.000 +3.0273437500E-002 -2.5227355957E-001 +3.2670497894E-003 +5.7780742645E-003 -6.5099447966E-005 -1.1362135410E-005 +2.5650024414E-002 +3.2539367676E-003
4550000000.000 +2.7572631836E-002 -2.5791931152E-001 +5.9554576874E-003 +3.0839443207E-003 -6.8940222263E-005 -2.4028122425E-005 +2.9331207275E-002 +9.2382431030E-003
4682500000.000 +2.3696899414E-002 -2.6484680176E-001 +6.5495967865E-003 -7.0166587830E-004 +1.2049917132E-005 -8.5281208158E-006 +2.6132583618E-002 +2.0052909851E-002
4815000000.000 +1.8218994141E-002 -2.7059936523E-001 +5.0930976868E-003 -4.0922164917E-003 +1.4377292246E-005 +1.4975667000E-005 +3.1591415405E-002 +2.7013778687E-002
4947500000.000 +1.5350341797E-002 -2.7539062500E-001 +2.0909309387E-003 -6.3455104828E-003 -8.9528039098E-006 +4.3166801333E-006 +2.8095245361E-002 +1.9422531128E-002
5080000000.000 +1.2680053711E-002 -2.8147888184E-001 -1.7647743225E-003 -6.5581798553E-003 +1.2514181435E-005 +2.6380643249E-005 +1.3861656189E-002 +2.0184516907E-002
5212500000.000 +8.0413818359E-003 -2.8761291504E-001 -5.1677227020E-003 -4.5099258423E-003 -2.7183443308E-005 +6.6474080086E-005 +9.8819732666E-003 +2.4583816528E-002
5345000000.000 +3.9672851563E-003 -2.9147338867E-001 -6.7911148071E-003 -7.9226493835E-004 -5.5730342865E-006 -1.7008744180E-005 +6.2246322632E-003 +1.5928268433E-002
5477500000.000 +2.0446777344E-003 -2.9609680176E-001 -6.1924457550E-003 +3.1766891479E-003 +8.8769011199E-006 +1.0685529560E-005 -8.6679458618E-003 +9.9835395813E-003
5610000000.000 -1.4038085938E-003 -3.0195617676E-001 -3.3206939697E-003 +6.1805248260E-003 +2.3227185011E-006 +9.4571150839E-006 -1.4576911926E-002 +1.4591217041E-002
5742500000.000 -6.2103271484E-003 -3.0578613281E-001 +7.0714950562E-004 +6.9563388824E-003 +2.6011839509E-006 +2.2943131626E-005 -1.0739803314E-002 +6.2308311462E-003
5875000000.000 -9.7045898438E-003 -3.0874633789E-001 +4.4722557068E-003 +5.3162574768E-003 +2.5592744350E-005 -3.8880854845E-005 -1.9693374634E-002 -3.3864974976E-003
6007500000.000 -1.2542724609E-002 -3.1254577637E-001 +6.7677497864E-003 +1.8794536591E-003 +5.8259814978E-005 +8.2567334175E-005 -2.3076057434E-002 +3.2997131348E-004
6140000000.000 -1.6571044922E-002 -3.1776428223E-001 +6.6123008728E-003 -2.2799968719E-003 -5.8399513364E-005 +3.2264739275E-005 -1.5110969543E-002 -2.2153854370E-003
6272500000.000 -2.2323608398E-002 -3.2159423828E-001 +4.2109489441E-003 -5.5205821991E-003 +4.5767053962E-005 -5.4500997066E-006 -1.5937805176E-002 -1.1383056641E-002
6405000000.000 -2.7526855469E-002 -3.2339477539E-001 +3.6334991455E-004 -6.9115161896E-003 -2.3117288947E-005 -3.6111101508E-005 -1.9248962402E-002 -6.1702728271E-003
6537500000.000 -2.9830932617E-002 -3.2730102539E-001 -3.5324096680E-003 -5.9332847595E-003 -3.2903626561E-005 -1.0887160897E-005 -9.5596313477E-003 -2.8924942017E-003
6670000000.000 -3.4255981445E-002 -3.3311462402E-001 -6.2124729156E-003 -2.9323101044E-003 +4.5392662287E-006 -4.0024518967E-005 -7.8663825989E-003 -6.5941810608E-003
6802500000.000 -4.1580200195E-002 -3.3740234375E-001 -6.8011283875E-003 +1.0757446289E-003 -3.6787241697E-005 +1.6322359443E-005 -1.1167049408E-002 +4.2009353638E-004
6935000000.000 -4.6417236328E-002 -3.3824157715E-001 -4.8892498016E-003 +4.6045780182E-003 -1.7416663468E-005 +2.8922222555E-005 -6.5450668335E-003 +9.7813606262E-003
7067500000.000 -4.8416137695E-002 -3.4252929688E-001 -1.5451908112E-003 +6.5305233002E-003 -4.2192637920E-005 -1.2667849660E-005 -5.2390098572E-003 +1.0575771332E-002
7200000000.000 -5.3787231445E-002 -3.4828186035E-001 +2.4549961090E-003 +6.2942504883E-003 +2.4873763323E-005 +2.9625371099E-006 -1.5079498291E-002 +1.7628669739E-002
7332500000.000 -6.0852050781E-002 -3.5125732422E-001 +5.4268836975E-003 +3.8578510284E-003 +2.3335218430E-005 +7.0076435804E-005 -1.6942024231E-002 +3.0490875244E-002
7465000000.000 -6.4498901367E-002 -3.5369873047E-001 +6.6149234772E-003 +1.7023086548E-004 -3.2041221857E-005 -3.6060810089E-006 -2.0448684692E-002 +3.0867576599E-002
7597500000.000 -6.8283081055E-002 -3.5855102539E-001 +5.6314468384E-003 -3.6077499390E-003 +3.3171847463E-005 +8.0391764641E-006 -3.6859512329E-002 +3.3843994141E-002
7730000000.000 -7.3776245117E-002 -3.6360168457E-001 +2.6974678040E-003 -5.9955120087E-003 +1.0298565030E-005 +1.7639249563E-005 -4.7872543335E-002 +4.3832778931E-002
7862500000.000 -7.8109741211E-002 -3.6659240723E-001 -1.1122226715E-003 -6.5577030182E-003 +3.4496188164E-005 -2.2511929274E-005 -5.3787231445E-002 +4.2125701904E-002
7995000000.000 -8.0734252930E-002 -3.6981201172E-001 -4.6324729919E-003 -4.8706531525E-003 +1.8997117877E-005 -4.9654394388E-005 -7.3505401611E-002 +3.5324096680E-002
8127500000.000 -8.4548950195E-002 -3.7626647949E-001 -6.5364837646E-003 -1.4173984528E-003 +2.1349638700E-005 +2.5748275220E-005 -9.1190338135E-002 +4.0119171143E-002
8260000000.000 -8.9981079102E-002 -3.7898254395E-001 -6.2184333801E-003 +2.3746490479E-003 +1.0761432350E-005 +2.8542242944E-005 -9.5333099365E-002 +3.4355163574E-002
8392500000.000 -9.2132568359E-002 -3.8235473633E-001 -3.7975311279E-003 +5.5701732635E-003 -1.2645497918E-005 -3.7090852857E-005 -1.1006927490E-001 +1.8657684326E-002
8525000000.000 -9.4436645508E-002 -3.8624572754E-001 -1.2135505676E-004 +6.7427158356E-003 -8.4349885583E-006 -1.7301179469E-005 -1.2201690674E-001 +1.5537261963E-002
8657500000.000 -9.7991943359E-002 -3.9025878906E-001 +3.7326812744E-003 +5.6777000427E-003 -2.5370158255E-005 -1.6580335796E-005 -1.1790466309E-001 +4.3220520020E-003
8790000000.000 -1.0113525391E-001 -3.9395141602E-001 +6.2260627747E-003 +2.6862621307E-003 +9.6131116152E-006 -5.3960829973E-005 -1.1995697021E-001 -1.7013549805E-002
8922500000.000 -1.0412597656E-001 -3.9581298828E-001 +6.7598819733E-003 -1.3098716736E-003 +3.9167702198E-005 +1.7883256078E-005 -1.2221527100E-001 -3.0067443848E-002
9055000000.000 -1.0676574707E-001 -3.9930725098E-001 +4.7736167908E-003 -4.9204826355E-003 +1.1602416635E-005 +4.5659020543E-005 -1.1118316650E-001 -4.4166564941E-002
9187500000.000 -1.0978698730E-001 -4.0145874023E-001 +1.3391971588E-003 -6.7532062531E-003 -2.6185065508E-005 -5.2275136113E-006 -1.0102844238E-001 -6.6318511963E-002
9320000000.000 -1.1494445801E-001 -4.0350341797E-001 -2.8364658356E-003 -6.4008235931E-003 +4.1725113988E-005 -4.6212226152E-006 -9.3711853027E-002 -7.8914642334E-002
9452500000.000 -1.1833190918E-001 -4.0539550781E-001 -5.9623718262E-003 -3.6859512329E-003 +2.1127983928E-005 +1.6791746020E-005 -7.4138641357E-002 -8.7135314941E-002
9585000000.000 -1.2171936035E-001 -4.0794372559E-001 -6.9949626923E-003 +3.0946731567E-004 -2.7865171432E-005 +3.3875927329E-005 -5.5419921875E-002 -1.0149383545E-001
9717500000.000 -1.2725830078E-001 -4.1125488281E-001 -5.7442188263E-003 +4.1613578796E-003 +3.9204955101E-005 -6.6645443439E-006 -4.1893005371E-002 -1.0623931885E-001
9850000000.000 -1.3334655762E-001 -4.1160583496E-001 -2.4504661560E-003 +6.7026615143E-003 +3.4358352423E-005 +4.1093677282E-005 -1.8703460693E-002 -1.0240936279E-001
9982500000.000 -1.3572692871E-001 -4.1384887695E-001 +1.7876625061E-003 +6.8416595459E-003 +1.1427327991E-005 -4.0939077735E-005 +5.8898925781E-003 -1.0444259644E-001
10115000000.000 -1.3992309570E-001 -4.1720581055E-001 +5.2998065948E-003 +4.6463012695E-003 -1.3928860426E-005 -4.2745843530E-005 +1.8245697021E-002 -9.9014282227E-002
10247500000.000 -1.4602661133E-001 -4.1909790039E-001 +6.9391727448E-003 +8.5854530334E-004 -8.2361511886E-006 +1.1539086699E-005 +3.5942077637E-002 -7.9887390137E-002
10380000000.000 -1.5054321289E-001 -4.2048645020E-001 +6.2830448151E-003 -3.2944679260E-003 -5.4921954870E-005 +7.1711838245E-006 +5.7502746582E-002 -6.8752288818E-002
10512500000.000 -1.5490722656E-001 -4.2250061035E-001 +3.5264492035E-003 -6.2015056610E-003 -3.0715018511E-005 -9.7882002592E-006 +6.1916351318E-002 -5.7069778442E-002
10645000000.000 -1.5954589844E-001 -4.2402648926E-001 -5.7983398438E-004 -6.9720745087E-003 +3.6690384150E-005 -4.9138441682E-005 +6.6040039063E-002 -2.9045104980E-002
10777500000.000 -1.6381835938E-001 -4.2633056641E-001 -4.5273303986E-003 -5.5711269379E-003 -8.0545432866E-006 +1.4078337699E-005 +7.8147888184E-002 -8.2206726074E-003
10910000000.000 -1.6888427734E-001 -4.2913818359E-001 -6.8781375885E-003 -2.0651817322E-003 -2.3703090847E-005 -2.9735267162E-005 +7.2780609131E-002 +4.2839050293E-003
11042500000.000 -1.7489624023E-001 -4.3153381348E-001 -6.8898200989E-003 +2.0480155945E-003 -3.8305297494E-005 -3.5000964999E-005 +5.9631347656E-002 +3.0860900879E-002
11175000000.000 -1.7881774902E-001 -4.3397521973E-001 -4.4867992401E-003 +5.5670738220E-003 +4.4298358262E-006 +1.1724419892E-005 +5.7422637939E-002 +5.2694320679E-002
11307500000.000 -1.8232727051E-001 -4.3577575684E-001 -5.6385993958E-004 +7.1992874146E-003 -1.5672296286E-005 +7.6321884990E-006 +4.4574737549E-002 +5.8280944824E-002
11440000000.000 -1.8716430664E-001 -4.3804931641E-001 +3.5395622253E-003 +6.2747001648E-003 +3.9156526327E-005 +4.2311847210E-005 +1.8783569336E-002 +7.1910858154E-002
11572500000.000 -1.8986511230E-001 -4.4235229492E-001 +6.3581466675E-003 +3.2365322113E-003 +3.8817524910E-005 +4.3122097850E-005 +5.2070617676E-003 +8.7680816650E-002
11705000000.000 -1.9374084473E-001 -4.4372558594E-001 +7.1666240692E-003 -9.2244148254E-004 -5.3102150559E-005 +4.2261555791E-005 -9.2353820801E-003 +8.1359863281E-002
11837500000.000 -1.9741821289E-001 -4.4636535645E-001 +5.4969787598E-003 -4.8222541809E-003 -6.6459178925E-006 -5.2535906434E-005 -4.2346954346E-002 +7.7404022217E-002
11970000000.000 -1.9952392578E-001 -4.4706726074E-001 +1.8196105957E-003 -7.0946216583E-003 +2.8830021620E-005 +4.0607526898E-005 -5.8502197266E-002 +8.3580017090E-002
12102500000.000 -2.0109558105E-001 -4.4895935059E-001 -2.5069713593E-003 -6.9012641907E-003 +6.7111104727E-006 +6.0848891735E-005 -6.5311431885E-002 +6.4723968506E-002
12235000000.000 -2.0547485352E-001 -4.5079040527E-001 -5.9561729431E-003 -4.3699741364E-003 -3.7878751755E-005 -1.6426667571E-005 -9.3135833740E-002 +4.5444488525E-002
12367500000.000 -2.0761108398E-001 -4.5112609863E-001 -7.3704719543E-003 -2.5033950806E-004 +1.9587576389E-005 +9.6559524536E-005 -1.0469818115E-001 +4.4155120850E-002
12500000000.000 -2.1212768555E-001 -4.5089721680E-001 -6.1795711517E-003 +4.0616989136E-003 -3.3561140299E-005 +6.6760927439E-005 -9.7335815430E-002 +2.0313262939E-002
12632500000.000 -2.1464538574E-001 -4.5320129395E-001 -2.8998851776E-003 +6.8790912628E-003 -5.1695853472E-005 -1.6322359443E-005 -1.1097335815E-001 -1.2565612793E-002
12765000000.000 -2.1788024902E-001 -4.5381164551E-001 +1.4076232910E-003 +7.3187351227E-003 +2.6239082217E-005 -2.9673799872E-005 -1.1754608154E-001 -1.6052246094E-002
12897500000.000 -2.2129821777E-001 -4.5208740234E-001 +5.3832530975E-003 +5.1662921906E-003 -3.9679929614E-005 +1.8691644073E-005 -9.1827392578E-002 -3.4481048584E-002
13030000000.000 -2.2338867188E-001 -4.5339965820E-001 +7.4059963226E-003 +1.1963844299E-003 +1.4984514564E-005 -9.5455907285E-006 -9.1270446777E-002 -7.1674346924E-002
13162500000.000 -2.2798156738E-001 -4.5544433594E-001 +6.8366527557E-003 -3.1127929688E-003 -1.6182661057E-005 -8.5007399321E-005 -9.3471527100E-002 -7.1445465088E-002
13295000000.000 -2.3164367676E-001 -4.5605468750E-001 +3.8537979126E-003 -6.4237117767E-003 -2.0531006157E-005 +2.1669082344E-005 -6.1149597168E-002 -7.8376770020E-002
13427500000.000 -2.3634338379E-001 -4.5494079590E-001 -5.1546096802E-004 -7.4570178986E-003 -2.5074928999E-005 +1.8157064915E-005 -4.7683715820E-002 -1.0563659668E-001
13560000000.000 -2.3582458496E-001 -4.5510864258E-001 -4.5475959778E-003 -6.0520172119E-003 +3.9678066969E-005 -9.8295509815E-005 -4.8404693604E-002 -1.0203552246E-001
13692500000.000 -2.3934936523E-001 -4.5805358887E-001 -7.2245597839E-003 -2.3655891418E-003 +1.4010816813E-005 +7.3529779911E-005 -1.8421173096E-002 -8.9252471924E-002
13825000000.000 -2.4446105957E-001 -4.5886230469E-001 -7.1313381195E-003 +2.2404193878E-003 -1.0240450501E-004 -2.4855136871E-005 +4.2572021484E-003 -1.0407257080E-001
13957500000.000 -2.4890136719E-001 -4.5689392090E-001 -4.5559406281E-003 +5.9404373169E-003 +1.3581663370E-004 +2.6002526283E-006 -6.4849853516E-004 -9.7007751465E-002
14090000000.000 -2.5012207031E-001 -4.5724487305E-001 -5.9461593628E-004 +7.6444149017E-003 +4.2516738176E-005 +5.6289136410E-006 +2.1713256836E-002 -7.1323394775E-002
14222500000.000 -2.5241088867E-001 -4.5989990234E-001 +3.8554668427E-003 +6.3929557800E-003 -2.1770596504E-005 -8.1472098827E-006 +4.3750762939E-002 -7.4981689453E-002
14355000000.000 -2.5889587402E-001 -4.6008300781E-001 +6.8216323853E-003 +3.0388832092E-003 -2.5987625122E-005 -7.5772404671E-005 +3.3836364746E-002 -6.7417144775E-002
14487500000.000 -2.6091003418E-001 -4.5962524414E-001 +7.3575973511E-003 -1.3244152069E-003 +2.8307549655E-005 +9.3532726169E-006 +4.1555404663E-002 -3.5308837891E-002
14620000000.000 -2.6162719727E-001 -4.6228027344E-001 +5.2883625031E-003 -5.3730010986E-003 +1.0146759450E-005 +1.6300007701E-005 +6.0569763184E-002 -3.2724380493E-002
14752500000.000 -2.6710510254E-001 -4.6607971191E-001 +1.3227462769E-003 -7.4007511139E-003 +8.1025063992E-006 -4.1486695409E-005 +4.3439865112E-002 -3.1330108643E-002
14885000000.000 -2.7099609375E-001 -4.6554565430E-001 -3.2556056976E-003 -6.7009925842E-003 +1.1280179024E-004 -4.3313950300E-005 +3.7824630737E-002 +1.7337799072E-003
15017500000.000 -2.6931762695E-001 -4.6815490723E-001 -6.2875747681E-003 -3.7665367126E-003 -2.3894011974E-005 +8.2217156887E-005 +5.3741455078E-002 +7.0686340332E-003
15150000000.000 -2.7130126953E-001 -4.7380065918E-001 -7.3800086975E-003 +5.6576728821E-004 +2.7790665627E-006 +4.2280182242E-005 +3.4112930298E-002 -9.3650817871E-004
15282500000.000 -2.7452087402E-001 -4.7633361816E-001 -5.7423114777E-003 +4.6286582947E-003 +1.1949986219E-004 -1.1178851128E-004 +1.5885353088E-002 +2.5398254395E-002
