!  2-Port S-parameters saved by WinCal
! VAR MeasName=S-Parameters (CALIBRATED_DATA) read from VNA (C)
! VAR MeasDate=10/5/2015 6:38:45 PM
! VAR NAME=M6079_2_7_3_3_20C_1.5mA_-17.5dBm
! VAR FILENAME=M6079_2_7_3_3_20C_1.5mA_-17.5dBm.S2P
! VAR DATE=10/5/2015 6:38:45 PM
! VAR PHYS_PORTS=2,1
! VAR ObjTypeName=DATASET
! VAR IndexType=Frequency
!
# Hz S RI R 50
45000000.000 +2.2883605957E-001 -5.6228637695E-003 -1.7833709717E-003 +4.6000480652E-003 +1.9306540489E-003 +5.1921606064E-004 +2.8678894043E-002 +3.0279159546E-003
177500000.000 +2.1729278564E-001 -2.1255493164E-002 +2.2532939911E-003 +5.3131580353E-003 -7.2978436947E-005 +2.2728741169E-004 +1.6395568848E-002 +1.6499519348E-002
310000000.000 +2.1393585205E-001 -4.0290832520E-002 +5.3222179413E-003 +4.1427612305E-003 +2.7900561690E-005 -2.6505440474E-005 +3.0134201050E-002 +6.1315536499E-002
442500000.000 +2.0812988281E-001 -4.8515319824E-002 +6.1752796173E-003 -5.4383277893E-004 +1.4615803957E-004 -1.1570751667E-005 +7.2700500488E-002 +2.2380828857E-002
575000000.000 +2.0086669922E-001 -5.8349609375E-002 +4.6327114105E-003 -3.9517879486E-003 +5.1222741604E-007 +3.3419579268E-005 +2.7474403381E-002 +1.1258125305E-002
707500000.000 +1.9825744629E-001 -7.0915222168E-002 +1.4109611511E-003 -5.6915283203E-003 -8.2654878497E-006 -1.7116777599E-005 +2.2859573364E-003 +1.8393516541E-002
840000000.000 +1.9270324707E-001 -7.9780578613E-002 -2.0964145660E-003 -5.4457187653E-003 +6.0386955738E-005 -4.0870159864E-005 -1.9978523254E-002 +2.6026725769E-002
972500000.000 +1.9018554688E-001 -9.0713500977E-002 -4.7724246979E-003 -3.1006336212E-003 -7.7232718468E-005 +5.2787363529E-005 -3.5884857178E-002 +3.5743713379E-002
1105000000.000 +1.8654632568E-001 -1.0197448730E-001 -5.7189464569E-003 +1.5449523926E-004 -7.1436166763E-005 -2.4214386940E-006 -4.6764373779E-002 +3.8351058960E-002
1237500000.000 +1.8379974365E-001 -1.1283111572E-001 -4.4553279877E-003 +3.3833980560E-003 +8.7093561888E-005 -7.4509531260E-005 -5.8603286743E-002 +3.3971786499E-002
1370000000.000 +1.7919158936E-001 -1.2310791016E-001 -1.7154216766E-003 +5.3102970123E-003 +3.4485012293E-005 +3.8599595428E-005 -7.4131011963E-002 +2.7221679688E-002
1502500000.000 +1.7404937744E-001 -1.2952423096E-001 +1.7006397247E-003 +5.4669380188E-003 -1.0344199836E-005 -2.9368326068E-005 -8.7985992432E-002 +2.1530151367E-002
1635000000.000 +1.7232513428E-001 -1.4250946045E-001 +4.4240951538E-003 +3.3149719238E-003 +6.2026083469E-005 +2.7008354664E-006 -9.9163055420E-002 +1.1821746826E-002
1767500000.000 +1.6724395752E-001 -1.5176391602E-001 +5.6211948395E-003 +2.2077560425E-004 +3.3959746361E-005 +1.7631798983E-005 -1.1222839355E-001 +3.2806396484E-003
1900000000.000 +1.6175842285E-001 -1.5421295166E-001 +5.2025318146E-003 -3.1843185425E-003 -5.7844445109E-006 -2.3710541427E-005 -1.1400604248E-001 -3.1890869141E-003
2032500000.000 +1.5773010254E-001 -1.6182708740E-001 +2.4099349976E-003 -5.6476593018E-003 +1.6410835087E-005 -2.9308721423E-006 -1.1427307129E-001 -2.4181365967E-002
2165000000.000 +1.5509033203E-001 -1.6921234131E-001 -1.4388561249E-003 -6.1860084534E-003 +8.3189457655E-005 +4.0490180254E-005 -1.2303161621E-001 -4.1866302490E-002
2297500000.000 +1.5033721924E-001 -1.7308807373E-001 -4.8372745514E-003 -4.6970844269E-003 +4.3459236622E-005 -4.7422945499E-006 -1.2684631348E-001 -5.3382873535E-002
2430000000.000 +1.4715576172E-001 -1.7980957031E-001 -6.8013668060E-003 -1.0230541229E-003 +7.8976154327E-006 +1.4829635620E-004 -1.2709045410E-001 -6.4949035645E-002
2562500000.000 +1.4429473877E-001 -1.8970489502E-001 -6.1376094818E-003 +2.9492378235E-003 +4.0151178837E-005 +7.4483454227E-005 -1.2622070313E-001 -7.0640563965E-002
2695000000.000 +1.3724517822E-001 -1.9509124756E-001 -3.6859512329E-003 +6.0596466064E-003 -1.8350034952E-004 +8.5368752480E-005 -1.1398315430E-001 -7.3127746582E-002
2827500000.000 +1.3225555420E-001 -2.0131683350E-001 +3.0612945557E-004 +7.0836544037E-003 +1.1060386896E-005 -2.1974556148E-005 -9.8880767822E-002 -8.2023620605E-002
2960000000.000 +1.2844848633E-001 -2.1141815186E-001 +4.2500495911E-003 +5.4671764374E-003 +5.6799501181E-005 +8.7358057499E-006 -8.9076995850E-002 -8.6746215820E-002
3092500000.000 +1.2215423584E-001 -2.1925354004E-001 +6.5844058990E-003 +2.0155906677E-003 -1.7265230417E-004 +1.0035187006E-004 -7.0919036865E-002 -8.5494995117E-002
3225000000.000 +1.1500549316E-001 -2.2571563721E-001 +6.8135261536E-003 -1.9817352295E-003 -5.7123601437E-005 -1.5983730555E-004 -5.2040100098E-002 -9.1365814209E-002
3357500000.000 +1.1026000977E-001 -2.3159790039E-001 +4.6057701111E-003 -5.3925514221E-003 +1.5623867512E-004 -3.4928321838E-005 -4.2072296143E-002 -9.2060089111E-002
3490000000.000 +1.0626983643E-001 -2.3963165283E-001 +7.2860717773E-004 -7.2658061981E-003 -1.1355429888E-004 +5.5629760027E-005 -2.8587341309E-002 -8.3240509033E-002
3622500000.000 +1.0097503662E-001 -2.4716186523E-001 -3.5238265991E-003 -6.5517425537E-003 -7.4855983257E-005 -2.4065375328E-006 -1.1402130127E-002 -7.9360961914E-002
3755000000.000 +9.6725463867E-002 -2.5657653809E-001 -6.9556236267E-003 -3.0951499939E-003 +1.0104104877E-004 -2.8789043427E-005 -6.0234069824E-003 -7.3631286621E-002
3887500000.000 +9.3673706055E-002 -2.6744079590E-001 -7.3516368866E-003 +2.1173954010E-003 -3.0715018511E-005 +7.7039003372E-005 +1.5392303467E-003 -5.6442260742E-002
4020000000.000 +9.0698242188E-002 -2.7571105957E-001 -4.4786930084E-003 +6.3223838806E-003 -1.9636005163E-005 -3.1633302569E-005 +1.3242721558E-002 -4.4492721558E-002
4152500000.000 +8.7142944336E-002 -2.8860473633E-001 +7.0285797119E-004 +7.6203346252E-003 -2.1472573280E-005 -3.2724812627E-005 +1.5516281128E-002 -3.2945632935E-002
4285000000.000 +8.0062866211E-002 -3.0181884766E-001 +5.3930282593E-003 +4.9977302551E-003 -1.5072524548E-005 +9.1832131147E-005 +1.6996383667E-002 -1.3731956482E-002
4417500000.000 +7.2784423828E-002 -3.1163024902E-001 +7.3146820068E-003 +3.2329559326E-004 -2.3369677365E-005 +2.0837411284E-005 +2.5582313538E-002 +3.3416748047E-003
4550000000.000 +6.7138671875E-002 -3.2090759277E-001 +5.7013034821E-003 -4.1491985321E-003 -4.4461339712E-006 -5.7050958276E-005 +2.9320716858E-002 +9.3727111816E-003
4682500000.000 +5.7220458984E-002 -3.3135986328E-001 +1.5950202942E-003 -6.2813758850E-003 +1.1347234249E-005 -2.6919879019E-005 +2.5898933411E-002 +2.0256996155E-002
4815000000.000 +4.7821044922E-002 -3.3909606934E-001 -2.5022029877E-003 -5.7876110077E-003 +2.2879801691E-005 +3.2903626561E-006 +3.1490325928E-002 +2.7166366577E-002
4947500000.000 +4.1519165039E-002 -3.4555053711E-001 -5.5367946625E-003 -3.0863285065E-003 -1.6201287508E-005 -4.4204294682E-005 +2.8016090393E-002 +1.9638061523E-002
5080000000.000 +3.3691406250E-002 -3.5197448730E-001 -5.9101581573E-003 +9.0241432190E-004 +5.8526173234E-005 +2.9718503356E-005 +1.3692855835E-002 +2.0368576050E-002
5212500000.000 +2.4948120117E-002 -3.5809326172E-001 -4.0602684021E-003 +4.1944980621E-003 +1.3574026525E-005 +2.3142434657E-005 +9.6788406372E-003 +2.4703025818E-002
5345000000.000 +1.8081665039E-002 -3.6276245117E-001 -5.7101249695E-004 +5.9521198273E-003 +4.1387975216E-006 -3.2315030694E-005 +6.0186386108E-003 +1.6021728516E-002
5477500000.000 +1.2145996094E-002 -3.6654663086E-001 +3.1423568726E-003 +4.8959255219E-003 -2.3271888494E-005 +6.4391642809E-005 -8.8157653809E-003 +1.0041236877E-002
5610000000.000 +4.9133300781E-003 -3.7103271484E-001 +5.1047801971E-003 +1.9426345825E-003 -4.5837834477E-005 +3.3618882298E-005 -1.4634609222E-002 +1.4685630798E-002
5742500000.000 -2.5024414063E-003 -3.7463378906E-001 +5.2950382233E-003 -1.5933513641E-003 -2.4544075131E-005 -1.4373101294E-005 -1.0955810547E-002 +6.1969757080E-003
5875000000.000 -8.6212158203E-003 -3.7683105469E-001 +3.3452510834E-003 -4.4715404510E-003 +1.9565224648E-005 -6.3262879848E-005 -1.9820213318E-002 -3.4036636353E-003
6007500000.000 -1.5350341797E-002 -3.7919616699E-001 -1.6570091248E-004 -5.3153038025E-003 -2.2126361728E-005 +4.2336061597E-005 -2.3169517517E-002 +2.8800964355E-004
6140000000.000 -2.1270751953E-002 -3.8250732422E-001 -3.0541419983E-003 -4.1172504425E-003 +1.9233673811E-005 +2.0517036319E-005 -1.5214443207E-002 -2.3722648621E-003
6272500000.000 -2.8610229492E-002 -3.8569641113E-001 -5.0592422485E-003 -1.6431808472E-003 +3.8979575038E-005 +1.4640390873E-006 -1.6061782837E-002 -1.1553764343E-002
6405000000.000 -3.6224365234E-002 -3.8552856445E-001 -4.8859119415E-003 +1.5048980713E-003 +2.7797184885E-005 -1.1776573956E-005 -1.9324302673E-002 -6.3447952271E-003
6537500000.000 -4.0298461914E-002 -3.8726806641E-001 -2.9205083847E-003 +3.8785934448E-003 -3.8124620914E-005 -7.5604766607E-006 -9.5348358154E-003 -3.0641555786E-003
6670000000.000 -4.6234130859E-002 -3.9250183105E-001 -2.3841857910E-004 +5.0468444824E-003 +3.9167702198E-005 -4.3854117393E-005 -7.9627037048E-003 -6.7825317383E-003
6802500000.000 -5.5252075195E-002 -3.9456176758E-001 +2.6121139526E-003 +4.0857791901E-003 +1.5229918063E-005 +6.2747858465E-006 -1.1126041412E-002 +3.3855438232E-004
6935000000.000 -6.1553955078E-002 -3.9230346680E-001 +4.0161609650E-003 +1.6016960144E-003 -4.4927000999E-005 -5.3960829973E-006 -6.5245628357E-003 +9.6936225891E-003
7067500000.000 -6.4819335938E-002 -3.9616394043E-001 +4.3897628784E-003 -1.0194778442E-003 -1.4426186681E-005 +2.9856339097E-005 -5.2771568298E-003 +1.0383129120E-002
7200000000.000 -7.1273803711E-002 -4.0121459961E-001 +3.1762123108E-003 -3.5082101822E-003 -1.9245781004E-005 +9.4948336482E-006 -1.5076637268E-002 +1.7558097839E-002
7332500000.000 -7.9299926758E-002 -4.0161132813E-001 +5.8102607727E-004 -4.4047832489E-003 +3.3896416426E-005 +5.4432079196E-005 -1.6825675964E-002 +3.0398368835E-002
7465000000.000 -8.3877563477E-002 -4.0272521973E-001 -2.0046234131E-003 -3.8993358612E-003 +6.2923878431E-005 -1.6711652279E-005 -2.0472526550E-002 +3.0795097351E-002
7597500000.000 -8.8653564453E-002 -4.0762329102E-001 -4.1952133179E-003 -2.3622512817E-003 +5.9798359871E-005 -2.4015083909E-005 -3.6777496338E-002 +3.3771514893E-002
7730000000.000 -9.4787597656E-002 -4.0991210938E-001 -4.3296813965E-003 +5.3334236145E-004 -1.6130506992E-006 +3.8700178266E-005 -4.7855377197E-002 +4.3771743774E-002
7862500000.000 -9.9822998047E-002 -4.1026306152E-001 -2.8853416443E-003 +2.5584697723E-003 -3.2989308238E-005 +1.9147992134E-005 -5.3707122803E-002 +4.2032241821E-002
7995000000.000 -1.0343933105E-001 -4.1360473633E-001 -1.0299682617E-003 +4.1122436523E-003 -1.1207535863E-005 -2.1898187697E-005 -7.3562622070E-002 +3.5102844238E-002
8127500000.000 -1.0775756836E-001 -4.1827392578E-001 +1.3473033905E-003 +3.8620233536E-003 +3.4073367715E-005 +5.1960349083E-005 -9.1205596924E-002 +4.0111541748E-002
8260000000.000 -1.1373901367E-001 -4.1886901855E-001 +3.0241012573E-003 +2.2011995316E-003 -5.1805749536E-005 -1.9416213036E-005 -9.5355987549E-002 +3.4114837646E-002
8392500000.000 -1.1637878418E-001 -4.2141723633E-001 +3.8725137711E-003 +1.6796588898E-004 +9.5069408417E-006 -1.1513009667E-005 -1.1007690430E-001 +1.8444061279E-002
8525000000.000 -1.1911010742E-001 -4.2424011230E-001 +3.2891035080E-003 -2.0458698273E-003 +7.2702765465E-005 +1.9457191229E-005 -1.2200927734E-001 +1.5312194824E-002
8657500000.000 -1.2295532227E-001 -4.2631530762E-001 +1.4052391052E-003 -3.3228397369E-003 -1.1229887605E-005 -3.8476660848E-005 -1.1788558960E-001 +4.1122436523E-003
8790000000.000 -1.2663269043E-001 -4.2868041992E-001 -7.0667266846E-004 -3.4180879593E-003 -1.2341886759E-005 -4.2932108045E-005 -1.1995315552E-001 -1.7265319824E-002
8922500000.000 -1.2998962402E-001 -4.2955017090E-001 -2.4813413620E-003 -2.5259256363E-003 +7.1529299021E-005 +2.7939677238E-006 -1.2219238281E-001 -3.0227661133E-002
9055000000.000 -1.3259887695E-001 -4.3133544922E-001 -3.2739639282E-003 -6.5529346466E-004 -2.3053027689E-005 +2.5016255677E-005 -1.1112976074E-001 -4.4380187988E-002
9187500000.000 -1.3601684570E-001 -4.3244934082E-001 -2.9422044754E-003 +1.2003183365E-003 -1.0806135833E-005 +1.5409663320E-005 -1.0084152222E-001 -6.6566467285E-002
9320000000.000 -1.4163208008E-001 -4.3348693848E-001 -1.8080472946E-003 +2.6863813400E-003 +3.6345794797E-005 +1.4990568161E-005 -9.3566894531E-002 -7.9063415527E-002
9452500000.000 -1.4518737793E-001 -4.3386840820E-001 -3.0755996704E-005 +3.1530857086E-003 -4.3973326683E-005 +4.0136277676E-005 -7.4016571045E-002 -8.7139129639E-002
9585000000.000 -1.4834594727E-001 -4.3534851074E-001 +1.6319751740E-003 +2.4741888046E-003 -1.2234784663E-005 +1.8863938749E-006 -5.5152893066E-002 -1.0166549683E-001
9717500000.000 -1.5431213379E-001 -4.3762207031E-001 +2.7831792831E-003 +1.1337995529E-003 +4.1032209992E-005 -3.5198405385E-005 -4.1522979736E-002 -1.0624694824E-001
9850000000.000 -1.6075134277E-001 -4.3655395508E-001 +2.8100013733E-003 -6.1130523682E-004 +4.5038759708E-005 +3.8456171751E-005 -1.8348693848E-002 -1.0240173340E-001
9982500000.000 -1.6307067871E-001 -4.3769836426E-001 +1.8702745438E-003 -2.0015239716E-003 -2.0315870643E-005 -3.6023557186E-006 +6.0844421387E-003 -1.0430145264E-001
10115000000.000 -1.6743469238E-001 -4.4004821777E-001 +5.0318241119E-004 -2.7146339417E-003 -3.2801181078E-006 -2.9966235161E-005 +1.8432617188E-002 -9.9040985107E-002
10247500000.000 -1.7366027832E-001 -4.4082641602E-001 -1.0392665863E-003 -2.3773908615E-003 +1.8349848688E-005 +9.0654939413E-006 +3.6098480225E-002 -7.9750061035E-002
10380000000.000 -1.7814636230E-001 -4.4105529785E-001 -2.1340847015E-003 -1.3058185577E-003 -5.2545219660E-005 +1.2576580048E-005 +5.7632446289E-002 -6.8477630615E-002
10512500000.000 -1.8266296387E-001 -4.4219970703E-001 -2.4939775467E-003 +1.2433528900E-004 +4.9902126193E-005 -4.8322603106E-005 +6.2154769897E-002 -5.6760787964E-002
10645000000.000 -1.8731689453E-001 -4.4268798828E-001 -1.8874406815E-003 +1.3965368271E-003 +2.8260052204E-005 +3.9888545871E-006 +6.6123962402E-002 -2.8957366943E-002
10777500000.000 -1.9145202637E-001 -4.4410705566E-001 -7.0154666901E-004 +2.1511316299E-003 +2.0116567612E-005 +8.3344057202E-006 +7.8170776367E-002 -8.0871582031E-003
10910000000.000 -1.9648742676E-001 -4.4583129883E-001 +5.6231021881E-004 +2.0155906677E-003 +4.4815242290E-006 +8.6468644440E-006 +7.2792053223E-002 +4.7187805176E-003
11042500000.000 -2.0254516602E-001 -4.4706726074E-001 +1.6018152237E-003 +1.4747381210E-003 +5.9805810452E-005 +6.3106417656E-006 +5.9391021729E-002 +3.1177520752E-002
11175000000.000 -2.0619201660E-001 -4.4883728027E-001 +2.0110607147E-003 +3.6633014679E-004 +5.6568533182E-006 +1.9173137844E-005 +5.7210922241E-002 +5.2791595459E-002
11307500000.000 -2.0944213867E-001 -4.4976806641E-001 +1.7962455750E-003 -8.2379579544E-004 -7.4587762356E-005 -6.6198408604E-006 +4.4349670410E-002 +5.8296203613E-002
11440000000.000 -2.1443176270E-001 -4.5104980469E-001 +9.7435712814E-004 -1.6294717789E-003 +8.3778053522E-005 -5.2452087402E-006 +1.8432617188E-002 +7.2093963623E-002
11572500000.000 -2.1659851074E-001 -4.5457458496E-001 -2.3007392883E-005 -1.8715858459E-003 -7.6293945313E-006 -4.3287873268E-005 +4.7683715820E-003 +8.7787628174E-002
11705000000.000 -2.2045898438E-001 -4.5539855957E-001 -1.0312795639E-003 -1.4275908470E-003 +1.9270926714E-005 -8.2422047853E-005 -9.7885131836E-003 +8.1272125244E-002
11837500000.000 -2.2428894043E-001 -4.5745849609E-001 -1.6334652901E-003 -6.2954425812E-004 +4.0084123611E-006 -3.4656841308E-006 -4.2797088623E-002 +7.7293395996E-002
11970000000.000 -2.2622680664E-001 -4.5753479004E-001 -1.6771554947E-003 +3.6597251892E-004 +5.5830925703E-005 +4.5374035835E-006 -5.8895111084E-002 +8.3534240723E-002
12102500000.000 -2.2749328613E-001 -4.5866394043E-001 -1.1844635010E-003 +1.1639595032E-003 -4.5968219638E-005 -1.9531697035E-005 -6.5551757813E-002 +6.4460754395E-002
12235000000.000 -2.3185729980E-001 -4.5999145508E-001 -3.1262636185E-004 +1.6157627106E-003 +7.4598938227E-005 -7.7430158854E-005 -9.3357086182E-002 +4.4998168945E-002
12367500000.000 -2.3376464844E-001 -4.5979309082E-001 +5.5778026581E-004 +1.4845132828E-003 -7.4435025454E-005 -1.0009855032E-005 -1.0503387451E-001 +4.3727874756E-002
12500000000.000 -2.3832702637E-001 -4.5841979980E-001 +1.2840628624E-003 +8.3339214325E-004 -4.5467168093E-006 -2.8278678656E-005 -9.7396850586E-002 +1.9870758057E-002
12632500000.000 -2.4107360840E-001 -4.6020507813E-001 +1.5183687210E-003 -3.7968158722E-005 -1.0060146451E-005 -4.0099024773E-005 -1.1077117920E-001 -1.3149261475E-002
12765000000.000 -2.4372863770E-001 -4.6040344238E-001 +1.2149214745E-003 -7.7390670776E-004 +2.4235807359E-005 -2.4763867259E-006 -1.1748886108E-001 -1.6513824463E-002
12897500000.000 -2.4728393555E-001 -4.5787048340E-001 +4.9799680710E-004 -1.2410879135E-003 -1.8202699721E-005 -9.6168369055E-006 -9.1747283936E-002 -3.4912109375E-002
13030000000.000 -2.4952697754E-001 -4.5829772949E-001 -2.7990341187E-004 -1.3325810432E-003 -1.2282282114E-005 -6.3665211201E-005 -9.0911865234E-002 -7.2093963623E-002
13162500000.000 -2.5346374512E-001 -4.5996093750E-001 -9.8079442978E-004 -9.2464685440E-004 +5.9470534325E-005 +6.2778592110E-005 -9.2872619629E-002 -7.1674346924E-002
13295000000.000 -2.5720214844E-001 -4.5985412598E-001 -1.3031363487E-003 -2.2780895233E-004 +6.6582113504E-005 +2.9124319553E-005 -6.0649871826E-002 -7.8475952148E-002
13427500000.000 -2.6176452637E-001 -4.5825195313E-001 -1.1889934540E-003 +5.0365924835E-004 -1.1984258890E-005 -3.6178156734E-005 -4.7264099121E-002 -1.0554122925E-001
13560000000.000 -2.6086425781E-001 -4.5765686035E-001 -7.0586800575E-004 +9.5936655998E-004 +3.3598393202E-005 -3.6954879761E-006 -4.7687530518E-002 -1.0192108154E-001
13692500000.000 -2.6400756836E-001 -4.6026611328E-001 +1.5735626221E-005 +1.1753439903E-003 +7.7486038208E-007 +4.8156827688E-005 -1.8047332764E-002 -8.9107513428E-002
13825000000.000 -2.6936340332E-001 -4.6043395996E-001 +5.6028366089E-004 +9.2130899429E-004 -6.8351626396E-005 -4.8868358135E-005 +4.4631958008E-003 -1.0385131836E-001
13957500000.000 -2.7301025391E-001 -4.5790100098E-001 +9.8556280136E-004 +5.0723552704E-004 +3.1478703022E-006 +1.7762184143E-005 -3.5476684570E-004 -9.6492767334E-002
14090000000.000 -2.7427673340E-001 -4.5776367188E-001 +9.7173452377E-004 -2.6044249535E-004 +1.3535842299E-005 +4.0188431740E-005 +2.1976470947E-002 -7.0949554443E-002
14222500000.000 -2.7645874023E-001 -4.5993041992E-001 +7.3805451393E-004 -6.5726041794E-004 +2.8370879591E-005 -9.0189278126E-006 +4.4055938721E-002 -7.4748992920E-002
14355000000.000 -2.8240966797E-001 -4.5982360840E-001 +2.7152895927E-004 -9.7519159317E-004 +5.0824135542E-005 +1.2850388885E-005 +3.3870697021E-002 -6.7104339600E-002
14487500000.000 -2.8450012207E-001 -4.5889282227E-001 -3.5715103149E-004 -9.7361207008E-004 +1.5404075384E-006 +2.1331012249E-005 +4.1421890259E-002 -3.4822463989E-002
14620000000.000 -2.8527832031E-001 -4.6124267578E-001 -7.8052282333E-004 -6.4033269882E-004 -6.3229352236E-005 -3.1806528568E-005 +6.0571670532E-002 -3.2405853271E-002
14752500000.000 -2.9008483887E-001 -4.6452331543E-001 -9.2315673828E-004 -1.0722875595E-004 -3.3507123590E-005 +4.2859464884E-005 +4.3190002441E-002 -3.1274795532E-002
14885000000.000 -2.9397583008E-001 -4.6392822266E-001 -8.2400441170E-004 +3.3232569695E-004 +3.1087547541E-006 -2.6446767151E-005 +3.7347793579E-002 +1.8157958984E-003
15017500000.000 -2.9246520996E-001 -4.6604919434E-001 -5.3575634956E-004 +7.6970458031E-004 +1.0997056961E-005 +6.5553933382E-005 +5.3434371948E-002 +7.2841644287E-003
15150000000.000 -2.9379272461E-001 -4.7129821777E-001 +6.7025423050E-005 +8.8974833488E-004 +3.4313648939E-005 -7.4729323387E-005 +3.3952713013E-002 -1.0910034180E-003
15282500000.000 -2.9675292969E-001 -4.7344970703E-001 +6.0811638832E-004 +6.7764520645E-004 +3.7141144276E-005 -4.3844804168E-005 +1.5473365784E-002 +2.5038719177E-002
