!  2-Port S-parameters saved by WinCal
! VAR MeasName=S-Parameters (CALIBRATED_DATA) read from VNA (C)
! VAR MeasDate=10/5/2015 6:04:44 PM
! VAR NAME=M6079_2_7_3_2_20C_4.8mA_-17.5dBm
! VAR FILENAME=M6079_2_7_3_2_20C_4.8mA_-17.5dBm.S2P
! VAR DATE=10/5/2015 6:04:44 PM
! VAR PHYS_PORTS=2,1
! VAR ObjTypeName=DATASET
! VAR IndexType=Frequency
!
# Hz S RI R 50
45000000.000 +8.9313507080E-002 -8.2015991211E-004 -1.8000602722E-003 +7.7180862427E-003 +7.2538852692E-005 -1.0709166527E-003 +2.8030395508E-002 +3.6182403564E-003
177500000.000 +9.0152740479E-002 -8.7966918945E-003 +2.4859905243E-003 +6.7348480225E-003 -2.8194487095E-004 +1.2677907944E-004 +1.6436576843E-002 +1.7016410828E-002
310000000.000 +9.0385437012E-002 -1.6525268555E-002 +5.4883956909E-003 +4.4441223145E-003 -3.1318515539E-005 +8.7901949883E-005 +2.9953002930E-002 +6.1231613159E-002
442500000.000 +9.0553283691E-002 -2.4784088135E-002 +8.2159042358E-003 +9.5367431641E-006 -2.6904046535E-005 -5.4374337196E-005 +7.2818756104E-002 +2.2525787354E-002
575000000.000 +9.0194702148E-002 -3.3611297607E-002 +6.2165260315E-003 -4.2867660522E-003 -8.5368752480E-005 +4.4174492359E-005 +2.7590751648E-002 +1.1411666870E-002
707500000.000 +8.9290618896E-002 -4.1282653809E-002 +2.7039051056E-003 -6.9496631622E-003 +1.1584721506E-005 -6.6407956183E-006 +2.4375915527E-003 +1.8621444702E-002
840000000.000 +8.8912963867E-002 -4.9983978271E-002 -1.5738010406E-003 -7.2000026703E-003 -9.5237046480E-006 +7.3108822107E-008 -1.9889831543E-002 +2.6128768921E-002
972500000.000 +8.8340759277E-002 -5.8040618896E-002 -5.2950382233E-003 -5.0899982452E-003 -4.7706067562E-005 +6.4108520746E-005 -3.5842895508E-002 +3.5903930664E-002
1105000000.000 +8.6910247803E-002 -6.6604614258E-002 -7.1804523468E-003 -1.2505054474E-003 -5.9612095356E-005 -6.5010040998E-005 -4.6770095825E-002 +3.8429260254E-002
1237500000.000 +8.5670471191E-002 -7.4283599854E-002 -6.6487789154E-003 +2.9413700104E-003 +4.6188011765E-005 -3.5136938095E-005 -5.8609008789E-002 +3.3967971802E-002
1370000000.000 +8.3972930908E-002 -8.2630157471E-002 -3.7629604340E-003 +6.1767101288E-003 +1.7249956727E-005 +7.7895820141E-006 -7.4199676514E-002 +2.7275085449E-002
1502500000.000 +8.2447052002E-002 -9.0320587158E-002 +3.4070014954E-004 +7.1871280670E-003 -4.6689063311E-005 +1.7978250980E-005 -8.8050842285E-002 +2.1694183350E-002
1635000000.000 +8.1501007080E-002 -9.8289489746E-002 +4.2304992676E-003 +5.7730674744E-003 +1.2850388885E-005 -4.1946768761E-005 -9.9208831787E-002 +1.1833190918E-002
1767500000.000 +7.9277038574E-002 -1.0692214966E-001 +6.6924095154E-003 +2.3880004883E-003 +3.3823773265E-005 +2.2884458303E-005 -1.1211395264E-001 +3.2577514648E-003
1900000000.000 +7.7621459961E-002 -1.1373519897E-001 +6.8395137787E-003 -1.8463134766E-003 +7.7374279499E-006 +6.7107379436E-005 -1.1410522461E-001 -3.1394958496E-003
2032500000.000 +7.5485229492E-002 -1.2094497681E-001 +4.6017169952E-003 -5.3491592407E-003 +4.8549845815E-005 -3.2605603337E-005 -1.1413955688E-001 -2.4120330811E-002
2165000000.000 +7.4249267578E-002 -1.2936401367E-001 +9.4819068909E-004 -7.0207118988E-003 -2.5114044547E-005 -5.8658421040E-005 -1.2306213379E-001 -4.1839599609E-002
2297500000.000 +7.1601867676E-002 -1.3639068604E-001 -2.9926300049E-003 -6.3796043396E-003 -8.8229775429E-005 +1.0091811419E-005 -1.2686920166E-001 -5.3276062012E-002
2430000000.000 +6.9679260254E-002 -1.4277648926E-001 -6.0400962830E-003 -3.4229755402E-003 +5.2504241467E-005 +8.0678611994E-005 -1.2736511230E-001 -6.4926147461E-002
2562500000.000 +6.7520141602E-002 -1.5052032471E-001 -6.9096088409E-003 +6.3109397888E-004 -1.3761222363E-005 +5.2640214562E-005 -1.2607574463E-001 -7.0808410645E-002
2695000000.000 +6.3507080078E-002 -1.5691375732E-001 -5.2154064178E-003 +4.3354034424E-003 -3.3179298043E-005 -6.0070306063E-006 -1.1412048340E-001 -7.2963714600E-002
2827500000.000 +6.0142517090E-002 -1.6181945801E-001 -1.6310214996E-003 +6.5383911133E-003 -8.0992467701E-006 +1.4773570001E-005 -9.9006652832E-002 -8.2057952881E-002
2960000000.000 +5.8128356934E-002 -1.6838073730E-001 +2.1276473999E-003 +6.1898231506E-003 +5.4346397519E-005 +1.2876465917E-005 -8.9233398438E-002 -8.6875915527E-002
3092500000.000 +5.4512023926E-002 -1.7635345459E-001 +5.3725242615E-003 +4.0915012360E-003 -1.0302290320E-004 -5.0477683544E-006 -7.1056365967E-002 -8.5517883301E-002
3225000000.000 +4.9514770508E-002 -1.8212890625E-001 +6.4134597778E-003 +3.3402442932E-004 -5.6635588408E-005 -1.8555670977E-005 -5.2169799805E-002 -9.1278076172E-002
3357500000.000 +4.6569824219E-002 -1.8697357178E-001 +5.7582855225E-003 -3.1511783600E-003 +8.3968043327E-006 -2.7316622436E-005 -4.2156219482E-002 -9.2201232910E-002
3490000000.000 +4.3334960938E-002 -1.9435882568E-001 +3.1070709229E-003 -5.9139728546E-003 +3.0115246773E-005 +1.6079843044E-004 -2.8915405273E-002 -8.3198547363E-002
3622500000.000 +3.9169311523E-002 -2.0166778564E-001 -6.9856643677E-004 -6.5524578094E-003 -1.0220706463E-004 +2.3134052753E-006 -1.1573791504E-002 -7.9200744629E-002
3755000000.000 +3.4767150879E-002 -2.0822143555E-001 -4.2619705200E-003 -5.1012039185E-003 +1.6726553440E-005 -1.0262429714E-004 -6.0539245605E-003 -7.3657989502E-002
3887500000.000 +3.0853271484E-002 -2.1446990967E-001 -6.4208507538E-003 -1.9271373749E-003 +3.8063153625E-005 +3.0850991607E-005 +1.3980865479E-003 -5.6529998779E-002
4020000000.000 +2.7450561523E-002 -2.1993255615E-001 -6.3014030457E-003 +2.0551681519E-003 -8.5074454546E-005 -2.2593885660E-005 +1.2929916382E-002 -4.4513702393E-002
4152500000.000 +2.4269104004E-002 -2.2674560547E-001 -4.2951107025E-003 +5.2416324615E-003 +3.8225203753E-005 -8.0466270447E-005 +1.5556335449E-002 -3.3048629761E-002
4285000000.000 +1.9760131836E-002 -2.3348999023E-001 -7.3337554932E-004 +6.6752433777E-003 +3.3445656300E-005 +2.5708228350E-005 +1.6860961914E-002 -1.3769149780E-002
4417500000.000 +1.5274047852E-002 -2.3858642578E-001 +3.1940937042E-003 +5.7070255280E-003 +5.2757561207E-005 -8.4944069386E-005 +2.5565147400E-002 +3.2024383545E-003
4550000000.000 +1.2863159180E-002 -2.4411773682E-001 +5.7826042175E-003 +2.9144287109E-003 +1.9695609808E-005 -7.4941664934E-005 +2.9408454895E-002 +9.1524124146E-003
4682500000.000 +9.3383789063E-003 -2.5086975098E-001 +6.5279006958E-003 -5.8293342590E-004 +5.9727579355E-005 +5.4921954870E-005 +2.6116371155E-002 +2.0133018494E-002
4815000000.000 +4.2724609375E-003 -2.5651550293E-001 +5.1782131195E-003 -4.0459632874E-003 +2.0731240511E-006 +4.0570273995E-005 +3.1738281250E-002 +2.6983261108E-002
4947500000.000 +1.7395019531E-003 -2.6121520996E-001 +2.0337104797E-003 -6.2096118927E-003 -6.8623572588E-005 -6.7241489887E-005 +2.8139114380E-002 +1.9446372986E-002
5080000000.000 -6.4086914063E-004 -2.6716613770E-001 -1.6922950745E-003 -6.4706802368E-003 +5.5430456996E-005 -1.6752630472E-005 +1.3898849487E-002 +2.0236015320E-002
5212500000.000 -4.9896240234E-003 -2.7319335938E-001 -5.0671100616E-003 -4.5440196991E-003 +2.0379200578E-005 +9.7015872598E-006 +9.9115371704E-003 +2.4588584900E-002
5345000000.000 -8.7432861328E-003 -2.7696228027E-001 -6.8509578705E-003 -9.1624259949E-004 -7.3023140430E-005 +4.3734908104E-006 +6.3352584839E-003 +1.6062736511E-002
5477500000.000 -1.0375976563E-002 -2.8147888184E-001 -6.2093734741E-003 +3.1681060791E-003 +5.4595991969E-005 -1.3200566173E-005 -8.5306167603E-003 +1.0116100311E-002
5610000000.000 -1.3427734375E-002 -2.8726196289E-001 -3.3748149872E-003 +6.0784816742E-003 -2.0824372768E-005 +5.6937336922E-005 -1.4425277710E-002 +1.4728069305E-002
5742500000.000 -1.7974853516E-002 -2.9096984863E-001 +6.0176849365E-004 +6.9034099579E-003 -1.6298145056E-006 -2.6457011700E-005 -1.0711669922E-002 +6.3953399658E-003
5875000000.000 -2.1179199219E-002 -2.9386901855E-001 +4.4662952423E-003 +5.3629875183E-003 +1.7459504306E-005 -2.1502375603E-005 -1.9663810730E-002 -3.3340454102E-003
6007500000.000 -2.3773193359E-002 -2.9757690430E-001 +6.7484378815E-003 +2.0186901093E-003 +7.5548887253E-006 +5.2770599723E-005 -2.3046493530E-002 +3.8433074951E-004
6140000000.000 -2.7465820313E-002 -3.0278015137E-001 +6.5367221832E-003 -2.1448135376E-003 -6.6729262471E-006 +1.7948448658E-005 -1.5054225922E-002 -2.1023750305E-003
6272500000.000 -3.2882690430E-002 -3.0653381348E-001 +4.2443275452E-003 -5.4128170013E-003 +3.7722289562E-005 +2.3284927011E-005 -1.5973091125E-002 -1.1324882507E-002
6405000000.000 -3.7811279297E-002 -3.0827331543E-001 +5.2380561829E-004 -6.8552494049E-003 +6.4782798290E-005 -2.7030706406E-005 -1.9236564636E-002 -6.0405731201E-003
6537500000.000 -3.9825439453E-002 -3.1202697754E-001 -3.4079551697E-003 -5.8526992798E-003 -2.8515234590E-005 -1.2530013919E-005 -9.4985961914E-003 -2.8271675110E-003
6670000000.000 -4.3930053711E-002 -3.1788635254E-001 -6.1340332031E-003 -3.0221939087E-003 +1.1175870895E-008 -7.4964016676E-005 -7.8716278076E-003 -6.4954757690E-003
6802500000.000 -5.0949096680E-002 -3.2206726074E-001 -6.6850185394E-003 +9.2482566833E-004 +3.0106864870E-005 +2.7313828468E-005 -1.1165142059E-002 +4.7636032104E-004
6935000000.000 -5.5496215820E-002 -3.2290649414E-001 -5.0055980682E-003 +4.4291019440E-003 -4.3777748942E-005 +1.9256025553E-005 -6.6328048706E-003 +9.7861289978E-003
7067500000.000 -5.7357788086E-002 -3.2705688477E-001 -1.6627311707E-003 +6.4303874969E-003 +5.3593888879E-005 -3.1860545278E-005 -5.3515434265E-003 +1.0574817657E-002
7200000000.000 -6.2301635742E-002 -3.3288574219E-001 +2.2423267365E-003 +6.2725543976E-003 +3.1467527151E-005 +5.0360336900E-005 -1.4995574951E-002 +1.7675399780E-002
7332500000.000 -6.9046020508E-002 -3.3575439453E-001 +5.2864551544E-003 +3.9722919464E-003 -1.6861595213E-005 +2.5317072868E-005 -1.6907691956E-002 +3.0507087708E-002
7465000000.000 -7.2540283203E-002 -3.3830261230E-001 +6.6275596619E-003 +3.1447410583E-004 -1.7891637981E-005 +2.7030706406E-005 -2.0494461060E-002 +3.0951499939E-002
7597500000.000 -7.5973510742E-002 -3.4320068359E-001 +5.6345462799E-003 -3.3395290375E-003 +4.9296766520E-005 -4.3036416173E-005 -3.6846160889E-002 +3.3805847168E-002
7730000000.000 -8.1253051758E-002 -3.4811401367E-001 +2.8066635132E-003 -5.9285163879E-003 +2.1475367248E-005 +2.0382925868E-005 -4.7855377197E-002 +4.3743133545E-002
7862500000.000 -8.5235595703E-002 -3.5105895996E-001 -9.4699859619E-004 -6.3557624817E-003 +1.7574056983E-006 -1.6490928829E-005 -5.3834915161E-002 +4.2047500610E-002
7995000000.000 -8.7707519531E-002 -3.5441589355E-001 -4.4956207275E-003 -4.8878192902E-003 +6.1586033553E-006 -1.1494848877E-006 -7.3509216309E-002 +3.5232543945E-002
8127500000.000 -9.1323852539E-002 -3.6087036133E-001 -6.3838958740E-003 -1.4626979828E-003 -3.7159770727E-006 +4.9205496907E-005 -9.1182708740E-002 +4.0050506592E-002
8260000000.000 -9.6481323242E-002 -3.6358642578E-001 -6.1714649200E-003 +2.2094249725E-003 -1.3984739780E-005 +3.4291297197E-005 -9.5424652100E-002 +3.4133911133E-002
8392500000.000 -9.8220825195E-002 -3.6694335938E-001 -3.8850307465E-003 +5.2304267883E-003 +8.9358538389E-005 -2.3096799850E-007 -1.1001968384E-001 +1.8589019775E-002
8525000000.000 -1.0046386719E-001 -3.7089538574E-001 -2.4414062500E-004 +6.6390037537E-003 +6.6433101892E-005 +6.2994658947E-006 -1.2200164795E-001 +1.5541076660E-002
8657500000.000 -1.0366821289E-001 -3.7486267090E-001 +3.3285617828E-003 +5.6793689728E-003 +3.4611672163E-005 -8.5532665253E-006 -1.1791229248E-001 +4.3678283691E-003
8790000000.000 -1.0665893555E-001 -3.7863159180E-001 +6.0026645660E-003 +2.8336048126E-003 -6.2104314566E-005 -5.0961971283E-006 -1.1995315552E-001 -1.6967773438E-002
8922500000.000 -1.0948181152E-001 -3.8044738770E-001 +6.4728260040E-003 -1.1880397797E-003 +4.5012682676E-005 +6.6291540861E-006 -1.2220001221E-001 -3.0086517334E-002
9055000000.000 -1.1193847656E-001 -3.8401794434E-001 +4.8828125000E-003 -4.4856071472E-003 -2.3402273655E-005 +3.8022175431E-005 -1.1112976074E-001 -4.4178009033E-002
9187500000.000 -1.1474609375E-001 -3.8613891602E-001 +1.4824867249E-003 -6.4847469330E-003 -2.4255365133E-005 -7.5157731771E-007 -1.0095977783E-001 -6.6349029541E-002
9320000000.000 -1.1968994141E-001 -3.8822937012E-001 -2.4645328522E-003 -6.0451030731E-003 +2.6790425181E-005 -4.8976391554E-005 -9.3593597412E-002 -7.8948974609E-002
9452500000.000 -1.2272644043E-001 -3.9013671875E-001 -5.4583549500E-003 -3.6981105804E-003 -1.2187752873E-005 +4.9569644034E-006 -7.4344635010E-002 -8.7070465088E-002
9585000000.000 -1.2596130371E-001 -3.9266967773E-001 -6.6995620728E-003 -9.7513198853E-005 -3.0625611544E-005 -7.1268528700E-005 -5.5500030518E-002 -1.0146331787E-001
9717500000.000 -1.3134765625E-001 -3.9601135254E-001 -5.4135322571E-003 +3.6935806274E-003 +1.0829418898E-005 -2.0914711058E-005 -4.1954040527E-002 -1.0617065430E-001
9850000000.000 -1.3719177246E-001 -3.9627075195E-001 -2.5510787964E-003 +6.1731338501E-003 -4.4345855713E-005 +2.2785738111E-005 -1.8627166748E-002 -1.0245132446E-001
9982500000.000 -1.3943481445E-001 -3.9860534668E-001 +1.3284683228E-003 +6.4613819122E-003 -9.9316239357E-005 +4.9408525229E-005 +5.7106018066E-003 -1.0437393188E-001
10115000000.000 -1.4343261719E-001 -4.0196228027E-001 +4.7006607056E-003 +4.5943260193E-003 +1.2801960111E-005 -4.6819448471E-005 +1.8062591553E-002 -9.9052429199E-002
10247500000.000 -1.4924621582E-001 -4.0394592285E-001 +6.5057277679E-003 +1.1816024780E-003 +4.0039420128E-005 -1.4159828424E-005 +3.5980224609E-002 -7.9887390137E-002
10380000000.000 -1.5357971191E-001 -4.0515136719E-001 +6.0529708862E-003 -2.6595592499E-003 +2.5946646929E-006 +3.9670616388E-005 +5.7415008545E-002 -6.8893432617E-002
10512500000.000 -1.5789794922E-001 -4.0737915039E-001 +3.6075115204E-003 -5.5742263794E-003 +5.3595751524E-005 -4.5590102673E-005 +6.1933517456E-002 -5.7086944580E-002
10645000000.000 -1.6236877441E-001 -4.0876770020E-001 -3.7431716919E-005 -6.6118240356E-003 +6.6932290792E-005 +2.8215348721E-005 +6.5948486328E-002 -2.9125213623E-002
10777500000.000 -1.6619873047E-001 -4.1105651855E-001 -3.7233829498E-003 -5.4385662079E-003 +1.2251548469E-005 -1.5461817384E-005 +7.8311920166E-002 -8.4419250488E-003
10910000000.000 -1.7117309570E-001 -4.1389465332E-001 -6.1423778534E-003 -2.4306774139E-003 -6.4047053456E-006 +2.1411105990E-005 +7.2788238525E-002 +4.1313171387E-003
11042500000.000 -1.7704772949E-001 -4.1639709473E-001 -6.4475536346E-003 +1.3592243195E-003 +4.3202191591E-005 -7.5880438089E-005 +5.9541702271E-002 +3.0845642090E-002
11175000000.000 -1.8067932129E-001 -4.1889953613E-001 -4.5225620270E-003 +4.7292709351E-003 +5.1194801927E-006 -2.7882866561E-005 +5.7516098022E-002 +5.2537918091E-002
11307500000.000 -1.8385314941E-001 -4.2082214355E-001 -1.2395381927E-003 +6.5655708313E-003 +2.1025538445E-005 -7.9575926065E-005 +4.4740676880E-002 +5.8019638062E-002
11440000000.000 -1.8841552734E-001 -4.2306518555E-001 +2.6524066925E-003 +6.1099529266E-003 -3.9201695472E-006 +7.4410345405E-006 +1.8840789795E-002 +7.1758270264E-002
11572500000.000 -1.9091796875E-001 -4.2747497559E-001 +5.5520534515E-003 +3.5147666931E-003 +3.1152740121E-005 +6.0103833675E-005 +5.2070617676E-003 +8.7577819824E-002
11705000000.000 -1.9476318359E-001 -4.2886352539E-001 +6.6010951996E-003 -2.3412704468E-004 -2.8908252716E-005 +2.1877698600E-005 -9.1896057129E-003 +8.1333160400E-002
11837500000.000 -1.9816589355E-001 -4.3164062500E-001 +5.4588317871E-003 -3.9045810699E-003 +2.5425106287E-005 -1.6950070858E-005 -4.2217254639E-002 +7.7392578125E-002
11970000000.000 -2.0014953613E-001 -4.3238830566E-001 +2.3419857025E-003 -6.1802864075E-003 +2.7658417821E-005 -3.2955780625E-005 -5.8464050293E-002 +8.3625793457E-002
12102500000.000 -2.0146179199E-001 -4.3431091309E-001 -1.5711784363E-003 -6.5891742706E-003 -1.0374933481E-005 -3.5935081542E-006 -6.5372467041E-002 +6.4723968506E-002
12235000000.000 -2.0558166504E-001 -4.3621826172E-001 -4.9126148224E-003 -4.5764446259E-003 +1.6395933926E-005 -2.7576461434E-005 -9.3048095703E-002 +4.5475006104E-002
12367500000.000 -2.0748901367E-001 -4.3650817871E-001 -6.7894458771E-003 -1.0263919830E-003 +2.7241185308E-005 -3.1100586057E-005 -1.0453796387E-001 +4.4322967529E-002
12500000000.000 -2.1195983887E-001 -4.3614196777E-001 -6.0751438141E-003 +2.9623508453E-003 +4.9658119678E-006 -8.1728212535E-006 -9.7236633301E-002 +2.0370483398E-002
12632500000.000 -2.1420288086E-001 -4.3862915039E-001 -3.3845901489E-003 +5.7549476624E-003 -1.0339915752E-004 -2.6095658541E-005 -1.1093139648E-001 -1.2512207031E-002
12765000000.000 -2.1725463867E-001 -4.3931579590E-001 +3.7932395935E-004 +6.7682266235E-003 +2.4326145649E-006 +2.6950612664E-005 -1.1753845215E-001 -1.5937805176E-002
12897500000.000 -2.2045898438E-001 -4.3768310547E-001 +4.0955543518E-003 +5.3441524506E-003 -3.0422583222E-005 +3.0620023608E-005 -9.1815948486E-002 -3.4481048584E-002
13030000000.000 -2.2236633301E-001 -4.3885803223E-001 +6.3772201538E-003 +2.1471977234E-003 -2.5396235287E-005 +1.8016435206E-005 -9.1365814209E-002 -7.1502685547E-002
13162500000.000 -2.2662353516E-001 -4.4116210938E-001 +6.4671039581E-003 -1.7676353455E-003 +2.9503367841E-005 +2.7222558856E-006 -9.3566894531E-002 -7.1323394775E-002
13295000000.000 -2.3010253906E-001 -4.4192504883E-001 +4.4054985046E-003 -5.2266120911E-003 +8.2548707724E-005 -1.2848526239E-005 -6.1107635498E-002 -7.8250885010E-002
13427500000.000 -2.3468017578E-001 -4.4067382813E-001 +7.1978569031E-004 -6.8402290344E-003 -9.9800527096E-006 -2.8786249459E-005 -4.7805786133E-002 -1.0565567017E-001
13560000000.000 -2.3402404785E-001 -4.4104003906E-001 -3.2052993774E-003 -6.0420036316E-003 +1.3154000044E-005 +1.8688850105E-005 -4.8332214355E-002 -1.0192108154E-001
13692500000.000 -2.3721313477E-001 -4.4404602051E-001 -6.1018466949E-003 -3.2422542572E-003 +3.0245631933E-005 +3.5986304283E-005 -1.8455505371E-002 -8.9134216309E-002
13825000000.000 -2.4206542969E-001 -4.4500732422E-001 -6.8540573120E-003 +9.2077255249E-004 -5.2258372307E-005 +3.8960948586E-005 +4.2419433594E-003 -1.0411071777E-001
13957500000.000 -2.4629211426E-001 -4.4308471680E-001 -5.1519870758E-003 +4.4429302216E-003 +5.8609992266E-005 -2.4029985070E-005 -7.5531005859E-004 -9.6881866455E-002
14090000000.000 -2.4716186523E-001 -4.4337463379E-001 -1.8222332001E-003 +6.5255165100E-003 +6.0908496380E-005 +7.9400837421E-005 +2.1705627441E-002 -7.1277618408E-002
14222500000.000 -2.4919128418E-001 -4.4635009766E-001 +2.3903846741E-003 +6.5183639526E-003 -1.0333955288E-004 +3.6217272282E-005 +4.3853759766E-002 -7.5080871582E-002
14355000000.000 -2.5563049316E-001 -4.4665527344E-001 +5.5983066559E-003 +4.0550231934E-003 -1.2731179595E-005 -4.4446438551E-005 +3.3840179443E-002 -6.7401885986E-002
14487500000.000 -2.5764465332E-001 -4.4613647461E-001 +6.9518089294E-003 +3.1781196594E-004 +6.2353909016E-005 -1.1064112186E-005 +4.1379928589E-002 -3.5348892212E-002
14620000000.000 -2.5805664063E-001 -4.4902038574E-001 +5.8708190918E-003 -3.6938190460E-003 -4.3062493205E-005 +5.6508928537E-005 +6.0686111450E-002 -3.2695770264E-002
14752500000.000 -2.6336669922E-001 -4.5312500000E-001 +2.6278495789E-003 -6.2859058380E-003 -5.5149197578E-005 -1.2250617146E-005 +4.3325424194E-002 -3.1391143799E-002
14885000000.000 -2.6704406738E-001 -4.5256042480E-001 -1.3346672058E-003 -6.6347122192E-003 -1.2343749404E-005 +2.3599714041E-005 +3.7723541260E-002 +1.7013549805E-003
15017500000.000 -2.6528930664E-001 -4.5524597168E-001 -4.9674510956E-003 -4.8658847809E-003 +2.7194619179E-007 +5.4996460676E-005 +5.3644180298E-002 +7.0476531982E-003
15150000000.000 -2.6704406738E-001 -4.6118164063E-001 -6.8602561951E-003 -1.1997222900E-003 +8.2533806562E-005 -5.2791088820E-005 +3.4179687500E-002 -8.6212158203E-004
15282500000.000 -2.7012634277E-001 -4.6376037598E-001 -6.2053203583E-003 +2.8333663940E-003 +1.2580770999E-005 -3.5525299609E-006 +1.5885353088E-002 +2.5267601013E-002
