!  2-Port S-parameters saved by WinCal
! VAR MeasName=S-Parameters (CALIBRATED_DATA) read from VNA (C)
! VAR MeasDate=10/5/2015 6:47:22 PM
! VAR NAME=M6079_2_7_3_3_20C_6.0mA_-17.5dBm
! VAR FILENAME=M6079_2_7_3_3_20C_6.0mA_-17.5dBm.S2P
! VAR DATE=10/5/2015 6:47:22 PM
! VAR PHYS_PORTS=2,1
! VAR ObjTypeName=DATASET
! VAR IndexType=Frequency
!
# Hz S RI R 50
45000000.000 +4.5688629150E-002 +1.1253356934E-004 -1.6403198242E-003 +5.6526660919E-003 -8.1107020378E-005 +4.5184791088E-004 +2.8474807739E-002 +2.0055770874E-003
177500000.000 +4.6010971069E-002 -7.3909759521E-003 +2.4497509003E-003 +6.6740512848E-003 -4.1484832764E-005 +1.3720244169E-004 +1.6480445862E-002 +1.6728401184E-002
310000000.000 +4.6461105347E-002 -1.4530181885E-002 +5.4047107697E-003 +4.4193267822E-003 -8.6870044470E-005 -4.0661543608E-005 +3.0038833618E-002 +6.1023712158E-002
442500000.000 +4.6602249146E-002 -2.1694183350E-002 +8.0723762512E-003 +6.0081481934E-005 +3.5885721445E-005 -9.4186514616E-005 +7.2578430176E-002 +2.2308349609E-002
575000000.000 +4.6388626099E-002 -2.9584884644E-002 +6.0963630676E-003 -4.2006969452E-003 -1.8661841750E-005 +9.9493190646E-006 +2.7381896973E-002 +1.1170387268E-002
707500000.000 +4.5700073242E-002 -3.6584854126E-002 +2.5520324707E-003 -6.7377090454E-003 -7.5627118349E-005 +7.2307884693E-006 +2.2573471069E-003 +1.8393516541E-002
840000000.000 +4.5434951782E-002 -4.4286727905E-002 -1.6052722931E-003 -7.0507526398E-003 +1.4493241906E-005 -9.4440765679E-006 -2.0002365112E-002 +2.5952339172E-002
972500000.000 +4.5124053955E-002 -5.1580429077E-002 -5.1155090332E-003 -4.8108100891E-003 -1.1242926121E-005 +6.3143670559E-005 -3.5816192627E-002 +3.5669326782E-002
1105000000.000 +4.3815612793E-002 -5.9141159058E-002 -6.9241523743E-003 -1.1425018311E-003 -4.7879293561E-006 +1.6427598894E-005 -4.6731948853E-002 +3.8198471069E-002
1237500000.000 +4.2774200439E-002 -6.5990447998E-002 -6.3188076019E-003 +2.8674602509E-003 +4.6350061893E-005 +2.7753412724E-006 -5.8584213257E-002 +3.3887863159E-002
1370000000.000 +4.1252136230E-002 -7.3513031006E-002 -3.6003589630E-003 +5.9688091278E-003 +1.1648982763E-005 +5.0693750381E-005 -7.4127197266E-002 +2.7153015137E-002
1502500000.000 +4.0088653564E-002 -8.0326080322E-002 +3.4594535828E-004 +6.9952011108E-003 -9.1027468443E-006 -4.8488378525E-005 -8.8020324707E-002 +2.1530151367E-002
1635000000.000 +3.9333343506E-002 -8.7566375732E-002 +4.1439533234E-003 +5.5353641510E-003 +4.7510489821E-005 -3.4887343645E-006 -9.9197387695E-002 +1.1806488037E-002
1767500000.000 +3.7433624268E-002 -9.5222473145E-002 +6.5705776215E-003 +2.2635459900E-003 -4.7832727432E-005 +2.5754794478E-005 -1.1216354370E-001 +3.2005310059E-003
1900000000.000 +3.5942077637E-002 -1.0126876831E-001 +6.7222118378E-003 -1.7759799957E-003 -5.1245093346E-005 -6.0629099607E-006 -1.1390304565E-001 -3.3340454102E-003
2032500000.000 +3.4275054932E-002 -1.0784149170E-001 +4.4858455658E-003 -5.1648616791E-003 -1.4351680875E-005 +4.1943043470E-005 -1.1404418945E-001 -2.4185180664E-002
2165000000.000 +3.3279418945E-002 -1.1542892456E-001 +7.9607963562E-004 -6.7839622498E-003 +4.1732564569E-005 -2.1366402507E-005 -1.2281417847E-001 -4.1923522949E-002
2297500000.000 +3.0952453613E-002 -1.2158203125E-001 -3.1218528748E-003 -6.0398578644E-003 -2.7446076274E-006 +2.0651146770E-005 -1.2670135498E-001 -5.3375244141E-002
2430000000.000 +2.9411315918E-002 -1.2747955322E-001 -5.9349536896E-003 -3.1962394714E-003 +2.1401792765E-005 -9.3292444944E-005 -1.2712097168E-001 -6.4903259277E-002
2562500000.000 +2.7412414551E-002 -1.3457489014E-001 -6.5510272980E-003 +4.8780441284E-004 +6.9025903940E-005 -1.5318393707E-005 -1.2606048584E-001 -7.0571899414E-002
2695000000.000 +2.3765563965E-002 -1.4013671875E-001 -5.1562786102E-003 +4.3489933014E-003 -5.5452808738E-005 +2.1290034056E-006 -1.1398315430E-001 -7.3078155518E-002
2827500000.000 +2.0950317383E-002 -1.4426422119E-001 -1.9540786743E-003 +6.3557624817E-003 +8.5387378931E-005 -8.7168067694E-005 -9.8861694336E-002 -8.2084655762E-002
2960000000.000 +1.9386291504E-002 -1.5039825439E-001 +1.9881725311E-003 +6.2515735626E-003 +6.5732747316E-006 -5.4106116295E-005 -8.9096069336E-002 -8.6788177490E-002
3092500000.000 +1.6006469727E-002 -1.5759277344E-001 +4.9493312836E-003 +4.0876865387E-003 -9.2156231403E-005 +1.0556727648E-004 -7.0838928223E-002 -8.5639953613E-002
3225000000.000 +1.1543273926E-002 -1.6279602051E-001 +6.3574314117E-003 +4.9662590027E-004 +2.0131468773E-005 -5.8449804783E-006 -5.2082061768E-002 -9.1419219971E-002
3357500000.000 +8.8653564453E-003 -1.6688537598E-001 +5.6793689728E-003 -3.0283927917E-003 +4.6769157052E-005 +5.8684498072E-005 -4.1927337646E-002 -9.2166900635E-002
3490000000.000 +6.1950683594E-003 -1.7359161377E-001 +3.0233860016E-003 -5.5863857269E-003 +5.5089592934E-005 +1.7472356558E-004 -2.8629302979E-002 -8.3324432373E-002
3622500000.000 +2.4719238281E-003 -1.8051147461E-001 -6.8402290344E-004 -6.4654350281E-003 -5.4355710745E-005 -6.5326690674E-005 -1.1444091797E-002 -7.9082489014E-002
3755000000.000 -1.6174316406E-003 -1.8658447266E-001 -4.0636062622E-003 -5.0163269043E-003 -3.0901283026E-005 -6.8634748459E-005 -5.9509277344E-003 -7.3265075684E-002
3887500000.000 -4.7760009766E-003 -1.9191741943E-001 -6.1771869659E-003 -1.9311904907E-003 +3.5800039768E-006 +4.9035996199E-005 +1.6384124756E-003 -5.6251525879E-002
4020000000.000 -7.6599121094E-003 -1.9689178467E-001 -6.2103271484E-003 +1.9509792328E-003 -1.2597441673E-004 +2.3499131203E-005 +1.3137817383E-002 -4.4479370117E-002
4152500000.000 -1.0314941406E-002 -2.0336151123E-001 -3.9727687836E-003 +5.0737857819E-003 -2.5372952223E-005 -3.7232413888E-005 +1.5565872192E-002 -3.2964706421E-002
4285000000.000 -1.4312744141E-002 -2.0961761475E-001 -5.7387351990E-004 +6.4330101013E-003 +1.0176002979E-004 +2.5909394026E-005 +1.6866683960E-002 -1.3612747192E-002
4417500000.000 -1.8142700195E-002 -2.1404266357E-001 +3.0994415283E-003 +5.5556297302E-003 -3.1724572182E-005 +6.1936676502E-005 +2.5529861450E-002 +3.3998489380E-003
4550000000.000 -2.0179748535E-002 -2.1919250488E-001 +5.6495666504E-003 +2.8142929077E-003 +1.4035031199E-005 +1.9690021873E-005 +2.9205322266E-002 +9.3669891357E-003
4682500000.000 -2.3231506348E-002 -2.2545623779E-001 +6.2038898468E-003 -6.5374374390E-004 +3.5503879189E-005 +3.0424445868E-005 +2.5978088379E-002 +2.0283699036E-002
4815000000.000 -2.7732849121E-002 -2.3065948486E-001 +4.7965049744E-003 -3.9322376251E-003 -2.5241635740E-005 +1.9198283553E-005 +3.1417846680E-002 +2.7193069458E-002
4947500000.000 -2.9899597168E-002 -2.3505401611E-001 +1.8832683563E-003 -5.9719085693E-003 +2.6782974601E-005 +3.6334618926E-005 +2.7941703796E-002 +1.9690513611E-002
5080000000.000 -3.1890869141E-002 -2.4050903320E-001 -1.7397403717E-003 -6.1225891113E-003 +1.4038290828E-005 +7.4994750321E-006 +1.3585090637E-002 +2.0318031311E-002
5212500000.000 -3.5514831543E-002 -2.4620056152E-001 -4.8565864563E-003 -4.0936470032E-003 +5.1164999604E-005 -3.5032629967E-005 +9.5806121826E-003 +2.4744987488E-002
5345000000.000 -3.8894653320E-002 -2.4986267090E-001 -6.3738822937E-003 -8.0442428589E-004 -1.6372650862E-006 -1.9601546228E-005 +5.9614181519E-003 +1.6132354736E-002
5477500000.000 -4.0206909180E-002 -2.5390625000E-001 -5.7730674744E-003 +2.9487609863E-003 +3.2139942050E-005 -5.9958547354E-006 -8.8253021240E-003 +1.0182857513E-002
5610000000.000 -4.2572021484E-002 -2.5921630859E-001 -3.0150413513E-003 +5.6483745575E-003 -1.5709549189E-005 -1.0112300515E-005 -1.4618396759E-002 +1.4700889587E-002
5742500000.000 -4.6615600586E-002 -2.6280212402E-001 +6.4158439636E-004 +6.4251422882E-003 -1.6089528799E-005 -3.3555552363E-005 -1.1064052582E-002 +6.2155723572E-003
5875000000.000 -4.9499511719E-002 -2.6535034180E-001 +4.1985511780E-003 +4.9240589142E-003 +4.4932588935E-005 -2.5926157832E-005 -1.9895553589E-002 -3.2730102539E-003
6007500000.000 -5.1574707031E-002 -2.6863098145E-001 +6.2110424042E-003 +1.7151832581E-003 +4.6966597438E-005 +3.0441209674E-005 -2.3158073425E-002 +2.6321411133E-004
6140000000.000 -5.4794311523E-002 -2.7343750000E-001 +6.0367584229E-003 -2.0804405212E-003 -2.7524307370E-005 -4.7655776143E-006 -1.5261173248E-002 -2.4180412292E-003
6272500000.000 -5.9814453125E-002 -2.7697753906E-001 +3.8752555847E-003 -5.1441192627E-003 +5.3718686104E-006 +4.1953753680E-006 -1.6055107117E-002 -1.1500358582E-002
6405000000.000 -6.4392089844E-002 -2.7824401855E-001 +4.0054321289E-004 -6.4079761505E-003 +5.5504962802E-005 +4.2516738176E-005 -1.9329071045E-002 -6.2274932861E-003
6537500000.000 -6.5887451172E-002 -2.8189086914E-001 -3.3507347107E-003 -5.4788589478E-003 -5.2366405725E-005 +6.5177679062E-005 -9.5195770264E-003 -3.0798912048E-003
6670000000.000 -6.9641113281E-002 -2.8746032715E-001 -5.7837963104E-003 -2.6702880859E-003 +2.7422793210E-005 -1.5637837350E-005 -7.9655647278E-003 -6.8430900574E-003
6802500000.000 -7.6156616211E-002 -2.9124450684E-001 -6.2565803528E-003 +9.4437599182E-004 +1.5805475414E-005 +2.5741755962E-006 -1.1128425598E-002 +2.3984909058E-004
6935000000.000 -8.0093383789E-002 -2.9177856445E-001 -4.6510696411E-003 +4.2433738708E-003 +2.0362436771E-005 +2.3427419364E-005 -6.4501762390E-003 +9.6917152405E-003
7067500000.000 -8.1726074219E-002 -2.9600524902E-001 -1.4834403992E-003 +6.1297416687E-003 -3.3862888813E-005 -5.3981319070E-005 -5.1889419556E-003 +1.0390758514E-002
7200000000.000 -8.6212158203E-002 -3.0137634277E-001 +2.2327899933E-003 +5.8429241180E-003 -1.1112540960E-005 +2.7590431273E-005 -1.4929771423E-002 +1.7457962036E-002
7332500000.000 -9.2330932617E-002 -3.0410766602E-001 +5.1002502441E-003 +3.6778450012E-003 -2.0019710064E-005 +6.8359076977E-005 -1.6823768616E-002 +3.0403137207E-002
7465000000.000 -9.5306396484E-002 -3.0659484863E-001 +6.1385631561E-003 +1.9717216492E-004 -8.4877014160E-005 +3.4123659134E-005 -2.0301818848E-002 +3.0836105347E-002
7597500000.000 -9.8571777344E-002 -3.1117248535E-001 +5.1875114441E-003 -3.2846927643E-003 +1.9839033484E-005 -1.0958872736E-005 -3.6760330200E-002 +3.3754348755E-002
7730000000.000 -1.0324096680E-001 -3.1602478027E-001 +2.3884773254E-003 -5.5549144745E-003 +7.4878334999E-006 +3.0634924769E-005 -4.7842025757E-002 +4.3817520142E-002
7862500000.000 -1.0688781738E-001 -3.1874084473E-001 -9.9563598633E-004 -6.0384273529E-003 -1.8460676074E-005 -3.1776726246E-005 -5.3661346436E-002 +4.2114257813E-002
7995000000.000 -1.0903930664E-001 -3.2205200195E-001 -4.1825771332E-003 -4.4114589691E-003 +2.0440667868E-005 -8.6165964603E-005 -7.3429107666E-002 +3.5247802734E-002
8127500000.000 -1.1213684082E-001 -3.2824707031E-001 -5.9123039246E-003 -1.4300346375E-003 +2.2418797016E-005 +3.9979815483E-005 -9.1186523438E-002 +4.0092468262E-002
8260000000.000 -1.1715698242E-001 -3.3076477051E-001 -5.6977272034E-003 +2.1543502808E-003 -5.3459778428E-005 +1.1606141925E-005 -9.5458984375E-002 +3.4114837646E-002
8392500000.000 -1.1854553223E-001 -3.3406066895E-001 -3.5805702209E-003 +5.0144195557E-003 +5.1753595471E-005 -4.3660402298E-005 -1.1005020142E-001 +1.8428802490E-002
8525000000.000 -1.2033081055E-001 -3.3795166016E-001 -2.1314620972E-004 +6.0105323792E-003 -2.9683113098E-005 -1.1064112186E-006 -1.2201309204E-001 +1.5300750732E-002
8657500000.000 -1.2319946289E-001 -3.4201049805E-001 +3.1712055206E-003 +5.1932334900E-003 -4.9071386456E-006 +2.8320588171E-005 -1.1782455444E-001 +4.2152404785E-003
8790000000.000 -1.2602233887E-001 -3.4548950195E-001 +5.6159496307E-003 +2.4979114532E-003 +4.3436884880E-006 -1.4044810086E-005 -1.1993026733E-001 -1.7139434814E-002
8922500000.000 -1.2843322754E-001 -3.4716796875E-001 +6.0348510742E-003 -1.0681152344E-003 +2.8651207685E-005 +4.6344473958E-005 -1.2215042114E-001 -3.0185699463E-002
9055000000.000 -1.3032531738E-001 -3.5040283203E-001 +4.3504238129E-003 -4.2557716370E-003 -2.9518269002E-005 +2.2616237402E-005 -1.1105728149E-001 -4.4311523438E-002
9187500000.000 -1.3294982910E-001 -3.5261535645E-001 +1.2493133545E-003 -6.0358047485E-003 -6.5464526415E-005 +4.9244612455E-005 -1.0092163086E-001 -6.6555023193E-002
9320000000.000 -1.3769531250E-001 -3.5432434082E-001 -2.3295879364E-003 -5.7134628296E-003 +7.7787786722E-005 -6.6664069891E-005 -9.3521118164E-002 -7.9051971436E-002
9452500000.000 -1.4054870605E-001 -3.5594177246E-001 -5.0601959229E-003 -3.4492015839E-003 -4.9812719226E-005 +4.9192458391E-006 -7.4108123779E-002 -8.7184906006E-002
9585000000.000 -1.4305114746E-001 -3.5864257813E-001 -6.1662197113E-003 +4.8398971558E-005 -1.8231570721E-005 +1.7806887627E-006 -5.5130004883E-002 -1.0164260864E-001
9717500000.000 -1.4813232422E-001 -3.6169433594E-001 -5.1503181458E-003 +3.5247802734E-003 -1.9273720682E-005 +5.5721029639E-006 -4.1664123535E-002 -1.0628128052E-001
9850000000.000 -1.5362548828E-001 -3.6180114746E-001 -2.3095607758E-003 +5.6352615356E-003 +3.0675902963E-005 -2.1660700440E-005 -1.8562316895E-002 -1.0255050659E-001
9982500000.000 -1.5545654297E-001 -3.6408996582E-001 +1.2910366058E-003 +5.9349536896E-003 -1.1090189219E-005 -8.0797821283E-005 +5.9471130371E-003 -1.0429382324E-001
10115000000.000 -1.5899658203E-001 -3.6726379395E-001 +4.3857097626E-003 +4.3101310730E-003 +4.9222260714E-005 +1.1028721929E-005 +1.8440246582E-002 -9.9052429199E-002
10247500000.000 -1.6476440430E-001 -3.6921691895E-001 +5.9933662415E-003 +1.1262893677E-003 +7.9777091742E-005 +2.3044645786E-005 +3.6128997803E-002 -7.9792022705E-002
10380000000.000 -1.6865539551E-001 -3.7033081055E-001 +5.5952072144E-003 -2.3417472839E-003 -2.9191374779E-005 -8.2701444626E-006 +5.7640075684E-002 -6.8450927734E-002
10512500000.000 -1.7248535156E-001 -3.7242126465E-001 +3.4024715424E-003 -5.1214694977E-003 -3.9245933294E-006 -1.4656223357E-005 +6.2137603760E-002 -5.6739807129E-002
10645000000.000 -1.7646789551E-001 -3.7385559082E-001 -5.8412551880E-005 -6.0868263245E-003 +3.6742538214E-005 +1.3224780560E-007 +6.6024780273E-002 -2.8919219971E-002
10777500000.000 -1.8013000488E-001 -3.7637329102E-001 -3.5240650177E-003 -4.9777030945E-003 -4.4889748096E-005 +1.5398487449E-005 +7.8060150146E-002 -8.0833435059E-003
10910000000.000 -1.8482971191E-001 -3.7901306152E-001 -5.6905746460E-003 -2.2580623627E-003 -6.3136219978E-005 -6.4492225647E-005 +7.2792053223E-002 +4.7149658203E-003
11042500000.000 -1.9017028809E-001 -3.8119506836E-001 -5.9974193573E-003 +1.2960433960E-003 +1.0574236512E-005 +6.2719918787E-006 +5.9377670288E-002 +3.1082153320E-002
11175000000.000 -1.9329833984E-001 -3.8389587402E-001 -4.2488574982E-003 +4.4102668762E-003 -1.8484890461E-005 +1.4471821487E-005 +5.7113647461E-002 +5.2774429321E-002
11307500000.000 -1.9630432129E-001 -3.8574218750E-001 -9.9802017212E-004 +6.0167312622E-003 -5.4916366935E-005 -1.3446435332E-005 +4.4326782227E-002 +5.8464050293E-002
11440000000.000 -2.0074462891E-001 -3.8795471191E-001 +2.4979114532E-003 +5.5403709412E-003 +3.0493363738E-005 +3.8480386138E-005 +1.8478393555E-002 +7.2124481201E-002
11572500000.000 -2.0263671875E-001 -3.9230346680E-001 +5.1412582397E-003 +3.2384395599E-003 -5.7481229305E-006 +6.8020075560E-005 +4.7187805176E-003 +8.7741851807E-002
11705000000.000 -2.0608520508E-001 -3.9407348633E-001 +6.1233043671E-003 -2.3841857910E-004 -5.4661184549E-005 +2.5702640414E-005 -9.7312927246E-003 +8.1298828125E-002
11837500000.000 -2.0950317383E-001 -3.9688110352E-001 +4.8849582672E-003 -3.5967826843E-003 +3.0696392059E-005 -6.3974410295E-005 -4.2766571045E-002 +7.7281951904E-002
11970000000.000 -2.1109008789E-001 -3.9773559570E-001 +2.0532608032E-003 -5.7966709137E-003 +2.5498680770E-005 +1.2344680727E-005 -5.8815002441E-002 +8.3477020264E-002
12102500000.000 -2.1214294434E-001 -3.9968872070E-001 -1.4634132385E-003 -5.8488845825E-003 -2.3514032364E-005 +3.6697834730E-005 -6.5628051758E-002 +6.4445495605E-002
12235000000.000 -2.1614074707E-001 -4.0167236328E-001 -4.5166015625E-003 -4.1167736053E-003 -4.3136999011E-005 -2.2262334824E-005 -9.3368530273E-002 +4.5055389404E-002
12367500000.000 -2.1754455566E-001 -4.0211486816E-001 -6.1683654785E-003 -8.9883804321E-004 +7.5586140156E-005 +2.8721988201E-005 -1.0496902466E-001 +4.3601989746E-002
12500000000.000 -2.2186279297E-001 -4.0161132813E-001 -5.4433345795E-003 +2.7530193329E-003 -5.2904710174E-005 -3.4123659134E-006 -9.7274780273E-002 +1.9916534424E-002
12632500000.000 -2.2430419922E-001 -4.0412902832E-001 -2.9690265656E-003 +5.2416324615E-003 -5.8799050748E-006 -2.7834903449E-006 -1.1068725586E-001 -1.3095855713E-002
12765000000.000 -2.2662353516E-001 -4.0505981445E-001 +5.0091743469E-004 +6.0555934906E-003 -2.9260292649E-005 +2.6357360184E-005 -1.1746215820E-001 -1.6586303711E-002
12897500000.000 -2.3004150391E-001 -4.0338134766E-001 +3.7856101990E-003 +4.7385692596E-003 -7.2538852692E-005 +9.5322728157E-005 -9.1735839844E-002 -3.4893035889E-002
13030000000.000 -2.3190307617E-001 -4.0432739258E-001 +5.7079792023E-003 +1.8513202667E-003 -4.2134895921E-005 -2.6445835829E-005 -9.0744018555E-002 -7.1895599365E-002
13162500000.000 -2.3565673828E-001 -4.0660095215E-001 +5.8295726776E-003 -1.6632080078E-003 +5.0198286772E-005 -3.2156705856E-005 -9.2948913574E-002 -7.1628570557E-002
13295000000.000 -2.3893737793E-001 -4.0744018555E-001 +3.8273334503E-003 -4.6467781067E-003 -1.9134953618E-005 +7.7821314335E-006 -6.0680389404E-002 -7.8479766846E-002
13427500000.000 -2.4348449707E-001 -4.0644836426E-001 +5.0902366638E-004 -5.9914588928E-003 -3.0864030123E-005 +2.6980414987E-005 -4.7119140625E-002 -1.0544204712E-001
13560000000.000 -2.4243164063E-001 -4.0661621094E-001 -2.8529167175E-003 -5.3143501282E-003 +6.1113387346E-005 +8.3100050688E-005 -4.7756195068E-002 -1.0171127319E-001
13692500000.000 -2.4530029297E-001 -4.0977478027E-001 -5.4326057434E-003 -2.7883052826E-003 +6.2480568886E-005 +8.6057931185E-005 -1.7959594727E-002 -8.8947296143E-002
13825000000.000 -2.5045776367E-001 -4.1062927246E-001 -6.0977935791E-003 +5.9843063354E-004 +8.1188976765E-005 +1.8812716007E-006 +4.4860839844E-003 -1.0375595093E-001
13957500000.000 -2.5396728516E-001 -4.0866088867E-001 -4.4670104980E-003 +3.9424896240E-003 +7.7355653048E-005 -5.7492405176E-005 -3.1661987305E-004 -9.6416473389E-002
14090000000.000 -2.5489807129E-001 -4.0930175781E-001 -1.6613006592E-003 +5.9707164764E-003 -1.4901161194E-008 +5.8421865106E-005 +2.1984100342E-002 -7.0953369141E-002
14222500000.000 -2.5698852539E-001 -4.1213989258E-001 +1.9652843475E-003 +5.7716369629E-003 -2.4683773518E-005 -3.9661303163E-005 +4.3884277344E-002 -7.4699401855E-002
14355000000.000 -2.6293945313E-001 -4.1246032715E-001 +4.9390792847E-003 +3.6201477051E-003 +9.4641000032E-005 -6.8221241236E-005 +3.3756256104E-002 -6.7104339600E-002
14487500000.000 -2.6490783691E-001 -4.1233825684E-001 +6.1566829681E-003 +2.6297569275E-004 +2.3316591978E-005 -3.0877068639E-005 +4.1206359863E-002 -3.4828186035E-002
14620000000.000 -2.6554870605E-001 -4.1520690918E-001 +5.1815509796E-003 -3.1807422638E-003 +1.5452504158E-005 +7.6249241829E-005 +6.0499191284E-002 -3.2430648804E-002
14752500000.000 -2.7029418945E-001 -4.1903686523E-001 +2.5007724762E-003 -5.6240558624E-003 -2.2464431822E-005 -2.8815120459E-005 +4.3104171753E-002 -3.1339645386E-002
14885000000.000 -2.7388000488E-001 -4.1905212402E-001 -1.0969638824E-003 -5.9201717377E-003 +3.2018870115E-005 +2.3096799850E-006 +3.7258148193E-002 +1.8386840820E-003
15017500000.000 -2.7256774902E-001 -4.2173767090E-001 -4.3332576752E-003 -4.3227672577E-003 +2.2185966372E-005 +5.2850693464E-005 +5.3504943848E-002 +7.2822570801E-003
15150000000.000 -2.7388000488E-001 -4.2733764648E-001 -5.8653354645E-003 -1.1534690857E-003 -9.4827264547E-006 -3.2283365726E-005 +3.3843994141E-002 -1.0356903076E-003
15282500000.000 -2.7677917480E-001 -4.3008422852E-001 -5.5627822876E-003 +2.3984909058E-003 +2.8276816010E-005 -2.7375295758E-005 +1.5543937683E-002 +2.5094985962E-002
