!  2-Port S-parameters saved by WinCal
! VAR MeasName=S-Parameters (CALIBRATED_DATA) read from VNA (C)
! VAR MeasDate=10/5/2015 6:08:00 PM
! VAR NAME=M6079_2_7_3_2_20C_6.0mA_-17.5dBm
! VAR FILENAME=M6079_2_7_3_2_20C_6.0mA_-17.5dBm.S2P
! VAR DATE=10/5/2015 6:08:00 PM
! VAR PHYS_PORTS=2,1
! VAR ObjTypeName=DATASET
! VAR IndexType=Frequency
!
# Hz S RI R 50
45000000.000 +6.5521240234E-002 -5.3405761719E-004 -1.9712448120E-003 +8.7242126465E-003 +1.8147230148E-003 -1.2947320938E-003 +2.7969360352E-002 +3.3617019653E-003
177500000.000 +6.5345764160E-002 -7.6522827148E-003 +2.3550987244E-003 +6.3343048096E-003 -5.0365924835E-006 +1.4466792345E-004 +1.6332626343E-002 +1.6826629639E-002
310000000.000 +6.5757751465E-002 -1.4930725098E-002 +5.5100917816E-003 +4.6949386597E-003 -6.8306922913E-005 -4.0311366320E-005 +2.9899597168E-002 +6.1225891113E-002
442500000.000 +6.5959930420E-002 -2.2705078125E-002 +7.9641342163E-003 +2.1409988403E-004 +1.3700872660E-004 -3.6299228668E-005 +7.2803497314E-002 +2.2327423096E-002
575000000.000 +6.5689086914E-002 -3.0891418457E-002 +6.0818195343E-003 -4.1399002075E-003 -1.4382414520E-005 +1.2253411114E-005 +2.7429580688E-002 +1.1391639709E-002
707500000.000 +6.4868927002E-002 -3.7990570068E-002 +2.6957988739E-003 -6.8154335022E-003 -3.6707147956E-005 +3.4198164940E-006 +2.3679733276E-003 +1.8508911133E-002
840000000.000 +6.4865112305E-002 -4.6100616455E-002 -1.5668869019E-003 -7.0657730103E-003 -2.7750618756E-005 +1.9194558263E-006 -1.9934654236E-002 +2.6020050049E-002
972500000.000 +6.4334869385E-002 -5.3749084473E-002 -5.1977634430E-003 -5.0029754639E-003 -4.0635466576E-005 +1.1594220996E-004 -3.5861968994E-002 +3.5764694214E-002
1105000000.000 +6.3098907471E-002 -6.1706542969E-002 -6.9801807404E-003 -1.2373924255E-003 +2.5903806090E-005 -2.9291957617E-005 -4.6737670898E-002 +3.8360595703E-002
1237500000.000 +6.2210083008E-002 -6.8912506104E-002 -6.3643455505E-003 +2.8412342072E-003 +5.6454911828E-005 +1.4470890164E-005 -5.8656692505E-002 +3.3941268921E-002
1370000000.000 +6.0672760010E-002 -7.6763153076E-002 -3.7336349487E-003 +5.9931278229E-003 -1.3219192624E-005 +3.4404918551E-005 -7.4184417725E-002 +2.7343750000E-002
1502500000.000 +5.9440612793E-002 -8.3942413330E-002 +2.3484230042E-004 +6.9777965546E-003 +2.7611851692E-005 -3.4937635064E-005 -8.8039398193E-002 +2.1667480469E-002
1635000000.000 +5.8773040771E-002 -9.1476440430E-002 +4.0621757507E-003 +5.6993961334E-003 -4.4280663133E-005 -1.7100945115E-005 -9.9197387695E-002 +1.1917114258E-002
1767500000.000 +5.6838989258E-002 -9.9544525146E-002 +6.5875053406E-003 +2.4943351746E-003 +1.8756836653E-006 -5.8377161622E-005 -1.1225891113E-001 +3.3111572266E-003
1900000000.000 +5.5374145508E-002 -1.0596466064E-001 +6.6950321198E-003 -1.7950534821E-003 +3.1396746635E-005 -2.0692124963E-005 -1.1403656006E-001 -3.2310485840E-003
2032500000.000 +5.3611755371E-002 -1.1272430420E-001 +4.5411586761E-003 -5.1329135895E-003 +1.4679040760E-005 +2.0349398255E-006 -1.1410903931E-001 -2.4158477783E-002
2165000000.000 +5.2669525146E-002 -1.2067794800E-001 +1.0187625885E-003 -6.7918300629E-003 -6.0062855482E-005 +8.3692371845E-005 -1.2287521362E-001 -4.1889190674E-002
2297500000.000 +5.0231933594E-002 -1.2741851807E-001 -2.8715133667E-003 -6.2220096588E-003 -8.5193663836E-005 +9.1549009085E-005 -1.2674713135E-001 -5.3329467773E-002
2430000000.000 +4.8568725586E-002 -1.3327026367E-001 -5.9368610382E-003 -3.3969879150E-003 +4.1909515858E-006 -3.6748126149E-005 -1.2718200684E-001 -6.4811706543E-002
2562500000.000 +4.6760559082E-002 -1.4091491699E-001 -6.6053867340E-003 +4.0674209595E-004 -3.7211924791E-005 -3.0456110835E-005 -1.2622070313E-001 -7.0655822754E-002
2695000000.000 +4.2861938477E-002 -1.4676666260E-001 -5.1081180573E-003 +4.3582916260E-003 -2.8908252716E-006 -4.6510249376E-006 -1.1416244507E-001 -7.2769165039E-002
2827500000.000 +4.0054321289E-002 -1.5148162842E-001 -1.6875267029E-003 +6.2873363495E-003 -1.0691955686E-004 -7.8327953815E-005 -9.8964691162E-002 -8.1893920898E-002
2960000000.000 +3.8520812988E-002 -1.5777587891E-001 +2.0549297333E-003 +6.1981678009E-003 +2.8919428587E-005 -3.8553029299E-005 -8.9252471924E-002 -8.6708068848E-002
3092500000.000 +3.5125732422E-002 -1.6539764404E-001 +5.0787925720E-003 +3.8757324219E-003 +6.1374157667E-005 +3.4209340811E-005 -7.0968627930E-002 -8.5414886475E-002
3225000000.000 +3.0410766602E-002 -1.7092895508E-001 +6.3850879669E-003 +5.3262710571E-004 -2.4642795324E-006 +3.5585835576E-005 -5.2345275879E-002 -9.1259002686E-002
3357500000.000 +2.7915954590E-002 -1.7523193359E-001 +5.5038928986E-003 -3.0190944672E-003 +3.0472874641E-006 -1.0048970580E-004 -4.2163848877E-002 -9.2216491699E-002
3490000000.000 +2.5207519531E-002 -1.8247985840E-001 +2.8412342072E-003 -5.6540966034E-003 +9.7945332527E-005 +1.1835992336E-004 -2.8770446777E-002 -8.3023071289E-002
3622500000.000 +2.1118164063E-002 -1.8946838379E-001 -6.4563751221E-004 -6.2837600708E-003 -1.3361126184E-004 -6.1549246311E-005 -1.1405944824E-002 -7.9139709473E-002
3755000000.000 +1.7089843750E-002 -1.9577789307E-001 -4.0955543518E-003 -4.9319267273E-003 +4.8868358135E-005 -1.1858716607E-004 -6.2026977539E-003 -7.3486328125E-002
3887500000.000 +1.3618469238E-002 -2.0159149170E-001 -6.1676502228E-003 -1.8773078918E-003 -6.7073851824E-006 +3.5803765059E-005 +1.4305114746E-003 -5.6440353394E-002
4020000000.000 +1.0551452637E-002 -2.0698547363E-001 -6.1571598053E-003 +1.8796920776E-003 -7.1953982115E-005 -2.1446496248E-005 +1.3118743896E-002 -4.4483184814E-002
4152500000.000 +7.6522827148E-003 -2.1363067627E-001 -4.3442249298E-003 +4.9965381622E-003 +2.2336840630E-005 -4.0326267481E-005 +1.5563964844E-002 -3.3061981201E-002
4285000000.000 +3.5858154297E-003 -2.2029876709E-001 -7.6627731323E-004 +6.4821243286E-003 +1.4497339725E-004 +8.3729624748E-005 +1.7001152039E-002 -1.3767242432E-002
4417500000.000 -5.9509277344E-004 -2.2508239746E-001 +2.9101371765E-003 +5.7637691498E-003 +2.1314248443E-005 +2.5096349418E-005 +2.5596618652E-002 +3.2691955566E-003
4550000000.000 -2.6626586914E-003 -2.3049163818E-001 +5.5971145630E-003 +3.0577182770E-003 -7.1916729212E-006 -3.9512291551E-005 +2.9328346252E-002 +9.1600418091E-003
4682500000.000 -5.8441162109E-003 -2.3709869385E-001 +6.4480304718E-003 -4.8398971558E-004 -1.1228024960E-005 +1.8611550331E-005 +2.6054382324E-002 +2.0026206970E-002
4815000000.000 -1.0604858398E-002 -2.4249267578E-001 +5.0806999207E-003 -3.8189888000E-003 +8.5039064288E-006 +4.5085325837E-006 +3.1618118286E-002 +2.6952743530E-002
4947500000.000 -1.2855529785E-002 -2.4702453613E-001 +2.1820068359E-003 -6.1039924622E-003 -8.4787607193E-006 -7.7951699495E-005 +2.8289794922E-002 +1.9359588623E-002
5080000000.000 -1.4877319336E-002 -2.5286865234E-001 -1.5199184418E-003 -6.4489841461E-003 +3.5230070353E-005 -3.0450522900E-005 +1.3934135437E-002 +2.0153045654E-002
5212500000.000 -1.8829345703E-002 -2.5875854492E-001 -4.8878192902E-003 -4.4784545898E-003 -3.1471252441E-005 +6.2666833401E-005 +9.7856521606E-003 +2.4433135986E-002
5345000000.000 -2.2262573242E-002 -2.6246643066E-001 -6.5720081329E-003 -9.8514556885E-004 -7.6677650213E-005 +3.4350901842E-005 +6.3896179199E-003 +1.5934944153E-002
5477500000.000 -2.3544311523E-002 -2.6689147949E-001 -6.1290264130E-003 +2.9356479645E-003 +2.7901493013E-005 -1.6999430954E-005 -8.5945129395E-003 +9.9253654480E-003
5610000000.000 -2.6428222656E-002 -2.7250671387E-001 -3.4663677216E-003 +5.9092044830E-003 -1.8946826458E-005 +4.8698857427E-005 -1.4385700226E-002 +1.4570236206E-002
5742500000.000 -3.0563354492E-002 -2.7613830566E-001 +4.9877166748E-004 +6.7512989044E-003 -2.2532418370E-005 -4.7529116273E-005 -1.0689258575E-002 +6.1650276184E-003
5875000000.000 -3.3386230469E-002 -2.7899169922E-001 +4.2166709900E-003 +5.3331851959E-003 +3.7144869566E-005 -8.3297491074E-006 -1.9560813904E-002 -3.4284591675E-003
6007500000.000 -3.5675048828E-002 -2.8257751465E-001 +6.5236091614E-003 +2.0148754120E-003 +2.7785077691E-005 +4.7883018851E-005 -2.2979736328E-002 +3.1185150146E-004
6140000000.000 -3.9138793945E-002 -2.8771972656E-001 +6.4501762390E-003 -1.9490718842E-003 -3.6813318729E-005 +5.5626034737E-005 -1.5015125275E-002 -2.2678375244E-003
6272500000.000 -4.4250488281E-002 -2.9138183594E-001 +4.2874813080E-003 -5.2368640900E-003 +6.1653554440E-006 -6.0003250837E-005 -1.5851020813E-002 -1.1334419250E-002
6405000000.000 -4.8889160156E-002 -2.9298400879E-001 +7.0333480835E-004 -6.6828727722E-003 +1.8993392587E-005 +1.4914199710E-005 -1.9068717957E-002 -6.2046051025E-003
6537500000.000 -5.0598144531E-002 -2.9673767090E-001 -3.2386779785E-003 -5.8746337891E-003 +9.4948336482E-007 +8.8177621365E-006 -9.4304084778E-003 -2.8948783875E-003
6670000000.000 -5.4351806641E-002 -3.0249023438E-001 -5.8863162994E-003 -2.9978752136E-003 +3.4851953387E-005 -2.9949471354E-005 -7.8098773956E-003 -6.5412521362E-003
6802500000.000 -6.1172485352E-002 -3.0667114258E-001 -6.4995288849E-003 +7.9917907715E-004 -5.1122624427E-006 -2.9799994081E-006 -1.1096000671E-002 +4.5442581177E-004
6935000000.000 -6.5368652344E-002 -3.0734252930E-001 -4.9242973328E-003 +4.1894912720E-003 -4.5614317060E-005 +1.3044103980E-005 -6.5746307373E-003 +9.8366737366E-003
7067500000.000 -6.6955566406E-002 -3.1152343750E-001 -1.7304420471E-003 +6.2148571014E-003 -2.9742717743E-005 -3.2469630241E-005 -5.3014755249E-003 +1.0697841644E-002
7200000000.000 -7.1640014648E-002 -3.1723022461E-001 +2.0501613617E-003 +6.0596466064E-003 +4.4690445065E-005 -3.3946707845E-005 -1.4993667603E-002 +1.7748832703E-002
7332500000.000 -7.8125000000E-002 -3.2015991211E-001 +5.1054954529E-003 +3.9350986481E-003 -1.4626421034E-006 +8.9905224741E-006 -1.6981124878E-002 +3.0527114868E-002
7465000000.000 -8.1253051758E-002 -3.2257080078E-001 +6.3388347626E-003 +4.1699409485E-004 -2.0639970899E-005 +4.7791749239E-005 -2.0514488220E-002 +3.0973434448E-002
7597500000.000 -8.4442138672E-002 -3.2762145996E-001 +5.4457187653E-003 -3.1983852386E-003 +4.6191737056E-005 -1.0283663869E-005 -3.6787033081E-002 +3.3882141113E-002
7730000000.000 -8.9523315430E-002 -3.3250427246E-001 +2.7983188629E-003 -5.6676864624E-003 +4.9442052841E-005 -2.3841857910E-006 -4.7986984253E-002 +4.3849945068E-002
7862500000.000 -9.3246459961E-002 -3.3543395996E-001 -6.7639350891E-004 -6.2725543976E-003 -8.0265104771E-005 +1.7553567886E-005 -5.3787231445E-002 +4.2095184326E-002
7995000000.000 -9.5367431641E-002 -3.3888244629E-001 -4.1406154633E-003 -4.6942234039E-003 +2.3197382689E-005 -7.9203397036E-005 -7.3501586914E-002 +3.5266876221E-002
8127500000.000 -9.8724365234E-002 -3.4515380859E-001 -6.0844421387E-003 -1.5976428986E-003 -3.5911798477E-006 +1.6757287085E-005 -9.1163635254E-002 +4.0180206299E-002
8260000000.000 -1.0369873047E-001 -3.4791564941E-001 -5.9876441956E-003 +1.9750595093E-003 -6.3594430685E-005 -2.7362257242E-005 -9.5329284668E-002 +3.4255981445E-002
8392500000.000 -1.0517883301E-001 -3.5134887695E-001 -3.9358139038E-003 +4.9622058868E-003 -3.3993273973E-006 -8.3162449300E-006 -1.0998535156E-001 +1.8737792969E-002
8525000000.000 -1.0710144043E-001 -3.5536193848E-001 -3.8433074951E-004 +6.3090324402E-003 +2.3647211492E-005 -9.8953023553E-006 -1.2193298340E-001 +1.5586853027E-002
8657500000.000 -1.1013793945E-001 -3.5937500000E-001 +3.1070709229E-003 +5.3868293762E-003 -6.1050057411E-005 +1.8619000912E-005 -1.1784362793E-001 +4.4136047363E-003
8790000000.000 -1.1286926270E-001 -3.6312866211E-001 +5.6655406952E-003 +2.8879642487E-003 +2.5585293770E-005 -5.3536146879E-005 -1.1993789673E-001 -1.6918182373E-002
8922500000.000 -1.1564636230E-001 -3.6502075195E-001 +6.3195228577E-003 -9.3889236450E-004 +1.5908852220E-005 -8.2328915596E-006 -1.2219238281E-001 -2.9926300049E-002
9055000000.000 -1.1778259277E-001 -3.6836242676E-001 +4.7142505646E-003 -4.1735172272E-003 -1.3940036297E-005 -5.1576644182E-006 -1.1119842529E-001 -4.4078826904E-002
9187500000.000 -1.2034606934E-001 -3.7065124512E-001 +1.6002655029E-003 -6.0384273529E-003 +8.1211328506E-006 +3.5049393773E-005 -1.0101318359E-001 -6.6150665283E-002
9320000000.000 -1.2500000000E-001 -3.7281799316E-001 -2.1240711212E-003 -5.9616565704E-003 +4.7478824854E-006 +3.0035153031E-005 -9.3685150146E-002 -7.8788757324E-002
9452500000.000 -1.2808227539E-001 -3.7471008301E-001 -5.0637722015E-003 -3.5893917084E-003 -1.8792226911E-005 +3.2326206565E-005 -7.4371337891E-002 -8.7005615234E-002
9585000000.000 -1.3092041016E-001 -3.7724304199E-001 -6.2417984009E-003 -2.8133392334E-004 -5.0554051995E-005 +4.0102750063E-006 -5.5610656738E-002 -1.0140228271E-001
9717500000.000 -1.3604736328E-001 -3.8069152832E-001 -5.4659843445E-003 +3.2758712769E-003 +8.2898885012E-005 -6.3978135586E-005 -4.2003631592E-002 -1.0611343384E-001
9850000000.000 -1.4170837402E-001 -3.8095092773E-001 -2.5701522827E-003 +5.6340694427E-003 +3.9339065552E-006 +5.0824135542E-005 -1.8867492676E-002 -1.0242080688E-001
9982500000.000 -1.4367675781E-001 -3.8333129883E-001 +9.4342231750E-004 +6.0625076294E-003 -5.6667253375E-005 +6.0426071286E-005 +5.5999755859E-003 -1.0441589355E-001
10115000000.000 -1.4746093750E-001 -3.8652038574E-001 +4.2715072632E-003 +4.5557022095E-003 +3.9383769035E-005 -4.6258792281E-005 +1.7818450928E-002 -9.9037170410E-002
10247500000.000 -1.5315246582E-001 -3.8864135742E-001 +6.0029029846E-003 +1.4197826385E-003 -6.7934393883E-005 -3.9525330067E-005 +3.5720825195E-002 -8.0005645752E-002
10380000000.000 -1.5719604492E-001 -3.8989257813E-001 +5.7210922241E-003 -2.1603107452E-003 -2.4291686714E-005 -2.0892359316E-005 +5.7243347168E-002 -6.9080352783E-002
10512500000.000 -1.6127014160E-001 -3.9218139648E-001 +3.6826133728E-003 -4.9071311951E-003 +3.4354627132E-005 -8.6035579443E-006 +6.1759948730E-002 -5.7331085205E-002
10645000000.000 -1.6569519043E-001 -3.9349365234E-001 +3.0016899109E-004 -6.0915946960E-003 +4.3479725718E-005 +7.0296227932E-006 +6.6047668457E-002 -2.9251098633E-002
10777500000.000 -1.6921997070E-001 -3.9598083496E-001 -3.2172203064E-003 -5.2356719971E-003 +1.3312324882E-005 -3.6360695958E-005 +7.8262329102E-002 -8.7013244629E-003
10910000000.000 -1.7398071289E-001 -3.9891052246E-001 -5.6469440460E-003 -2.5558471680E-003 +3.0789524317E-005 -4.2859464884E-006 +7.2761535645E-002 +3.8948059082E-003
11042500000.000 -1.7971801758E-001 -4.0142822266E-001 -6.0408115387E-003 +9.2577934265E-004 +4.1600316763E-005 +1.8589198589E-006 +5.9663772583E-002 +3.0601501465E-002
11175000000.000 -1.8310546875E-001 -4.0400695801E-001 -4.5332908630E-003 +4.2269229889E-003 -2.0124018192E-005 -8.1388279796E-006 +5.7754516602E-002 +5.2383422852E-002
11307500000.000 -1.8612670898E-001 -4.0586853027E-001 -1.4400482178E-003 +6.0424804688E-003 -4.6133995056E-005 +4.6635046601E-005 +4.4923782349E-002 +5.7952880859E-002
11440000000.000 -1.9058227539E-001 -4.0827941895E-001 +2.2168159485E-003 +5.8763027191E-003 +5.2064657211E-005 -9.2554837465E-006 +1.9107818604E-002 +7.1708679199E-002
11572500000.000 -1.9294738770E-001 -4.1271972656E-001 +5.1152706146E-003 +3.6611557007E-003 +1.2159347534E-005 +3.5449862480E-005 +5.5389404297E-003 +8.7631225586E-002
11705000000.000 -1.9647216797E-001 -4.1413879395E-001 +6.1280727386E-003 +3.0779838562E-004 +2.1120067686E-006 -3.8687139750E-006 -8.9263916016E-003 +8.1359863281E-002
11837500000.000 -1.9973754883E-001 -4.1703796387E-001 +5.4056644440E-003 -3.3330917358E-003 -2.8888694942E-005 -2.2790394723E-005 -4.1946411133E-002 +7.7484130859E-002
11970000000.000 -2.0147705078E-001 -4.1792297363E-001 +2.5899410248E-003 -5.6726932526E-003 +2.2200867534E-005 +4.7795474529E-005 -5.8223724365E-002 +8.3797454834E-002
12102500000.000 -2.0269775391E-001 -4.1967773438E-001 -9.1886520386E-004 -6.0923099518E-003 -5.4582953453E-005 +3.1923875213E-005 -6.5093994141E-002 +6.4899444580E-002
12235000000.000 -2.0671081543E-001 -4.2173767090E-001 -4.1887760162E-003 -4.4410228729E-003 +3.3648684621E-006 -1.9891187549E-005 -9.2830657959E-002 +4.5787811279E-002
12367500000.000 -2.0848083496E-001 -4.2222595215E-001 -6.1368942261E-003 -1.4944076538E-003 +3.7157908082E-005 +3.8968399167E-005 -1.0444259644E-001 +4.4445037842E-002
12500000000.000 -2.1267700195E-001 -4.2195129395E-001 -5.8245658875E-003 +2.2840499878E-003 -2.7785077691E-005 +4.5908614993E-005 -9.7061157227E-002 +2.0694732666E-002
12632500000.000 -2.1479797363E-001 -4.2445373535E-001 -3.6561489105E-003 +5.0954818726E-003 -1.7166137695E-005 -5.3787603974E-005 -1.1104583740E-001 -1.2214660645E-002
12765000000.000 -2.1784973145E-001 -4.2509460449E-001 -2.0933151245E-004 +6.3204765320E-003 +7.2263646871E-006 +4.4687185436E-006 -1.1756896973E-001 -1.5651702881E-002
12897500000.000 -2.2082519531E-001 -4.2359924316E-001 +3.3960342407E-003 +5.2533149719E-003 -3.3041462302E-005 +2.8386712074E-006 -9.1815948486E-002 -3.4297943115E-002
13030000000.000 -2.2244262695E-001 -4.2492675781E-001 +5.8124065399E-003 +2.4428367615E-003 +3.4365803003E-005 -8.0093741417E-008 -9.1506958008E-002 -7.1395874023E-002
13162500000.000 -2.2668457031E-001 -4.2720031738E-001 +6.1166286469E-003 -1.1179447174E-003 +5.8352947235E-005 -9.5948576927E-005 -9.3856811523E-002 -7.1102142334E-002
13295000000.000 -2.2994995117E-001 -4.2791748047E-001 +4.5258998871E-003 -4.4205188751E-003 +3.5077333450E-005 +6.4287334681E-005 -6.1386108398E-002 -7.8407287598E-002
13427500000.000 -2.3434448242E-001 -4.2694091797E-001 +1.2779235840E-003 -6.2458515167E-003 -4.9039721489E-005 -2.4490058422E-005 -4.8091888428E-002 -1.0575485229E-001
13560000000.000 -2.3348999023E-001 -4.2727661133E-001 -2.3512840271E-003 -5.9058666229E-003 -3.9987266064E-005 -6.2454491854E-005 -4.8797607422E-002 -1.0197830200E-001
13692500000.000 -2.3669433594E-001 -4.3037414551E-001 -5.1512718201E-003 -3.4718513489E-003 +9.3039125204E-005 +3.5293400288E-005 -1.8615722656E-002 -8.9305877686E-002
13825000000.000 -2.4136352539E-001 -4.3150329590E-001 -6.2997341156E-003 +9.3460083008E-005 -3.3862888813E-005 -9.7613781691E-005 +4.0550231934E-003 -1.0432434082E-001
13957500000.000 -2.4539184570E-001 -4.2950439453E-001 -5.1217079163E-003 +3.4105777740E-003 +3.0169263482E-005 +4.6512112021E-005 -8.0871582031E-004 -9.7049713135E-002
14090000000.000 -2.4626159668E-001 -4.2996215820E-001 -2.3789405823E-003 +5.8467388153E-003 +6.3065439463E-005 -1.2133270502E-005 +2.1549224854E-002 -7.1556091309E-002
14222500000.000 -2.4809265137E-001 -4.3293762207E-001 +1.3511180878E-003 +6.1938762665E-003 -9.1016292572E-005 -1.0404735804E-005 +4.3872833252E-002 -7.5279235840E-002
14355000000.000 -2.5430297852E-001 -4.3331909180E-001 +4.6372413635E-003 +4.2521953583E-003 +2.7135014534E-005 -9.5978379250E-005 +3.3943176270E-002 -6.7657470703E-002
14487500000.000 -2.5621032715E-001 -4.3296813965E-001 +6.2596797943E-003 +9.1862678528E-004 +1.5646219254E-005 +3.6584213376E-005 +4.1589736938E-002 -3.5459518433E-002
14620000000.000 -2.5642395020E-001 -4.3609619141E-001 +5.7137012482E-003 -2.5897026062E-003 -1.1087954044E-004 +8.8121742010E-005 +6.0848236084E-002 -3.2844543457E-002
14752500000.000 -2.6184082031E-001 -4.4023132324E-001 +3.1492710114E-003 -5.5758953094E-003 -5.1634386182E-005 -1.9773840904E-005 +4.3518066406E-002 -3.1417846680E-002
14885000000.000 -2.6539611816E-001 -4.3951416016E-001 -2.8872489929E-004 -6.3643455505E-003 +1.0941177607E-004 +4.3481588364E-005 +3.7994384766E-002 +1.5697479248E-003
15017500000.000 -2.6341247559E-001 -4.4253540039E-001 -3.7407875061E-003 -5.1200389862E-003 -2.8042122722E-005 +2.9073096812E-005 +5.3897857666E-002 +6.9236755371E-003
15150000000.000 -2.6501464844E-001 -4.4850158691E-001 -6.0541629791E-003 -1.8599033356E-003 -5.9541314840E-005 -7.0307403803E-005 +3.4099578857E-002 -8.7356567383E-004
15282500000.000 -2.6805114746E-001 -4.5115661621E-001 -5.8541297913E-003 +1.8439292908E-003 +4.9551948905E-005 -2.1941959858E-005 +1.6098022461E-002 +2.5484085083E-002
