!  2-Port S-parameters saved by WinCal
! VAR MeasName=S-Parameters (CALIBRATED_DATA) read from VNA (C)
! VAR MeasDate=10/5/2015 6:38:45 PM
! VAR NAME=M6079_2_7_3_3_20C_1.5mA_-17.5dBm
! VAR FILENAME=M6079_2_7_3_3_20C_1.5mA_-17.5dBm.S2P
! VAR DATE=10/5/2015 6:38:45 PM
! VAR PHYS_PORTS=2,1
! VAR ObjTypeName=DATASET
! VAR IndexType=Frequency
!
# Hz S DB R 50
45000000.000 -1.2806889467E+001 -1.4075646536E+000 -4.6136641846E+001 +1.1119057930E+002 -5.3982647245E+001 +1.5052564612E+001 -3.0800608502E+001 +6.0269568189E+000
177500000.000 -1.3217735186E+001 -5.5868757569E+000 -4.4774647161E+001 +6.7018348444E+001 -7.2442362482E+001 +1.0780101292E+002 -3.2667635486E+001 +4.5181057582E+001
310000000.000 -1.3242958798E+001 -1.0665664678E+001 -4.3420986281E+001 +3.7896833352E+001 -8.8294508893E+001 -4.3531098758E+001 -2.3309003127E+001 +6.3827678404E+001
442500000.000 -1.3403520204E+001 -1.3121406669E+001 -4.4153315091E+001 -5.0328315849E+000 -7.6676412389E+001 -4.5264389975E+000 -2.2376017350E+001 +1.7110967738E+001
575000000.000 -1.3590010199E+001 -1.6198011032E+001 -4.4308761685E+001 -4.0464787740E+001 -8.9518960305E+001 +8.9121886874E+001 -3.0547342184E+001 +2.2282237790E+001
707500000.000 -1.3532534464E+001 -1.9681754210E+001 -4.4636397370E+001 -7.6076759126E+001 -9.4421291959E+001 -1.1577534278E+002 -3.4640137742E+001 +8.2915571491E+001
840000000.000 -1.3615159131E+001 -2.2489919005E+001 -4.4678725921E+001 -1.1105499063E+002 -8.2743370651E+001 -3.4090316347E+001 -2.9679731185E+001 +1.2751041014E+002
972500000.000 -1.3526221016E+001 -2.5499913719E+001 -4.4895895032E+001 -1.4698830794E+002 -8.0579225374E+001 +1.4564799999E+002 -2.5908557407E+001 +1.3511290095E+002
1105000000.000 -1.3448776335E+001 -2.8662970841E+001 -4.4850511106E+001 +1.7845255191E+002 -8.2916650080E+001 -1.7805861478E+002 -2.4367906854E+001 +1.4064511751E+002
1237500000.000 -1.3324237209E+001 -3.1544960846E+001 -4.5044927125E+001 +1.4278678401E+002 -7.8815051631E+001 -4.0547363803E+001 -2.3383361265E+001 +1.4989952479E+002
1370000000.000 -1.3254586541E+001 -3.4489779520E+001 -4.5066545332E+001 +1.0790236903E+002 -8.5720038069E+001 +4.8222287904E+001 -2.2050641722E+001 +1.5983623906E+002
1502500000.000 -1.3272584572E+001 -3.6655920465E+001 -4.4843965255E+001 +7.2720273592E+001 -9.0134517179E+001 -1.0940343596E+002 -2.0859170594E+001 +1.6624992873E+002
1635000000.000 -1.3009874523E+001 -3.9590071878E+001 -4.5148231058E+001 +3.6844199154E+001 -8.4140286214E+001 +2.4932862757E+000 -2.0011713392E+001 +1.7320155620E+002
1767500000.000 -1.2924057465E+001 -4.2221868390E+001 -4.4996733088E+001 +2.2491680978E+000 -8.8344159978E+001 +2.7438204689E+001 -1.8994235614E+001 +1.7832561718E+002
1900000000.000 -1.3014869242E+001 -4.3632023225E+001 -4.4293844286E+001 -3.1469589231E+001 -9.2250091652E+001 -1.0371012128E+002 -1.8858045629E+001 -1.7839768507E+002
2032500000.000 -1.2918614281E+001 -4.5734538569E+001 -4.4236143899E+001 -6.6891381372E+001 -9.5561028272E+001 -1.0125909575E+001 -1.8650877881E+001 -1.6805187973E+002
2165000000.000 -1.2783061941E+001 -4.7493413540E+001 -4.3942963238E+001 -1.0309408545E+002 -8.0675292509E+001 +2.5953228846E+001 -1.7723815134E+001 -1.6120712674E+002
2297500000.000 -1.2793383575E+001 -4.9023755383E+001 -4.3423531131E+001 -1.3584239787E+002 -8.7186950891E+001 -6.2275057523E+000 -1.7226264818E+001 -1.5717636068E+002
2430000000.000 -1.2677164380E+001 -5.0703180321E+001 -4.3250908401E+001 -1.7144576270E+002 -7.6565090538E+001 +8.6951557120E+001 -1.6910012797E+001 -1.5293088937E+002
2562500000.000 -1.2455834760E+001 -5.2742387231E+001 -4.3337792582E+001 +1.5433483202E+002 -8.1450929150E+001 +6.1672592493E+001 -1.6794018843E+001 -1.5076604538E+002
2695000000.000 -1.2449119004E+001 -5.4873911108E+001 -4.2983840683E+001 +1.2131123965E+002 -7.3876379084E+001 +1.5505102434E+002 -1.7366047705E+001 -1.4731713848E+002
2827500000.000 -1.2364222825E+001 -5.6696995613E+001 -4.2986749169E+001 +8.7525427198E+001 -9.2180915537E+001 -6.3282654505E+001 -1.7823770885E+001 -1.4032359883E+002
2960000000.000 -1.2132723613E+001 -5.8718952047E+001 -4.3191847635E+001 +5.2139376583E+001 -8.4811574845E+001 +8.7436208162E+000 -1.8108012654E+001 -1.3575949037E+002
3092500000.000 -1.2007023847E+001 -6.0876207327E+001 -4.3240658645E+001 +1.7020177201E+001 -7.3992522996E+001 +1.4983327038E+002 -1.9087234154E+001 -1.2967607908E+002
3225000000.000 -1.1926421601E+001 -6.3000477275E+001 -4.2979883360E+001 -1.6217236116E+001 -7.5404406111E+001 -1.0966617385E+002 -1.9564065257E+001 -1.1966495474E+002
3357500000.000 -1.1818080512E+001 -6.4541637205E+001 -4.2984947966E+001 -4.9499409634E+001 -7.5912427306E+001 -1.2601690553E+001 -1.9894821827E+001 -1.1456083080E+002
3490000000.000 -1.1629382916E+001 -6.6084072714E+001 -4.2730869875E+001 -8.4273584750E+001 -7.7961719343E+001 +1.5389996622E+002 -2.1109102610E+001 -1.0895404191E+002
3622500000.000 -1.1470021772E+001 -6.7778114841E+001 -4.2569397793E+001 -1.1827339507E+002 -8.2510983273E+001 -1.7815863791E+002 -2.1919125891E+001 -9.8175979988E+001
3755000000.000 -1.1238553069E+001 -6.9344317835E+001 -4.2368667264E+001 -1.5601164090E+002 -7.9571055751E+001 -1.5903536896E+001 -2.2629785793E+001 -9.4676667293E+001
3887500000.000 -1.0952880107E+001 -7.0696704115E+001 -4.2326220087E+001 +1.6393270724E+002 -8.1625112840E+001 +1.1173689262E+002 -2.4964683334E+001 -8.8437880615E+001
4020000000.000 -1.0744674156E+001 -7.1790800200E+001 -4.2216227654E+001 +1.2531325163E+002 -8.8581620342E+001 -1.2182946207E+002 -2.6665583793E+001 -7.3424998384E+001
4152500000.000 -1.0415002070E+001 -7.3198537713E+001 -4.2323729082E+001 +8.4730260631E+001 -8.8147455536E+001 -1.2327111241E+002 -2.8774008959E+001 -6.4781147169E+001
4285000000.000 -1.0109745416E+001 -7.5143429007E+001 -4.2671073977E+001 +4.2821334194E+001 -8.0624659949E+001 +9.9320923123E+001 -3.3210778451E+001 -3.8935923768E+001
4417500000.000 -9.8965345905E+000 -7.6853650871E+001 -4.2707615412E+001 +2.5307218268E+000 -9.0086234854E+001 +1.3827842856E+002 -3.1767726217E+001 +7.4420912301E+000
4550000000.000 -9.6863482854E+000 -7.8183306880E+001 -4.3034626796E+001 -3.6045747140E+001 -8.4848444020E+001 -9.4456206517E+001 -3.0233968777E+001 +1.7727088952E+001
4682500000.000 -9.4663901144E+000 -8.0202573582E+001 -4.3767530595E+001 -7.5752107578E+001 -9.0688272037E+001 -6.7143663794E+001 -2.9661338735E+001 +3.8030939725E+001
4815000000.000 -9.3080197755E+000 -8.1972794899E+001 -4.4005813588E+001 -1.1338065285E+002 -9.2722052249E+001 +8.1836430836E+000 -2.7620412415E+001 +4.0783987952E+001
4947500000.000 -9.1675181522E+000 -8.3148547117E+001 -4.3959736518E+001 -1.5086376372E+002 -8.6543319930E+001 -1.1012835788E+002 -2.9316082568E+001 +3.5028785664E+001
5080000000.000 -9.0301650861E+000 -8.4532240431E+001 -4.4467929477E+001 +1.7131863327E+002 -8.3656736613E+001 +2.6920613908E+001 -3.2201343648E+001 +5.6088876463E+001
5212500000.000 -8.8990481582E+000 -8.6014680708E+001 -4.4675055942E+001 +1.3406840305E+002 -9.1427721824E+001 +5.9606555901E+001 -3.1524770404E+001 +6.8604361747E+001
5345000000.000 -8.7967769494E+000 -8.7146489674E+001 -4.4466779671E+001 +9.5479860920E+001 -8.9741246591E+001 -8.2701488657E+001 -3.5332512779E+001 +6.9411071917E+001
5477500000.000 -8.7126493624E+000 -8.8102124763E+001 -4.4705119819E+001 +5.7306393614E+001 -8.3290249538E+001 +1.0987044501E+002 -3.7482543572E+001 +1.3128171297E+002
5610000000.000 -8.6109944116E+000 -8.9241315895E+001 -4.5253087496E+001 +2.0834425135E+001 -8.4906178384E+001 +1.4374252875E+002 -3.3666936382E+001 +1.3490029693E+002
5742500000.000 -8.5276673331E+000 -9.0382712940E+001 -4.5146165129E+001 -1.6747278795E+001 -9.0920527320E+001 -1.4964660227E+002 -3.8001562931E+001 +1.5050603652E+002
5875000000.000 -8.4747937283E+000 -9.1310595611E+001 -4.5060489761E+001 -5.3199084457E+001 -8.3580313945E+001 -7.2814801793E+001 -3.3931611660E+001 -1.7025581772E+002
6007500000.000 -8.4156101230E+000 -9.2318140108E+001 -4.5485219570E+001 -9.1785577939E+001 -8.6416999669E+001 +1.1759320104E+002 -3.2700989185E+001 +1.7928781913E+002
6140000000.000 -8.3337957848E+000 -9.3182868220E+001 -4.5803823310E+001 -1.2656771539E+002 -9.1018877663E+001 +4.6849167546E+001 -3.6250557660E+001 -1.7113769261E+002
6272500000.000 -8.2512569650E+000 -9.4242322850E+001 -4.5482753304E+001 -1.6200682868E+002 -8.8177135774E+001 +2.1509687992E+000 -3.4073011387E+001 -1.4427130381E+002
6405000000.000 -8.2406952149E+000 -9.5367767020E+001 -4.5827466930E+001 +1.6288076930E+002 -9.0403047083E+001 -2.2960462916E+001 -3.3833301208E+001 -1.6182331456E+002
6537500000.000 -8.1929930534E+000 -9.5940721454E+001 -4.6275877906E+001 +1.2697906395E+002 -8.8208368559E+001 -1.6878322781E+002 -3.9986897861E+001 -1.6218445021E+002
6670000000.000 -8.0633208780E+000 -9.6718107749E+001 -4.5929920103E+001 +9.2704705864E+001 -8.4612638750E+001 -4.8230803226E+001 -3.9609533539E+001 -1.3957605690E+002
6802500000.000 -7.9933611291E+000 -9.7971522793E+001 -4.6286230506E+001 +5.7408469012E+001 -9.5665128428E+001 +2.2391852755E+001 -3.9069167180E+001 +1.7825708418E+002
6935000000.000 -8.0219336967E+000 -9.8917229907E+001 -4.7282750179E+001 +2.1742741482E+001 -8.6887648202E+001 -1.7315113818E+002 -3.8647520640E+001 +1.2394362432E+002
7067500000.000 -7.9277665938E+000 -9.9292253498E+001 -4.6923039074E+001 -1.3074590546E+001 -8.9587985071E+001 +1.1578921675E+002 -3.8675553759E+001 +1.1694165349E+002
7200000000.000 -7.7975298602E+000 -1.0007322829E+002 -4.6498321915E+001 -4.7843395735E+001 -9.3367213722E+001 +1.5374074581E+002 -3.2711660880E+001 +1.3065174481E+002
7332500000.000 -7.7577745819E+000 -1.0116962203E+002 -4.7046593029E+001 -8.2485611590E+001 -8.3859660858E+001 +5.8088294339E+001 -2.9182336528E+001 +1.1896478595E+002
7465000000.000 -7.7154048616E+000 -1.0176508135E+002 -4.7161712614E+001 -1.1720740362E+002 -8.3727679555E+001 -1.4873553126E+001 -2.8640846176E+001 +1.2361589005E+002
7597500000.000 -7.5941031462E+000 -1.0227011622E+002 -4.6348857084E+001 -1.5061689899E+002 -8.3816832368E+001 -2.1880446157E+001 -2.6032603962E+001 +1.3743980651E+002
7730000000.000 -7.5199575487E+000 -1.0302015994E+002 -4.7205476315E+001 +1.7297752146E+002 -8.8238202320E+001 +9.2386746952E+001 -2.3761201295E+001 +1.3755186704E+002
7862500000.000 -7.4889637438E+000 -1.0367516782E+002 -4.8276608783E+001 +1.3843618070E+002 -8.8371548980E+001 +1.4986782447E+002 -2.3324383104E+001 +1.4195257341E+002
7995000000.000 -7.4048120197E+000 -1.0404121693E+002 -4.7454185128E+001 +1.0406125254E+002 -9.2181445090E+001 -1.1710345656E+002 -2.1775920105E+001 +1.5449030959E+002
8127500000.000 -7.2917036172E+000 -1.0444664920E+002 -4.7764923566E+001 +7.0768190950E+001 -8.4133145666E+001 +5.6744856414E+001 -2.0031646237E+001 +1.5626046454E+002
8260000000.000 -7.2494718421E+000 -1.0519169682E+002 -4.8541677640E+001 +3.6050331006E+001 -8.5141614982E+001 -1.5945456611E+002 -1.9889971526E+001 +1.6031467345E+002
8392500000.000 -7.1865635158E+000 -1.0543804841E+002 -4.8231977911E+001 +2.4835827300E+000 -9.6518289207E+001 -5.0451592853E+001 -1.9045827614E+001 +1.7048809922E+002
8525000000.000 -7.1182482420E+000 -1.0568267433E+002 -4.8237991609E+001 -3.1882208070E+001 -8.2468557161E+001 +1.4982751576E+001 -1.8204273256E+001 +1.7284676413E+002
8657500000.000 -7.0583644634E+000 -1.0608830417E+002 -4.8855237660E+001 -6.7076349160E+001 -8.7941020215E+001 -1.0627053555E+002 -1.8565504111E+001 +1.7800214168E+002
8790000000.000 -6.9939855882E+000 -1.0645720123E+002 -4.9142560382E+001 -1.0168104327E+002 -8.6999508643E+001 -1.0603859437E+002 -1.8330713174E+001 -1.7180944967E+002
8922500000.000 -6.9591756536E+000 -1.0683676116E+002 -4.9017940672E+001 -1.3448985679E+002 -8.2903699551E+001 +2.2368626785E+000 -1.8001162557E+001 -1.6610525642E+002
9055000000.000 -6.9115241224E+000 -1.0708820005E+002 -4.9527933270E+001 -1.6868164268E+002 -8.9365708840E+001 +1.3266124665E+002 -1.8440744267E+001 -1.5823047275E+002
9187500000.000 -6.8716066999E+000 -1.0745975157E+002 -4.9957933947E+001 +1.5780622815E+002 -9.4507142989E+001 +1.2504033166E+002 -1.8356439563E+001 -1.4657081071E+002
9320000000.000 -6.8199811383E+000 -1.0809363591E+002 -4.9794034116E+001 +1.2394220734E+002 -8.8108652590E+001 +2.2413355813E+001 -1.8237412101E+001 -1.3980240814E+002
9452500000.000 -6.7918684572E+000 -1.0850202359E+002 -5.0024871286E+001 +9.0558859823E+001 -8.4504359224E+001 +1.3761200126E+002 -1.8836685690E+001 -1.3034479978E+002
9585000000.000 -6.7461808160E+000 -1.0881665455E+002 -5.0562605473E+001 +5.6591152180E+001 -9.8146039445E+001 +1.7123499389E+002 -1.8736180651E+001 -1.1847955292E+002
9717500000.000 -6.6690491673E+000 -1.0942341791E+002 -5.0442358654E+001 +2.2164786732E+001 -8.5342350782E+001 -4.0623777432E+001 -1.8856368592E+001 -1.1134634049E+002
9850000000.000 -6.6470190515E+000 -1.1021511423E+002 -5.0825048984E+001 -1.2273250092E+001 -8.4550187858E+001 +4.0492229207E+001 -1.9656607856E+001 -1.0015864957E+002
9982500000.000 -6.6120117758E+000 -1.1043358529E+002 -5.1247057233E+001 -4.6941516256E+001 -9.3708845498E+001 -1.6994497811E+002 -1.9619438947E+001 -8.6661425035E+001
10115000000.000 -6.5427973647E+000 -1.1083140432E+002 -5.1179065566E+001 -7.9498882830E+001 -9.0415630198E+001 -9.6246753337E+001 -1.9935819635E+001 -7.9457244787E+001
10247500000.000 -6.4881108413E+000 -1.1150159040E+002 -5.1718518707E+001 -1.1361234489E+002 -9.3778895077E+001 +2.6291050250E+001 -2.1155913977E+001 -6.5646344356E+001
10380000000.000 -6.4538088845E+000 -1.1199424340E+002 -5.2034617703E+001 -1.4853808071E+002 -8.5347405422E+001 +1.6653960783E+002 -2.0963303585E+001 -4.9915215577E+001
10512500000.000 -6.4034217993E+000 -1.1244444228E+002 -5.2051368468E+001 +1.7714592696E+002 -8.3164760251E+001 -4.4078722766E+001 -2.1496599939E+001 -4.2402857060E+001
10645000000.000 -6.3627471609E+000 -1.1293493511E+002 -5.2586319041E+001 +1.4350187941E+002 -9.0890867778E+001 +8.0341207559E+000 -2.2830866357E+001 -2.3649835493E+001
10777500000.000 -6.3099771340E+000 -1.1332059927E+002 -5.2907694820E+001 +1.0806265560E+002 -9.3240946767E+001 +2.2504498781E+001 -2.2092876212E+001 -5.9065226863E+000
10910000000.000 -6.2456894508E+000 -1.1378411779E+002 -5.3586450372E+001 +7.4411941482E+001 -1.0022952023E+002 +6.2603053257E+001 -2.2740108300E+001 +3.7090372405E+000
11042500000.000 -6.1817459402E+000 -1.1437304621E+002 -5.3241607756E+001 +4.2634741099E+001 -8.4417044259E+001 +6.0234964498E+000 -2.3468520308E+001 +2.7697381176E+001
11175000000.000 -6.1266348147E+000 -1.1467364645E+002 -5.3789730482E+001 +1.0323674496E+001 -9.3983645172E+001 +7.3561802952E+001 -2.2175243534E+001 +4.2699391954E+001
11307500000.000 -6.0878723974E+000 -1.1496984091E+002 -5.4083636502E+001 -2.4637180221E+001 -8.2512573156E+001 -1.7492815274E+002 -2.2704027014E+001 +5.2737418224E+001
11440000000.000 -6.0305669841E+000 -1.1542669275E+002 -5.4431489348E+001 -5.9122311547E+001 -8.1520404442E+001 -3.5825202483E+000 -2.2567018708E+001 +7.5658145845E+001
11572500000.000 -5.9593130114E+000 -1.1547715467E+002 -5.4555148711E+001 -9.0704301177E+001 -8.7139821706E+001 -9.9995602716E+001 -2.1118539347E+001 +8.6890913206E+001
11705000000.000 -5.9177697954E+000 -1.1583167929E+002 -5.5084207700E+001 -1.2584402843E+002 -8.1447981958E+001 -7.6840193158E+001 -2.1738621104E+001 +9.6867692780E+001
11837500000.000 -5.8573913760E+000 -1.1611841422E+002 -5.5136354388E+001 -1.5892313162E+002 -1.0551628631E+002 -4.0846781727E+001 -2.1075792500E+001 +1.1897314882E+002
11970000000.000 -5.8416451152E+000 -1.1630996576E+002 -5.5306513376E+001 +1.6769042922E+002 -8.5033913095E+001 +4.6462415491E+000 -1.9810248893E+001 +1.2518542708E+002
12102500000.000 -5.8149022198E+000 -1.1638100763E+002 -5.5594442390E+001 +1.3550023470E+002 -8.6030052788E+001 -1.5697957179E+002 -2.0730291144E+001 +1.3548078776E+002
12235000000.000 -5.7618099606E+000 -1.1675025024E+002 -5.5672832857E+001 +1.0095057949E+002 -7.9370259709E+001 -4.6066889476E+001 -1.9689803225E+001 +1.5426590669E+002
12367500000.000 -5.7502760004E+000 -1.1694936209E+002 -5.5994795361E+001 +6.9407155955E+001 -8.2486615918E+001 -1.7234094119E+002 -1.8879233821E+001 +1.5739698141E+002
12500000000.000 -5.7357254059E+000 -1.1746938736E+002 -5.6301610063E+001 +3.2984680633E+001 -9.0859974822E+001 -9.9133986737E+001 -2.0051993851E+001 +1.6846885273E+002
12632500000.000 -5.6878875049E+000 -1.1764732409E+002 -5.6369740259E+001 -1.4324333514E+000 -8.7672227849E+001 -1.0408382663E+002 -1.9050694116E+001 -1.7323029648E+002
12765000000.000 -5.6643019780E+000 -1.1789587506E+002 -5.6829890609E+001 -3.2497194417E+001 -9.2265742646E+001 -5.8341687021E+000 -1.8515102864E+001 -1.7199911918E+002
12897500000.000 -5.6735980088E+000 -1.1837232809E+002 -5.7475596164E+001 -6.8136467155E+001 -9.3728166785E+001 -1.5215164339E+002 -2.0160843026E+001 -1.5916694290E+002
13030000000.000 -5.6495152711E+000 -1.1856673601E+002 -5.7318625932E+001 -1.0186230726E+002 -8.3763255603E+001 -1.0091934564E+002 -1.8708740633E+001 -1.4158525271E+002
13162500000.000 -5.5939324471E+000 -1.1885717875E+002 -5.7406619192E+001 -1.3668784444E+002 -8.1262205745E+001 +4.6550043856E+001 -1.8613015483E+001 -1.4234087311E+002
13295000000.000 -5.5655118625E+000 -1.1921882943E+002 -5.7569467483E+001 -1.7008398958E+002 -8.2772506241E+001 +2.3625509735E+001 -2.0071425374E+001 -1.2769852061E+002
13427500000.000 -5.5515059949E+000 -1.1973604582E+002 -5.7779659143E+001 +1.5704241804E+002 -8.8378893947E+001 -1.0832780107E+002 -1.8737761522E+001 -1.1412407269E+002
13560000000.000 -5.5673707071E+000 -1.1968312576E+002 -5.8481296854E+001 +1.2634432091E+002 -8.9421405005E+001 -6.2767335737E+000 -1.8974974360E+001 -1.1507427408E+002
13692500000.000 -5.5045234881E+000 -1.1983848173E+002 -5.8595921813E+001 +8.9232964037E+001 -8.6345718355E+001 +8.9078170200E+001 -2.0827122085E+001 -1.0144948711E+002
13825000000.000 -5.4583213890E+000 -1.2032851827E+002 -5.9345218527E+001 +5.8694596616E+001 -8.1511915307E+001 -1.4443692645E+002 -1.9663745679E+001 -8.7539125928E+001
13957500000.000 -5.4636381549E+000 -1.2080429029E+002 -5.9105817423E+001 +2.7233333835E+001 -9.4875767485E+001 +7.9950208976E+001 -2.0310046059E+001 -9.0210653627E+001
14090000000.000 -5.4549767315E+000 -1.2092863592E+002 -5.9947773140E+001 -1.5003686578E+001 -8.7451308347E+001 +7.1385990014E+001 -2.2583124019E+001 -7.2789745972E+001
14222500000.000 -5.4065965149E+000 -1.2100957884E+002 -6.0102318212E+001 -4.1686054630E+001 -9.0524447967E+001 -1.7635139837E+001 -2.1233009091E+001 -5.9485538376E+001
14355000000.000 -5.3581911191E+000 -1.2155698016E+002 -5.9893919821E+001 -7.4440855161E+001 -8.5609476748E+001 +1.4189304397E+001 -2.2479349102E+001 -6.3217787402E+001
14487500000.000 -5.3532726218E+000 -1.2179770179E+002 -5.9683987428E+001 -1.1014459974E+002 -9.3397181402E+001 +8.5869586181E+001 -2.5333730142E+001 -4.0053021169E+001
14620000000.000 -5.3146285348E+000 -1.2173676635E+002 -5.9917227556E+001 -1.4063490712E+002 -8.3001964084E+001 -1.5329603879E+002 -2.3261438937E+001 -2.8146788228E+001
14752500000.000 -5.2297846449E+000 -1.2198389300E+002 -6.0636288494E+001 -1.7337453086E+002 -8.5287580212E+001 +1.2801795913E+002 -2.5461484251E+001 -3.5909093463E+001
14885000000.000 -5.2049496507E+000 -1.2236107069E+002 -6.1026898728E+001 +1.5803549746E+002 -9.1492950570E+001 -8.3295782434E+001 -2.8544447420E+001 +2.7834464693E+000
15017500000.000 -5.1893342032E+000 -1.2210997708E+002 -6.0557740288E+001 +1.2484002099E+002 -8.3547493754E+001 +8.0476968593E+001 -2.5363621172E+001 +7.7627018291E+000
15150000000.000 -5.1083469116E+000 -1.2193813663E+002 -6.0990080971E+001 +8.5692001683E+001 -8.1699313668E+001 -6.5336714829E+001 -2.9378028435E+001 -1.8404535185E+000
15282500000.000 -5.0554355602E+000 -1.2207902131E+002 -6.0814409811E+001 +4.8095310655E+001 -8.4812451000E+001 -4.9731904439E+001 -3.0623003508E+001 +5.8284866485E+001
