!  2-Port S-parameters saved by WinCal
! VAR MeasName=S-Parameters (CALIBRATED_DATA) read from VNA (C)
! VAR MeasDate=10/5/2015 6:10:06 PM
! VAR NAME=M6079_2_7_3_2_20C_7.4mA_-17.5dBm
! VAR FILENAME=M6079_2_7_3_2_20C_7.4mA_-17.5dBm.S2P
! VAR DATE=10/5/2015 6:10:06 PM
! VAR PHYS_PORTS=2,1
! VAR ObjTypeName=DATASET
! VAR IndexType=Frequency
!
# Hz S DB R 50
45000000.000 -2.7439938089E+001 -3.6546089086E-001 -4.2607877488E+001 +1.0484326112E+002 -5.9347050354E+001 +8.1687116603E+001 -3.0979528667E+001 +3.2492464834E+000
177500000.000 -2.7249281794E+001 -9.8067053498E+000 -4.3447667735E+001 +7.0713117784E+001 -8.3359831089E+001 +6.8017107315E+001 -3.2536288123E+001 +4.5571024502E+001
310000000.000 -2.6885377162E+001 -1.7974540083E+001 -4.3512024097E+001 +3.9459913226E+001 -7.4393208106E+001 -1.2304310604E+002 -2.3327443743E+001 +6.4194135483E+001
442500000.000 -2.6350185046E+001 -2.5755862637E+001 -4.2680489134E+001 +1.3857529089E+000 -7.9530886851E+001 -2.2306109112E+001 -2.2356598432E+001 +1.7068582814E+001
575000000.000 -2.5693294476E+001 -3.3436124412E+001 -4.3082082654E+001 -3.3767323372E+001 -8.3427946552E+001 +1.1867175707E+002 -3.0525379131E+001 +2.2373744869E+001
707500000.000 -2.5137886270E+001 -3.9507515088E+001 -4.3242314157E+001 -6.7758656004E+001 -8.2829055344E+001 -1.3877792222E+002 -3.4520500072E+001 +8.2649574169E+001
840000000.000 -2.4367998684E+001 -4.4989778194E+001 -4.3483902060E+001 -1.0213337156E+002 -1.0814549623E+002 -1.2602173656E+002 -2.9674674310E+001 +1.2741982224E+002
972500000.000 -2.3667653928E+001 -4.9699034562E+001 -4.3476920071E+001 -1.3583750099E+002 -8.9069015470E+001 +3.4606661247E+001 -2.5905334392E+001 +1.3495729659E+002
1105000000.000 -2.3002002656E+001 -5.4273679298E+001 -4.3690682370E+001 -1.6943745759E+002 -8.5524524051E+001 -1.7265394123E+002 -2.4355979796E+001 +1.4051811738E+002
1237500000.000 -2.2390918700E+001 -5.7720641351E+001 -4.3473936717E+001 +1.5695580046E+002 -8.1693593564E+001 -7.1575714825E+001 -2.3386927921E+001 +1.4991759637E+002
1370000000.000 -2.1765947373E+001 -6.1274750130E+001 -4.3557278524E+001 +1.2166276501E+002 -8.7246922058E+001 +1.3001045878E+002 -2.2044349153E+001 +1.5979549198E+002
1502500000.000 -2.1196789659E+001 -6.3979057257E+001 -4.3742069043E+001 +8.7809517945E+001 -8.6701981070E+001 -6.8598998954E+001 -2.0844644900E+001 +1.6623367592E+002
1635000000.000 -2.0588414596E+001 -6.6199469071E+001 -4.3766248040E+001 +5.5211541804E+001 -1.0518741106E+002 +4.8270520137E+000 -2.0006828051E+001 +1.7313490050E+002
1767500000.000 -2.0013945715E+001 -6.8860011844E+001 -4.3747963917E+001 +2.1028904360E+001 -8.3097563271E+001 +1.5859209541E+002 -1.8992422659E+001 +1.7831623118E+002
1900000000.000 -1.9577453631E+001 -7.0627522066E+001 -4.3744538141E+001 -1.4567542613E+001 -8.5142344631E+001 -1.3908629711E+002 -1.8854698034E+001 -1.7843088128E+002
2032500000.000 -1.9117997769E+001 -7.2459268848E+001 -4.3644057865E+001 -4.8522987730E+001 -8.3969774653E+001 -1.1669545880E+002 -1.8664856446E+001 -1.6805342494E+002
2165000000.000 -1.8576451213E+001 -7.3929477635E+001 -4.3827043058E+001 -8.1371952238E+001 -8.0203089923E+001 +2.9925372284E+001 -1.7724544275E+001 -1.6121081989E+002
2297500000.000 -1.8189453917E+001 -7.5761487356E+001 -4.3663658479E+001 -1.1459650506E+002 -9.1021163961E+001 -1.7730013972E+002 -1.7228948906E+001 -1.5721027070E+002
2430000000.000 -1.7811443064E+001 -7.7001308516E+001 -4.3882689222E+001 -1.4873659434E+002 -7.5859569787E+001 -2.8483127460E+001 -1.6899435241E+001 -1.5293560713E+002
2562500000.000 -1.7383280832E+001 -7.8298071254E+001 -4.4153804398E+001 +1.7776487889E+002 -7.9137027935E+001 +1.6760073517E+002 -1.6803200182E+001 -1.5078760040E+002
2695000000.000 -1.7080804099E+001 -8.0121214500E+001 -4.4290862789E+001 +1.3929404700E+002 -8.2170448039E+001 +1.2251953251E+002 -1.7360366205E+001 -1.4740819821E+002
2827500000.000 -1.6849586861E+001 -8.1399752363E+001 -4.4245888091E+001 +1.0262084691E+002 -8.3127645842E+001 +1.2474788400E+002 -1.7817878754E+001 -1.4036465225E+002
2960000000.000 -1.6508403354E+001 -8.2238390075E+001 -4.4639537584E+001 +7.1839198623E+001 -7.4840680808E+001 +4.5393321065E+001 -1.8105938334E+001 -1.3584879188E+002
3092500000.000 -1.6112925513E+001 -8.3767807409E+001 -4.4417422052E+001 +3.8705218298E+001 -8.1028336384E+001 +3.6810310672E+001 -1.9090149180E+001 -1.2971761805E+002
3225000000.000 -1.5849849907E+001 -8.5514387159E+001 -4.4778800460E+001 +2.7409541595E+000 -9.6518281164E+001 -1.6481258602E+002 -1.9570798153E+001 -1.1977171615E+002
3357500000.000 -1.5639460199E+001 -8.6391150502E+001 -4.4637107404E+001 -2.8511726513E+001 -7.7541728131E+001 -3.1834561712E+001 -1.9892386043E+001 -1.1471498192E+002
3490000000.000 -1.5297888885E+001 -8.7330439406E+001 -4.4432403162E+001 -6.1865538278E+001 -8.2014818725E+001 -3.5967608671E+001 -2.1106928117E+001 -1.0918553304E+002
3622500000.000 -1.4960213734E+001 -8.8673639838E+001 -4.4672849038E+001 -9.6315132384E+001 -8.8164139598E+001 -1.3067512146E+001 -2.1941444190E+001 -9.8302103199E+001
3755000000.000 -1.4677090742E+001 -8.9846049493E+001 -4.4341502671E+001 -1.2847341827E+002 -8.2812219418E+001 -8.9159080978E+001 -2.2629161076E+001 -9.4798035860E+001
3887500000.000 -1.4413847175E+001 -9.0806541139E+001 -4.4457153213E+001 -1.6236104532E+002 -9.1846835247E+001 +1.0389247658E+002 -2.4967227057E+001 -8.8485841381E+001
4020000000.000 -1.4184581787E+001 -9.1633892650E+001 -4.4404517385E+001 +1.6363772453E+002 -8.5700643073E+001 +1.5424919888E+002 -2.6669283110E+001 -7.3707482759E+001
4152500000.000 -1.3893888800E+001 -9.2268725347E+001 -4.4145674475E+001 +1.2913465468E+002 -8.6526777257E+001 -1.1976003535E+002 -2.8753335056E+001 -6.5027055674E+001
4285000000.000 -1.3616439518E+001 -9.3252968235E+001 -4.4328926507E+001 +9.6195672538E+001 -8.6462137841E+001 +1.5118468042E+002 -3.3170262158E+001 -3.9410071409E+001
4417500000.000 -1.3413126875E+001 -9.4234428315E+001 -4.4282792647E+001 +6.3249898502E+001 -8.5540483768E+001 -1.4947752038E+002 -3.1800391432E+001 +6.9024655534E+000
4550000000.000 -1.3195786432E+001 -9.4598288040E+001 -4.4513936163E+001 +2.9518664688E+001 -8.9363280723E+001 -9.8499129336E+001 -3.0255977622E+001 +1.7403920708E+001
4682500000.000 -1.2937383244E+001 -9.5179159535E+001 -4.4343664010E+001 -3.4324612159E+000 -8.6153732966E+001 +7.4276104996E+001 -2.9694001185E+001 +3.7557506073E+001
4815000000.000 -1.2722164901E+001 -9.6163721529E+001 -4.4296930369E+001 -3.6738615024E+001 -8.0816546158E+001 +1.1256124436E+002 -2.7640127820E+001 +4.0275640333E+001
4947500000.000 -1.2550205334E+001 -9.6488223480E+001 -4.4335589858E+001 -7.0146666997E+001 -8.6714695338E+001 +1.6643871042E+002 -2.9335177410E+001 +3.4338212312E+001
5080000000.000 -1.2338839282E+001 -9.6745038628E+001 -4.4159837209E+001 -1.0374207594E+002 -9.1230327294E+001 +6.8238303528E+001 -3.2264573572E+001 +5.5096349528E+001
5212500000.000 -1.2118581140E+001 -9.7439242048E+001 -4.4006545917E+001 -1.3729256951E+002 -9.1201540400E+001 +1.4788267260E+002 -3.1602726685E+001 +6.7972074303E+001
5345000000.000 -1.1982120129E+001 -9.8069192793E+001 -4.3950004157E+001 -1.7134597779E+002 -8.5906307513E+001 +1.5349335717E+002 -3.5387177581E+001 +6.8050633771E+001
5477500000.000 -1.1831601352E+001 -9.8141688767E+001 -4.3957359739E+001 +1.5472709398E+002 -8.9053470320E+001 -3.2477923604E+001 -3.7680862495E+001 +1.3084430074E+002
5610000000.000 -1.1636162595E+001 -9.8512446171E+001 -4.3793837111E+001 +1.2045032305E+002 -8.6147077728E+001 +9.2751549382E+001 -3.3813974121E+001 +1.3454035469E+002
5742500000.000 -1.1500598479E+001 -9.9237589540E+001 -4.3713900731E+001 +8.5770801161E+001 -8.2737033595E+001 -1.3908841666E+002 -3.8182047571E+001 +1.4970783025E+002
5875000000.000 -1.1398907944E+001 -9.9685507010E+001 -4.3881255967E+001 +5.1478606414E+001 -8.8574429380E+001 +2.2119979056E+001 -3.4118307462E+001 -1.6997995898E+002
6007500000.000 -1.1273432834E+001 -9.9967553618E+001 -4.3747746905E+001 +1.7633545238E+001 -9.2748317737E+001 +3.4038781607E+001 -3.2807237940E+001 +1.7917639558E+002
6140000000.000 -1.1102497331E+001 -1.0043455093E+002 -4.3872459219E+001 -1.6855367036E+001 -8.4452291180E+001 -1.3944450965E+002 -3.6424223398E+001 -1.7146824985E+002
6272500000.000 -1.0964077513E+001 -1.0126146505E+002 -4.3969578355E+001 -5.0877571140E+001 -8.4836585769E+001 -1.9468031711E+001 -3.4221066035E+001 -1.4430328832E+002
6405000000.000 -1.0892545670E+001 -1.0205623891E+002 -4.4037132211E+001 -8.4254574370E+001 -9.0854177641E+001 +3.0257777312E+001 -3.3965738858E+001 -1.6240611679E+002
6537500000.000 -1.0775150288E+001 -1.0219799336E+002 -4.3985123591E+001 -1.1915054027E+002 -9.4162214031E+001 -8.4557196825E+000 -4.0204222683E+001 -1.6349365208E+002
6670000000.000 -1.0587362842E+001 -1.0262345836E+002 -4.4014957559E+001 -1.5276085488E+002 -8.9036730718E+001 +4.7524343982E+001 -3.9893078797E+001 -1.4074002398E+002
6802500000.000 -1.0430375454E+001 -1.0365505699E+002 -4.4168484986E+001 +1.7304720286E+002 -9.4762569951E+001 -2.6945032657E+001 -3.9116730372E+001 +1.7732381304E+002
6935000000.000 -1.0385683264E+001 -1.0435799259E+002 -4.4139065866E+001 +1.3932091526E+002 -8.4710748100E+001 +1.6853526699E+002 -3.8500888064E+001 +1.2360908910E+002
7067500000.000 -1.0262404628E+001 -1.0439838026E+002 -4.4231033447E+001 +1.0527715412E+002 -8.5213784266E+001 +3.2911582992E+001 -3.8408887026E+001 +1.1691093769E+002
7200000000.000 -1.0074037036E+001 -1.0492692687E+002 -4.4217594072E+001 +7.0874960040E+001 -9.0006765076E+001 -1.6607207707E+001 -3.2652710973E+001 +1.3027367719E+002
7332500000.000 -9.9520669597E+000 -1.0587703830E+002 -4.4315005911E+001 +3.7351227626E+001 -8.8963657430E+001 +9.8329192314E+001 -2.9129108355E+001 +1.1909984607E+002
7465000000.000 -9.8668344216E+000 -1.0624757183E+002 -4.4406431761E+001 +3.5869483735E+000 -8.8779676698E+001 +1.6870732079E+002 -2.8598088203E+001 +1.2364602429E+002
7597500000.000 -9.7173671648E+000 -1.0650084516E+002 -4.4354524941E+001 -3.0855461682E+001 -9.3496464662E+001 +3.1413893150E+001 -2.6025959234E+001 +1.3730173558E+002
7730000000.000 -9.5582701808E+000 -1.0705134211E+002 -4.4465737641E+001 -6.3203053681E+001 -8.2437223311E+001 +1.0716235557E+002 -2.3735974793E+001 +1.3754446150E+002
7862500000.000 -9.4565049988E+000 -1.0747734313E+002 -4.4462000167E+001 -9.7513014758E+001 -1.0038383512E+002 -1.6614839554E+002 -2.3299134722E+001 +1.4196302337E+002
7995000000.000 -9.3597281948E+000 -1.0760329169E+002 -4.4637719549E+001 -1.3190443020E+002 -8.9595139603E+001 -1.3523232508E+002 -2.1771103866E+001 +1.5431231514E+002
8127500000.000 -9.1825903722E+000 -1.0776173569E+002 -4.4592959171E+001 -1.6521939070E+002 -8.0277871555E+001 +8.3467116889E+000 -2.0039270677E+001 +1.5627671113E+002
8260000000.000 -9.0823168176E+000 -1.0839325858E+002 -4.4586004487E+001 +1.6135191511E+002 -8.6465040078E+001 -8.4496623564E+001 -1.9884829545E+001 +1.6023286304E+002
8392500000.000 -8.9929832109E+000 -1.0838512100E+002 -4.4468191214E+001 +1.2724691329E+002 -9.4359561423E+001 +1.6288558977E+002 -1.9048995336E+001 +1.7032962905E+002
8525000000.000 -8.8867054343E+000 -1.0846109793E+002 -4.4591570690E+001 +9.3295146850E+001 -9.3980681116E+001 +2.6689160811E+001 -1.8207591766E+001 +1.7273647858E+002
8657500000.000 -8.7720862414E+000 -1.0866341118E+002 -4.4565024782E+001 +5.9149968663E+001 -8.5683348712E+001 +1.6113328765E+002 -1.8561271588E+001 +1.7784559004E+002
8790000000.000 -8.6713658815E+000 -1.0885359686E+002 -4.4562159137E+001 +2.5264436318E+001 -8.7624238311E+001 -1.4565913099E+002 -1.8341921356E+001 -1.7198303286E+002
8922500000.000 -8.6075036225E+000 -1.0912610532E+002 -4.4578184265E+001 -8.5005581482E+000 -7.9585891099E+001 +6.0751883904E+001 -1.8011048298E+001 -1.6624665784E+002
9055000000.000 -8.5179721904E+000 -1.0924065332E+002 -4.4680026220E+001 -4.2583798983E+001 -8.8768467064E+001 +1.2388082854E+001 -1.8454424212E+001 -1.5841294634E+002
9187500000.000 -8.4522939335E+000 -1.0946505846E+002 -4.4664559613E+001 -7.5526712859E+001 -8.6860432740E+001 -1.6872188289E+002 -1.8368447892E+001 -1.4681332497E+002
9320000000.000 -8.3724161433E+000 -1.0999289856E+002 -4.4742762107E+001 -1.1072579732E+002 -9.1747659127E+001 +1.3961172392E+001 -1.8244792325E+001 -1.3997378812E+002
9452500000.000 -8.3081417341E+000 -1.1028014643E+002 -4.4636269129E+001 -1.4447532096E+002 -8.9487434858E+001 +1.3299630344E+002 -1.8824928073E+001 -1.3056236526E+002
9585000000.000 -8.2342321668E+000 -1.1053148819E+002 -4.4640440384E+001 -1.7779695396E+002 -9.1364078399E+001 +4.8132978412E+001 -1.8740240318E+001 -1.1876979400E+002
9717500000.000 -8.1225341322E+000 -1.1102631751E+002 -4.4680117213E+001 +1.4817852137E+002 -8.0570123885E+001 -1.4182181634E+001 -1.8854711336E+001 -1.1161998739E+002
9850000000.000 -8.0732400004E+000 -1.1172902950E+002 -4.4836656828E+001 +1.1352194895E+002 -8.3278265294E+001 +1.1712404043E+002 -1.9643356082E+001 -1.0048628215E+002
9982500000.000 -8.0123610993E+000 -1.1184183886E+002 -4.4741330620E+001 +8.0259738942E+001 -8.1432401122E+001 -1.6456010028E+002 -1.9611814999E+001 -8.7001383770E+001
10115000000.000 -7.9160992723E+000 -1.1214672605E+002 -4.4866690290E+001 +4.7243555196E+001 -8.9730925290E+001 -4.2971725848E+001 -1.9931541011E+001 -7.9846052007E+001
10247500000.000 -7.8307378562E+000 -1.1275007939E+002 -4.4799497874E+001 +1.3015433569E+001 -7.9146245103E+001 +4.3659256431E+001 -2.1133507944E+001 -6.6005145532E+001
10380000000.000 -7.7719974748E+000 -1.1316404165E+002 -4.5016510238E+001 -2.1121210560E+001 -8.1347302485E+001 -1.5874523550E+002 -2.0946076226E+001 -5.0460918984E+001
10512500000.000 -7.6948288487E+000 -1.1352654820E+002 -4.4875405215E+001 -5.3673684722E+001 -8.3384343382E+001 +1.4092803188E+001 -2.1477128782E+001 -4.2921146220E+001
10645000000.000 -7.6300513102E+000 -1.1397317286E+002 -4.4795256587E+001 -8.8445752699E+001 -8.7704485733E+001 +1.6593520221E+001 -2.2832291067E+001 -2.4047967369E+001
10777500000.000 -7.5541701272E+000 -1.1426560368E+002 -4.4844059087E+001 -1.2139914010E+002 -9.1871939850E+001 +1.1067486818E+002 -2.2089059428E+001 -6.4491743976E+000
10910000000.000 -7.4588954922E+000 -1.1467483616E+002 -4.4975863355E+001 -1.5451186735E+002 -8.5939652570E+001 +1.7573931429E+002 -2.2736758799E+001 +2.9545412282E+000
11042500000.000 -7.3661233427E+000 -1.1517352452E+002 -4.4882078252E+001 +1.7105615252E+002 -8.5443921605E+001 +1.2920063246E+001 -2.3469192155E+001 +2.7000796456E+001
11175000000.000 -7.2904669728E+000 -1.1542549586E+002 -4.4928191313E+001 +1.3720835980E+002 -8.6194009540E+001 +1.2624974057E+002 -2.2159113304E+001 +4.2144274443E+001
11307500000.000 -7.2298566821E+000 -1.1566803801E+002 -4.4804377002E+001 +1.0460538621E+002 -9.1175841442E+001 -7.1886419344E+001 -2.2698375229E+001 +5.2109324249E+001
11440000000.000 -7.1480697997E+000 -1.1602014823E+002 -4.4822974286E+001 +7.1246665117E+001 -8.4528505763E+001 -3.2582725033E+001 -2.2590484526E+001 +7.5052267454E+001
11572500000.000 -7.0519619836E+000 -1.1602350265E+002 -4.4901709125E+001 +3.7056762898E+001 -8.4705039902E+001 +9.0251319804E+001 -2.1141814993E+001 +8.6325705877E+001
11705000000.000 -6.9949303938E+000 -1.1633060658E+002 -4.4752538823E+001 +2.4916039979E+000 -8.2491670629E+001 +1.5922462817E+002 -2.1758551671E+001 +9.6088989403E+001
11837500000.000 -6.9177631798E+000 -1.1651476207E+002 -4.4767569355E+001 -2.9939958716E+001 -8.1470554820E+001 -2.6338921993E+001 -2.1105651204E+001 +1.1827604112E+002
11970000000.000 -6.8880982366E+000 -1.1666355831E+002 -4.4980249005E+001 -6.3886940810E+001 -8.5072840786E+001 +6.0887028334E+001 -1.9824414966E+001 +1.2464774008E+002
12102500000.000 -6.8461475831E+000 -1.1667340292E+002 -4.4951578958E+001 -9.8559194310E+001 -7.9229963091E+001 +1.7090216210E+002 -2.0740018582E+001 +1.3490070649E+002
12235000000.000 -6.7767318932E+000 -1.1697624356E+002 -4.4806532788E+001 -1.3124112619E+002 -9.1574957713E+001 -1.0844574927E+001 -1.9711283449E+001 +1.5362783134E+002
12367500000.000 -6.7553477188E+000 -1.1713096955E+002 -4.4761621994E+001 -1.6684081341E+002 -7.8814412168E+001 +1.8717449653E+000 -1.8904019135E+001 +1.5683935505E+002
12500000000.000 -6.7237480557E+000 -1.1758343379E+002 -4.4758533991E+001 +1.6001608608E+002 -8.2335713963E+001 +1.0512014512E+002 -2.0062419444E+001 +1.6781145287E+002
12632500000.000 -6.6621624459E+000 -1.1766296940E+002 -4.4732964354E+001 +1.2611795227E+002 -8.4690609520E+001 -7.6091680412E+001 -1.9050321301E+001 -1.7387141606E+002
12765000000.000 -6.6247477954E+000 -1.1792572626E+002 -4.4784109651E+001 +9.2493567084E+001 -8.3420916647E+001 -1.8661120466E+001 -1.8522480853E+001 -1.7253560344E+002
12897500000.000 -6.6240290008E+000 -1.1831637001E+002 -4.4771716161E+001 +5.8350023948E+001 -8.3899053169E+001 +1.1456682377E+002 -2.0174949550E+001 -1.5967469441E+002
13030000000.000 -6.5863406008E+000 -1.1839896509E+002 -4.4850815291E+001 +2.3760772277E+001 -8.4338320614E+001 +1.2954888037E+002 -1.8721430115E+001 -1.4217134404E+002
13162500000.000 -6.5130943876E+000 -1.1868829169E+002 -4.4779039484E+001 -9.6028691748E+000 -8.4354972861E+001 -1.0025835551E+002 -1.8578773581E+001 -1.4292745314E+002
13295000000.000 -6.4705640806E+000 -1.1899110809E+002 -4.4830488627E+001 -4.2828153703E+001 -8.4281658960E+001 +1.4871802675E+002 -2.0045331645E+001 -1.2824804997E+002
13427500000.000 -6.4488812736E+000 -1.1948013020E+002 -4.4902534553E+001 -7.6828939484E+001 -8.3021231081E+001 -1.3526393550E+002 -1.8695852405E+001 -1.1452054338E+002
13560000000.000 -6.4490527793E+000 -1.1935845399E+002 -4.4678905268E+001 -1.1084237377E+002 -8.9647473266E+001 +1.7854919071E+001 -1.8925527255E+001 -1.1562700699E+002
13692500000.000 -6.3742511084E+000 -1.1948126578E+002 -4.4782158559E+001 -1.4598074819E+002 -8.4540529100E+001 +4.6088319588E+001 -2.0793895474E+001 -1.0183549814E+002
13825000000.000 -6.3161514376E+000 -1.1990419477E+002 -4.4830509972E+001 -1.7851568918E+002 -9.2071177333E+001 +1.7475379694E+002 -1.9607697758E+001 -8.7893672211E+001
13957500000.000 -6.3087819262E+000 -1.2041972260E+002 -4.4641203016E+001 +1.4746784660E+002 -8.4420769507E+001 -2.6399110398E+001 -2.0240863172E+001 -9.0611227676E+001
14090000000.000 -6.2934739056E+000 -1.2045255430E+002 -4.4620020939E+001 +1.1395823935E+002 -8.9550925833E+001 +1.4603616633E+002 -2.2517435954E+001 -7.3390269859E+001
14222500000.000 -6.2296077639E+000 -1.2043848263E+002 -4.4788640992E+001 +7.8534308420E+001 -9.0028354480E+001 -1.1575492301E+002 -2.1189179037E+001 -5.9867144466E+001
14355000000.000 -6.1677397820E+000 -1.2104091985E+002 -4.4939552808E+001 +4.4232371878E+001 -8.6851123357E+001 +1.4669946325E+002 -2.2397784509E+001 -6.3378267539E+001
14487500000.000 -6.1523611101E+000 -1.2123289462E+002 -4.4661968546E+001 +9.5986828559E+000 -7.8120718178E+001 +1.0966367584E+001 -2.5213574039E+001 -4.0721625629E+001
14620000000.000 -6.1069199627E+000 -1.2104765020E+002 -4.4652073624E+001 -2.4431207019E+001 -8.2517082477E+001 +7.7538936415E+001 -2.3210589062E+001 -2.8528163408E+001
14752500000.000 -5.9949964867E+000 -1.2131865699E+002 -4.4645596784E+001 -6.0342185497E+001 -8.1903170928E+001 -1.3689813510E+002 -2.5361276145E+001 -3.5963475271E+001
14885000000.000 -5.9722574089E+000 -1.2168006557E+002 -4.4885061397E+001 -9.2697918468E+001 -8.4667732421E+001 +1.0975350877E+001 -2.8412268899E+001 +2.0499289632E+000
15017500000.000 -5.9471790874E+000 -1.2131195092E+002 -4.4905310004E+001 -1.2787097950E+002 -9.5610838317E+001 +6.3983492592E+001 -2.5280950693E+001 +7.1745609917E+000
15150000000.000 -5.8447859657E+000 -1.2109628814E+002 -4.4813691529E+001 -1.6008067821E+002 -8.9724786262E+001 -1.2165655345E+002 -2.9273977579E+001 -1.3256424314E+000
15282500000.000 -5.7780076781E+000 -1.2124078789E+002 -4.5080485027E+001 +1.6331602042E+002 -9.3508960658E+001 -2.0796537525E+001 -3.0477271036E+001 +5.7773827510E+001
