!  2-Port S-parameters saved by WinCal
! VAR MeasName=S-Parameters (CALIBRATED_DATA) read from VNA (C)
! VAR MeasDate=10/5/2015 4:53:45 PM
! VAR NAME=M6079_4_7_3_2_20C_3.8mA_-17.5dBm
! VAR FILENAME=M6079_4_7_3_2_20C_3.8mA_-17.5dBm.S2P
! VAR DATE=10/5/2015 4:53:45 PM
! VAR PHYS_PORTS=2,1
! VAR ObjTypeName=DATASET
! VAR IndexType=Frequency
!
# Hz S DB R 50
45000000.000 -1.8725039225E+001 -8.6814580211E-002 -4.3813821041E+001 +1.0177166011E+002 -6.5038711013E+001 +3.7865487121E+001 -3.0922294242E+001 +4.1039614170E+000
177500000.000 -1.8679739751E+001 -4.5877701863E+000 -4.2994758546E+001 +7.1246724239E+001 -8.9059595514E+001 -1.5271032453E+002 -3.2420083222E+001 +4.5267991830E+001
310000000.000 -1.8595683559E+001 -8.7733044648E+000 -4.3115720324E+001 +3.8752952675E+001 -7.8474468376E+001 -1.4884308303E+002 -2.3315829418E+001 +6.3835862391E+001
442500000.000 -1.8468880591E+001 -1.2953550266E+001 -4.2066225698E+001 +8.3182219937E-001 -8.8657330738E+001 -2.2424801285E+001 -2.2369198610E+001 +1.7091119310E+001
575000000.000 -1.8319879631E+001 -1.7352627731E+001 -4.2610813370E+001 -3.5336494798E+001 -8.4724338039E+001 +7.2885511147E+001 -3.0526071325E+001 +2.2324016776E+001
707500000.000 -1.8197550597E+001 -2.1198179433E+001 -4.2763748411E+001 -6.9308570003E+001 -8.7329206320E+001 -1.6657163692E+002 -3.4557949678E+001 +8.2605858718E+001
840000000.000 -1.7982014533E+001 -2.5179545608E+001 -4.2951632392E+001 -1.0373792518E+002 -8.1939569490E+001 -5.6987878563E+001 -2.9681350264E+001 +1.2741158318E+002
972500000.000 -1.7756661017E+001 -2.8791268303E+001 -4.3041791778E+001 -1.3735329687E+002 -9.2176365893E+001 +1.3177144632E+002 -2.5890550823E+001 +1.3503349562E+002
1105000000.000 -1.7549387753E+001 -3.2609246832E+001 -4.3179216594E+001 -1.7065522968E+002 -8.0996673918E+001 -1.3915773909E+002 -2.4360676317E+001 +1.4051598077E+002
1237500000.000 -1.7330751544E+001 -3.5881305963E+001 -4.3132882632E+001 +1.5526659726E+002 -8.3499507652E+001 -1.4806141358E+001 -2.3368234896E+001 +1.4989774636E+002
1370000000.000 -1.7087473864E+001 -3.9271041598E+001 -4.3216679790E+001 +1.2095052464E+002 -9.5020334008E+001 -1.4069641437E+002 -2.2046004822E+001 +1.5980915713E+002
1502500000.000 -1.6846773734E+001 -4.2266325956E+001 -4.3247962682E+001 +8.7400142449E+001 -8.2513671268E+001 -1.7938421596E+002 -2.0847427193E+001 +1.6617707255E+002
1635000000.000 -1.6550345442E+001 -4.4990649658E+001 -4.3236784627E+001 +5.3008351881E+001 -8.4636475543E+001 -2.3476286989E+001 -2.0005524677E+001 +1.7317338234E+002
1767500000.000 -1.6273032693E+001 -4.8002103933E+001 -4.3303187343E+001 +1.9131909568E+001 -8.9686899726E+001 +1.2713976719E+002 -1.8993810172E+001 +1.7829648776E+002
1900000000.000 -1.6041328949E+001 -5.0357471225E+001 -4.3198158865E+001 -1.5352077502E+001 -8.2320470580E+001 +1.5203706854E+002 -1.8855488953E+001 -1.7841157278E+002
2032500000.000 -1.5799642750E+001 -5.2751690172E+001 -4.3354901104E+001 -4.8668097197E+001 -8.5478475616E+001 +7.8715630021E+001 -1.8653712341E+001 -1.6804983583E+002
2165000000.000 -1.5479204390E+001 -5.4985635381E+001 -4.3314090141E+001 -8.3451689045E+001 -7.8261216265E+001 +3.1970009388E+001 -1.7727528573E+001 -1.6121123023E+002
2297500000.000 -1.5248530120E+001 -5.7188325497E+001 -4.3519668907E+001 -1.1707901181E+002 -8.5627807650E+001 +9.6638923718E+001 -1.7231142924E+001 -1.5722831868E+002
2430000000.000 -1.5033576704E+001 -5.9038359499E+001 -4.3545740702E+001 -1.5217504552E+002 -7.3383441151E+001 -1.1367171363E+002 -1.6900977461E+001 -1.5300940826E+002
2562500000.000 -1.4747587840E+001 -6.1019842407E+001 -4.3600039527E+001 +1.7560827203E+002 -8.5999100614E+001 -4.2453290481E+001 -1.6791819998E+001 -1.5083300017E+002
2695000000.000 -1.4572776041E+001 -6.3197377723E+001 -4.3570515957E+001 +1.4110784586E+002 -8.3865030247E+001 -1.6526982985E+002 -1.7369383840E+001 -1.4738739319E+002
2827500000.000 -1.4423110163E+001 -6.4890697416E+001 -4.3613570107E+001 +1.0791302687E+002 -8.9153267781E+001 -7.4765287306E+001 -1.7817652048E+001 -1.4035485258E+002
2960000000.000 -1.4187493232E+001 -6.6359598353E+001 -4.3675130912E+001 +7.3972959710E+001 -8.1422082069E+001 +6.0347111195E+001 -1.8107090821E+001 -1.3583896056E+002
3092500000.000 -1.3920304491E+001 -6.8365077233E+001 -4.3874524461E+001 +4.1286901114E+001 -8.3788126074E+001 +7.0501182072E+001 -1.9079429900E+001 -1.2978417629E+002
3225000000.000 -1.3763607539E+001 -7.0401964690E+001 -4.3682741093E+001 +8.1873709563E+000 -9.2249315997E+001 -5.5277884402E+001 -1.9568175010E+001 -1.1979776096E+002
3357500000.000 -1.3615374088E+001 -7.1707552967E+001 -4.3718233473E+001 -2.6517247685E+001 -8.4943492753E+001 -2.5832270498E+001 -1.9876878892E+001 -1.1462764591E+002
3490000000.000 -1.3354616141E+001 -7.3233738176E+001 -4.3769686362E+001 -5.9586942328E+001 -7.4369155142E+001 +8.0947990682E+001 -2.1098972043E+001 -1.0917778570E+002
3622500000.000 -1.3119514960E+001 -7.4983271590E+001 -4.3743594915E+001 -9.3544209458E+001 -9.2075065843E+001 +1.7314607844E+002 -2.1931640676E+001 -9.8347853220E+001
3755000000.000 -1.2917407279E+001 -7.6564675207E+001 -4.3696140888E+001 -1.2675533300E+002 -7.8111534988E+001 +3.2400593064E+001 -2.2627893959E+001 -9.4720163975E+001
3887500000.000 -1.2715781311E+001 -7.7910654311E+001 -4.3862340437E+001 -1.6142218940E+002 -7.9666896100E+001 +8.6028244046E+001 -2.4961663003E+001 -8.8564228846E+001
4020000000.000 -1.2539035813E+001 -7.9164337859E+001 -4.3713129425E+001 +1.6513105573E+002 -9.7298719366E+001 +8.2593708226E+001 -2.6681309215E+001 -7.3659703871E+001
4152500000.000 -1.2308902122E+001 -8.0308221975E+001 -4.3689230207E+001 +1.3054057214E+002 -8.9132966486E+001 -8.2908320696E+001 -2.8711714005E+001 -6.4792850278E+001
4285000000.000 -1.2096018125E+001 -8.1629761689E+001 -4.3963547552E+001 +9.5768300573E+001 -8.0329209757E+001 +6.6286462021E+001 -3.3251185466E+001 -3.9528929667E+001
4417500000.000 -1.1937208003E+001 -8.2894698991E+001 -4.3901577328E+001 +6.1674162390E+001 -7.7380939492E+001 -9.4349058793E+001 -3.1764354382E+001 +7.0977066372E+000
4550000000.000 -1.1755474302E+001 -8.3710256180E+001 -4.4087273261E+001 +2.7335742914E+001 -8.1451729502E+001 -1.6652850297E+002 -3.0240626778E+001 +1.7202904990E+001
4682500000.000 -1.1544767798E+001 -8.4681477427E+001 -4.4167788148E+001 -6.0369649222E+000 -9.2670669832E+001 -6.3107559661E+001 -2.9654722578E+001 +3.7509564943E+001
4815000000.000 -1.1370878702E+001 -8.5936986924E+001 -4.4213361939E+001 -3.8750945275E+001 -8.7690568359E+001 +1.4063760539E+002 -2.7631651672E+001 +4.0414654806E+001
4947500000.000 -1.1227717129E+001 -8.6603433170E+001 -4.4083771411E+001 -7.1862992352E+001 -9.6149969135E+001 -1.2332191801E+002 -2.9319604759E+001 +3.4360981876E+001
5080000000.000 -1.1043100835E+001 -8.7252484769E+001 -4.4061852322E+001 -1.0578964833E+002 -8.0815544415E+001 +1.4258581297E+001 -3.2234492841E+001 +5.5171841652E+001
5212500000.000 -1.0863611317E+001 -8.8237749849E+001 -4.4083901390E+001 -1.3906722490E+002 -9.0921359175E+001 +3.0041833575E+001 -3.1562298281E+001 +6.8003853982E+001
5345000000.000 -1.0748823770E+001 -8.9074788249E+001 -4.3923762628E+001 -1.7264659074E+002 -9.9200977279E+001 -3.1549311141E+001 -3.5306356368E+001 +6.8113475889E+001
5477500000.000 -1.0615816510E+001 -8.9459853771E+001 -4.3767813416E+001 +1.5333313837E+002 -7.8494544390E+001 -9.6493900519E+000 -3.7659160114E+001 +1.3059427843E+002
5610000000.000 -1.0440693341E+001 -9.0127976552E+001 -4.3833701360E+001 +1.1867233120E+002 -8.2054746181E+001 +8.3708482675E+001 -3.3748033583E+001 +1.3457675107E+002
5742500000.000 -1.0331898940E+001 -9.1048466966E+001 -4.3865840870E+001 +8.4534201114E+001 -8.1443749588E+001 -1.1751754451E+002 -3.8218227609E+001 +1.4978200756E+002
5875000000.000 -1.0246407594E+001 -9.1678329399E+001 -4.3813183590E+001 +5.0785883212E+001 -1.0148132586E+002 -1.0406310326E+002 -3.4061182044E+001 -1.7012190688E+002
6007500000.000 -1.0134182194E+001 -9.2168067295E+001 -4.3802616885E+001 +1.6136100110E+001 -9.2644037797E+001 -9.2741872426E+001 -3.2795210576E+001 +1.7931104389E+002
6140000000.000 -9.9860668907E+000 -9.2899484069E+001 -4.3874146600E+001 -1.8064485320E+001 -9.1611308595E+001 +1.5681181201E+002 -3.6374356291E+001 -1.7138095471E+002
6272500000.000 -9.8737431804E+000 -9.3902161887E+001 -4.3773918563E+001 -5.2154247377E+001 -9.7590568285E+001 +2.4212719565E+001 -3.4219408922E+001 -1.4466997385E+002
6405000000.000 -9.8188456854E+000 -9.4795346133E+001 -4.3807928180E+001 -8.5593011317E+001 -8.5799268685E+001 -1.8500924295E+000 -3.3922897285E+001 -1.6223630113E+002
6537500000.000 -9.7107989177E+000 -9.5103639709E+001 -4.3781335848E+001 -1.1983077214E+002 -8.5671698624E+001 +1.5356515794E+002 -4.0120616022E+001 -1.6344536873E+002
6670000000.000 -9.5471206730E+000 -9.5793628927E+001 -4.3871227162E+001 -1.5387282972E+002 -8.5730927664E+001 -8.5652278258E+001 -3.9877119701E+001 -1.4056484607E+002
6802500000.000 -9.4185458618E+000 -9.6977810021E+001 -4.3802887826E+001 +1.7218088290E+002 -9.9310933682E+001 +1.6043802047E+002 -3.9093089314E+001 +1.7790258783E+002
6935000000.000 -9.3830013590E+000 -9.7764470161E+001 -4.3831337969E+001 +1.3810353996E+002 -8.5554487873E+001 +7.9476402806E+001 -3.8478966940E+001 +1.2379691861E+002
7067500000.000 -9.2703386038E+000 -9.8038434937E+001 -4.3815200713E+001 +1.0440892629E+002 -1.0530335670E+002 +1.6739205563E+002 -3.8499266521E+001 +1.1650954199E+002
7200000000.000 -9.1062688648E+000 -9.8749196525E+001 -4.3808315630E+001 +7.0273095720E+001 -9.0744210064E+001 -7.9645167127E+001 -3.2672358324E+001 +1.3045470628E+002
7332500000.000 -9.0062558052E+000 -9.9832430170E+001 -4.3895380841E+001 +3.6576411381E+001 -8.6051133569E+001 +4.8710303433E+001 -2.9134075413E+001 +1.1913420262E+002
7465000000.000 -8.9352882867E+000 -1.0036019074E+002 -4.3898418438E+001 +2.9543040812E+000 -1.0353002057E+002 -9.5459588926E+000 -2.8602397299E+001 +1.2356072822E+002
7597500000.000 -8.8018823990E+000 -1.0077618618E+002 -4.4005916943E+001 -2.9957171514E+001 -9.9921779418E+001 +5.9873366763E+001 -2.6006882063E+001 +1.3750054520E+002
7730000000.000 -8.6608106913E+000 -1.0147212191E+002 -4.3959043502E+001 -6.5014609746E+001 -8.5567932625E+001 +2.3183426637E+001 -2.3740781782E+001 +1.3752683294E+002
7862500000.000 -8.5700202198E+000 -1.0206969839E+002 -4.4023171267E+001 -9.9176104431E+001 -8.3578823214E+001 -1.6161294967E+002 -2.3307753879E+001 +1.4199161825E+002
7995000000.000 -8.4854976438E+000 -1.0236205737E+002 -4.3788886054E+001 -1.3225720097E+002 -8.7483318120E+001 -7.5493255799E+001 -2.1770884518E+001 +1.5440219294E+002
8127500000.000 -8.3248120873E+000 -1.0270857429E+002 -4.3979516263E+001 -1.6686745009E+002 -8.1543760255E+001 -4.7911668686E+000 -2.0031256347E+001 +1.5623283704E+002
8260000000.000 -8.2330760058E+000 -1.0342018944E+002 -4.3926681635E+001 +1.5923515148E+002 -8.3061142397E+001 +1.4025993398E+002 -1.9885319342E+001 +1.6025462094E+002
8392500000.000 -8.1523461019E+000 -1.0360856579E+002 -4.3963658220E+001 +1.2663273867E+002 -8.3894871156E+001 -1.1751345385E+002 -1.9043434663E+001 +1.7033587739E+002
8525000000.000 -8.0576331534E+000 -1.0380622730E+002 -4.3834863567E+001 +9.2377719692E+001 -7.8418799843E+001 +2.7059969496E+001 -1.8202551493E+001 +1.7275683774E+002
8657500000.000 -7.9561829805E+000 -1.0417402822E+002 -4.3817195075E+001 +5.8195285579E+001 -8.4097256589E+001 +1.6394135755E+002 -1.8562827775E+001 +1.7782295968E+002
8790000000.000 -7.8595223871E+000 -1.0447542355E+002 -4.3777232425E+001 +2.4505428666E+001 -9.2387732865E+001 -1.3367420734E+002 -1.8337829971E+001 -1.7193396887E+002
8922500000.000 -7.8071733423E+000 -1.0485047985E+002 -4.3898165743E+001 -9.5664489076E+000 -9.3019860171E+001 +2.6502016016E+001 -1.8000680660E+001 -1.6617936374E+002
9055000000.000 -7.7208525457E+000 -1.0508538985E+002 -4.3723740949E+001 -4.3721566682E+001 -8.8920626485E+001 -1.7508215679E+002 -1.8443520314E+001 -1.5840012393E+002
9187500000.000 -7.6616624860E+000 -1.0538979432E+002 -4.3757649984E+001 -7.7499966694E+001 -8.6294624946E+001 -1.2365646476E+002 -1.8353651946E+001 -1.4677986780E+002
9320000000.000 -7.5927979555E+000 -1.0603347366E+002 -4.3756850136E+001 -1.1168217376E+002 -9.8665441823E+001 -4.6038744361E+001 -1.8235103481E+001 -1.3993657817E+002
9452500000.000 -7.5328305094E+000 -1.0639905305E+002 -4.3699486321E+001 -1.4561211517E+002 -8.6720183726E+001 +9.4585543964E+001 -1.8822063149E+001 -1.3051104135E+002
9585000000.000 -7.4649213004E+000 -1.0674156849E+002 -4.3660860072E+001 -1.7997709668E+002 -9.5096194042E+001 -5.0639824567E+001 -1.8735338367E+001 -1.1873049613E+002
9717500000.000 -7.3684224854E+000 -1.0732612836E+002 -4.3646737075E+001 +1.4627015135E+002 -8.9538606467E+001 +1.2187953057E+002 -1.8849408726E+001 -1.1158348016E+002
9850000000.000 -7.3253568206E+000 -1.0808860938E+002 -4.3606004931E+001 +1.1245880012E+002 -9.8278038688E+001 -1.0351930948E+002 -1.9636612910E+001 -1.0042689700E+002
9982500000.000 -7.2671424805E+000 -1.0829708383E+002 -4.3784510650E+001 +7.7374064198E+001 -8.5481268191E+001 -1.6401685567E+002 -1.9611531556E+001 -8.6965901353E+001
10115000000.000 -7.1811820233E+000 -1.0871302013E+002 -4.3681568912E+001 +4.3938842386E+001 -9.5269828804E+001 +7.7101202831E+001 -1.9935625653E+001 -7.9750845292E+001
10247500000.000 -7.1038906816E+000 -1.0937894479E+002 -4.3633563293E+001 +1.0098036238E+001 -7.9549840035E+001 +8.3969778295E+001 -2.1140236561E+001 -6.5908960828E+001
10380000000.000 -7.0534215838E+000 -1.0985994787E+002 -4.3556574810E+001 -2.4149231784E+001 -8.4249101402E+001 -1.2480436035E+002 -2.0937977138E+001 -5.0293256025E+001
10512500000.000 -6.9855886349E+000 -1.1031248205E+002 -4.3556402870E+001 -5.8062435320E+001 -9.3293748462E+001 -7.2696424206E+001 -2.1479865918E+001 -4.2791203870E+001
10645000000.000 -6.9224710960E+000 -1.1080715368E+002 -4.3600789009E+001 -9.0839544562E+001 -8.8625616885E+001 +2.7398671326E+001 -2.2827406486E+001 -2.3993833909E+001
10777500000.000 -6.8527852045E+000 -1.1122250706E+002 -4.3425243900E+001 -1.2553437989E+002 -8.8626299538E+001 -1.7933443652E+002 -2.2084746257E+001 -6.3033708482E+000
10910000000.000 -6.7703450192E+000 -1.1170017530E+002 -4.3427811848E+001 -1.6038489953E+002 -8.5875095995E+001 -9.3503275108E+001 -2.2724886670E+001 +3.0193902116E+000
11042500000.000 -6.6861265292E+000 -1.1226554282E+002 -4.3601451695E+001 +1.6640010585E+002 -8.1921045232E+001 +4.8351534273E+001 -2.3465969716E+001 +2.7017388382E+001
11175000000.000 -6.6151918913E+000 -1.1261539996E+002 -4.3455456377E+001 +1.3161327498E+002 -8.4067250703E+001 +1.7867372472E+002 -2.2170717320E+001 +4.2268592340E+001
11307500000.000 -6.5583305364E+000 -1.1292551128E+002 -4.3194625588E+001 +9.7317151931E+001 -9.4277965413E+001 +1.3796629853E+002 -2.2691634570E+001 +5.2175976116E+001
11440000000.000 -6.4860157085E+000 -1.1334417142E+002 -4.3473557894E+001 +6.3818603910E+001 -8.1667229901E+001 -7.0534574403E+001 -2.2596288226E+001 +7.4990178719E+001
11572500000.000 -6.3966734074E+000 -1.1344913223E+002 -4.3483304967E+001 +2.9325860574E+001 -8.2475299160E+001 -5.3791708661E+001 -2.1132961785E+001 +8.6349416343E+001
11705000000.000 -6.3445740952E+000 -1.1383920348E+002 -4.3429787695E+001 -5.4743552495E+000 -8.1777834015E+001 +1.5343143475E+002 -2.1723978578E+001 +9.6284558220E+001
11837500000.000 -6.2751480967E+000 -1.1409064311E+002 -4.3417227365E+001 -4.0356669473E+001 -8.3032915067E+001 -3.8535265765E+001 -2.1089585512E+001 +1.1843584789E+002
11970000000.000 -6.2469750609E+000 -1.1428502717E+002 -4.3442036128E+001 -7.3971496064E+001 -8.3835906740E+001 +3.1044027387E+001 -1.9819466871E+001 +1.2464600702E+002
12102500000.000 -6.2041949519E+000 -1.1440493543E+002 -4.3346192819E+001 -1.0818539381E+002 -8.8713667088E+001 +2.2566136529E+001 -2.0728555441E+001 +1.3504706018E+002
12235000000.000 -6.1413536092E+000 -1.1478467565E+002 -4.3265951519E+001 -1.4282808348E+002 -8.1656184812E+001 -7.7503689087E+001 -1.9696686630E+001 +1.5380496535E+002
12367500000.000 -6.1254112748E+000 -1.1498193232E+002 -4.3196027315E+001 -1.7696314683E+002 -9.4057379106E+001 -4.5126589801E+001 -1.8893588180E+001 +1.5687923087E+002
12500000000.000 -6.0927554608E+000 -1.1546819640E+002 -4.3432322343E+001 +1.4904180839E+002 -9.0157953675E+001 +1.7778960878E+002 -2.0060147103E+001 +1.6790923948E+002
12632500000.000 -6.0353848665E+000 -1.1562426817E+002 -4.3318754035E+001 +1.1406309407E+002 -9.1778365493E+001 -6.8247042617E+001 -1.9039919803E+001 -1.7371145818E+002
12765000000.000 -6.0026303674E+000 -1.1595090427E+002 -4.3349264245E+001 +7.9979569274E+001 -8.4650098378E+001 -5.3414758312E+000 -1.8509435643E+001 -1.7239087946E+002
12897500000.000 -5.9989405358E+000 -1.1637238632E+002 -4.3391404894E+001 +4.5642302459E+001 -9.6457233287E+001 +1.4234756240E+002 -2.0167488644E+001 -1.5955505261E+002
13030000000.000 -5.9647634315E+000 -1.1653241906E+002 -4.3389440227E+001 +1.0522711761E+001 -9.0245272652E+001 -1.0951523102E+002 -1.8709482958E+001 -1.4200572122E+002
13162500000.000 -5.9002045740E+000 -1.1688587272E+002 -4.3418639611E+001 -2.2931383196E+001 -9.0753612373E+001 +3.0150061931E+001 -1.8564928227E+001 -1.4282216510E+002
13295000000.000 -5.8582583678E+000 -1.1721589354E+002 -4.3346523729E+001 -5.8077419333E+001 -7.9770262342E+001 +7.8820522172E+001 -2.0043150934E+001 -1.2820595786E+002
13427500000.000 -5.8374075517E+000 -1.1775877981E+002 -4.3318689149E+001 -9.1956032709E+001 -8.1951932583E+001 -1.2193400181E+002 -1.8712252094E+001 -1.1441463392E+002
13560000000.000 -5.8404047021E+000 -1.1772854895E+002 -4.3470951415E+001 -1.2641602916E+002 -9.6937569221E+001 +1.6632716618E+002 -1.8925659185E+001 -1.1557602515E+002
13692500000.000 -5.7694384343E+000 -1.1792120326E+002 -4.3314639462E+001 -1.6108103341E+002 -8.5251745842E+001 +1.0858260052E+002 -2.0796176700E+001 -1.0183375695E+002
13825000000.000 -5.7172410506E+000 -1.1839578949E+002 -4.3305546362E+001 +1.6570974801E+002 -8.1267889239E+001 +1.2277826262E+002 -1.9630855956E+001 -8.7892238588E+001
13957500000.000 -5.7122262623E+000 -1.1892790284E+002 -4.3268626003E+001 +1.2990316621E+002 -7.6799712668E+001 -5.4895236319E+001 -2.0250568659E+001 -9.0501673956E+001
14090000000.000 -5.6930601216E+000 -1.1902745528E+002 -4.3326273424E+001 +9.6515195204E+001 -8.9217553156E+001 +7.7509327474E+001 -2.2540670547E+001 -7.3249708271E+001
14222500000.000 -5.6380634439E+000 -1.1912724824E+002 -4.3461088597E+001 +6.1504514662E+001 -8.1699190088E+001 -1.6231693406E+002 -2.1190769176E+001 -5.9855257761E+001
14355000000.000 -5.5822423248E+000 -1.1972570428E+002 -4.3308873691E+001 +2.6861917844E+001 -7.8904964644E+001 -7.0277321200E+001 -2.2415578198E+001 -6.3425912855E+001
14487500000.000 -5.5663812936E+000 -1.1995482663E+002 -4.3414414750E+001 -6.7795960532E+000 -8.2695855116E+001 -3.8307901767E+001 -2.5275114587E+001 -4.0543203449E+001
14620000000.000 -5.5259647161E+000 -1.1991021386E+002 -4.3297835774E+001 -4.2352941061E+001 -8.4606807037E+001 +6.7959449690E+001 -2.3216537529E+001 -2.8412661443E+001
14752500000.000 -5.4306937907E+000 -1.2016353496E+002 -4.3543501241E+001 -7.6206884239E+001 -7.8671560367E+001 +1.6334882842E+002 -2.5383867455E+001 -3.6051714913E+001
14885000000.000 -5.3991510794E+000 -1.2056706005E+002 -4.3429855236E+001 -1.1179839755E+002 -7.8711081646E+001 +1.3327970995E+001 -2.8432386518E+001 +2.3491899475E+000
15017500000.000 -5.3799261470E+000 -1.2035288989E+002 -4.3494257688E+001 -1.4628500624E+002 -9.3327264436E+001 +4.6263698283E+001 -2.5291095929E+001 +7.2376814855E+000
15150000000.000 -5.2920806142E+000 -1.2019799053E+002 -4.3361582792E+001 +1.7896195704E+002 -8.9320583217E+001 -1.3511254789E+002 -2.9309193174E+001 -1.8035681020E+000
15282500000.000 -5.2278132109E+000 -1.2035856796E+002 -4.3674896640E+001 +1.4512005733E+002 -8.2791029045E+001 +1.1421914814E+001 -3.0513663151E+001 +5.8063793673E+001
