!  2-Port S-parameters saved by WinCal
! VAR MeasName=S-Parameters (CALIBRATED_DATA) read from VNA (C)
! VAR MeasDate=10/5/2015 6:03:09 PM
! VAR NAME=M6079_2_7_3_2_20C_3.8mA_-17.5dBm
! VAR FILENAME=M6079_2_7_3_2_20C_3.8mA_-17.5dBm.S2P
! VAR DATE=10/5/2015 6:03:09 PM
! VAR PHYS_PORTS=2,1
! VAR ObjTypeName=DATASET
! VAR IndexType=Frequency
!
# Hz S DB R 50
45000000.000 -1.8820544642E+001 -6.6977194188E-001 -4.2514762640E+001 +9.9364226962E+001 -6.5001488340E+001 +7.6915467736E+001 -3.0528421213E+001 +6.1357835492E+000
177500000.000 -1.8774461663E+001 -4.7753058520E+000 -4.2607115086E+001 +6.8933888622E+001 -6.8461104740E+001 -8.1713598370E+000 -3.2557807995E+001 +4.6069475737E+001
310000000.000 -1.8680513645E+001 -8.8714995246E+000 -4.2823147545E+001 +3.9358448627E+001 -7.7253944860E+001 -1.7957990486E+002 -2.3294504939E+001 +6.4054133942E+001
442500000.000 -1.8563568676E+001 -1.3179845258E+001 -4.1934084405E+001 +6.7588406343E-001 -8.3568552309E+001 +4.1947820445E+000 -2.2359252171E+001 +1.7118963890E+001
575000000.000 -1.8408875757E+001 -1.7640192295E+001 -4.2215915766E+001 -3.5264276770E+001 -7.7870107108E+001 +1.1201945416E+002 -3.0516847263E+001 +2.2529159602E+001
707500000.000 -1.8285374248E+001 -2.1466582112E+001 -4.2553917443E+001 -6.9517325604E+001 -7.9130196819E+001 +1.7367068392E+002 -3.4520622281E+001 +8.2587897634E+001
840000000.000 -1.8062531270E+001 -2.5558524809E+001 -4.2522198674E+001 -1.0351356305E+002 -1.0241701090E+002 -6.2638251304E+001 -2.9681048516E+001 +1.2747719298E+002
972500000.000 -1.7836388652E+001 -2.9189306090E+001 -4.2715662666E+001 -1.3656628087E+002 -8.4519660719E+001 +6.9171991500E+001 -2.5884777177E+001 +1.3492848872E+002
1105000000.000 -1.7612056536E+001 -3.3027417321E+001 -4.2750182043E+001 -1.7060610425E+002 -8.3939672106E+001 -1.2704391669E+002 -2.4367464917E+001 +1.4053057584E+002
1237500000.000 -1.7387107174E+001 -3.6263839991E+001 -4.2801091377E+001 +1.5543758216E+002 -8.5582928328E+001 -1.0422673974E+002 -2.3379862906E+001 +1.4988866627E+002
1370000000.000 -1.7138445869E+001 -3.9733103688E+001 -4.2815149083E+001 +1.2095112240E+002 -8.1774655685E+001 +7.2264704724E+001 -2.2046461551E+001 +1.5979331101E+002
1502500000.000 -1.6888572242E+001 -4.2698596784E+001 -4.2848483914E+001 +8.7581611486E+001 -8.7594973881E+001 -7.7016889694E+001 -2.0848118746E+001 +1.6620572892E+002
1635000000.000 -1.6590670270E+001 -4.5432121310E+001 -4.2885603326E+001 +5.3446604109E+001 -9.5557696198E+001 -7.6569853687E+001 -1.9997259160E+001 +1.7317770579E+002
1767500000.000 -1.6304032306E+001 -4.8457904594E+001 -4.2859870844E+001 +1.9513970125E+001 -8.8846305997E+001 +4.1188983053E+001 -1.8997506903E+001 +1.7833083100E+002
1900000000.000 -1.6064290294E+001 -5.0795147848E+001 -4.2907784497E+001 -1.6449445186E+001 -8.6809914404E+001 +1.3065048056E+002 -1.8852884477E+001 -1.7841396511E+002
2032500000.000 -1.5823807079E+001 -5.3169021705E+001 -4.2966195216E+001 -4.9811498021E+001 -8.4945163639E+001 -6.9501784472E+001 -1.8659693903E+001 -1.6806445705E+002
2165000000.000 -1.5489719270E+001 -5.5399590388E+001 -4.3067126851E+001 -8.2548890687E+001 -8.5109367727E+001 -1.3384129091E+001 -1.7732244675E+001 -1.6116685229E+002
2297500000.000 -1.5260766548E+001 -5.7629444448E+001 -4.2990349641E+001 -1.1609182094E+002 -8.1985264276E+001 -1.3342637241E+002 -1.7226515152E+001 -1.5723768451E+002
2430000000.000 -1.5030359706E+001 -5.9427144281E+001 -4.3159430387E+001 -1.5097937418E+002 -8.2731411827E+001 -1.2339211919E+002 -1.6896368649E+001 -1.5296997359E+002
2562500000.000 -1.4750339904E+001 -6.1404980960E+001 -4.3209365893E+001 +1.7454608111E+002 -7.5675194271E+001 +2.1042540648E+001 -1.6793266865E+001 -1.5077574679E+002
2695000000.000 -1.4571536153E+001 -6.3620164837E+001 -4.3178880774E+001 +1.3876608300E+002 -8.4665473535E+001 -1.7879833291E+002 -1.7369326163E+001 -1.4738380306E+002
2827500000.000 -1.4426010387E+001 -6.5231930564E+001 -4.3303189266E+001 +1.0528859088E+002 -7.9927137804E+001 -9.3102340767E+001 -1.7819187382E+001 -1.4038840835E+002
2960000000.000 -1.4178871235E+001 -6.6689231946E+001 -4.3385306418E+001 +7.1891001407E+001 -8.1416463004E+001 +1.1057986455E+002 -1.8093346171E+001 -1.3583887496E+002
3092500000.000 -1.3914740311E+001 -6.8710628350E+001 -4.3313825050E+001 +3.7274016349E+001 -8.7300091234E+001 +5.2384662136E+001 -1.9071477914E+001 -1.2968436092E+002
3225000000.000 -1.3749481579E+001 -7.0739788371E+001 -4.3530558758E+001 +3.6904615969E+000 -8.5818635265E+001 +1.5376602680E+002 -1.9555869380E+001 -1.1973457792E+002
3357500000.000 -1.3595448348E+001 -7.2025968028E+001 -4.3517719868E+001 -2.9188283797E+001 -8.0499677219E+001 -3.1336753495E+001 -1.9873536937E+001 -1.1452043349E+002
3490000000.000 -1.3333735937E+001 -7.3560992335E+001 -4.3611213347E+001 -6.2362757471E+001 -8.2535298852E+001 +1.1249400497E+001 -2.1094212212E+001 -1.0911700922E+002
3622500000.000 -1.3092205580E+001 -7.5290789435E+001 -4.3421111865E+001 -9.7313434913E+001 -8.0220430155E+001 -1.1496306359E+002 -2.1941512169E+001 -9.8280072750E+001
3755000000.000 -1.2884788699E+001 -7.6897064452E+001 -4.3322827321E+001 -1.2967351854E+002 -8.2911597074E+001 -5.9232273572E+001 -2.2627784746E+001 -9.4764624226E+001
3887500000.000 -1.2683188121E+001 -7.8252906583E+001 -4.3449851326E+001 -1.6417435395E+002 -8.0363538675E+001 +8.7045233755E+001 -2.4962641479E+001 -8.8513740255E+001
4020000000.000 -1.2504503931E+001 -7.9421811101E+001 -4.3537041382E+001 +1.6289908200E+002 -7.6979997583E+001 -9.6181031663E+001 -2.6679286788E+001 -7.3756960475E+001
4152500000.000 -1.2275912507E+001 -8.0532952513E+001 -4.3302575668E+001 +1.2855683753E+002 -8.4068271061E+001 -5.4199738456E+001 -2.8716834927E+001 -6.4829659207E+001
4285000000.000 -1.2056686084E+001 -8.1883769996E+001 -4.3378851326E+001 +9.3788064088E+001 -8.9264780508E+001 +2.4019477125E+001 -3.3178360803E+001 -3.8978084604E+001
4417500000.000 -1.1900470406E+001 -8.3157089934E+001 -4.3559579070E+001 +6.0515230877E+001 -8.3598132034E+001 -1.7009960460E+002 -3.1748908856E+001 +7.2298671414E+000
4550000000.000 -1.1720970971E+001 -8.3898021304E+001 -4.3469980365E+001 +2.7376701514E+001 -8.2732642426E+001 -1.6078473475E+002 -3.0242627505E+001 +1.7482495285E+001
4682500000.000 -1.1505475919E+001 -8.4887132984E+001 -4.3626148233E+001 -6.1148407761E+000 -9.6616842814E+001 -3.5288292327E+001 -2.9645578055E+001 +3.7500928959E+001
4815000000.000 -1.1333822016E+001 -8.6148186001E+001 -4.3697157623E+001 -3.8781279069E+001 -9.3655457708E+001 +4.6167841365E+001 -2.7625161408E+001 +4.0533709730E+001
4947500000.000 -1.1187544463E+001 -8.6809620438E+001 -4.3503001808E+001 -7.1762254176E+001 -1.0005302730E+002 +1.5425851443E+002 -2.9330863940E+001 +3.4656502658E+001
5080000000.000 -1.1002279362E+001 -8.7420684950E+001 -4.3360716108E+001 -1.0506124211E+002 -9.0692836688E+001 +6.4621748084E+001 -3.2221671788E+001 +5.5520784314E+001
5212500000.000 -1.0820438735E+001 -8.8398482061E+001 -4.3274884747E+001 -1.3888845521E+002 -8.2875403090E+001 +1.1224127154E+002 -3.1536521044E+001 +6.8101319443E+001
5345000000.000 -1.0707217285E+001 -8.9220187267E+001 -4.3302469604E+001 -1.7334583955E+002 -9.4943670160E+001 -1.0814174572E+002 -3.5339397879E+001 +6.8654863276E+001
5477500000.000 -1.0571118582E+001 -8.9604353908E+001 -4.3148161429E+001 +1.5284243660E+002 -9.7144878882E+001 +5.0282217923E+001 -3.7574477690E+001 +1.3096529021E+002
5610000000.000 -1.0401027777E+001 -9.0266368879E+001 -4.3078063740E+001 +1.1824840437E+002 -1.0023044875E+002 +7.6200981393E+001 -3.3712127481E+001 +1.3497190006E+002
5742500000.000 -1.0289853299E+001 -9.1163481880E+001 -4.3107736463E+001 +8.4195513220E+001 -9.2731477788E+001 +8.3531695076E+001 -3.8120096153E+001 +1.4987930042E+002
5875000000.000 -1.0203675049E+001 -9.1800342103E+001 -4.3163797051E+001 +4.9928065296E+001 -8.6641993251E+001 -5.6645683349E+001 -3.3987035506E+001 -1.7024277466E+002
6007500000.000 -1.0094738694E+001 -9.2298094620E+001 -4.3068467757E+001 +1.5520363201E+001 -7.9909074509E+001 +5.4793065182E+001 -3.2735879866E+001 +1.7918076668E+002
6140000000.000 -9.9461037875E+000 -9.2985205426E+001 -4.3105054858E+001 -1.9024778355E+001 -8.3514920065E+001 +1.5108009520E+002 -3.6321795892E+001 -1.7165941232E+002
6272500000.000 -9.8329585710E+000 -9.3970842586E+001 -4.3168726083E+001 -5.2664603571E+001 -8.6727786688E+001 -6.7910001043E+000 -3.4161354265E+001 -1.4446491677E+002
6405000000.000 -9.7739881762E+000 -9.4865199702E+001 -4.3196547019E+001 -8.6990635833E+001 -8.7355550985E+001 -1.2262620325E+002 -3.3887071431E+001 -1.6222669902E+002
6537500000.000 -9.6651252949E+000 -9.5207674816E+001 -4.3216474848E+001 -1.2076765739E+002 -8.9203923005E+001 -1.6169163920E+002 -4.0010737113E+001 -1.6316555896E+002
6670000000.000 -9.5024399878E+000 -9.5871396540E+001 -4.3261200006E+001 -1.5473251687E+002 -8.7897973459E+001 -8.3529610081E+001 -3.9773110517E+001 -1.4002778371E+002
6802500000.000 -9.3715768777E+000 -9.7025494215E+001 -4.3241064678E+001 +1.7101190281E+002 -8.7905599025E+001 +1.5607332055E+002 -3.9035089494E+001 +1.7784560442E+002
6935000000.000 -9.3344329134E+000 -9.7813950457E+001 -4.3457569964E+001 +1.3671749546E+002 -8.9431579644E+001 +1.2105591630E+002 -3.8585097292E+001 +1.2378793079E+002
7067500000.000 -9.2201310634E+000 -9.8045396631E+001 -4.3464464653E+001 +1.0331196899E+002 -8.7120431361E+001 -1.6328822566E+002 -3.8560670802E+001 +1.1635282639E+002
7200000000.000 -9.0590176117E+000 -9.8779169456E+001 -4.3406106410E+001 +6.8692332633E+001 -9.2023996083E+001 +6.7920971222E+000 -3.2690875641E+001 +1.3054355614E+002
7332500000.000 -8.9590680063E+000 -9.9828408986E+001 -4.3532622874E+001 +3.5408175274E+001 -8.2631861959E+001 +7.1582414365E+001 -2.9148073335E+001 +1.1905840786E+002
7465000000.000 -8.8852610424E+000 -1.0033464339E+002 -4.3586628313E+001 +1.4741452280E+000 -8.9831154662E+001 -1.7357866420E+002 -2.8629764863E+001 +1.2352307383E+002
7597500000.000 -8.7542595142E+000 -1.0078239308E+002 -4.3494102955E+001 -3.2645392580E+001 -8.9336741409E+001 +1.3622943248E+001 -2.6013588093E+001 +1.3744219595E+002
7730000000.000 -8.6122656274E+000 -1.0146983156E+002 -4.3642901492E+001 -6.5776328520E+001 -9.3796519873E+001 +5.9721749198E+001 -2.3753989630E+001 +1.3752233893E+002
7862500000.000 -8.5235111072E+000 -1.0202812786E+002 -4.3541798934E+001 -9.9626077047E+001 -8.7703760101E+001 -3.3128136771E+001 -2.3309025515E+001 +1.4193225504E+002
7995000000.000 -8.4381762919E+000 -1.0231511383E+002 -4.3450242817E+001 -1.3356427650E+002 -8.5487587897E+001 -6.9063807028E+001 -2.1771237694E+001 +1.5433270661E+002
8127500000.000 -8.2761605578E+000 -1.0266429335E+002 -4.3493560690E+001 -1.6776516305E+002 -8.9512550150E+001 +5.0335573369E+001 -2.0032596102E+001 +1.5625291521E+002
8260000000.000 -8.1894467657E+000 -1.0335631502E+002 -4.3535191095E+001 +1.5909951554E+002 -9.0312985309E+001 +6.9341787608E+001 -1.9884855024E+001 +1.6018237219E+002
8392500000.000 -8.1055585663E+000 -1.0354778277E+002 -4.3424845276E+001 +1.2428467009E+002 -8.8137105887E+001 -1.0882594029E+002 -1.9043650533E+001 +1.7037932343E+002
8525000000.000 -8.0105702684E+000 -1.0373921102E+002 -4.3421896290E+001 +9.1031095203E+001 -9.4312354161E+001 -1.1599100910E+002 -1.8201745046E+001 +1.7274318382E+002
8657500000.000 -7.9074150028E+000 -1.0409526454E+002 -4.3356477704E+001 +5.6677944371E+001 -9.0368960330E+001 -1.4683390061E+002 -1.8563548459E+001 +1.7790063852E+002
8790000000.000 -7.8139607972E+000 -1.0439805186E+002 -4.3374323374E+001 +2.3337994741E+001 -8.5222736033E+001 -7.9898740501E+001 -1.8332995183E+001 -1.7192755517E+002
8922500000.000 -7.7595889662E+000 -1.0473877895E+002 -4.3241138485E+001 -1.0966377466E+001 -8.7319090705E+001 +2.4540571431E+001 -1.8002277243E+001 -1.6617856100E+002
9055000000.000 -7.6739720466E+000 -1.0496943060E+002 -4.3279153870E+001 -4.5867966067E+001 -8.6537718095E+001 +7.5742334756E+001 -1.8442880817E+001 -1.5833497162E+002
9187500000.000 -7.6139619250E+000 -1.0529472896E+002 -4.3242285876E+001 -7.8783457828E+001 -9.1469198784E+001 -1.6871005538E+002 -1.8355016740E+001 -1.4671774080E+002
9320000000.000 -7.5442012849E+000 -1.0590045782E+002 -4.3096614140E+001 -1.1390008414E+002 -8.7539100955E+001 -6.3199786245E+000 -1.8236357374E+001 -1.3989930792E+002
9452500000.000 -7.4873185758E+000 -1.0627212896E+002 -4.3085991908E+001 -1.4827555316E+002 -9.1376572284E+001 +3.8476388277E+001 -1.8830901727E+001 -1.3039263005E+002
9585000000.000 -7.4176107678E+000 -1.0661367859E+002 -4.3095799785E+001 +1.7746680333E+002 -8.7157844969E+001 +1.2943953753E+002 -1.8737917332E+001 -1.1863640488E+002
9717500000.000 -7.3206539655E+000 -1.0719410686E+002 -4.2983202237E+001 +1.4407882025E+002 -8.8009460020E+001 -9.6476220055E+000 -1.8846619057E+001 -1.1152064415E+002
9850000000.000 -7.2769260633E+000 -1.0795059427E+002 -4.2930224375E+001 +1.1008220945E+002 -8.5422411919E+001 +5.0101062701E+001 -1.9650710086E+001 -1.0035010290E+002
9982500000.000 -7.2194939988E+000 -1.0815755261E+002 -4.3009948837E+001 +7.5356532655E+001 -8.7431399387E+001 -7.4403983205E+001 -1.9608657127E+001 -8.6772304227E+001
10115000000.000 -7.1300680759E+000 -1.0854049819E+002 -4.3038528096E+001 +4.1240805465E+001 -8.6943863504E+001 -1.0804835362E+002 -1.9941019693E+001 -7.9559041312E+001
10247500000.000 -7.0560692373E+000 -1.0920990971E+002 -4.3107869056E+001 +7.0530455927E+000 -9.6968369842E+001 +1.2551776937E+002 -2.1149879365E+001 -6.5776577707E+001
10380000000.000 -7.0011781022E+000 -1.0969846211E+002 -4.2981715935E+001 -2.7669936223E+001 -8.5131663028E+001 +1.7256094958E+002 -2.0950982790E+001 -5.0091707003E+001
10512500000.000 -6.9356850722E+000 -1.1013514820E+002 -4.2933290075E+001 -6.0375533216E+001 -8.9832919912E+001 -1.6232406461E+002 -2.1493173706E+001 -4.2667503331E+001
10645000000.000 -6.8770973046E+000 -1.1061951143E+002 -4.3102825244E+001 -9.4754074774E+001 -8.4247231408E+001 -5.3252268752E+001 -2.2835872026E+001 -2.3740399115E+001
10777500000.000 -6.8069775739E+000 -1.1101936988E+002 -4.2879046645E+001 -1.2909875100E+002 -9.5799199918E+001 +1.1977487385E+002 -2.2093861153E+001 -6.0050750475E+000
10910000000.000 -6.7227032670E+000 -1.1148176518E+002 -4.2875712701E+001 -1.6328745557E+002 -8.8398249107E+001 -1.2855965623E+002 -2.2744665883E+001 +3.3685731709E+000
11042500000.000 -6.6392043612E+000 -1.1206220914E+002 -4.2868120659E+001 +1.6344529191E+002 -8.5698663272E+001 -1.3758090143E+002 -2.3459878831E+001 +2.7362836866E+001
11175000000.000 -6.5696524012E+000 -1.1239391368E+002 -4.2913779061E+001 +1.2886717805E+002 -9.8038639918E+001 +6.9301938337E+001 -2.2165215817E+001 +4.2541284184E+001
11307500000.000 -6.5141528478E+000 -1.1270428815E+002 -4.2827650306E+001 +9.4478356728E+001 -9.5173104989E+001 +1.5403456736E+002 -2.2689291712E+001 +5.2590328414E+001
11440000000.000 -6.4413166284E+000 -1.1313545177E+002 -4.2848296054E+001 +6.0572628290E+001 -8.4784009235E+001 +4.7217992652E+001 -2.2577468020E+001 +7.5361063225E+001
11572500000.000 -6.3502839543E+000 -1.1322983074E+002 -4.2932722367E+001 +2.6977779847E+001 -8.4728451751E+001 +4.8007181932E+001 -2.1126618685E+001 +8.6601392566E+001
11705000000.000 -6.2999068332E+000 -1.1358719368E+002 -4.2822346711E+001 -7.3344159311E+000 -8.3366876177E+001 +1.4148533357E+002 -2.1736193779E+001 +9.6476081529E+001
11837500000.000 -6.2302910450E+000 -1.1385882055E+002 -4.2718824177E+001 -4.1259032031E+001 -8.5521926119E+001 -9.7209757087E+001 -2.1087610650E+001 +1.1868262131E+002
11970000000.000 -6.2037013811E+000 -1.1405097239E+002 -4.2704736714E+001 -7.5614992120E+001 -8.6055235603E+001 +5.4626488764E+001 -1.9826274446E+001 +1.2499026509E+002
12102500000.000 -6.1617757913E+000 -1.1412831846E+002 -4.2683117144E+001 -1.0996419157E+002 -8.4262436838E+001 +8.3706204705E+001 -2.0728979334E+001 +1.3525884446E+002
12235000000.000 -6.1006898184E+000 -1.1450398123E+002 -4.2630247969E+001 -1.4373294052E+002 -8.7683685371E+001 -1.5655533739E+002 -1.9690165417E+001 +1.5399050513E+002
12367500000.000 -6.0797677991E+000 -1.1471218644E+002 -4.2645086758E+001 -1.7805468558E+002 -8.0128964068E+001 +7.8532869694E+001 -1.8890272078E+001 +1.5713303617E+002
12500000000.000 -6.0501199018E+000 -1.1519496046E+002 -4.2621357728E+001 +1.4668394391E+002 -8.2531034691E+001 +1.1668896551E+002 -2.0049403146E+001 +1.6821198510E+002
12632500000.000 -5.9952408642E+000 -1.1534319059E+002 -4.2539013668E+001 +1.1285788575E+002 -8.5318180456E+001 -1.6247709929E+002 -1.9040297446E+001 -1.7353986275E+002
12765000000.000 -5.9616457596E+000 -1.1564620387E+002 -4.2553527839E+001 +7.9113157618E+001 -8.8043704592E+001 -4.8515251478E+001 -1.8515591287E+001 -1.7222371555E+002
12897500000.000 -5.9626894244E+000 -1.1608189481E+002 -4.2543788652E+001 +4.3821826741E+001 -8.7158232905E+001 +1.5477673148E+002 -2.0167701824E+001 -1.5941891805E+002
13030000000.000 -5.9265371919E+000 -1.1622933152E+002 -4.2496450066E+001 +9.1764384103E+000 -9.5007887317E+001 -3.2498373870E+001 -1.8707128074E+001 -1.4185758281E+002
13162500000.000 -5.8602142582E+000 -1.1659115159E+002 -4.2484953296E+001 -2.4480225071E+001 -8.1256262499E+001 -1.0077829801E+002 -1.8588205811E+001 -1.4260731735E+002
13295000000.000 -5.8228810629E+000 -1.1692736340E+002 -4.2509145987E+001 -5.9039058109E+001 -9.0500875229E+001 +1.3345518901E+002 -2.0051467427E+001 -1.2796137347E+002
13427500000.000 -5.8032618388E+000 -1.1745203940E+002 -4.2527994400E+001 -9.3954239314E+001 -9.0184391157E+001 +1.4409123970E+002 -1.8718325683E+001 -1.1429412633E+002
13560000000.000 -5.8047857911E+000 -1.1739192901E+002 -4.2417882223E+001 -1.2692186725E+002 -7.9493745000E+001 -6.8017990053E+001 -1.8943446589E+001 -1.1537922342E+002
13692500000.000 -5.7332414634E+000 -1.1758867568E+002 -4.2381452309E+001 -1.6186963174E+002 -8.2515846854E+001 +7.9211833878E+001 -2.0806424081E+001 -1.0166175332E+002
13825000000.000 -5.6812852992E+000 -1.1804667036E+002 -4.2527788698E+001 +1.6255908783E+002 -7.9545025373E+001 -1.6635725722E+002 -1.9646013335E+001 -8.7657559535E+001
13957500000.000 -5.6750541429E+000 -1.1858015189E+002 -4.2514601003E+001 +1.2748593009E+002 -7.7339349175E+001 +1.0968119166E+000 -2.0263677156E+001 -9.0383017594E+001
14090000000.000 -5.6601599257E+000 -1.1867953940E+002 -4.2306917581E+001 +9.4447759832E+001 -8.7353338067E+001 +7.5416943574E+000 -2.2550430022E+001 -7.3067975217E+001
14222500000.000 -5.6032130834E+000 -1.1875968648E+002 -4.2538758269E+001 +5.8906641497E+001 -9.2673361761E+001 -1.5948264418E+002 -2.1228370381E+001 -5.9737038669E+001
14355000000.000 -5.5485765887E+000 -1.1936713542E+002 -4.2536034083E+001 +2.4011892763E+001 -8.1926805512E+001 -1.0893040559E+002 -2.2448899479E+001 -6.3348129249E+001
14487500000.000 -5.5388333441E+000 -1.1958176573E+002 -4.2526789884E+001 -1.0204333395E+001 -9.0511954282E+001 +1.8284391247E+001 -2.5267224629E+001 -4.0353924038E+001
14620000000.000 -5.4951711082E+000 -1.1950766094E+002 -4.2453771151E+001 -4.5454851051E+001 -9.4333893214E+001 +5.8097724397E+001 -2.3242600235E+001 -2.8381281824E+001
14752500000.000 -5.3974064303E+000 -1.1981654262E+002 -4.2477918937E+001 -7.9866448626E+001 -8.7479249055E+001 -7.8949026940E+001 -2.5423303710E+001 -3.5800251466E+001
14885000000.000 -5.3734503711E+000 -1.2020386581E+002 -4.2556892536E+001 -1.1591230428E+002 -7.8356369660E+001 -2.1005931926E+001 -2.8435390845E+001 +2.6244482768E+000
15017500000.000 -5.3506208003E+000 -1.1991072452E+002 -4.2698608005E+001 -1.4907651742E+002 -8.1348613842E+001 +1.0620496094E+002 -2.5319320106E+001 +7.4931223007E+000
15150000000.000 -5.2565048992E+000 -1.1979572665E+002 -4.2613413385E+001 +1.7561615736E+002 -8.7458540135E+001 +8.6239371299E+001 -2.9338347519E+001 -1.5725559631E+000
15282500000.000 -5.1962589397E+000 -1.1995573326E+002 -4.2644121277E+001 +1.4112903707E+002 -7.5722398928E+001 -4.3090417384E+001 -3.0470063035E+001 +5.7976055760E+001
