!  2-Port S-parameters saved by WinCal
! VAR MeasName=S-Parameters (CALIBRATED_DATA) read from VNA (C)
! VAR MeasDate=10/5/2015 6:04:44 PM
! VAR NAME=M6079_2_7_3_2_20C_4.8mA_-17.5dBm
! VAR FILENAME=M6079_2_7_3_2_20C_4.8mA_-17.5dBm.S2P
! VAR DATE=10/5/2015 6:04:44 PM
! VAR PHYS_PORTS=2,1
! VAR ObjTypeName=DATASET
! VAR IndexType=Frequency
!
# Hz S DB R 50
45000000.000 -2.0981290928E+001 -5.2612849069E-001 -4.2019776216E+001 +1.0312820326E+002 -5.9385006399E+001 -8.6124972682E+001 -3.0975648060E+001 +7.3552245787E+000
177500000.000 -2.0859267922E+001 -5.5730178405E+000 -4.2878696852E+001 +6.9739712538E+001 -7.0196972947E+001 +1.5578849927E+002 -3.2520297210E+001 +4.5992996922E+001
310000000.000 -2.0735231835E+001 -1.0361015029E+001 -4.3021370288E+001 +3.8998153330E+001 -8.0601014191E+001 +1.0961043438E+002 -2.3328747282E+001 +6.3933253951E+001
442500000.000 -2.0548196510E+001 -1.5306777161E+001 -4.1706886778E+001 +6.6506968984E-002 -8.4341054186E+001 -1.1632588745E+002 -2.2358251880E+001 +1.7188953911E+001
575000000.000 -2.0331637816E+001 -2.0438044013E+001 -4.2439609124E+001 -3.4589207568E+001 -8.0343651769E+001 +1.5264046649E+002 -3.0498904820E+001 +2.2470221273E+001
707500000.000 -2.0142560219E+001 -2.4813004321E+001 -4.2548555325E+001 -6.8740483769E+001 -9.7488341916E+001 -2.9822947647E+001 -3.4525944721E+001 +8.2542250066E+001
840000000.000 -1.9828032786E+001 -2.9343279459E+001 -4.2650651189E+001 -1.0232997722E+002 -1.0042362571E+002 +1.7956017697E+002 -2.9672531596E+001 +1.2727924134E+002
972500000.000 -1.9518378512E+001 -3.3305249201E+001 -4.2680446813E+001 -1.3613108887E+002 -8.1947866384E+001 +1.2665461346E+002 -2.5894242930E+001 +1.3495125839E+002
1105000000.000 -1.9211965440E+001 -3.7465143575E+001 -4.2747201886E+001 -1.7012078577E+002 -8.1090255753E+001 -1.3251981219E+002 -2.4360149145E+001 +1.4059131787E+002
1237500000.000 -1.8908440466E+001 -4.0928075499E+001 -4.2768899422E+001 +1.5613576028E+002 -8.4726360603E+001 -3.7261597829E+001 -2.3382971775E+001 +1.4990474341E+002
1370000000.000 -1.8576356896E+001 -4.4538222336E+001 -4.2814018367E+001 +1.2135050786E+002 -9.4458276270E+001 +2.4302560054E+001 -2.2041531792E+001 +1.5981705907E+002
1502500000.000 -1.8252041491E+001 -4.7609333641E+001 -4.2859143988E+001 +8.7285970401E+001 -8.6015242043E+001 +1.5894012923E+002 -2.0849386338E+001 +1.6615899926E+002
1635000000.000 -1.7877261328E+001 -5.0334697768E+001 -4.2905143694E+001 +5.3766068244E+001 -8.7156450986E+001 -7.2967559179E+001 -2.0007643046E+001 +1.7319814711E+002
1767500000.000 -1.7516050365E+001 -5.3445048297E+001 -4.2967869615E+001 +1.9637529949E+001 -8.7778700742E+001 +3.4081460708E+001 -1.9003141349E+001 +1.7833559608E+002
1900000000.000 -1.7221436512E+001 -5.5687430384E+001 -4.2994016494E+001 -1.5106801354E+001 -8.3407240086E+001 +8.3422884370E+001 -1.8850602933E+001 -1.7842395918E+002
2032500000.000 -1.6919543331E+001 -5.8030530246E+001 -4.3028639456E+001 -4.9295603385E+001 -8.4659468596E+001 -3.3884924556E+001 -1.8661537198E+001 -1.6806763132E+002
2165000000.000 -1.6527089896E+001 -6.0146067104E+001 -4.2993874670E+001 -8.2308389715E+001 -8.3902428310E+001 -1.1317772718E+002 -1.7722458945E+001 -1.6122260359E+002
2297500000.000 -1.6247160487E+001 -6.2301595012E+001 -4.3040353881E+001 -1.1513096162E+002 -8.1031246173E+001 +1.7347480828E+002 -1.7227545740E+001 -1.5722105043E+002
2430000000.000 -1.5979050540E+001 -6.3986219568E+001 -4.3169572448E+001 -1.5045939174E+002 -8.0331201808E+001 +5.6944619685E+001 -1.6895769803E+001 -1.5298915076E+002
2562500000.000 -1.5651862728E+001 -6.5840033855E+001 -4.3174851277E+001 +1.7478132932E+002 -8.5286549693E+001 +1.0465041593E+002 -1.6796683076E+001 -1.5067995740E+002
2695000000.000 -1.5427984284E+001 -6.7965539826E+001 -4.3372781680E+001 +1.4026431750E+002 -8.9442585441E+001 -1.6973790037E+002 -1.7364304799E+001 -1.4740690593E+002
2827500000.000 -1.5257449812E+001 -6.9611696395E+001 -4.3428409477E+001 +1.0400674428E+002 -9.5469016632E+001 +1.1873267356E+002 -1.7815741342E+001 -1.4034763571E+002
2960000000.000 -1.4985165342E+001 -7.0954314601E+001 -4.3681424877E+001 +7.1030455685E+001 -8.5059380796E+001 +1.3329473325E+001 -1.8093875275E+001 -1.3576694270E+002
3092500000.000 -1.4676010767E+001 -7.2823273636E+001 -4.3409932604E+001 +3.7291459194E+001 -7.9730910862E+001 -1.7719494685E+002 -1.9079001766E+001 -1.2972301638E+002
3225000000.000 -1.4482737641E+001 -7.4790789088E+001 -4.3846388149E+001 +2.9813727120E+000 -8.4495389275E+001 -1.6185951197E+002 -1.9565050878E+001 -1.1975003843E+002
3357500000.000 -1.4303000229E+001 -7.6013826776E+001 -4.3656459094E+001 -2.8689351055E+001 -9.0879352193E+001 -7.2913195410E+001 -1.9880823361E+001 -1.1457081265E+002
3490000000.000 -1.4017209714E+001 -7.7430714884E+001 -4.3503831883E+001 -6.2283553978E+001 -7.5724641784E+001 +7.9392206607E+001 -2.1102446858E+001 -1.0916474191E+002
3622500000.000 -1.3746450404E+001 -7.9008469188E+001 -4.3622831917E+001 -9.6085394932E+001 -7.9808157279E+001 +1.7870336038E+002 -2.1933648933E+001 -9.8313920276E+001
3755000000.000 -1.3510068590E+001 -8.0520656784E+001 -4.3547086859E+001 -1.2987819195E+002 -7.9661130851E+001 -8.0742861532E+001 -2.2626364237E+001 -9.4698559391E+001
3887500000.000 -1.3283711883E+001 -8.1813692045E+001 -4.3473555010E+001 -1.6329353424E+002 -8.6196824873E+001 +3.9025498592E+001 -2.4951764884E+001 -8.8583263151E+001
4020000000.000 -1.3087074922E+001 -8.2885502743E+001 -4.3572249913E+001 +1.6193654630E+002 -8.1108021772E+001 -1.6512684467E+002 -2.6678338294E+001 -7.3802978913E+001
4152500000.000 -1.2839752845E+001 -8.3890758989E+001 -4.3379727105E+001 +1.2933195639E+002 -8.1003990588E+001 -6.4590117661E+001 -2.8747753198E+001 -6.4793143703E+001
4285000000.000 -1.2603640717E+001 -8.5162615817E+001 -4.3458551036E+001 +9.6269655375E+001 -8.7496959234E+001 +3.7547922557E+001 -3.3243302250E+001 -3.9236071021E+001
4417500000.000 -1.2429322525E+001 -8.6336984203E+001 -4.3688366345E+001 +6.0765242778E+001 -8.0000497214E+001 -5.8156168442E+001 -3.1779415723E+001 +7.1400101480E+000
4550000000.000 -1.2235971852E+001 -8.6983735063E+001 -4.3774502153E+001 +2.6748074022E+001 -8.2215470061E+001 -7.5274944186E+001 -3.0229059504E+001 +1.7287032112E+001
4682500000.000 -1.2005020489E+001 -8.7868205411E+001 -4.3670034761E+001 -5.1029067029E+000 -8.1815230497E+001 +4.2599807796E+001 -2.9636093630E+001 +3.7628502955E+001
4815000000.000 -1.1816523021E+001 -8.9045783415E+001 -4.3646800489E+001 -3.8002059848E+001 -8.7824515809E+001 +8.7074753937E+001 -2.7605966839E+001 +4.0370533002E+001
4947500000.000 -1.1659838187E+001 -8.9618457719E+001 -4.3696203560E+001 -7.1865857041E+001 -8.0347694720E+001 -1.3558281925E+002 -2.9318248360E+001 +3.4647566776E+001
5080000000.000 -1.1464346768E+001 -9.0137438924E+001 -4.3493664864E+001 -1.0465644712E+002 -8.4745423311E+001 -1.6816281591E+001 -3.2199173040E+001 +5.5517269500E+001
5212500000.000 -1.1269148766E+001 -9.1046338084E+001 -4.3341965777E+001 -1.3811527684E+002 -9.2929132569E+001 +2.5456941504E+001 -3.1531453364E+001 +6.8045879697E+001
5345000000.000 -1.1147261580E+001 -9.1808141822E+001 -4.3207981748E+001 -1.7238250158E+002 -8.2715239460E+001 +1.7657254412E+002 -3.5255695500E+001 +6.8475368211E+001
5477500000.000 -1.1005186323E+001 -9.2111101925E+001 -4.3134243658E+001 +1.5296871225E+002 -8.5010037630E+001 -1.3592470536E+001 -3.7566967210E+001 +1.3013997332E+002
5610000000.000 -1.0824958591E+001 -9.2676278097E+001 -4.3157174711E+001 +1.1903933693E+002 -8.4346818198E+001 +1.1008958624E+002 -3.3716063055E+001 +1.3440493773E+002
5742500000.000 -1.0706498098E+001 -9.3534992197E+001 -4.3185851305E+001 +8.5018134320E+001 -9.1532734574E+001 -9.3525100978E+001 -3.8078780920E+001 +1.4916093321E+002
5875000000.000 -1.0614424581E+001 -9.4122191158E+001 -4.3123869676E+001 +5.0212472533E+001 -9.1150990778E+001 -5.0924083453E+001 -3.4003556250E+001 -1.7037688430E+002
6007500000.000 -1.0500385710E+001 -9.4567615602E+001 -4.3043736680E+001 +1.6653734694E+001 -8.5464045739E+001 +8.1852627346E+001 -3.2746695239E+001 +1.7904460568E+002
6140000000.000 -1.0341861479E+001 -9.5183233902E+001 -4.3248730201E+001 -1.8165573300E+001 -9.4357189908E+001 +1.1039427332E+002 -3.6362945932E+001 -1.7204986303E+002
6272500000.000 -1.0220741514E+001 -9.6122854898E+001 -4.3250203929E+001 -5.1899102763E+001 -8.7066023151E+001 +3.1685887159E+001 -3.4163562694E+001 -1.4466345254E+002
6405000000.000 -1.0156431532E+001 -9.6992689736E+001 -4.3254252692E+001 -8.5630553151E+001 -8.3073760074E+001 -2.2648400564E+001 -3.3909031881E+001 -1.6256692022E+002
6537500000.000 -1.0045978062E+001 -9.7273597146E+001 -4.3384878547E+001 -1.2021171954E+002 -9.0131746079E+001 -1.5627860631E+002 -4.0078168474E+001 -1.6342485986E+002
6670000000.000 -9.8724043768E+000 -9.7868110165E+001 -4.3301253177E+001 -1.5377086484E+002 -8.2502942931E+001 -8.9991458165E+001 -3.9823251731E+001 -1.4047138023E+002
6802500000.000 -9.7337224322E+000 -9.8989353274E+001 -4.3415614354E+001 +1.7212352354E+002 -8.7818668005E+001 +4.2215234487E+001 -3.9034816666E+001 +1.7755695959E+002
6935000000.000 -9.6920428696E+000 -9.9751849673E+001 -4.3499553089E+001 +1.3849664302E+002 -8.6406795619E+001 +1.5625728662E+002 -3.8546095843E+001 +1.2412848331E+002
7067500000.000 -9.5759728795E+000 -9.9947123411E+001 -4.3554180648E+001 +1.0449766061E+002 -8.4103408512E+001 -3.0730676309E+001 -3.8524294477E+001 +1.1684236813E+002
7200000000.000 -9.4045774390E+000 -1.0060062567E+002 -4.3528815227E+001 +7.0328932762E+001 -8.4526722699E+001 +5.8000903276E+001 -3.2697936467E+001 +1.3031083201E+002
7332500000.000 -9.2996817144E+000 -1.0162055564E+002 -4.3592631159E+001 +3.6921543368E+001 -9.0337326585E+001 +1.2366428097E+002 -2.9148691632E+001 +1.1899617413E+002
7465000000.000 -9.2186684764E+000 -1.0210234578E+002 -4.3563160144E+001 +2.7166160612E+000 -8.9784924183E+001 +1.2350059503E+002 -2.8607450205E+001 +1.2351043832E+002
7597500000.000 -9.0812672750E+000 -1.0248213718E+002 -4.3675369783E+001 -3.0654721576E+001 -8.3683224744E+001 -4.1121182986E+001 -2.6019775049E+001 +1.3746404517E+002
7730000000.000 -8.9351867850E+000 -1.0313815062E+002 -4.3662824860E+001 -6.4666305460E+001 -9.0571712535E+001 +4.3505001749E+001 -2.3763787345E+001 +1.3757052328E+002
7862500000.000 -8.8436452911E+000 -1.0364709316E+002 -4.3841285800E+001 -9.8474634104E+001 -9.5606053906E+001 -8.3917060134E+001 -2.3310375443E+001 +1.4200855597E+002
7995000000.000 -8.7515931236E+000 -1.0389976436E+002 -4.3555477897E+001 -1.3260660798E+002 -1.0406163539E+002 -1.0572434964E+001 -2.1775091299E+001 +1.5439186821E+002
8127500000.000 -8.5833873208E+000 -1.0420143440E+002 -4.3676073818E+001 -1.6709496324E+002 -8.6135029230E+001 +9.4318753796E+001 -2.0035614701E+001 +1.5628730650E+002
8260000000.000 -8.4923209753E+000 -1.0486150268E+002 -4.3668494232E+001 +1.6030229907E+002 -8.8628149513E+001 +1.1218670771E+002 -1.9883877732E+001 +1.6031759696E+002
8392500000.000 -8.4074944136E+000 -1.0498523370E+002 -4.3721138315E+001 +1.2660404533E+002 -8.0977249855E+001 -1.4809398503E-001 -1.9048347478E+001 +1.7040983093E+002
8525000000.000 -8.3074779554E+000 -1.0515594386E+002 -4.3552072703E+001 +9.2106027893E+001 -8.3513433747E+001 +5.4168299594E+000 -1.8202779951E+001 +1.7274052298E+002
8657500000.000 -8.2024971844E+000 -1.0545877466E+002 -4.3631656541E+001 +5.9626306354E+001 -8.8958113235E+001 -1.3880880230E+001 -1.8562863095E+001 +1.7787856081E+002
8790000000.000 -8.1040299031E+000 -1.0573230609E+002 -4.3559427119E+001 +2.5270020196E+001 -8.4108418801E+001 -1.7530889538E+002 -1.8333726229E+001 -1.7194873692E+002
8922500000.000 -8.0485761519E+000 -1.0605429600E+002 -4.3634226964E+001 -1.0400461572E+001 -8.6840113420E+001 +8.3778989767E+000 -1.8002985232E+001 -1.6616846919E+002
9055000000.000 -7.9588000620E+000 -1.0625102493E+002 -4.3569173283E+001 -4.2572208653E+001 -8.7004159522E+001 +1.2161188696E+002 -1.8446177960E+001 -1.5832042981E+002
9187500000.000 -7.8976195522E+000 -1.0654998701E+002 -4.3540895744E+001 -7.7122824915E+001 -9.2299675858E+001 -1.7822519949E+002 -1.8357938040E+001 -1.4668777085E+002
9320000000.000 -7.8239045520E+000 -1.0713437229E+002 -4.3704151552E+001 -1.1218026978E+002 -8.5063448797E+001 -6.1321035406E+001 -1.8241200891E+001 -1.3985137598E+002
9452500000.000 -7.7658599735E+000 -1.0746216272E+002 -4.3618137504E+001 -1.4588181965E+002 -9.7616707785E+001 +1.5786759626E+002 -1.8824506246E+001 -1.3049217337E+002
9585000000.000 -7.6940874062E+000 -1.0778529776E+002 -4.3478151727E+001 -1.7916610964E+002 -8.2206105141E+001 -1.1325423150E+002 -1.8737043175E+001 -1.1867848359E+002
9717500000.000 -7.5925811211E+000 -1.0834946939E+002 -4.3670482647E+001 +1.4569480496E+002 -9.2559406971E+001 -6.2625350984E+001 -1.8849772867E+001 -1.1156178372E+002
9850000000.000 -7.5485246256E+000 -1.0909621987E+002 -4.3505134125E+001 +1.1245310853E+002 -8.6045434639E+001 +1.5280504517E+002 -1.9648407203E+001 -1.0030465873E+002
9982500000.000 -7.4877975517E+000 -1.0928017818E+002 -4.3613681551E+001 +7.8381816875E+001 -7.9099212844E+001 +1.5355025790E+002 -1.9615177920E+001 -8.6868303450E+001
10115000000.000 -7.3957895381E+000 -1.0963797754E+002 -4.3644756140E+001 +4.4344564639E+001 -8.6278337579E+001 -7.4707277422E+001 -1.9940630947E+001 -7.9665447085E+001
10247500000.000 -7.3178079323E+000 -1.1027779836E+002 -4.3593131098E+001 +1.0294128999E+001 -8.7438463120E+001 -1.9475997667E+001 -2.1148326913E+001 -6.5753828238E+001
10380000000.000 -7.2645623760E+000 -1.1076008932E+002 -4.3594021842E+001 -2.3719765036E+001 -8.8012082231E+001 +8.6257887926E+001 -2.0945933645E+001 -5.0192556650E+001
10512500000.000 -7.1921788101E+000 -1.1118606073E+002 -4.3556979334E+001 -5.7089981590E+001 -8.3053104032E+001 -4.0385453936E+001 -2.1490671989E+001 -4.2668175413E+001
10645000000.000 -7.1342082318E+000 -1.1166373186E+002 -4.3593435070E+001 -9.0324366843E+001 -8.2776921301E+001 +2.2857885845E+001 -2.2842070965E+001 -2.3827970409E+001
10777500000.000 -7.0643972728E+000 -1.1201451150E+002 -4.3620943577E+001 -1.2439654955E+002 -9.4098626134E+001 -5.1607595455E+001 -2.2073266051E+001 -6.1526528804E+000
10910000000.000 -6.9764955938E+000 -1.1246836384E+002 -4.3601451304E+001 -1.5841017746E+002 -9.3015030172E+001 +1.0665350477E+002 -2.2744807611E+001 +3.2485103222E+000
11042500000.000 -6.8881333971E+000 -1.1303469446E+002 -4.3623257983E+001 +1.6809564656E+002 -8.1178017185E+001 -6.0345168671E+001 -2.3471091816E+001 +2.7386463278E+001
11175000000.000 -6.8168234627E+000 -1.1333145356E+002 -4.3683576895E+001 +1.3372008304E+002 -9.0949258501E+001 -7.9595991322E+001 -2.2169304973E+001 +4.2410049977E+001
11307500000.000 -6.7593730585E+000 -1.1360005437E+002 -4.3502449235E+001 +1.0069124278E+002 -8.1691290819E+001 -7.5199547812E+001 -2.2701869614E+001 +5.2363109639E+001
11440000000.000 -6.6860396132E+000 -1.1400619021E+002 -4.3529420308E+001 +6.6533734548E+001 -1.0150355055E+002 +1.1778166307E+002 -2.2593038442E+001 +7.5288526060E+001
11572500000.000 -6.5919011035E+000 -1.1406639307E+002 -4.3647286024E+001 +3.2336144843E+001 -8.3388535505E+001 +6.2601599052E+001 -2.1136791895E+001 +8.6597404983E+001
11705000000.000 -6.5392760566E+000 -1.1442459945E+002 -4.3602220206E+001 -2.0313100093E+000 -8.8812986286E+001 +1.4288164842E+002 -2.1739555449E+001 +9.6446350621E+001
11837500000.000 -6.4669295719E+000 -1.1465982048E+002 -4.3463572864E+001 -3.5575298128E+001 -9.0297736029E+001 -3.3690067526E+001 -2.1094723636E+001 +1.1861224045E+002
11970000000.000 -6.4393686838E+000 -1.1483908973E+002 -4.3597090473E+001 -6.9246071096E+001 -8.7325767933E+001 -4.9994660061E+001 -1.9824942672E+001 +1.2495797636E+002
12102500000.000 -6.3976109028E+000 -1.1488495255E+002 -4.3383215100E+001 -1.0341164844E+002 -9.9188236146E+001 -1.6089573302E+002 -2.0724884092E+001 +1.3528560292E+002
12235000000.000 -6.3348329599E+000 -1.1523364188E+002 -4.3460389273E+001 -1.3702897679E+002 -8.9874631434E+001 -5.9265864634E+001 -1.9695652727E+001 +1.5395404637E+002
12367500000.000 -6.3154374375E+000 -1.1542352647E+002 -4.3265177888E+001 -1.7140342526E+002 -8.7671744332E+001 -4.8784692510E+001 -1.8896557408E+001 +1.5702358007E+002
12500000000.000 -6.2866094666E+000 -1.1591920382E+002 -4.3402463830E+001 +1.5400529357E+002 -1.0038795890E+002 -5.8717104870E+001 -2.0056863917E+001 +1.6816799527E+002
12632500000.000 -6.2291531432E+000 -1.1602839453E+002 -4.3509098848E+001 +1.2046056544E+002 -7.9441490506E+001 -1.6583560107E+002 -1.9044007511E+001 -1.7356467573E+002
12765000000.000 -6.1943070970E+000 -1.1631375551E+002 -4.3376882261E+001 +8.6792224811E+001 -9.1353387593E+001 +8.4842348361E+001 -1.8517274676E+001 -1.7227798851E+002
12897500000.000 -6.1948365670E+000 -1.1673418716E+002 -4.3435804540E+001 +5.2534822922E+001 -8.7297593083E+001 +1.3481467926E+002 -2.0168650588E+001 -1.5941656786E+002
13030000000.000 -6.1610718844E+000 -1.1687101782E+002 -4.3440993850E+001 +1.8608280064E+001 -9.0134249945E+001 +1.4464759136E+002 -1.8709437749E+001 -1.4195334449E+002
13162500000.000 -6.0909625956E+000 -1.1718941770E+002 -4.3472899339E+001 -1.5287106849E+001 -9.0565750405E+001 +5.2717163332E+000 -1.8588077315E+001 -1.4268275232E+002
13295000000.000 -6.0511961729E+000 -1.1750519396E+002 -4.3304424082E+001 -4.9872543017E+001 -8.1561835428E+001 -8.8469758468E+000 -2.0062400819E+001 -1.2798696852E+002
13427500000.000 -6.0333310899E+000 -1.1803746507E+002 -4.3250762016E+001 -8.3992969228E+001 -9.0323352246E+001 -1.0912118256E+002 -1.8713257062E+001 -1.1434521934E+002
13560000000.000 -6.0330634262E+000 -1.1795125313E+002 -4.3299420851E+001 -1.1794607227E+002 -9.2820792795E+001 +5.4860502859E+001 -1.8953794180E+001 -1.1537087589E+002
13692500000.000 -5.9611294850E+000 -1.1811150931E+002 -4.3210744150E+001 -1.5201577897E+002 -8.6556446042E+001 +4.9953747936E+001 -2.0816805343E+001 -1.0169796384E+002
13825000000.000 -5.9069732998E+000 -1.1854434727E+002 -4.3203366331E+001 +1.7234870622E+002 -8.3717242066E+001 +1.4329382753E+002 -1.9642887366E+001 -8.7666800347E+001
13957500000.000 -5.9009413195E+000 -1.1906783727E+002 -4.3345822539E+001 +1.3922643064E+002 -8.3965772293E+001 -2.2293535629E+001 -2.0274886101E+001 -9.0446680100E+001
14090000000.000 -5.8893605234E+000 -1.1913774493E+002 -4.3381598804E+001 +1.0560225014E+002 -7.9993777583E+001 +5.2508134868E+001 -2.2555792397E+001 -7.3063335912E+001
14222500000.000 -5.8281952988E+000 -1.1917403831E+002 -4.3169258642E+001 +6.9861233524E+001 -7.9211535068E+001 +1.6068603662E+002 -2.1214615728E+001 -5.9711355496E+001
14355000000.000 -5.7700349525E+000 -1.1978344146E+002 -4.3207152214E+001 +3.5916953234E+001 -8.6700798913E+001 -1.0598376134E+002 -2.2450272814E+001 -6.3340339397E+001
14487500000.000 -5.7606877460E+000 -1.2000651461E+002 -4.3148976207E+001 +2.6175366206E+000 -8.3968096500E+001 -1.0061867371E+001 -2.5284380144E+001 -4.0505679436E+001
14620000000.000 -5.7152092655E+000 -1.1988642600E+002 -4.3177572775E+001 -3.2177401340E+001 -8.2969118569E+001 +1.2730912594E+002 -2.3231402459E+001 -2.8314392122E+001
14752500000.000 -5.6116618812E+000 -1.2016614186E+002 -4.3333116521E+001 -6.7312427077E+001 -8.4960035708E+001 -1.6747590502E+002 -2.5432550674E+001 -3.5924954748E+001
14885000000.000 -5.5889667436E+000 -1.2054374300E+002 -4.3391274787E+001 -1.0137406154E+002 -9.1491610689E+001 +1.1761166217E+002 -2.8458926039E+001 +2.5823250746E+000
15017500000.000 -5.5653781339E+000 -1.2023099743E+002 -4.3155819189E+001 -1.3559177418E+002 -8.5193198989E+001 +8.9716686458E+001 -2.5335227537E+001 +7.4845273333E+000
15150000000.000 -5.4668007023E+000 -1.2007269263E+002 -4.3142363356E+001 -1.7008042025E+002 -8.0177863019E+001 -3.2604196352E+001 -2.9321876097E+001 -1.4448773609E+000
15282500000.000 -5.4054429173E+000 -1.2021950143E+002 -4.3322299330E+001 +1.5545843017E+002 -9.7672674211E+001 -1.5768499665E+001 -3.0502216912E+001 +5.7843054871E+001
