!  2-Port S-parameters saved by WinCal
! VAR MeasName=S-Parameters (CALIBRATED_DATA) read from VNA (C)
! VAR MeasDate=10/5/2015 6:47:22 PM
! VAR NAME=M6079_2_7_3_3_20C_6.0mA_-17.5dBm
! VAR FILENAME=M6079_2_7_3_3_20C_6.0mA_-17.5dBm.S2P
! VAR DATE=10/5/2015 6:47:22 PM
! VAR PHYS_PORTS=2,1
! VAR ObjTypeName=DATASET
! VAR IndexType=Frequency
!
# Hz S DB R 50
45000000.000 -2.6803811101E+001 +1.4112232426E-001 -4.4603809575E+001 +1.0618194452E+002 -6.6762429608E+001 +1.0017626183E+002 -3.0889292507E+001 +4.0288822276E+000
177500000.000 -2.6632129706E+001 -9.1257524585E+000 -4.2963283290E+001 +6.9844033028E+001 -7.6872832565E+001 +1.0682333250E+002 -3.2584981889E+001 +4.5427793517E+001
310000000.000 -2.6252955446E+001 -1.7366479250E+001 -4.3121024666E+001 +3.9272198153E+001 -8.0362232306E+001 -1.5491696346E+002 -2.3347732516E+001 +6.3791349742E+001
442500000.000 -2.5780002532E+001 -2.4962823061E+001 -4.1859731504E+001 +4.2643599249E-001 -7.9931539756E+001 -6.9142809134E+001 -2.2391787679E+001 +1.7085798218E+001
575000000.000 -2.5189631848E+001 -3.2528166922E+001 -4.2611283326E+001 -3.4568771393E+001 -9.3494464586E+001 +1.5193626994E+002 -3.0582174249E+001 +2.2192900192E+001
707500000.000 -2.4650924543E+001 -3.8678758741E+001 -4.2847523770E+001 -6.9254886851E+001 -8.2386928397E+001 +1.7453849185E+002 -3.4641781256E+001 +8.3003353368E+001
840000000.000 -2.3951640822E+001 -4.4266790467E+001 -4.2815812592E+001 -1.0282612027E+002 -9.5239736152E+001 -3.3089043010E+001 -2.9691500061E+001 +1.2762268406E+002
972500000.000 -2.3282052459E+001 -4.8819625152E+001 -4.3070445085E+001 -1.3675820293E+002 -8.3857856985E+001 +1.0009588863E+002 -2.5925920084E+001 +1.3511771309E+002
1105000000.000 -2.2662023130E+001 -5.3466549054E+001 -4.3076008503E+001 -1.7063048046E+002 -9.5334433555E+001 +1.0624910288E+002 -2.4385410391E+001 +1.4073760058E+002
1237500000.000 -2.2087044334E+001 -5.7049186857E+001 -4.3174067951E+001 +1.5559156303E+002 -8.6663450480E+001 +3.4266557747E+000 -2.3390873673E+001 +1.4995289329E+002
1370000000.000 -2.1483806353E+001 -6.0700861117E+001 -4.3134596519E+001 +1.2109819188E+002 -8.5677436127E+001 +7.7058592898E+001 -2.2053636629E+001 +1.5988206566E+002
1502500000.000 -2.0936984031E+001 -6.3477411909E+001 -4.3093387051E+001 +8.7168762843E+001 -8.6136824858E+001 -1.0063241209E+002 -2.0855973375E+001 +1.6625508849E+002
1635000000.000 -2.0355055055E+001 -6.5811185563E+001 -4.3204575898E+001 +5.3180281735E+001 -8.6440855220E+001 -4.1997386120E+000 -2.0008905697E+001 +1.7321257726E+002
1767500000.000 -1.9801115759E+001 -6.8539340011E+001 -4.3160876616E+001 +1.9008689336E+001 -8.5299896953E+001 +1.5170044170E+002 -1.8999430896E+001 +1.7836553690E+002
1900000000.000 -1.9375234482E+001 -7.0459325820E+001 -4.3156732574E+001 -1.4799163575E+001 -8.5746584395E+001 -1.7325258736E+002 -1.8865573882E+001 -1.7832337932E+002
2032500000.000 -1.8926351125E+001 -7.2368281777E+001 -4.3297670775E+001 -4.9024653144E+001 -8.7065955341E+001 +1.0888944414E+002 -1.8667485840E+001 -1.6802675750E+002
2165000000.000 -1.8406928492E+001 -7.3917151073E+001 -4.3310935533E+001 -8.3307104374E+001 -8.6579466064E+001 -2.7111717014E+001 -1.7736345944E+001 -1.6115228370E+002
2297500000.000 -1.8029885201E+001 -7.5717001113E+001 -4.3351151094E+001 -1.1733332212E+002 -9.3625075347E+001 +9.7570438940E+001 -1.7234887938E+001 -1.5715585833E+002
2430000000.000 -1.7665961492E+001 -7.7008388468E+001 -4.3425652895E+001 -1.5169553844E+002 -8.0380326074E+001 -7.7079594868E+001 -1.6909626124E+001 -1.5295282699E+002
2562500000.000 -1.7244159083E+001 -7.8486573109E+001 -4.3649798304E+001 +1.7574148479E+002 -8.3010970037E+001 -1.2512436084E+001 -1.6804434439E+001 -1.5075877684E+002
2695000000.000 -1.6945819441E+001 -8.0374875966E+001 -4.3419795182E+001 +1.3985449631E+002 -8.5115132123E+001 +1.7780131917E+002 -1.7367764993E+001 -1.4733480119E+002
2827500000.000 -1.6726189669E+001 -8.1737163728E+001 -4.3544388161E+001 +1.0709004148E+002 -7.8271264048E+001 -4.5591243750E+001 -1.7822128052E+001 -1.4029722259E+002
2960000000.000 -1.6383578375E+001 -8.2655090791E+001 -4.3661781723E+001 +7.2357903241E+001 -8.5271441625E+001 -8.3073163360E+001 -1.8105013395E+001 -1.3575177212E+002
3092500000.000 -1.6004700986E+001 -8.4200439185E+001 -4.3850494344E+001 +3.9553533303E+001 -7.7069199756E+001 +1.3111972706E+002 -1.9082502211E+001 -1.2959658280E+002
3225000000.000 -1.5745343939E+001 -8.5944152711E+001 -4.3907944804E+001 +4.4667252489E+000 -9.3571005803E+001 -1.6190152539E+001 -1.9558517931E+001 -1.1967041669E+002
3357500000.000 -1.5539395873E+001 -8.6959167305E+001 -4.3827228599E+001 -2.8067742781E+001 -8.2493971687E+001 +5.1446580366E+001 -1.9891643250E+001 -1.1446110461E+002
3490000000.000 -1.5203897513E+001 -8.7956118450E+001 -4.3941718697E+001 -6.1577477959E+001 -7.4741367994E+001 +7.2500159778E+001 -2.1099929029E+001 -1.0896212353E+002
3622500000.000 -1.4869089383E+001 -8.9215440731E+001 -4.3739704499E+001 -9.6039249610E+001 -8.1413353115E+001 -1.2976247972E+002 -2.1948386015E+001 -9.8234158929E+001
3755000000.000 -1.4582163672E+001 -9.0496663437E+001 -4.3801094745E+001 -1.2901010339E+002 -8.2467527117E+001 -1.1423860622E+002 -2.2673501740E+001 -9.4643633640E+001
3887500000.000 -1.4335023346E+001 -9.1425551841E+001 -4.3779193381E+001 -1.6263905017E+002 -8.6166613001E+001 +8.5824376806E+001 -2.4993631049E+001 -8.8331643706E+001
4020000000.000 -1.4108879861E+001 -9.2227921376E+001 -4.3728955848E+001 +1.6255984705E+002 -7.7845802242E+001 +1.6943354983E+002 -2.6673562357E+001 -7.3544504657E+001
4152500000.000 -1.3823465866E+001 -9.2903679038E+001 -4.3816778718E+001 +1.2806090564E+002 -8.6924955440E+001 -1.2427344455E+002 -2.8764853957E+001 -6.4723407228E+001
4285000000.000 -1.3551243909E+001 -9.3906107609E+001 -4.3797290974E+001 +9.5097726131E+001 -7.9575662426E+001 +1.4284713097E+001 -3.3280944626E+001 -3.8906272369E+001
4417500000.000 -1.3358902258E+001 -9.4844928306E+001 -4.3928500607E+001 +6.0843200551E+001 -8.3149213686E+001 +1.1712196925E+002 -3.1782685285E+001 +7.5855305526E+000
4550000000.000 -1.3146831246E+001 -9.5260053605E+001 -4.3997041308E+001 +2.6479876083E+001 -9.2330824584E+001 +5.4518760113E+001 -3.0265528568E+001 +1.7782544107E+001
4682500000.000 -1.2892885909E+001 -9.5883119975E+001 -4.4098759332E+001 -6.0154245867E+000 -8.6603156040E+001 +4.0594362636E+001 -2.9640544094E+001 +3.7982728548E+001
4815000000.000 -1.2678241749E+001 -9.6855925444E+001 -4.4148896369E+001 -3.9345349010E+001 -8.9975253893E+001 +1.4274410693E+002 -2.7628223201E+001 +4.0877150727E+001
4947500000.000 -1.2506937375E+001 -9.7249268257E+001 -4.4065988196E+001 -7.2497095662E+001 -8.6908955062E+001 +5.3605329837E+001 -2.9323879576E+001 +3.5172346145E+001
5080000000.000 -1.2301677703E+001 -9.7553209247E+001 -4.3924078044E+001 -1.0586255684E+002 -9.5963378324E+001 +2.8111831586E+001 -3.2237514414E+001 +5.6232426191E+001
5212500000.000 -1.2084776306E+001 -9.8208387111E+001 -4.3942169780E+001 -1.3987225197E+002 -8.4150875780E+001 -3.4399408055E+001 -3.1523640917E+001 +6.8834899440E+001
5345000000.000 -1.1941991924E+001 -9.8847887905E+001 -4.3843289757E+001 -1.7280693957E+002 -9.4123998655E+001 -9.4774680819E+001 -3.5290144927E+001 +6.9719125313E+001
5477500000.000 -1.1798972415E+001 -9.8998263100E+001 -4.3765077855E+001 +1.5294301412E+002 -8.9710522987E+001 -1.0567319757E+001 -3.7409402525E+001 +1.3091489394E+002
5610000000.000 -1.1611164714E+001 -9.9326630858E+001 -4.3872732463E+001 +1.1809281825E+002 -9.4571141525E+001 -1.4723045193E+002 -3.3667197676E+001 +1.3483879286E+002
5742500000.000 -1.1472884610E+001 -1.0005845296E+002 -4.3799255634E+001 +8.4297616603E+001 -8.8585978820E+001 -1.1561722010E+002 -3.7930484415E+001 +1.5067355864E+002
5875000000.000 -1.1375048394E+001 -1.0056673113E+002 -4.3780535995E+001 +4.9547078587E+001 -8.5700696460E+001 -2.9984997683E+001 -3.3908906828E+001 -1.7065796828E+002
6007500000.000 -1.1259674682E+001 -1.0086802313E+002 -4.3817541470E+001 +1.5437524177E+001 -8.5041049661E+001 +3.2949126222E+001 -3.2705390460E+001 +1.7934880557E+002
6140000000.000 -1.1091852039E+001 -1.0133145121E+002 -4.3896519916E+001 -1.9015423717E+001 -9.1077393803E+001 -1.7017715200E+002 -3.6220560153E+001 -1.7099667141E+002
6272500000.000 -1.0953151433E+001 -1.0218612408E+002 -4.3821657666E+001 -5.3007931271E+001 -1.0332938118E+002 +3.7989478587E+001 -3.4089078751E+001 -1.4438577350E+002
6405000000.000 -1.0884904351E+001 -1.0303018071E+002 -4.3848646913E+001 -8.6423267472E+001 -8.3108266974E+001 +3.7452073607E+001 -3.3846869668E+001 -1.6214195476E+002
6537500000.000 -1.0767372298E+001 -1.0315578593E+002 -4.3846253387E+001 -1.2144892523E+002 -8.1554998180E+001 +1.2877981552E+002 -3.9995308828E+001 -1.6207192741E+002
6670000000.000 -1.0580747222E+001 -1.0361828993E+002 -4.3916586533E+001 -1.5521797017E+002 -9.0015002335E+001 -2.9693933838E+001 -3.9575107134E+001 -1.3933464865E+002
6802500000.000 -1.0427606403E+001 -1.0465398467E+002 -4.3975423366E+001 +1.7141649935E+002 -9.5910151919E+001 +9.2503194785E+000 -3.9069308533E+001 +1.7876530483E+002
6935000000.000 -1.0383431656E+001 -1.0534964478E+002 -4.4018809191E+001 +1.3762443715E+002 -9.0161605373E+001 +4.9003772774E+001 -3.8679513667E+001 +1.2364515724E+002
7067500000.000 -1.0254963270E+001 -1.0543465356E+002 -4.4003971454E+001 +1.0360441351E+002 -8.3914014424E+001 -1.2210035890E+002 -3.8700106474E+001 +1.1653664735E+002
7200000000.000 -1.0076221962E+001 -1.0596378486E+002 -4.4075443907E+001 +6.9086357648E+001 -9.0531939270E+001 +1.1193799511E+002 -3.2776305897E+001 +1.3053653531E+002
7332500000.000 -9.9565079078E+000 -1.0688895332E+002 -4.4029732599E+001 +3.5795776519E+001 -8.2946707477E+001 +1.0632325164E+002 -2.9181524461E+001 +1.1895822662E+002
7465000000.000 -9.8680995774E+000 -1.0726809354E+002 -4.4234187081E+001 +1.8397220784E+000 -8.0773507373E+001 +1.5809807171E+002 -2.8654948270E+001 +1.2336003488E+002
7597500000.000 -9.7246810458E+000 -1.0757691890E+002 -4.4236646224E+001 -3.2341679482E+001 -9.2893038419E+001 -2.8915797259E+001 -2.6036824264E+001 +1.3744099297E+002
7730000000.000 -9.5651841951E+000 -1.0809150591E+002 -4.4369712583E+001 -6.6733478183E+001 -9.0023662753E+001 +7.6264973547E+001 -2.3758381513E+001 +1.3751407726E+002
7862500000.000 -9.4684188577E+000 -1.0853856664E+002 -4.4265030008E+001 -9.9362877226E+001 -8.8694871165E+001 -1.2015442835E+002 -2.3322528714E+001 +1.4187462659E+002
7995000000.000 -9.3701563436E+000 -1.0870490310E+002 -4.4323277134E+001 -1.3347442298E+002 -8.1055513228E+001 -7.6654730933E+001 -2.1782087266E+001 +1.5435783298E+002
8127500000.000 -9.1965925221E+000 -1.0886136151E+002 -4.4317943232E+001 -1.6640276684E+002 -8.6775764063E+001 +6.0718345184E+001 -2.0033837916E+001 +1.5626609051E+002
8260000000.000 -9.0963226914E+000 -1.0950416099E+002 -4.4305638138E+001 +1.5928804614E+002 -8.5239440085E+001 +1.6775113997E+002 -1.9881657679E+001 +1.6033428316E+002
8392500000.000 -9.0083898037E+000 -1.0953785463E+002 -4.4206178932E+001 +1.2552891516E+002 -8.3386923573E+001 -4.0151670443E+001 -1.9048073615E+001 +1.7049356078E+002
8525000000.000 -8.9045240293E+000 -1.0959874175E+002 -4.4416283088E+001 +9.2030978631E+001 -9.0543781345E+001 -1.7786533983E+002 -1.8204106520E+001 +1.7285227619E+002
8657500000.000 -8.7893517102E+000 -1.0981009989E+002 -4.4314906399E+001 +5.8590015881E+001 -9.0829485975E+001 +9.9830100616E+001 -1.8569728934E+001 +1.7795108472E+002
8790000000.000 -8.6887998322E+000 -1.1004017927E+002 -4.4227558429E+001 +2.3978962162E+001 -9.6652963601E+001 -7.2814544098E+001 -1.8333618403E+001 -1.7186683597E+002
8922500000.000 -8.6321384202E+000 -1.1030172702E+002 -4.4252709749E+001 -1.0036902454E+001 -8.5274333996E+001 +5.8274700685E+001 -1.8004669116E+001 -1.6611921651E+002
9055000000.000 -8.5459587533E+000 -1.1040167666E+002 -4.4313550573E+001 -4.4369878178E+001 -8.8592335943E+001 +1.4254147173E+002 -1.8447480695E+001 -1.5824814816E+002
9187500000.000 -8.4767114377E+000 -1.1065841185E+002 -4.4203110119E+001 -7.8305841234E+001 -8.1732363128E+001 +1.4304828777E+002 -1.8352087077E+001 -1.4659625354E+002
9320000000.000 -8.4011490896E+000 -1.1123681109E+002 -4.4194098513E+001 -1.1218252058E+002 -7.9790159855E+001 -4.0596548942E+001 -1.8240415474E+001 -1.3979267418E+002
9452500000.000 -8.3431511921E+000 -1.1154729495E+002 -4.4259389193E+001 -1.4572032758E+002 -8.6011045570E+001 +1.7436005304E+002 -1.8829534736E+001 -1.3036490042E+002
9585000000.000 -8.2655693361E+000 -1.1174548862E+002 -4.4199352546E+001 +1.7955029175E+002 -9.4742284897E+001 +1.7442157950E+002 -1.8738511391E+001 -1.1847499214E+002
9717500000.000 -8.1597335490E+000 -1.1227160847E+002 -4.4094941773E+001 +1.4561299994E+002 -9.3952075294E+001 +1.6387522543E+002 -1.8850019331E+001 -1.1140604932E+002
9850000000.000 -8.1106909613E+000 -1.1300671064E+002 -4.4307403149E+001 +1.1228582582E+002 -8.8507202240E+001 -3.5226470296E+001 -1.9641235482E+001 -1.0025982696E+002
9982500000.000 -8.0485274345E+000 -1.1312116814E+002 -4.4330860375E+001 +7.7727581917E+001 -8.1770947548E+001 -9.7815496908E+001 -1.9620729686E+001 -8.6736375505E+001
10115000000.000 -7.9543886951E+000 -1.1340884878E+002 -4.4223740263E+001 +4.4502034250E+001 -8.5944037478E+001 +1.2629090596E+001 -1.9934729287E+001 -7.9454170177E+001
10247500000.000 -7.8656607615E+000 -1.1404899299E+002 -4.4295858891E+001 +1.0643048047E+001 -8.1614380120E+001 +1.6112046330E+001 -2.1150873658E+001 -6.5639476995E+001
10380000000.000 -7.8096706969E+000 -1.1448538391E+002 -4.4342687471E+001 -2.2710643911E+001 -9.0359612744E+001 -1.6418215976E+002 -2.0964809340E+001 -4.9900469057E+001
10512500000.000 -7.7353209175E+000 -1.1485101617E+002 -4.4224362556E+001 -5.6401743668E+001 -9.6378808788E+001 -1.0499077201E+002 -2.1499368387E+001 -4.2400189993E+001
10645000000.000 -7.6723526782E+000 -1.1526832026E+002 -4.4311781856E+001 -9.0549825111E+001 -8.8696560647E+001 +2.0622441339E-001 -2.2843648859E+001 -2.3653685398E+001
10777500000.000 -7.5919206701E+000 -1.1557549776E+002 -4.4294971952E+001 -1.2529735307E+002 -8.6473924867E+001 +1.6106654276E+002 -2.2105090125E+001 -5.9120638098E+000
10910000000.000 -7.5003667826E+000 -1.1599666483E+002 -4.4261832058E+001 -1.5835645370E+002 -8.0890860139E+001 -1.3439127615E+002 -2.2740137673E+001 +3.7060471869E+000
11042500000.000 -7.4118458627E+000 -1.1651365414E+002 -4.4242492374E+001 +1.6780588294E+002 -9.8205850678E+001 +3.0673831874E+001 -2.3475788173E+001 +2.7630499443E+001
11175000000.000 -7.3343837831E+000 -1.1672606039E+002 -4.4259311650E+001 +1.3393210851E+002 -9.2587500517E+001 +1.4194260664E+002 -2.2184521947E+001 +4.2738701119E+001
11307500000.000 -7.2738705242E+000 -1.1697155757E+002 -4.4294909254E+001 +9.9418135808E+001 -8.4953098055E+001 -1.6624164696E+002 -2.2689829782E+001 +5.2831006850E+001
11440000000.000 -7.1940509459E+000 -1.1735900961E+002 -4.4325587008E+001 +6.5731464781E+001 -8.6178774872E+001 +5.1605317647E+001 -2.2562244236E+001 +7.5629833971E+001
11572500000.000 -7.1004635347E+000 -1.1731773450E+002 -4.4327379892E+001 +3.2206514692E+001 -8.3316353702E+001 +9.4830376075E+001 -2.1123321035E+001 +8.6921583118E+001
11705000000.000 -7.0385051285E+000 -1.1760782860E+002 -4.4253703997E+001 -2.2297571053E+000 -8.4378891228E+001 +1.5481627365E+002 -2.1736531994E+001 +9.6825705101E+001
11837500000.000 -6.9592718564E+000 -1.1782840351E+002 -4.4341561590E+001 -3.6364123996E+001 -8.2980010721E+001 -6.4367238095E+001 -2.1078230178E+001 +1.1895942608E+002
11970000000.000 -6.9303350515E+000 -1.1795621936E+002 -4.4223097843E+001 -7.0495152224E+001 -9.0955149877E+001 +2.5833024605E+001 -1.9818149109E+001 +1.2516719160E+002
12102500000.000 -6.8876399463E+000 -1.1795803964E+002 -4.4394832889E+001 -1.0404723378E+002 -8.7213285132E+001 +1.2264960133E+002 -2.0726161319E+001 +1.3552088692E+002
12235000000.000 -6.8181660345E+000 -1.1828478860E+002 -4.4277382944E+001 -1.3765158146E+002 -8.6277487309E+001 -1.5270244444E+002 -1.9686856541E+001 +1.5424016539E+002
12367500000.000 -6.7980799922E+000 -1.1841343347E+002 -4.4105347283E+001 -1.7170936054E+002 -8.1845406569E+001 +2.0806297505E+001 -1.8887499356E+001 +1.5744299924E+002
12500000000.000 -6.7671745328E+000 -1.1891764824E+002 -4.4293519223E+001 +1.5317155174E+002 -8.5512082824E+001 -1.7630952125E+002 -2.0061648771E+001 +1.6842889027E+002
12632500000.000 -6.7033238180E+000 -1.1903163912E+002 -4.4402150709E+001 +1.1952858905E+002 -1.0373443030E+002 -1.5466757689E+002 -1.9057675702E+001 -1.7325247298E+002
12765000000.000 -6.6669043184E+000 -1.1922621247E+002 -4.4327250061E+001 +8.5271270963E+001 -8.8094231595E+001 +1.3798781013E+002 -1.8516298512E+001 -1.7196265809E+002
12897500000.000 -6.6627952806E+000 -1.1969537486E+002 -4.4343306185E+001 +5.1378884427E+001 -7.8431993199E+001 +1.2727047119E+002 -2.0162389688E+001 -1.5917497350E+002
13030000000.000 -6.6302087021E+000 -1.1983654404E+002 -4.4435960152E+001 +1.7969900565E+001 -8.6064718809E+001 -1.4788569131E+002 -1.8727832682E+001 -1.4161055855E+002
13162500000.000 -6.5588601431E+000 -1.2009561325E+002 -4.4347405474E+001 -1.5923729184E+001 -8.4492921416E+001 -3.2643368269E+001 -1.8610612452E+001 -1.4238132664E+002
13295000000.000 -6.5150320296E+000 -1.2038887205E+002 -4.4407994904E+001 -5.0523315650E+001 -9.3698691949E+001 +1.5786856372E+002 -2.0069526719E+001 -1.2771111955E+002
13427500000.000 -6.4881272508E+000 -1.2092388342E+002 -4.4418113973E+001 -8.5143913891E+001 -8.7745534336E+001 +1.3884101393E+002 -1.8749015143E+001 -1.1407854958E+002
13560000000.000 -6.4953906792E+000 -1.2080413044E+002 -4.4391199830E+001 -1.1822835610E+002 -7.9730394114E+001 +5.3668516106E+001 -1.8987398127E+001 -1.1515132582E+002
13692500000.000 -6.4189831639E+000 -1.2090567685E+002 -4.4284326395E+001 -1.5283066769E+002 -7.9465454971E+001 +5.4019255687E+001 -2.0843802483E+001 -1.0141527198E+002
13825000000.000 -6.3573896103E+000 -1.2138053758E+002 -4.4254917827E+001 +1.7439500473E+002 -8.1807727456E+001 +1.3273924865E+000 -1.9671628455E+001 -8.7524251021E+001
13957500000.000 -6.3544318184E+000 -1.2185938788E+002 -4.4498033672E+001 +1.3856905297E+002 -8.0320182403E+001 -3.6620534863E+001 -2.0316928320E+001 -9.0188151636E+001
14090000000.000 -6.3357525760E+000 -1.2191313100E+002 -4.4155627583E+001 +1.0554877012E+002 -8.4668491365E+001 +9.0014613940E+001 -2.2582433910E+001 -7.2784995226E+001
14222500000.000 -6.2726765316E+000 -1.2194547156E+002 -4.4297591189E+001 +7.1195918056E+001 -8.6610840262E+001 -1.2189665396E+002 -2.1246012510E+001 -5.9566688702E+001
14355000000.000 -6.2112867187E+000 -1.2251711499E+002 -4.4259690382E+001 +3.6239926454E+001 -7.8661081587E+001 -3.5785660204E+001 -2.2485301857E+001 -6.3295714276E+001
14487500000.000 -6.1942880479E+000 -1.2271882760E+002 -4.4205147818E+001 +2.4458371574E+000 -8.8247617133E+001 -5.2941989371E+001 -2.5359627722E+001 -4.0204957629E+001
14620000000.000 -6.1454943420E+000 -1.2260125453E+002 -4.4322023354E+001 -3.1544062229E+001 -8.2180489308E+001 +7.8543718471E+001 -2.3268040155E+001 -2.8193575924E+001
14752500000.000 -6.0441006356E+000 -1.2282350418E+002 -4.4215456931E+001 -6.6027370459E+001 -8.8745311406E+001 -1.2794018169E+002 -2.5466597936E+001 -3.6019684437E+001
14885000000.000 -6.0099304329E+000 -1.2316743671E+002 -4.4406708660E+001 -1.0049742603E+002 -8.9869340235E+001 +4.1258825134E+000 -2.8565010701E+001 +2.8252461583E+000
15017500000.000 -5.9833096752E+000 -1.2287446075E+002 -4.4263923604E+001 -1.3506943792E+002 -8.4834100415E+001 +6.7228031466E+001 -2.5352407366E+001 +7.7505822550E+000
15150000000.000 -5.8900740798E+000 -1.2265574444E+002 -4.4469347618E+001 -1.6887426599E+002 -8.9461007077E+001 -1.0636931402E+002 -2.9406302616E+001 -1.7528123293E+000
15282500000.000 -5.8239686712E+000 -1.2276316265E+002 -4.4353658238E+001 +1.5667586494E+002 -8.8099527481E+001 -4.4071934802E+001 -3.0597962404E+001 +5.8225755299E+001
