!  2-Port S-parameters saved by WinCal
! VAR MeasName=S-Parameters (CALIBRATED_DATA) read from VNA (C)
! VAR MeasDate=10/5/2015 5:02:24 PM
! VAR NAME=M6079_4_7_3_2_20C_9.0mA_-17.5dBm
! VAR FILENAME=M6079_4_7_3_2_20C_9.0mA_-17.5dBm.S2P
! VAR DATE=10/5/2015 5:02:24 PM
! VAR PHYS_PORTS=2,1
! VAR ObjTypeName=DATASET
! VAR IndexType=Frequency
!
# Hz S DB R 50
45000000.000 -3.3430929554E+001 -4.4211312404E+000 -4.3804375555E+001 +1.1810262032E+002 -5.4945545252E+001 -8.1767942113E+000 -3.0961470312E+001 +5.0946468060E+000
177500000.000 -3.2452206860E+001 -1.6805698189E+001 -4.4445373649E+001 +7.0145202414E+001 -8.2376623193E+001 +2.9039340779E+001 -3.2631877023E+001 +4.6656136494E+001
310000000.000 -3.1526049205E+001 -2.8836332089E+001 -4.4833311287E+001 +4.0962645328E+001 -7.4625435649E+001 -1.1550486295E+002 -2.3320028841E+001 +6.4027304290E+001
442500000.000 -3.0304672669E+001 -3.8700613624E+001 -4.3802938119E+001 +7.8523046095E-001 -7.7680382443E+001 +6.8834019901E+000 -2.2378002437E+001 +1.7127028328E+001
575000000.000 -2.9042512490E+001 -4.7827704792E+001 -4.4272847778E+001 -3.4315907718E+001 -1.1277174848E+002 -1.0161841808E+002 -3.0526430777E+001 +2.2458024862E+001
707500000.000 -2.7994857476E+001 -5.4229192133E+001 -4.4674828317E+001 -6.8982480699E+001 -7.7834187365E+001 -1.4449287377E+002 -3.4556293574E+001 +8.2680874353E+001
840000000.000 -2.6774008658E+001 -5.9418067958E+001 -4.4552940535E+001 -1.0213713978E+002 -8.6125990218E+001 +1.5751013712E+001 -2.9699152561E+001 +1.2756258781E+002
972500000.000 -2.5736220430E+001 -6.3334675635E+001 -4.4585723972E+001 -1.3653470693E+002 -8.2676776948E+001 +1.3425847478E+002 -2.5906492876E+001 +1.3499542403E+002
1105000000.000 -2.4772740795E+001 -6.7255331321E+001 -4.4681426496E+001 -1.6960676586E+002 -8.9785811325E+001 +1.6273338319E+002 -2.4350130049E+001 +1.4055922848E+002
1237500000.000 -2.3959715211E+001 -7.0096725590E+001 -4.4819582760E+001 +1.5581695047E+002 -8.7060710310E+001 -1.6441020708E+002 -2.3384787326E+001 +1.4989966655E+002
1370000000.000 -2.3149171962E+001 -7.2847393006E+001 -4.4908930323E+001 +1.2203239293E+002 -8.4841784683E+001 +4.9658040078E+001 -2.2045218870E+001 +1.5975506032E+002
1502500000.000 -2.2455235955E+001 -7.4796253035E+001 -4.5018868744E+001 +8.7879083812E+001 -1.0233932798E+002 -7.6875274631E+001 -2.0851399564E+001 +1.6620289685E+002
1635000000.000 -2.1729667191E+001 -7.6334436623E+001 -4.4835712519E+001 +5.4374482289E+001 -8.5762540696E+001 +3.7446114056E+000 -2.0003785825E+001 +1.7318796848E+002
1767500000.000 -2.1051877740E+001 -7.8276392016E+001 -4.4953555373E+001 +2.0382971491E+001 -8.5246751439E+001 -7.9901069691E+000 -1.8999033949E+001 +1.7834222890E+002
1900000000.000 -2.0551126871E+001 -7.9657451682E+001 -4.4714129973E+001 -1.3699887396E+001 -1.0557565833E+002 +9.7580907953E+001 -1.8856181395E+001 -1.7843828002E+002
2032500000.000 -2.0036768670E+001 -8.1010028802E+001 -4.4899106129E+001 -4.8891100121E+001 -8.1614478995E+001 -8.3568122368E+001 -1.8664316467E+001 -1.6806375644E+002
2165000000.000 -1.9435791619E+001 -8.1934201996E+001 -4.5025191157E+001 -8.1638367397E+001 -7.9897084660E+001 -1.6032316052E+001 -1.7728704546E+001 -1.6117659313E+002
2297500000.000 -1.8998415344E+001 -8.3275030322E+001 -4.4919190283E+001 -1.1682444269E+002 -7.8366759088E+001 +9.7047800433E+001 -1.7229650459E+001 -1.5720487953E+002
2430000000.000 -1.8601008216E+001 -8.4181477094E+001 -4.5233259513E+001 -1.5085402365E+002 -7.6118828133E+001 -7.3771797636E+001 -1.6892879280E+001 -1.5299886845E+002
2562500000.000 -1.8120521534E+001 -8.5156683427E+001 -4.5194874862E+001 +1.7666665499E+002 -8.5319551650E+001 -6.7021938862E+001 -1.6786139900E+001 -1.5075359735E+002
2695000000.000 -1.7768406854E+001 -8.6772910072E+001 -4.5206243222E+001 +1.4325348580E+002 -8.2548488287E+001 -1.5759744620E+002 -1.7359004469E+001 -1.4743307736E+002
2827500000.000 -1.7522527013E+001 -8.7922450849E+001 -4.5090879517E+001 +1.1015151447E+002 -8.3493859457E+001 -1.1856856181E+002 -1.7820570711E+001 -1.4039410062E+002
2960000000.000 -1.7150010460E+001 -8.8365671019E+001 -4.5315822799E+001 +7.6514261041E+001 -8.8163990900E+001 +1.7444570723E+002 -1.8090101749E+001 -1.3585965131E+002
3092500000.000 -1.6733464636E+001 -8.9651865872E+001 -4.5056038114E+001 +4.2539133414E+001 -8.7258919682E+001 +1.5512273998E+002 -1.9086683077E+001 -1.2978818904E+002
3225000000.000 -1.6440915129E+001 -9.1198505927E+001 -4.4992028898E+001 +9.2947456676E+000 -7.7540414057E+001 -1.4674968967E+002 -1.9565710659E+001 -1.1980522438E+002
3357500000.000 -1.6217332151E+001 -9.1903593788E+001 -4.5425823239E+001 -2.3405283623E+001 -7.8261331212E+001 -1.6985533580E+000 -1.9887883404E+001 -1.1457787992E+002
3490000000.000 -1.5856910390E+001 -9.2648882917E+001 -4.5226188888E+001 -5.7088600345E+001 -8.3345210283E+001 +1.0976841420E+002 -2.1106445422E+001 -1.0912660688E+002
3622500000.000 -1.5501221329E+001 -9.3718799070E+001 -4.4879059823E+001 -9.1483046827E+001 -7.8041385916E+001 -1.1026255048E+002 -2.1934458261E+001 -9.8334020306E+001
3755000000.000 -1.5198980311E+001 -9.4723747366E+001 -4.5542275810E+001 -1.2586711573E+002 -7.8467170332E+001 -1.4104370044E+001 -2.2618850295E+001 -9.4724135320E+001
3887500000.000 -1.4922779891E+001 -9.5478099639E+001 -4.5459747113E+001 -1.6006569066E+002 -7.6167477507E+001 +1.5665033638E+002 -2.4962687739E+001 -8.8602771791E+001
4020000000.000 -1.4676324171E+001 -9.6171765999E+001 -4.5118607290E+001 +1.6621222045E+002 -8.5007744226E+001 +1.5664427661E+002 -2.6670168857E+001 -7.3710682782E+001
4152500000.000 -1.4379944115E+001 -9.6601796026E+001 -4.5407202873E+001 +1.3266636485E+002 -8.1259778928E+001 -1.4809714963E+002 -2.8748574425E+001 -6.4608565838E+001
4285000000.000 -1.4090422909E+001 -9.7432553284E+001 -4.5561008335E+001 +9.7089661484E+001 -9.4618690540E+001 -1.1280830089E+002 -3.3166409580E+001 -3.9421396320E+001
4417500000.000 -1.3869057654E+001 -9.8276902382E+001 -4.5519946252E+001 +6.2793652282E+001 -8.7596424095E+001 +1.0627054316E+002 -3.1789611558E+001 +7.5316446111E+000
4550000000.000 -1.3653215446E+001 -9.8508490205E+001 -4.5574173103E+001 +2.9701425420E+001 -7.8993556353E+001 -8.7606063260E+001 -3.0253547237E+001 +1.7300109501E+001
4682500000.000 -1.3386654072E+001 -9.8924655144E+001 -4.5841079204E+001 -4.3073671606E+000 -8.0985450721E+001 +2.6404509177E+000 -2.9672446359E+001 +3.7310187980E+001
4815000000.000 -1.3152688323E+001 -9.9768766241E+001 -4.5912340945E+001 -3.7409012958E+001 -9.4682263071E+001 -1.5107577301E+002 -2.7627426344E+001 +4.0301217932E+001
4947500000.000 -1.2979892731E+001 -1.0001734630E+002 -4.5744994992E+001 -7.0334603375E+001 -8.5752601357E+001 -1.0000126609E+002 -2.9303165351E+001 +3.4358386241E+001
5080000000.000 -1.2764592139E+001 -1.0017872426E+002 -4.5909287249E+001 -1.0408923271E+002 -8.8327010881E+001 +3.3410593199E+001 -3.2228217816E+001 +5.5276739326E+001
5212500000.000 -1.2535657003E+001 -1.0070516010E+002 -4.5729184132E+001 -1.3764340659E+002 -8.6240944240E+001 +1.7981172216E+002 -3.1582831179E+001 +6.8029573498E+001
5345000000.000 -1.2392482522E+001 -1.0124566033E+002 -4.5697507370E+001 -1.7099466680E+002 -8.3138987771E+001 -1.7082828672E+002 -3.5348368263E+001 +6.8360142244E+001
5477500000.000 -1.2244036064E+001 -1.0126430029E+002 -4.5675299330E+001 +1.5412304754E+002 -8.4097924922E+001 -1.9842074909E+001 -3.7624449427E+001 +1.3080936413E+002
5610000000.000 -1.2042277864E+001 -1.0150164591E+002 -4.5762958405E+001 +1.1981199083E+002 -8.7156641047E+001 +1.5010183628E+002 -3.3794561672E+001 +1.3451017510E+002
5742500000.000 -1.1898673995E+001 -1.0216611727E+002 -4.5694541740E+001 +8.6049744454E+001 -9.6504575218E+001 -1.3408785649E+002 -3.8231569906E+001 +1.4970746550E+002
5875000000.000 -1.1798341888E+001 -1.0258118448E+002 -4.5903818716E+001 +5.2891272484E+001 -8.4746716236E+001 +5.7343185646E+001 -3.4073460733E+001 -1.7033199686E+002
6007500000.000 -1.1669506899E+001 -1.0276030675E+002 -4.5805550068E+001 +1.7879514839E+001 -8.3881909047E+001 +2.4262362132E+001 -3.2799222807E+001 +1.7915091777E+002
6140000000.000 -1.1492994749E+001 -1.0313242367E+002 -4.5648303779E+001 -1.6169745698E+001 -8.5684937701E+001 +1.4759322443E+002 -3.6412664188E+001 -1.7139924598E+002
6272500000.000 -1.1348363563E+001 -1.0393756846E+002 -4.5633944629E+001 -4.9811670890E+001 -9.8627365178E+001 -1.2510231515E+002 -3.4233979085E+001 -1.4449469954E+002
6405000000.000 -1.1274414739E+001 -1.0467919529E+002 -4.5686653701E+001 -8.3513482930E+001 -8.9359296011E+001 +1.0042120099E+001 -3.3935861000E+001 -1.6239721033E+002
6537500000.000 -1.1156669007E+001 -1.0474484893E+002 -4.5705356281E+001 -1.1772454992E+002 -8.3264647657E+001 +1.1823612708E+002 -4.0118849316E+001 -1.6374910154E+002
6670000000.000 -1.0962545863E+001 -1.0509854216E+002 -4.5866364186E+001 -1.5195719484E+002 -8.2569558454E+001 -5.0713520342E+001 -3.9897244548E+001 -1.4021344200E+002
6802500000.000 -1.0796045281E+001 -1.0609731081E+002 -4.5980777485E+001 +1.7414544316E+002 -8.4847900639E+001 -6.1914778870E-001 -3.9083651465E+001 +1.7763176250E+002
6935000000.000 -1.0749081429E+001 -1.0678410970E+002 -4.5979663540E+001 +1.4048253392E+002 -8.4979838001E+001 +8.0447096822E+001 -3.8533921079E+001 +1.2367662638E+002
7067500000.000 -1.0621377259E+001 -1.0674902212E+002 -4.6048723211E+001 +1.0638288910E+002 -8.8816897176E+001 -1.1293760279E+001 -3.8509699691E+001 +1.1595885094E+002
7200000000.000 -1.0428630356E+001 -1.0720224075E+002 -4.5973719342E+001 +7.3331208152E+001 -8.5838395661E+001 -3.4912740765E+001 -3.2683409533E+001 +1.3018342939E+002
7332500000.000 -1.0299060078E+001 -1.0811914067E+002 -4.6161095866E+001 +3.8478331175E+001 -8.5871803287E+001 +9.7857111944E+001 -2.9128852635E+001 +1.1885770068E+002
7465000000.000 -1.0215638936E+001 -1.0846810973E+002 -4.5981016284E+001 +5.1579874810E+000 -8.3667187166E+001 -1.3025452044E+002 -2.8611394361E+001 +1.2347645660E+002
7597500000.000 -1.0060202556E+001 -1.0861894121E+002 -4.6070836180E+001 -2.8256274798E+001 -8.4915154914E+001 +9.2661288883E+000 -2.6022530631E+001 +1.3728690299E+002
7730000000.000 -9.8946779505E+000 -1.0910262506E+002 -4.6140434737E+001 -6.1167361958E+001 -8.7547532689E+001 +9.8409721647E+001 -2.3745524747E+001 +1.3743654712E+002
7862500000.000 -9.7897990281E+000 -1.0953329135E+002 -4.6188493865E+001 -9.5820347600E+001 -8.6066691252E+001 -1.4326914972E+002 -2.3300153296E+001 +1.4191717555E+002
7995000000.000 -9.6926432830E+000 -1.0962151299E+002 -4.6301803092E+001 -1.2966447680E+002 -9.5346457294E+001 -1.9733648010E+001 -2.1776030290E+001 +1.5437997781E+002
8127500000.000 -9.5102338570E+000 -1.0968528787E+002 -4.6014894884E+001 -1.6214007918E+002 -8.0953697095E+001 +6.0811198821E+001 -2.0030237439E+001 +1.5616867797E+002
8260000000.000 -9.4033030216E+000 -1.1027992749E+002 -4.6223490446E+001 +1.6408456770E+002 -8.8315455804E+001 +8.1194871044E+001 -1.9886539574E+001 +1.6016231439E+002
8392500000.000 -9.3132402708E+000 -1.1023583513E+002 -4.6049881208E+001 +1.2935402077E+002 -8.9597094533E+001 -6.9887795211E+001 -1.9050073162E+001 +1.7033636730E+002
8525000000.000 -9.2041290598E+000 -1.1026522418E+002 -4.6294243401E+001 +9.6487466936E+001 -8.9024394536E+001 +6.5630185227E+001 -1.8201761838E+001 +1.7270196838E+002
8657500000.000 -9.0899013701E+000 -1.1043744894E+002 -4.6173816133E+001 +6.1982309144E+001 -8.7785499853E+001 +1.4316462481E+002 -1.8563829919E+001 +1.7775411225E+002
8790000000.000 -8.9855459742E+000 -1.1058944292E+002 -4.6087775773E+001 +2.8222622239E+001 -8.2510206826E+001 -1.3393298834E+002 -1.8341455538E+001 -1.7198711272E+002
8922500000.000 -8.9215358258E+000 -1.1081240622E+002 -4.5871632298E+001 -5.6948266238E+000 -8.4881925969E+001 +3.5399695653E+001 -1.8005497278E+001 -1.6623594346E+002
9055000000.000 -8.8304242701E+000 -1.1091607112E+002 -4.6141435465E+001 -4.0297200828E+001 -8.2295945215E+001 -1.6972772942E+002 -1.8438434392E+001 -1.5847426568E+002
9187500000.000 -8.7632935932E+000 -1.1108898382E+002 -4.6181923914E+001 -7.3907795096E+001 -9.5018645157E+001 -1.7436151952E+002 -1.8360036244E+001 -1.4684094496E+002
9320000000.000 -8.6820181968E+000 -1.1161482061E+002 -4.6138479053E+001 -1.0734543377E+002 -8.8109825446E+001 -2.6306444278E+001 -1.8238774046E+001 -1.3999313376E+002
9452500000.000 -8.6131189125E+000 -1.1187930632E+002 -4.5942628443E+001 -1.4157192265E+002 -8.9166532991E+001 +4.7690424375E+001 -1.8823703957E+001 -1.3056299187E+002
9585000000.000 -8.5391647215E+000 -1.1208475536E+002 -4.5881904941E+001 -1.7569656893E+002 -8.3383461705E+001 -1.4161552944E+002 -1.8736876350E+001 -1.1877486042E+002
9717500000.000 -8.4263724533E+000 -1.1255226552E+002 -4.6113483381E+001 +1.5105697364E+002 -9.5921527294E+001 -5.8105493913E+001 -1.8848783711E+001 -1.1162508799E+002
9850000000.000 -8.3737758080E+000 -1.1324946549E+002 -4.5997977147E+001 +1.1709882464E+002 -8.2748304632E+001 +8.6221967717E+001 -1.9636472864E+001 -1.0042033327E+002
9982500000.000 -8.3103728866E+000 -1.1332560014E+002 -4.6067922512E+001 +8.1988385545E+001 -9.1937950610E+001 -1.7553238095E+002 -1.9610521816E+001 -8.7079257182E+001
10115000000.000 -8.2109803895E+000 -1.1360837724E+002 -4.6204813207E+001 +4.8873535867E+001 -1.0133439067E+002 +8.2510953735E+000 -1.9929507769E+001 -7.9857263585E+001
10247500000.000 -8.1192616570E+000 -1.1419465120E+002 -4.6012942568E+001 +1.5269722575E+001 -9.2948680684E+001 +1.7327175231E+002 -2.1136953971E+001 -6.5970477739E+001
10380000000.000 -8.0628480863E+000 -1.1459608315E+002 -4.5944618438E+001 -1.9583503076E+001 -9.2667470363E+001 -1.3067295508E+002 -2.0939614615E+001 -5.0344412619E+001
10512500000.000 -7.9822362978E+000 -1.1494963562E+002 -4.6187097476E+001 -5.3833598723E+001 -9.3557177614E+001 -6.4580688934E+001 -2.1477490517E+001 -4.2861476952E+001
10645000000.000 -7.9135632831E+000 -1.1534948542E+002 -4.6101557393E+001 -8.6025784663E+001 -8.4686587337E+001 +6.1305974552E+001 -2.2825862828E+001 -2.4038993911E+001
10777500000.000 -7.8360008810E+000 -1.1563789741E+002 -4.6221962239E+001 -1.2126586573E+002 -8.4474883232E+001 +1.6746092246E+002 -2.2081301941E+001 -6.2813016602E+000
10910000000.000 -7.7383802661E+000 -1.1601899426E+002 -4.6267898523E+001 -1.5519266175E+002 -8.2289226014E+001 -9.7727004955E+001 -2.2729223912E+001 +3.0448738168E+000
11042500000.000 -7.6392202978E+000 -1.1649250583E+002 -4.6414223345E+001 +1.7167179702E+002 -9.7149374172E+001 +1.4317353037E+002 -2.3457871348E+001 +2.7050442836E+001
11175000000.000 -7.5635374962E+000 -1.1673036472E+002 -4.6316650751E+001 +1.3733830445E+002 -8.5954060370E+001 +1.1826374336E+002 -2.2159674577E+001 +4.2219487892E+001
11307500000.000 -7.4987823276E+000 -1.1693864952E+002 -4.6174916864E+001 +1.0258793054E+002 -8.5290154962E+001 -1.3442693643E+002 -2.2683678745E+001 +5.2246816253E+001
11440000000.000 -7.4138476431E+000 -1.1726367839E+002 -4.6376543125E+001 +6.9316028421E+001 -8.5476493919E+001 +2.0270008668E+001 -2.2578381619E+001 +7.5015726427E+001
11572500000.000 -7.3136717238E+000 -1.1725838956E+002 -4.6413637008E+001 +3.6241005777E+001 -8.2091792712E+001 -1.4460974814E+002 -2.1136077117E+001 +8.6398026455E+001
11705000000.000 -7.2553095651E+000 -1.1754403189E+002 -4.6240898808E+001 +1.3059639565E+000 -8.3430634020E+001 -1.5090785356E+002 -2.1740079647E+001 +9.6196868548E+001
11837500000.000 -7.1778253362E+000 -1.1771136782E+002 -4.6266808745E+001 -3.2863739639E+001 -9.4431560312E+001 -4.1035274857E-001 -2.1108622414E+001 +1.1839662089E+002
11970000000.000 -7.1469176350E+000 -1.1782037983E+002 -4.6515226779E+001 -6.6365819717E+001 -9.2893327302E+001 +1.5023234010E+002 -1.9825954895E+001 +1.2464434440E+002
12102500000.000 -7.0996079728E+000 -1.1783747141E+002 -4.6218655998E+001 -9.9972844219E+001 -9.1314246202E+001 +1.6963949402E+002 -2.0737225592E+001 +1.3500672960E+002
12235000000.000 -7.0270636738E+000 -1.1814131940E+002 -4.6501674637E+001 -1.3599444834E+002 -8.1549841580E+001 -7.0056129692E+001 -1.9701452440E+001 +1.5375889045E+002
12367500000.000 -7.0060747804E+000 -1.1825843935E+002 -4.6435227314E+001 -1.6951342796E+002 -8.2422082051E+001 +3.9891461342E+000 -1.8897459423E+001 +1.5687041828E+002
12500000000.000 -6.9750442919E+000 -1.1872571926E+002 -4.6395692654E+001 +1.5721643703E+002 -8.6054458276E+001 +1.3418632765E+002 -2.0058352895E+001 +1.6789602199E+002
12632500000.000 -6.9079071684E+000 -1.1874894273E+002 -4.6482351592E+001 +1.2293967822E+002 -8.4797631676E+001 -1.5044042953E+001 -1.9046795720E+001 -1.7374783409E+002
12765000000.000 -6.8702139235E+000 -1.1901564904E+002 -4.6640167846E+001 +8.8388980892E+001 -9.2365470467E+001 -3.5193316405E+001 -1.8503461712E+001 -1.7242954971E+002
12897500000.000 -6.8649869575E+000 -1.1938945535E+002 -4.6762331191E+001 +5.5185812716E+001 -8.7890044829E+001 +1.2046031079E+002 -2.0171657525E+001 -1.5961616097E+002
13030000000.000 -6.8287815935E+000 -1.1946448509E+002 -4.6733796916E+001 +2.1403765647E+001 -8.8281203642E+001 -1.7097195257E+002 -1.8707291808E+001 -1.4205762007E+002
13162500000.000 -6.7546526117E+000 -1.1976022153E+002 -4.6632952935E+001 -1.2427689759E+001 -8.8316409127E+001 +1.3006542703E+002 -1.8577733393E+001 -1.4288145975E+002
13295000000.000 -6.7056986748E+000 -1.2003635168E+002 -4.6890818536E+001 -4.6292054523E+001 -7.9483992559E+001 +9.3767916800E+001 -2.0045283309E+001 -1.2820584643E+002
13427500000.000 -6.6815564152E+000 -1.2050782814E+002 -4.6912917561E+001 -8.1414740426E+001 -9.3185621561E+001 -7.2636473219E+000 -1.8711520316E+001 -1.1444348693E+002
13560000000.000 -6.6819865698E+000 -1.2039130644E+002 -4.6789331955E+001 -1.1428980674E+002 -9.2886950806E+001 +8.2188317012E+001 -1.8932676569E+001 -1.1560462070E+002
13692500000.000 -6.6018261184E+000 -1.2051616240E+002 -4.6851591113E+001 -1.4958277507E+002 -8.8154094162E+001 +1.1208314073E+002 -2.0802352878E+001 -1.0184964437E+002
13825000000.000 -6.5443901046E+000 -1.2092394281E+002 -4.6869416753E+001 +1.7881598549E+002 -7.8059686320E+001 +1.6105219396E+002 -1.9626684763E+001 -8.7884870469E+001
13957500000.000 -6.5377371853E+000 -1.2142683845E+002 -4.6792169278E+001 +1.4454614703E+002 -9.5965046590E+001 -7.4044009976E+001 -2.0247768712E+001 -9.0553239273E+001
14090000000.000 -6.5160114635E+000 -1.2145869970E+002 -4.6751647215E+001 +1.1033655555E+002 -8.0688124800E+001 +6.4290508815E+001 -2.2520875002E+001 -7.3374354286E+001
14222500000.000 -6.4506992570E+000 -1.2146318463E+002 -4.6938819558E+001 +7.5346548366E+001 -1.0899961108E+002 +1.7184132437E+001 -2.1182991959E+001 -5.9772047478E+001
14355000000.000 -6.3880144868E+000 -1.2203399929E+002 -4.6649681885E+001 +4.3950029029E+001 -1.0334288160E+002 -6.0873426841E+001 -2.2411664225E+001 -6.3464625056E+001
14487500000.000 -6.3660370487E+000 -1.2220326133E+002 -4.6744971780E+001 +9.2431134733E+000 -8.7336639170E+001 +1.1292726185E+002 -2.5250547791E+001 -4.0578514318E+001
14620000000.000 -6.3186735602E+000 -1.2206273575E+002 -4.7055025532E+001 -2.6215456015E+001 -7.7890500981E+001 +1.6751913276E+002 -2.3206714847E+001 -2.8402791746E+001
14752500000.000 -6.2108327735E+000 -1.2225488662E+002 -4.6912705436E+001 -5.8657982742E+001 -8.8231515868E+001 -3.2061123211E+001 -2.5394469619E+001 -3.6024682081E+001
14885000000.000 -6.1759620685E+000 -1.2262014266E+002 -4.6812206123E+001 -9.4676902648E+001 -8.1934030998E+001 -6.6176067697E+000 -2.8420821469E+001 +2.1615140974E+000
15017500000.000 -6.1561469147E+000 -1.2229887980E+002 -4.6938136610E+001 -1.2772105260E+002 -8.0384486098E+001 +1.2863716032E+002 -2.5293748317E+001 +7.2115356679E+000
15150000000.000 -6.0560072724E+000 -1.2205228060E+002 -4.7101170551E+001 -1.6089188903E+002 -8.9981812646E+001 -1.2542159909E+002 -2.9307228482E+001 -1.8095450447E+000
15282500000.000 -5.9845225194E+000 -1.2217537740E+002 -4.6990501597E+001 +1.6400886618E+002 -9.3898114072E+001 -7.8037422678E+001 -3.0487781943E+001 +5.7945988324E+001
