!  2-Port S-parameters saved by WinCal
! VAR MeasName=S-Parameters (CALIBRATED_DATA) read from VNA (C)
! VAR MeasDate=10/5/2015 6:42:17 PM
! VAR NAME=M6079_2_7_3_3_20C_2.9mA_-17.5dBm
! VAR FILENAME=M6079_2_7_3_3_20C_2.9mA_-17.5dBm.S2P
! VAR DATE=10/5/2015 6:42:17 PM
! VAR PHYS_PORTS=2,1
! VAR ObjTypeName=DATASET
! VAR IndexType=Frequency
!
# Hz S DB R 50
45000000.000 -1.8475713947E+001 -1.5037746478E-001 -4.1607053008E+001 +9.7297900512E+001 -5.4992481908E+001 +2.8735724929E+001 -3.0610058674E+001 +5.2941145019E+000
177500000.000 -1.8435999833E+001 -4.8909856489E+000 -4.2747984537E+001 +7.0043316691E+001 -7.0208556738E+001 +5.3109084703E+001 -3.2593206418E+001 +4.5049407099E+001
310000000.000 -1.8362949700E+001 -9.1569856892E+000 -4.3059044378E+001 +3.9094895491E+001 -7.3300111752E+001 -1.0956605856E+002 -2.3294771652E+001 +6.3861316855E+001
442500000.000 -1.8258802524E+001 -1.3485297778E+001 -4.1886546738E+001 +3.3269676393E-001 -7.8732138471E+001 -1.3208124859E+000 -2.2391945203E+001 +1.7052993980E+001
575000000.000 -1.8110385913E+001 -1.7962313847E+001 -4.2504770160E+001 -3.5850622802E+001 -8.7762027134E+001 -1.5487217582E+002 -3.0570804713E+001 +2.2122483990E+001
707500000.000 -1.7996457558E+001 -2.1946104442E+001 -4.2597720420E+001 -6.9582166786E+001 -9.2449482381E+001 -1.7899322657E+002 -3.4634035437E+001 +8.3095685426E+001
840000000.000 -1.7790440511E+001 -2.5997364558E+001 -4.2782389708E+001 -1.0406454106E+002 -8.5299370863E+001 -7.9638578834E+001 -2.9693452789E+001 +1.2770425941E+002
972500000.000 -1.7567584680E+001 -2.9622566239E+001 -4.2888209468E+001 -1.3768684457E+002 -7.9637375408E+001 +7.8255259577E+001 -2.5916790991E+001 +1.3529321109E+002
1105000000.000 -1.7368509705E+001 -3.3529772475E+001 -4.2921124133E+001 -1.7176091954E+002 -8.1750692355E+001 -1.3448579842E+002 -2.4386104005E+001 +1.4066600182E+002
1237500000.000 -1.7154631919E+001 -3.6778855533E+001 -4.2975781073E+001 +1.5425678460E+002 -8.7510895190E+001 -4.3177461489E+001 -2.3391833518E+001 +1.5002196523E+002
1370000000.000 -1.6918274622E+001 -4.0287394771E+001 -4.2977424233E+001 +1.1946510778E+002 -8.9180222381E+001 +1.3494571386E+002 -2.2051579121E+001 +1.5978088199E+002
1502500000.000 -1.6685055330E+001 -4.3286156075E+001 -4.2961857057E+001 +8.6127907896E+001 -9.0893652496E+001 -1.1296946461E+002 -2.0857212767E+001 +1.6625805553E+002
1635000000.000 -1.6398468749E+001 -4.6069984967E+001 -4.3051818189E+001 +5.2165705619E+001 -8.7299637914E+001 -9.9352548630E+001 -2.0019032739E+001 +1.7325535596E+002
1767500000.000 -1.6130973644E+001 -4.9167433378E+001 -4.3049716774E+001 +1.7522354215E+001 -8.4223225509E+001 +7.5498645521E+001 -1.9000736892E+001 +1.7839452480E+002
1900000000.000 -1.5909531301E+001 -5.1566974544E+001 -4.3026636944E+001 -1.6840324549E+001 -8.5116380462E+001 +1.5566508531E+002 -1.8861498612E+001 -1.7838937615E+002
2032500000.000 -1.5666169950E+001 -5.3920525543E+001 -4.3087231219E+001 -5.1487212947E+001 -7.9889672474E+001 -8.3885095148E+001 -1.8671883535E+001 -1.6799183967E+002
2165000000.000 -1.5348588641E+001 -5.6182187646E+001 -4.3269154249E+001 -8.5237680598E+001 -8.6720974376E+001 -4.7620168335E+001 -1.7728479140E+001 -1.6119309918E+002
2297500000.000 -1.5134255023E+001 -5.8458244406E+001 -4.3291762210E+001 -1.1885380648E+002 -9.3623465599E+001 +1.3404745216E+002 -1.7239844885E+001 -1.5713517402E+002
2430000000.000 -1.4916281426E+001 -6.0342389333E+001 -4.3229151014E+001 -1.5317003293E+002 -8.5241293359E+001 -9.8602260350E+001 -1.6903390739E+001 -1.5294632941E+002
2562500000.000 -1.4643901727E+001 -6.2281569174E+001 -4.3419709008E+001 +1.7325703693E+002 -8.1773578476E+001 +6.5631877379E+001 -1.6798397476E+001 -1.5080530870E+002
2695000000.000 -1.4467736599E+001 -6.4552758277E+001 -4.3392301188E+001 +1.3907310743E+002 -8.4986053127E+001 -3.0450654315E+001 -1.7381213652E+001 -1.4743146828E+002
2827500000.000 -1.4323983273E+001 -6.6193138558E+001 -4.3400909074E+001 +1.0516207307E+002 -7.6575689090E+001 -7.0183359730E+001 -1.7805384918E+001 -1.4035571299E+002
2960000000.000 -1.4099323666E+001 -6.7704361447E+001 -4.3719426423E+001 +7.0961820437E+001 -8.9893970181E+001 -2.6847638225E+000 -1.8106315080E+001 -1.3584882870E+002
3092500000.000 -1.3838488743E+001 -6.9691875771E+001 -4.3510599370E+001 +3.7972980898E+001 -8.2843514605E+001 -1.4987877291E+001 -1.9087878245E+001 -1.2966170837E+002
3225000000.000 -1.3678879529E+001 -7.1768688527E+001 -4.3610973460E+001 +3.8513935340E+000 -7.3957542788E+001 -8.1622094922E+001 -1.9565597281E+001 -1.1971857825E+002
3357500000.000 -1.3541510947E+001 -7.3105680630E+001 -4.3513329690E+001 -2.9965272030E+001 -9.1641565717E+001 -4.0875461486E+001 -1.9891453449E+001 -1.1458865342E+002
3490000000.000 -1.3287008196E+001 -7.4574953937E+001 -4.3423572341E+001 -6.3265515596E+001 -8.3508232799E+001 +4.3238895039E+001 -2.1101246095E+001 -1.0903595889E+002
3622500000.000 -1.3045272012E+001 -7.6280806922E+001 -4.3534879729E+001 -9.8251412833E+001 -8.2847204117E+001 -1.3032881693E+002 -2.1928073443E+001 -9.8167922873E+001
3755000000.000 -1.2840404153E+001 -7.7913678145E+001 -4.3535384514E+001 -1.3227658805E+002 -8.0047261036E+001 -1.1456739438E+002 -2.2653847188E+001 -9.4698599511E+001
3887500000.000 -1.2645352213E+001 -7.9231573005E+001 -4.3448463346E+001 -1.6560598904E+002 -8.7641845774E+001 +9.3126383887E-001 -2.4973954437E+001 -8.8478853252E+001
4020000000.000 -1.2469965719E+001 -8.0378522419E+001 -4.3442915154E+001 +1.5999104503E+002 -8.0255403001E+001 -1.3064373348E+002 -2.6677870485E+001 -7.3708110889E+001
4152500000.000 -1.2246601082E+001 -8.1540233938E+001 -4.3326997132E+001 +1.2620708960E+002 -7.8220970382E+001 -1.3917295718E+001 -2.8751656938E+001 -6.4721450749E+001
4285000000.000 -1.2035152607E+001 -8.2838356732E+001 -4.3327574831E+001 +9.1304547757E+001 -8.4698703608E+001 +1.2209904019E+002 -3.3271807370E+001 -3.8812407855E+001
4417500000.000 -1.1879970738E+001 -8.4081731450E+001 -4.3397971461E+001 +5.8196108332E+001 -8.0557690948E+001 -1.7821762488E+002 -3.1782106649E+001 +7.5336616514E+000
4550000000.000 -1.1707125612E+001 -8.4861324347E+001 -4.3473859340E+001 +2.3934970682E+001 -8.4405913007E+001 -1.2865316520E+002 -3.0303390012E+001 +1.7851559617E+001
4682500000.000 -1.1494860719E+001 -8.5809332458E+001 -4.3525379829E+001 -9.2004717199E+000 -8.5803264481E+001 +2.7008192513E+001 -2.9665966110E+001 +3.7913482993E+001
4815000000.000 -1.1326763345E+001 -8.7048325533E+001 -4.3493104644E+001 -4.2915676683E+001 -8.3795604341E+001 -1.6786578064E+002 -2.7640713826E+001 +4.0753561951E+001
4947500000.000 -1.1174987934E+001 -8.7733172747E+001 -4.3390421843E+001 -7.5645575015E+001 -8.8580927678E+001 -1.7255574090E+002 -2.9330512209E+001 +3.4937370054E+001
5080000000.000 -1.0999962435E+001 -8.8352614707E+001 -4.3358905520E+001 -1.1011849270E+002 -8.6313320376E+001 +6.5303185385E+001 -3.2236437346E+001 +5.6113400587E+001
5212500000.000 -1.0818539583E+001 -8.9280005039E+001 -4.3157425952E+001 -1.4435588234E+002 -9.2282377146E+001 +1.0913448945E+002 -3.1539262606E+001 +6.8752912566E+001
5345000000.000 -1.0701185735E+001 -9.0116887184E+001 -4.3008710563E+001 -1.7813962345E+002 -9.2394601892E+001 -1.2956391546E+002 -3.5339315061E+001 +6.9650008082E+001
5477500000.000 -1.0569617646E+001 -9.0525472115E+001 -4.2985058274E+001 +1.4782310240E+002 -8.5172424756E+001 +4.8590674014E-001 -3.7456692809E+001 +1.3158596752E+002
5610000000.000 -1.0401181696E+001 -9.1132157391E+001 -4.2913354825E+001 +1.1258048076E+002 -8.7997829433E+001 +1.1269676203E+002 -3.3673999076E+001 +1.3511097494E+002
5742500000.000 -1.0290062405E+001 -9.2035716016E+001 -4.2857249798E+001 +7.8325629099E+001 -9.5295617369E+001 -1.7242135886E+002 -3.8024121395E+001 +1.5116966134E+002
5875000000.000 -1.0204686587E+001 -9.2709885224E+001 -4.2736170649E+001 +4.4465258448E+001 -9.7781583876E+001 -1.0218583740E+002 -3.3942536065E+001 -1.7006672007E+002
6007500000.000 -1.0098658672E+001 -9.3164164220E+001 -4.2664458185E+001 +9.6301825431E+000 -8.6676894078E+001 +2.7884944700E+001 -3.2738518963E+001 +1.7944816238E+002
6140000000.000 -9.9514996760E+000 -9.3862903491E+001 -4.2798341677E+001 -2.5042178161E+001 -9.2404849450E+001 -1.1324067420E+002 -3.6244687916E+001 -1.7125855589E+002
6272500000.000 -9.8386880461E+000 -9.4888045169E+001 -4.2708729528E+001 -5.8934161118E+001 -8.2115036629E+001 -3.2335864954E+001 -3.4041239647E+001 -1.4447575660E+002
6405000000.000 -9.7839872021E+000 -9.5810683077E+001 -4.2732384560E+001 -9.3191765551E+001 -8.4668835741E+001 +1.1224241415E+002 -3.3848563989E+001 -1.6203653368E+002
6537500000.000 -9.6748987433E+000 -9.6096684238E+001 -4.2727230722E+001 -1.2833944608E+002 -9.0732288476E+001 -1.7652444079E+002 -4.0047202037E+001 -1.6175268337E+002
6670000000.000 -9.5138634835E+000 -9.6802386479E+001 -4.2739797472E+001 -1.6169414619E+002 -8.6858268757E+001 -8.1678093576E+001 -3.9600599475E+001 -1.3921049840E+002
6802500000.000 -9.3869007592E+000 -9.7973437444E+001 -4.2691793464E+001 +1.6416895044E+002 -9.1303201112E+001 +9.7140518668E+000 -3.9092955568E+001 +1.7859945838E+002
6935000000.000 -9.3475739980E+000 -9.8714769882E+001 -4.2691678393E+001 +1.2928600008E+002 -9.2888748738E+001 +1.2124706504E+002 -3.8739595010E+001 +1.2399285980E+002
7067500000.000 -9.2316928131E+000 -9.8987624545E+001 -4.2617689173E+001 +9.5297742148E+001 -8.8289777621E+001 -9.9885634074E+001 -3.8598635300E+001 +1.1654737500E+002
7200000000.000 -9.0800907453E+000 -9.9732970931E+001 -4.2643226977E+001 +6.1140201052E+001 -8.9644093693E+001 -5.8764303958E+001 -3.2757201460E+001 +1.3035106372E+002
7332500000.000 -8.9773894542E+000 -1.0074360134E+002 -4.2573967949E+001 +2.6735950406E+001 -9.0167867478E+001 -5.2793600483E+001 -2.9177118227E+001 +1.1873401610E+002
7465000000.000 -8.8999747913E+000 -1.0125499703E+002 -4.2586224218E+001 -7.5243710724E+000 -9.1883655497E+001 +1.3676551345E+002 -2.8624394198E+001 +1.2337060197E+002
7597500000.000 -8.7753576509E+000 -1.0172950351E+002 -4.2536766248E+001 -4.1531144710E+001 -8.6949069505E+001 +1.7200997171E+002 -2.6037657299E+001 +1.3742107816E+002
7730000000.000 -8.6328420645E+000 -1.0236894009E+002 -4.2497861400E+001 -7.5620550468E+001 -9.0876841011E+001 +2.2194837326E+001 -2.3768239200E+001 +1.3750022328E+002
7862500000.000 -8.5394115734E+000 -1.0292648450E+002 -4.2424047172E+001 -1.1022887258E+002 -8.1596434144E+001 +1.4881496759E+002 -2.3322420930E+001 +1.4184259345E+002
7995000000.000 -8.4528145109E+000 -1.0323773794E+002 -4.2401638436E+001 -1.4394892315E+002 -7.9792250631E+001 -9.6073690966E+001 -2.1788013238E+001 +1.5431522598E+002
8127500000.000 -8.2948807748E+000 -1.0356457054E+002 -4.2318434224E+001 -1.7772842740E+002 -8.3203551265E+001 +1.1572303433E+002 -2.0035903700E+001 +1.5618815065E+002
8260000000.000 -8.1998949884E+000 -1.0427060302E+002 -4.2339978633E+001 +1.4675436143E+002 -8.5368967714E+001 -1.4885795564E+002 -1.9880633019E+001 +1.6024509920E+002
8392500000.000 -8.1192204028E+000 -1.0445527321E+002 -4.2160015845E+001 +1.1306817389E+002 -8.7892021290E+001 -1.2710076976E+002 -1.9046104212E+001 +1.7041630293E+002
8525000000.000 -8.0254378867E+000 -1.0462652622E+002 -4.2109940751E+001 +7.9455878580E+001 -8.3509724106E+001 +2.7657506362E+001 -1.8207875865E+001 +1.7279359828E+002
8657500000.000 -7.9159380446E+000 -1.0496994406E+002 -4.1987846850E+001 +4.3966541166E+001 -8.3118076099E+001 +1.4139603627E+002 -1.8569964449E+001 +1.7789166601E+002
8790000000.000 -7.8178475212E+000 -1.0528341012E+002 -4.1981662886E+001 +9.0645196130E+000 -8.9061483527E+001 -1.5843878171E+002 -1.8333231240E+001 -1.7188724640E+002
8922500000.000 -7.7657101942E+000 -1.0564208178E+002 -4.1859233254E+001 -2.4792513168E+001 -9.2953401030E+001 -1.1879531769E+002 -1.8002362298E+001 -1.6613728640E+002
9055000000.000 -7.6778630730E+000 -1.0584773125E+002 -4.1828905280E+001 -6.0240478424E+001 -9.0931663978E+001 -2.5966902920E+001 -1.8436870869E+001 -1.5831928226E+002
9187500000.000 -7.6108477588E+000 -1.0620325718E+002 -4.1680828735E+001 -9.4686549867E+001 -9.3085383695E+001 -1.5341880159E+002 -1.8351166818E+001 -1.4660675238E+002
9320000000.000 -7.5407601740E+000 -1.0682094621E+002 -4.1612371899E+001 -1.2936566588E+002 -8.8969724796E+001 +1.9917549567E+001 -1.8237600826E+001 -1.3981770636E+002
9452500000.000 -7.4844570198E+000 -1.0720451918E+002 -4.1560226722E+001 -1.6440132983E+002 -9.2319489835E+001 -3.0978119408E+001 -1.8833771886E+001 -1.3035856656E+002
9585000000.000 -7.4036751225E+000 -1.0752134932E+002 -4.1458344650E+001 +1.5993489491E+002 -8.6781937291E+001 +8.7818624685E+001 -1.8743994824E+001 -1.1853121098E+002
9717500000.000 -7.3077786417E+000 -1.0812970939E+002 -4.1447527806E+001 +1.2627570033E+002 -9.6908012312E+001 +3.2086606836E+001 -1.8845651893E+001 -1.1145848680E+002
9850000000.000 -7.2615769176E+000 -1.0888719228E+002 -4.1248448453E+001 +9.0813859536E+001 -8.8343196697E+001 +2.4262365650E-001 -1.9645162617E+001 -1.0028157587E+002
9982500000.000 -7.1916314689E+000 -1.0909807360E+002 -4.1319182912E+001 +5.5257178103E+001 -7.9012610137E+001 -1.3711002787E+002 -1.9610184768E+001 -8.6692196482E+001
10115000000.000 -7.1013931822E+000 -1.0949704313E+002 -4.1253304671E+001 +2.0090965902E+001 -9.5518215212E+001 -1.1242483376E+002 -1.9939903655E+001 -7.9447813926E+001
10247500000.000 -7.0245705473E+000 -1.1021535983E+002 -4.1300925869E+001 -1.4197108412E+001 -8.4601516576E+001 -9.9012920864E+000 -2.1153010298E+001 -6.5591987537E+001
10380000000.000 -6.9567485262E+000 -1.1075366875E+002 -4.1231447723E+001 -5.0954474187E+001 -9.0738444757E+001 +1.8194431358E+001 -2.0961005578E+001 -4.9950299319E+001
10512500000.000 -6.8891706783E+000 -1.1119567435E+002 -4.1189454664E+001 -8.5181979736E+001 -8.2575643004E+001 -8.4431687410E+000 -2.1510064791E+001 -4.2394222947E+001
10645000000.000 -6.8324892516E+000 -1.1169445730E+002 -4.1128409149E+001 -1.1905143125E+002 -9.0211639192E+001 -1.5815007336E+001 -2.2836229005E+001 -2.3599192569E+001
10777500000.000 -6.7451029661E+000 -1.1210917321E+002 -4.1069325408E+001 -1.5659001984E+002 -8.2462861656E+001 +1.7509372699E+002 -2.2093438547E+001 -5.8705571737E+000
10910000000.000 -6.6568642250E+000 -1.1264866516E+002 -4.1100730142E+001 +1.6797542035E+002 -8.2592991191E+001 -6.9704241417E+001 -2.2745923057E+001 +3.7656095272E+000
11042500000.000 -6.5792227273E+000 -1.1325759798E+002 -4.1029829857E+001 +1.3433333217E+002 -8.2918654413E+001 +5.0573992238E+001 -2.3463415770E+001 +2.7810336313E+001
11175000000.000 -6.5013803772E+000 -1.1359752635E+002 -4.1109416016E+001 +9.8524779200E+001 -8.5709175358E+001 +1.1950963884E+002 -2.2181172869E+001 +4.2758461275E+001
11307500000.000 -6.4388033554E+000 -1.1397701984E+002 -4.1183478225E+001 +6.1909280283E+001 -8.9521626255E+001 -1.4311477118E+002 -2.2697497459E+001 +5.2764548809E+001
11440000000.000 -6.3682936874E+000 -1.1446308345E+002 -4.1225167083E+001 +2.7870775950E+001 -9.0492691876E+001 -1.3517048131E+002 -2.2572042666E+001 +7.5598093803E+001
11572500000.000 -6.2774909509E+000 -1.1454620522E+002 -4.1260275556E+001 -7.2272727634E+000 -9.1707725668E+001 +1.0226992253E+002 -2.1121337117E+001 +8.6909834564E+001
11705000000.000 -6.2187824857E+000 -1.1497442183E+002 -4.1221061522E+001 -4.3514557254E+001 -8.6845290142E+001 +1.6657455896E+002 -2.1740679063E+001 +9.6866638035E+001
11837500000.000 -6.1444681150E+000 -1.1532280723E+002 -4.1276221662E+001 -7.8415137277E+001 -8.9165535404E+001 +1.1500189182E+002 -2.1081366333E+001 +1.1896804739E+002
11970000000.000 -6.1186159281E+000 -1.1555351458E+002 -4.1227854139E+001 -1.1320520188E+002 -8.4222308166E+001 +2.4291438302E+001 -1.9816997271E+001 +1.2518540208E+002
12102500000.000 -6.0775848014E+000 -1.1569761981E+002 -4.1331833367E+001 -1.4908239665E+002 -9.1463999162E+001 +1.6026516493E+002 -2.0734297131E+001 +1.3553483029E+002
12235000000.000 -6.0135237575E+000 -1.1612203328E+002 -4.1426806807E+001 +1.7576205915E+002 -9.0725912429E+001 +1.6298359127E+002 -1.9690230466E+001 +1.5419897303E+002
12367500000.000 -5.9935866958E+000 -1.1631403929E+002 -4.1165032929E+001 +1.4141557607E+002 -9.7604473731E+001 -8.0308973939E+001 -1.8888401571E+001 +1.5738220609E+002
12500000000.000 -5.9679733833E+000 -1.1696144786E+002 -4.1654156812E+001 +1.0429757704E+002 -8.4044103392E+001 +5.1713488654E+001 -2.0061321858E+001 +1.6842933179E+002
12632500000.000 -5.9112558500E+000 -1.1720983797E+002 -4.1847117838E+001 +6.8765592868E+001 -8.8080976992E+001 -1.1820857474E+002 -1.9056062448E+001 -1.7327939656E+002
12765000000.000 -5.8830415108E+000 -1.1750949038E+002 -4.1849288561E+001 +3.3687723699E+001 -8.4380775882E+001 +3.3225900158E+001 -1.8518058312E+001 -1.7201870939E+002
12897500000.000 -5.8848559920E+000 -1.1803714730E+002 -4.2024897811E+001 -2.0459009396E+000 -8.2114636286E+001 +1.3719442166E+002 -2.0168401629E+001 -1.5912888229E+002
13030000000.000 -5.8596920424E+000 -1.1830703335E+002 -4.2234038443E+001 -3.6939505938E+001 -9.0204283652E+001 +6.5069209025E+001 -1.8718936733E+001 -1.4161852887E+002
13162500000.000 -5.7989504329E+000 -1.1864038666E+002 -4.2371095155E+001 -7.1782430034E+001 -7.9747289775E+001 -3.1267402618E+001 -1.8608160899E+001 -1.4234205901E+002
13295000000.000 -5.7623849885E+000 -1.1902212715E+002 -4.2414495925E+001 -1.0749315865E+002 -8.9959523873E+001 +1.3031072380E+002 -2.0075547467E+001 -1.2767774617E+002
13427500000.000 -5.7487738568E+000 -1.1963894239E+002 -4.2653053335E+001 -1.4270033552E+002 -8.2882145476E+001 -9.1222544862E+001 -1.8742763129E+001 -1.1404563147E+002
13560000000.000 -5.7644252123E+000 -1.1961179763E+002 -4.2918658906E+001 -1.7720031230E+002 -9.2678639020E+001 -1.7435180286E+002 -1.8989827928E+001 -1.1513091080E+002
13692500000.000 -5.6947798922E+000 -1.1981298061E+002 -4.2896988959E+001 +1.4814115661E+002 -8.2752614490E+001 +1.0176565928E+002 -2.0836298450E+001 -1.0135618517E+002
13825000000.000 -5.6498087910E+000 -1.2034194401E+002 -4.3233893418E+001 +1.1337115745E+002 -8.1895930923E+001 +1.7895383628E+002 -1.9675426685E+001 -8.7518952563E+001
13957500000.000 -5.6547504787E+000 -1.2085968078E+002 -4.3517670774E+001 +7.8078326303E+001 -8.3124298770E+001 -3.7106314492E+001 -2.0316251648E+001 -9.0165469806E+001
14090000000.000 -5.6465725011E+000 -1.2100511785E+002 -4.3486930190E+001 +4.3400845638E+001 -8.3778064990E+001 +3.2737504745E+001 -2.2595796225E+001 -7.2800855527E+001
14222500000.000 -5.5956984543E+000 -1.2112852139E+002 -4.3917752548E+001 +8.1079618134E+000 -8.7009296859E+001 +1.5212026115E+002 -2.1260044878E+001 -5.9529842833E+001
14355000000.000 -5.5470889318E+000 -1.2172649654E+002 -4.3937225220E+001 -2.6080572466E+001 -8.2981757829E+001 -6.7999696131E+001 -2.2497308014E+001 -6.3219944064E+001
14487500000.000 -5.5432280670E+000 -1.2199327839E+002 -4.4119825766E+001 -6.2086980721E+001 -8.4326009850E+001 +4.1406469734E+001 -2.5323286297E+001 -4.0134850588E+001
14620000000.000 -5.5043748561E+000 -1.2194233486E+002 -4.4420965948E+001 -9.5551400288E+001 -8.5632375209E+001 +7.9185243940E+001 -2.3256633220E+001 -2.8135243341E+001
14752500000.000 -5.4184438319E+000 -1.2219854618E+002 -4.4610163653E+001 -1.3056955281E+002 -7.9712539526E+001 -8.7300110106E+001 -2.5499362748E+001 -3.6075346100E+001
14885000000.000 -5.3946466991E+000 -1.2261606389E+002 -4.4885459617E+001 -1.6553696939E+002 -8.7797474425E+001 +1.0032733405E+002 -2.8570502404E+001 +2.6186683748E+000
15017500000.000 -5.3811045186E+000 -1.2235682115E+002 -4.4903152612E+001 +1.6003946978E+002 -7.5071219051E+001 +1.1448421660E+002 -2.5371193303E+001 +7.5894162874E+000
15150000000.000 -5.2976978340E+000 -1.2219860821E+002 -4.5160356139E+001 +1.2514790877E+002 -7.6886271218E+001 -1.1732676215E+002 -2.9422418780E+001 -1.6557854669E+000
15282500000.000 -5.2447199117E+000 -1.2235541416E+002 -4.5683277407E+001 +9.1818886672E+001 -8.2485159376E+001 +2.8120624525E+001 -3.0631909853E+001 +5.8401384916E+001
