!  2-Port S-parameters saved by WinCal
! VAR MeasName=S-Parameters (CALIBRATED_DATA) read from VNA (C)
! VAR MeasDate=10/5/2015 4:58:02 PM
! VAR NAME=M6079_4_7_3_2_20C_6.0mA_-17.5dBm
! VAR FILENAME=M6079_4_7_3_2_20C_6.0mA_-17.5dBm.S2P
! VAR DATE=10/5/2015 4:58:02 PM
! VAR PHYS_PORTS=2,1
! VAR ObjTypeName=DATASET
! VAR IndexType=Frequency
!
# Hz S DB R 50
45000000.000 -2.3781183509E+001 -6.6545374882E-001 -4.3681091469E+001 +9.5662830918E+001 -5.8989301851E+001 +3.2578326739E+001 -3.0640549251E+001 +8.7262212939E+000
177500000.000 -2.3563663798E+001 -6.6861646845E+000 -4.2990823137E+001 +7.1519945039E+001 -7.7286976003E+001 +1.1541110393E+002 -3.2447602010E+001 +4.5152235587E+001
310000000.000 -2.3374916130E+001 -1.2678103451E+001 -4.3374765054E+001 +3.9691556978E+001 -7.5684206869E+001 -9.2421409773E+001 -2.3311045455E+001 +6.3935101591E+001
442500000.000 -2.3078248341E+001 -1.8651678730E+001 -4.1990243180E+001 +6.2529490711E-001 -8.1699604025E+001 -4.5525870345E+001 -2.2348674713E+001 +1.7160429687E+001
575000000.000 -2.2746776640E+001 -2.4794617816E+001 -4.2783629017E+001 -3.4653729396E+001 -8.0058665848E+001 +9.7545084226E+001 -3.0500805645E+001 +2.2473427058E+001
707500000.000 -2.2435634702E+001 -2.9936146419E+001 -4.2888660891E+001 -6.8637245127E+001 -8.9500512373E+001 -4.9495990722E+001 -3.4558446739E+001 +8.2540640414E+001
840000000.000 -2.1962903063E+001 -3.5014690438E+001 -4.2932599452E+001 -1.0291238543E+002 -8.2232448252E+001 -2.4938027233E+001 -2.9687543158E+001 +1.2745964415E+002
972500000.000 -2.1513768828E+001 -3.9403819968E+001 -4.3119196882E+001 -1.3666431021E+002 -8.8005985648E+001 +7.9877026003E+001 -2.5899558612E+001 +1.3499847589E+002
1105000000.000 -2.1086788611E+001 -4.3936785822E+001 -4.3068674549E+001 -1.7018084678E+002 -8.7799210646E+001 -1.1383216513E+002 -2.4356746944E+001 +1.4047886518E+002
1237500000.000 -2.0655496665E+001 -4.7509099394E+001 -4.3367375364E+001 +1.5553472140E+002 -8.7743722688E+001 -2.6665155438E+001 -2.3370892323E+001 +1.4988944419E+002
1370000000.000 -2.0192859753E+001 -5.1266900318E+001 -4.3278526973E+001 +1.2135022629E+002 -8.8127430242E+001 -1.7757000190E+002 -2.2042919962E+001 +1.5974591583E+002
1502500000.000 -1.9773101968E+001 -5.4279152181E+001 -4.3358313897E+001 +8.7779472177E+001 -8.8687122563E+001 -1.1795096903E+002 -2.0846553738E+001 +1.6615367627E+002
1635000000.000 -1.9291421352E+001 -5.6937370071E+001 -4.3336837341E+001 +5.4216551185E+001 -8.6243671684E+001 -1.7760129227E+002 -2.0002469964E+001 +1.7313395659E+002
1767500000.000 -1.8837211282E+001 -5.9895627186E+001 -4.3438130501E+001 +1.9965074588E+001 -8.8435377057E+001 +8.1273980843E+001 -1.8992092985E+001 +1.7830850693E+002
1900000000.000 -1.8474934101E+001 -6.2064501728E+001 -4.3251720274E+001 -1.4359983097E+001 -8.3157662395E+001 -4.3888401168E+001 -1.8844645802E+001 -1.7845758053E+002
2032500000.000 -1.8107232257E+001 -6.4241479749E+001 -4.3369133881E+001 -4.8488683716E+001 -9.0024366563E+001 -1.2314893308E+002 -1.8655703496E+001 -1.6807576051E+002
2165000000.000 -1.7645506513E+001 -6.6140909377E+001 -4.3463087098E+001 -8.1356118915E+001 -8.4188693076E+001 +8.7897584978E+001 -1.7724785668E+001 -1.6121027814E+002
2297500000.000 -1.7310578095E+001 -6.8117591139E+001 -4.3338938415E+001 -1.1716085125E+002 -8.9899555101E+001 +2.1061103087E+001 -1.7225741812E+001 -1.5725015747E+002
2430000000.000 -1.6997851336E+001 -6.9755735416E+001 -4.3762978310E+001 -1.5044221654E+002 -8.7970913228E+001 -6.7122411524E+001 -1.6901251825E+001 -1.5307370777E+002
2562500000.000 -1.6607471101E+001 -7.1394812479E+001 -4.3666578253E+001 +1.7631384547E+002 -8.2215582570E+001 -1.0948205453E+002 -1.6795474130E+001 -1.5073988614E+002
2695000000.000 -1.6348264854E+001 -7.3467398329E+001 -4.3608923364E+001 +1.4336729147E+002 -7.5164866012E+001 +1.5200695436E+002 -1.7349704412E+001 -1.4741489435E+002
2827500000.000 -1.6148204119E+001 -7.4943702853E+001 -4.3490857012E+001 +1.0969667537E+002 -8.0221200105E+001 -9.0626206308E+001 -1.7809954575E+001 -1.4038146040E+002
2960000000.000 -1.5837167704E+001 -7.6091121127E+001 -4.3616598427E+001 +7.5838151064E+001 -8.1429400543E+001 -1.1477714581E+001 -1.8092277257E+001 -1.3581147257E+002
3092500000.000 -1.5491182424E+001 -7.7820764070E+001 -4.3712323034E+001 +4.2582241426E+001 -8.7868083190E+001 -4.0353572452E+001 -1.9069054149E+001 -1.2975277645E+002
3225000000.000 -1.5266918819E+001 -7.9690845714E+001 -4.3604676629E+001 +8.8477651975E+000 -7.9946470194E+001 -1.1195897741E+002 -1.9560008183E+001 -1.1977889864E+002
3357500000.000 -1.5072276930E+001 -8.0726349798E+001 -4.3705337110E+001 -2.4932563829E+001 -8.1604038925E+001 +9.8219276738E+000 -1.9876518242E+001 -1.1458626482E+002
3490000000.000 -1.4746870844E+001 -8.1932025901E+001 -4.3593638972E+001 -5.9303053260E+001 -9.4383546371E+001 +6.9314078593E+001 -2.1092041097E+001 -1.0919600509E+002
3622500000.000 -1.4450058180E+001 -8.3497751781E+001 -4.3594451439E+001 -9.3007791890E+001 -8.8623688505E+001 +7.0915615695E+001 -2.1943604923E+001 -9.8317997258E+001
3755000000.000 -1.4198709513E+001 -8.4884717829E+001 -4.3860651378E+001 -1.2587402026E+002 -8.2366585608E+001 -2.9668240785E+000 -2.2617624634E+001 -9.4750147631E+001
3887500000.000 -1.3947000362E+001 -8.6022827599E+001 -4.3771897124E+001 -1.6093348864E+002 -7.7026794157E+001 +5.0411981469E+001 -2.4950896786E+001 -8.8509949844E+001
4020000000.000 -1.3734107322E+001 -8.6987770881E+001 -4.3666942688E+001 +1.6656310308E+002 -8.2914803767E+001 +1.1318643787E+002 -2.6660010031E+001 -7.3649360243E+001
4152500000.000 -1.3462281206E+001 -8.7855732915E+001 -4.3776179522E+001 +1.3070061818E+002 -8.5010139113E+001 -1.7595147496E+002 -2.8702871013E+001 -6.4662318530E+001
4285000000.000 -1.3203911151E+001 -8.8982466128E+001 -4.4026309232E+001 +9.7769860590E+001 -7.8816665521E+001 +1.2453058643E+002 -3.3204911474E+001 -3.9501282316E+001
4417500000.000 -1.3016992499E+001 -9.0060649064E+001 -4.4011033101E+001 +6.2447021300E+001 -8.9055182785E+001 +1.3029759366E+002 -3.1761720687E+001 +7.0486248216E+000
4550000000.000 -1.2808440477E+001 -9.0609303396E+001 -4.4056199261E+001 +2.9894887594E+001 -9.1670516976E+001 -1.5240863615E+002 -3.0227825199E+001 +1.7000483421E+001
4682500000.000 -1.2564385809E+001 -9.1346511233E+001 -4.4527855789E+001 -3.9072754501E+000 -8.5529403478E+001 -1.0647570995E+002 -2.9653782006E+001 +3.7364701965E+001
4815000000.000 -1.2360174231E+001 -9.2433216457E+001 -4.4442453478E+001 -3.6668051704E+001 -8.5695514744E+001 +1.4506272157E+002 -2.7607648371E+001 +4.0256080089E+001
4947500000.000 -1.2194041594E+001 -9.2907283281E+001 -4.4405238349E+001 -7.0587270205E+001 -9.1182955523E+001 -1.2301057348E+002 -2.9285980122E+001 +3.4340731659E+001
5080000000.000 -1.1989685105E+001 -9.3307872494E+001 -4.4347963899E+001 -1.0440244000E+002 -8.9596310792E+001 +2.8676922540E+001 -3.2229138216E+001 +5.5082083800E+001
5212500000.000 -1.1782223660E+001 -9.4131081934E+001 -4.4214799224E+001 -1.3747073989E+002 -8.3712348197E+001 +6.6719547685E+001 -3.1546557564E+001 +6.7666807703E+001
5345000000.000 -1.1650638258E+001 -9.4816671986E+001 -4.4252881737E+001 -1.7159785672E+002 -8.2695261665E+001 -1.3242818856E+002 -3.5272110065E+001 +6.8139126985E+001
5477500000.000 -1.1505671864E+001 -9.5023859303E+001 -4.4006119253E+001 +1.5473533843E+002 -9.6229636447E+001 -1.3891423990E+002 -3.7663470618E+001 +1.3019369579E+002
5610000000.000 -1.1313756680E+001 -9.5508023447E+001 -4.4319054502E+001 +1.2008587217E+002 -8.9055966113E+001 +6.3028794618E+001 -3.3802040662E+001 +1.3425893956E+002
5742500000.000 -1.1186551052E+001 -9.6326191898E+001 -4.4081037708E+001 +8.6586700238E+001 -9.7559694809E+001 -1.2486461063E+002 -3.8206357647E+001 +1.4906368470E+002
5875000000.000 -1.1088218413E+001 -9.6860321432E+001 -4.4109060136E+001 +5.3470361654E+001 -8.7574122831E+001 +6.0785737272E+001 -3.4108190633E+001 -1.7019441324E+002
6007500000.000 -1.0966194160E+001 -9.7184421965E+001 -4.4258202819E+001 +1.8859542317E+001 -8.5839406928E+001 +4.0188949263E+000 -3.2796484148E+001 +1.7906295847E+002
6140000000.000 -1.0802807247E+001 -9.7774589442E+001 -4.4136554210E+001 -1.6176806078E+001 -8.3745291121E+001 +1.5838769890E+002 -3.6412661798E+001 -1.7237250622E+002
6272500000.000 -1.0673910661E+001 -9.8670520865E+001 -4.4248042253E+001 -4.9195491982E+001 -8.6578191084E+001 -1.4207491327E+002 -3.4261085527E+001 -1.4453679320E+002
6405000000.000 -1.0606126226E+001 -9.9506184438E+001 -4.4276297185E+001 -8.3702507166E+001 -8.8824842588E+001 +9.3445614467E+000 -3.3931521514E+001 -1.6283334717E+002
6537500000.000 -1.0490381841E+001 -9.9711432723E+001 -4.4326377325E+001 -1.1720845805E+002 -9.4225972186E+001 +9.5958864100E+001 -4.0121558549E+001 -1.6414175429E+002
6670000000.000 -1.0310304548E+001 -1.0023155236E+002 -4.4224601743E+001 -1.5126542045E+002 -8.4702475767E+001 +1.7036703311E+002 -3.9854715551E+001 -1.4123613063E+002
6802500000.000 -1.0160741722E+001 -1.0132760681E+002 -4.4308354250E+001 +1.7489655796E+002 -8.7286192875E+001 +1.5452603887E+002 -3.9016701187E+001 +1.7699785519E+002
6935000000.000 -1.0120789368E+001 -1.0207361104E+002 -4.4380993594E+001 +1.4077775910E+002 -8.3434181471E+001 +1.2354194519E+002 -3.8391088636E+001 +1.2417109949E+002
7067500000.000 -9.9984854557E+000 -1.0221039949E+002 -4.4319369174E+001 +1.0681670988E+002 -8.6306273976E+001 -1.3452739424E+002 -3.8418038036E+001 +1.1701314270E+002
7200000000.000 -9.8152168223E+000 -1.0278567191E+002 -4.4359468578E+001 +7.4116905005E+001 -9.0255682037E+001 +1.0583248644E+002 -3.2603313506E+001 +1.3070574964E+002
7332500000.000 -9.7017282896E+000 -1.0380235271E+002 -4.4382824152E+001 +3.9942596333E+001 -8.9657693842E+001 +4.5225974695E+001 -2.9126511190E+001 +1.1918512924E+002
7465000000.000 -9.6203048058E+000 -1.0425190555E+002 -4.4491428415E+001 +6.3730822552E+000 -9.2823423425E+001 +1.6022441729E+002 -2.8613742255E+001 +1.2363695688E+002
7597500000.000 -9.4764373825E+000 -1.0453940104E+002 -4.4514340005E+001 -2.8263416760E+001 -8.1056995581E+001 -4.8667351879E+001 -2.6005475287E+001 +1.3742910517E+002
7730000000.000 -9.3208617962E+000 -1.0515869523E+002 -4.4415247937E+001 -6.0592019570E+001 -9.3859361263E+001 -1.6607735871E+002 -2.3733182313E+001 +1.3758406440E+002
7862500000.000 -9.2219461945E+000 -1.0566970384E+002 -4.4542982299E+001 -9.5331516362E+001 -9.1701264172E+001 -3.8090824930E+001 -2.3316947693E+001 +1.4199905967E+002
7995000000.000 -9.1306679329E+000 -1.0586808855E+002 -4.4582158008E+001 -1.2831560239E+002 -9.0400822295E+001 -2.5002481541E+001 -2.1776480838E+001 +1.5441720988E+002
8127500000.000 -8.9570757794E+000 -1.0607101849E+002 -4.4685224774E+001 -1.6197918391E+002 -8.0810268617E+001 +2.3391498652E+001 -2.0025631406E+001 +1.5620844968E+002
8260000000.000 -8.8557276845E+000 -1.0672802733E+002 -4.4526690850E+001 +1.6440250001E+002 -8.4983595147E+001 +1.4093756531E+002 -1.9885074596E+001 +1.6024374168E+002
8392500000.000 -8.7696089661E+000 -1.0681622864E+002 -4.4521521960E+001 +1.3076786835E+002 -7.9539587213E+001 -3.1023467097E+001 -1.9046174065E+001 +1.7034869188E+002
8525000000.000 -8.6663410486E+000 -1.0693362794E+002 -4.4566681569E+001 +9.7168872610E+001 -9.4706897225E+001 +8.6615310775E+001 -1.8201147401E+001 +1.7275443259E+002
8657500000.000 -8.5581341387E+000 -1.0719518559E+002 -4.4473911412E+001 +6.3147618516E+001 -1.0048645237E+002 -1.2924195671E+002 -1.8561864360E+001 +1.7785100330E+002
8790000000.000 -8.4578443907E+000 -1.0744737772E+002 -4.4477936271E+001 +2.9028164578E+001 -9.5342014312E+001 -2.7437490588E+001 -1.8342204249E+001 -1.7193170261E+002
8922500000.000 -8.3979915850E+000 -1.0773845305E+002 -4.4506986860E+001 -4.2545363271E+000 -8.4040833589E+001 +4.7250074615E+001 -1.8008658196E+001 -1.6618967778E+002
9055000000.000 -8.3090877569E+000 -1.0788875669E+002 -4.4449298827E+001 -3.7746805387E+001 -7.9999837396E+001 +9.4140057593E+001 -1.8447340131E+001 -1.5837441573E+002
9187500000.000 -8.2443815476E+000 -1.0815281144E+002 -4.4465867033E+001 -7.1629341584E+001 -8.4265518009E+001 -9.6155695305E+001 -1.8361364521E+001 -1.4675518588E+002
9320000000.000 -8.1652536043E+000 -1.0873009921E+002 -4.4485992655E+001 -1.0640866348E+002 -8.4814702400E+001 -6.5084338882E+001 -1.8242565641E+001 -1.3990915473E+002
9452500000.000 -8.1036875426E+000 -1.0906255502E+002 -4.4451188336E+001 -1.4018975718E+002 -9.0015503168E+001 -8.2193112948E+001 -1.8827550748E+001 -1.3048923524E+002
9585000000.000 -8.0346720432E+000 -1.0933999150E+002 -4.4486747285E+001 -1.7404492849E+002 -8.2279262148E+001 -1.0866485377E+002 -1.8746081414E+001 -1.1866798538E+002
9717500000.000 -7.9279718417E+000 -1.0986625323E+002 -4.4545906467E+001 +1.5251419570E+002 -9.2728785814E+001 -8.1830311639E+000 -1.8849245791E+001 -1.1150278374E+002
9850000000.000 -7.8793506187E+000 -1.1058595621E+002 -4.4510829076E+001 +1.1865315794E+002 -8.6949231977E+001 +9.7470014842E+001 -1.9645834781E+001 -1.0039756074E+002
9982500000.000 -7.8183412104E+000 -1.1074784765E+002 -4.4486546798E+001 +8.4937624608E+001 -8.3369206544E+001 +1.3001421653E+002 -1.9610458909E+001 -8.6911863822E+001
10115000000.000 -7.7258990076E+000 -1.1108502236E+002 -4.4438802017E+001 +5.0162939703E+001 -8.7133358272E+001 -1.7425233282E+001 -1.9937658715E+001 -7.9666815902E+001
10247500000.000 -7.6415631510E+000 -1.1172666910E+002 -4.4559385066E+001 +1.7152639651E+001 -8.2362801060E+001 +2.2306072129E+001 -2.1136757763E+001 -6.5845521595E+001
10380000000.000 -7.5872136299E+000 -1.1217783831E+002 -4.4514459244E+001 -1.6814097470E+001 -8.2967160237E+001 -1.6299752717E+002 -2.0943224833E+001 -5.0293003805E+001
10512500000.000 -7.5116331090E+000 -1.1258361504E+002 -4.4574367897E+001 -5.1385346060E+001 -9.3050392685E+001 -1.3112345351E+002 -2.1478604831E+001 -4.2765853125E+001
10645000000.000 -7.4481134436E+000 -1.1303568662E+002 -4.4713421822E+001 -8.4420841499E+001 -8.9220491317E+001 +8.5453879743E+001 -2.2823726731E+001 -2.3996278017E+001
10777500000.000 -7.3729437165E+000 -1.1339013732E+002 -4.4547424246E+001 -1.1898293514E+002 -8.5057836470E+001 +8.1401123227E+001 -2.2077295902E+001 -6.2420868300E+000
10910000000.000 -7.2834876580E+000 -1.1380665092E+002 -4.4613316900E+001 -1.5300373193E+002 -8.8480656439E+001 -1.1154992229E+002 -2.2727058551E+001 +3.1969236274E+000
11042500000.000 -7.1906631308E+000 -1.1434378078E+002 -4.4741309797E+001 +1.7404023820E+002 -8.5397600200E+001 -7.6664378156E+001 -2.3440746258E+001 +2.7156981189E+001
11175000000.000 -7.1168445039E+000 -1.1463423460E+002 -4.4515742772E+001 +1.4020737199E+002 -8.2251525897E+001 +6.6514117604E+001 -2.2166196219E+001 +4.2247181265E+001
11307500000.000 -7.0567413125E+000 -1.1488026325E+002 -4.4483690587E+001 +1.0585138446E+002 -9.0726570048E+001 -1.6441100682E+001 -2.2687403139E+001 +5.2237203892E+001
11440000000.000 -6.9787142445E+000 -1.1526305883E+002 -4.4722454244E+001 +7.2166231517E+001 -8.6805541499E+001 +1.3444663326E+001 -2.2593879229E+001 +7.5067633883E+001
11572500000.000 -6.8838034433E+000 -1.1531090208E+002 -4.4759182364E+001 +3.8121793948E+001 -8.4687807463E+001 +9.7864195133E+001 -2.1131054260E+001 +8.6347724356E+001
11705000000.000 -6.8281498696E+000 -1.1566051937E+002 -4.4484289907E+001 +3.8372203362E+000 -7.9465927902E+001 +1.6778860874E+002 -2.1743921073E+001 +9.6186183894E+001
11837500000.000 -6.7548676462E+000 -1.1586640868E+002 -4.4641518643E+001 -3.0563993413E+001 -8.0271078980E+001 -4.6269155481E+001 -2.1093697003E+001 +1.1838571097E+002
11970000000.000 -6.7231695550E+000 -1.1600970437E+002 -4.4579749553E+001 -6.3341793451E+001 -8.2021936321E+001 +1.9755483219E+001 -1.9817560617E+001 +1.2472060123E+002
12102500000.000 -6.6789241184E+000 -1.1609435249E+002 -4.4745806869E+001 -9.8240534709E+001 -9.5656765781E+001 -8.5103855723E+001 -2.0726264189E+001 +1.3496807473E+002
12235000000.000 -6.6126882043E+000 -1.1641520501E+002 -4.4631691431E+001 -1.3121549452E+002 -8.2639197170E+001 -1.1647709493E+002 -1.9700852667E+001 +1.5378908833E+002
12367500000.000 -6.5937025905E+000 -1.1657423948E+002 -4.4790459214E+001 -1.6636232044E+002 -8.7051853599E+001 +1.2079640387E+002 -1.8890294061E+001 +1.5688223222E+002
12500000000.000 -6.5620394935E+000 -1.1705359445E+002 -4.4777593484E+001 +1.5951600817E+002 -9.2642935799E+001 -7.4733645965E+001 -2.0055324594E+001 +1.6791830135E+002
12632500000.000 -6.4995436420E+000 -1.1715090421E+002 -4.4732539744E+001 +1.2632905859E+002 -9.1074261415E+001 -8.9660094350E+001 -1.9031926118E+001 -1.7373300165E+002
12765000000.000 -6.4634830955E+000 -1.1743897426E+002 -4.4829591656E+001 +9.1343572845E+001 -7.9642113683E+001 +4.9862150156E+001 -1.8497272130E+001 -1.7240159055E+002
12897500000.000 -6.4624938025E+000 -1.1783223178E+002 -4.4932411924E+001 +5.7576873076E+001 -9.1360867455E+001 +1.0804424195E+001 -2.0161145694E+001 -1.5960865578E+002
13030000000.000 -6.4266262390E+000 -1.1794175362E+002 -4.4801726417E+001 +2.4114611333E+001 -8.5121389324E+001 -6.3364373775E+001 -1.8708719283E+001 -1.4205744378E+002
13162500000.000 -6.3577093697E+000 -1.1826997780E+002 -4.4946512147E+001 -9.8381947207E+000 -8.3882822853E+001 -1.3961772434E+001 -1.8561479227E+001 -1.4279524675E+002
13295000000.000 -6.3141829920E+000 -1.1856816655E+002 -4.5000287639E+001 -4.3747654321E+001 -8.6367601500E+001 +3.8955393278E+001 -2.0039355151E+001 -1.2820581325E+002
13427500000.000 -6.2915154469E+000 -1.1907965951E+002 -4.4965510497E+001 -7.7401645872E+001 -9.2172597960E+001 -5.9355477081E+001 -1.8699494244E+001 -1.1441779161E+002
13560000000.000 -6.2933173716E+000 -1.1899133918E+002 -4.4877648016E+001 -1.1219148535E+002 -8.0116454885E+001 -7.2621327135E+001 -1.8927370346E+001 -1.1557928640E+002
13692500000.000 -6.2166789856E+000 -1.1916855765E+002 -4.4925331221E+001 -1.4517430741E+002 -8.1242648013E+001 +2.0180466264E+001 -2.0785056241E+001 -1.0193819062E+002
13825000000.000 -6.1627085851E+000 -1.1959012116E+002 -4.5125526869E+001 -1.7860492224E+002 -8.4478829912E+001 -1.5977593498E+002 -1.9610509440E+001 -8.7775876566E+001
13957500000.000 -6.1565564677E+000 -1.2010353150E+002 -4.5056000156E+001 +1.4601631570E+002 -9.0427550303E+001 +6.1386145163E+001 -2.0243398053E+001 -9.0510251407E+001
14090000000.000 -6.1360382913E+000 -1.2017059885E+002 -4.5003454473E+001 +1.1440071360E+002 -7.7004823666E+001 +6.3146910440E+001 -2.2508205757E+001 -7.3329258068E+001
14222500000.000 -6.0769069951E+000 -1.2021944649E+002 -4.4981888833E+001 +7.9098450226E+001 -8.2565408817E+001 -1.7245879887E+002 -2.1173535187E+001 -5.9903839904E+001
14355000000.000 -6.0168217649E+000 -1.2080219660E+002 -4.4949667228E+001 +4.5425240310E+001 -7.9037107415E+001 -1.2856701706E+002 -2.2391151139E+001 -6.3419502094E+001
14487500000.000 -5.9991969843E+000 -1.2099307148E+002 -4.4812905657E+001 +1.1991143681E+001 -8.4455375487E+001 +1.2971017445E+002 -2.5244133114E+001 -4.0544927852E+001
14620000000.000 -5.9553148110E+000 -1.2089054083E+002 -4.4922253513E+001 -2.3388266980E+001 -9.1273316958E+001 +8.2668748623E+001 -2.3182841459E+001 -2.8445007934E+001
14752500000.000 -5.8523926729E+000 -1.2113258100E+002 -4.4877212392E+001 -5.7005451507E+001 -8.3344724540E+001 -1.2811696642E+002 -2.5398073897E+001 -3.6009274329E+001
14885000000.000 -5.8211333156E+000 -1.2148805225E+002 -4.4917149174E+001 -9.0315205417E+001 -8.5533047453E+001 +6.9544331466E+001 -2.8404298128E+001 +2.4365871136E+000
15017500000.000 -5.7991835204E+000 -1.2121398549E+002 -4.5119156653E+001 -1.2612858882E+002 -7.7165539283E+001 +1.7225106524E+002 -2.5265727490E+001 +7.4063557658E+000
15150000000.000 -5.7061249813E+000 -1.2101378943E+002 -4.5164562456E+001 -1.5877692604E+002 -8.2172095971E+001 -6.7860635300E+001 -2.9285402334E+001 -1.7222075773E+000
15282500000.000 -5.6371298412E+000 -1.2114738519E+002 -4.5004625122E+001 +1.6602506253E+002 -8.8159817667E+001 -8.2091935781E+001 -3.0488438118E+001 +5.7746805256E+001
