!  2-Port S-parameters saved by WinCal
! VAR MeasName=S-Parameters (CALIBRATED_DATA) read from VNA (C)
! VAR MeasDate=10/5/2015 6:13:15 PM
! VAR NAME=M6079_2_7_3_2_20C_9.0mA_-17.5dBm
! VAR FILENAME=M6079_2_7_3_2_20C_9.0mA_-17.5dBm.S2P
! VAR DATE=10/5/2015 6:13:15 PM
! VAR PHYS_PORTS=2,1
! VAR ObjTypeName=DATASET
! VAR IndexType=Frequency
!
# Hz S DB R 50
45000000.000 -3.2899346048E+001 -3.0799940702E+000 -4.4845603957E+001 +1.0223476278E+002 -6.1324118236E+001 -1.3120033073E+002 -3.0953535439E+001 +7.8072020231E+000
177500000.000 -3.2415012448E+001 -1.6827098823E+001 -4.4526976952E+001 +7.1067459467E+001 -7.1844312855E+001 +6.2454405319E+000 -3.2594936204E+001 +4.5126836898E+001
310000000.000 -3.1445030365E+001 -2.8913876237E+001 -4.4826150236E+001 +4.0138483824E+001 -7.2149922247E+001 -1.1021444161E+002 -2.3302504099E+001 +6.4126190519E+001
442500000.000 -3.0210922062E+001 -3.9120995863E+001 -4.3485971934E+001 +1.8532025950E+000 -8.5215989204E+001 +2.8431737500E+001 -2.2354710920E+001 +1.7157730271E+001
575000000.000 -2.8920581891E+001 -4.8044319927E+001 -4.4132245002E+001 -3.4310735839E+001 -8.9734368955E+001 -1.4024618641E+002 -3.0492895827E+001 +2.2489456938E+001
707500000.000 -2.7910674224E+001 -5.4382729873E+001 -4.4336333782E+001 -6.7789037438E+001 -9.3647376937E+001 +1.4410289985E+002 -3.4558425549E+001 +8.2932216383E+001
840000000.000 -2.6680390331E+001 -5.9403055039E+001 -4.4399326655E+001 -1.0222490113E+002 -8.3660368073E+001 -1.8879364386E+001 -2.9672969949E+001 +1.2747829255E+002
972500000.000 -2.5642662345E+001 -6.3474254036E+001 -4.4592448774E+001 -1.3529829331E+002 -8.2799883266E+001 -1.6367863010E+002 -2.5902556287E+001 +1.3507013317E+002
1105000000.000 -2.4700470981E+001 -6.7332186991E+001 -4.4515414167E+001 -1.7020455557E+002 -8.6343809542E+001 -5.8407446422E+001 -2.4355855500E+001 +1.4053983055E+002
1237500000.000 -2.3872911685E+001 -7.0092431899E+001 -4.4754534535E+001 +1.5639333916E+002 -8.6837876361E+001 -5.5174924962E+001 -2.3387533163E+001 +1.4985370645E+002
1370000000.000 -2.3068615124E+001 -7.2906422432E+001 -4.4662586033E+001 +1.2140696906E+002 -8.8999332198E+001 +1.2663259771E+002 -2.2047766615E+001 +1.5976065669E+002
1502500000.000 -2.2373477645E+001 -7.4891506415E+001 -4.4833927425E+001 +8.8002480175E+001 -8.6730030465E+001 -1.3563053439E+002 -2.0845572018E+001 +1.6616767812E+002
1635000000.000 -2.1654219291E+001 -7.6299805829E+001 -4.4834141099E+001 +5.4986503013E+001 -8.2042642939E+001 -9.5027197989E+000 -2.0001443227E+001 +1.7313257025E+002
1767500000.000 -2.0977201224E+001 -7.8393141210E+001 -4.4636629100E+001 +2.0127408527E+001 -8.6486615593E+001 +9.0576541843E+001 -1.8994338464E+001 +1.7828275112E+002
1900000000.000 -2.0465847172E+001 -7.9672877192E+001 -4.5095426666E+001 -1.4987580652E+001 -8.2832865198E+001 +6.7652681871E+001 -1.8856205100E+001 -1.7844402585E+002
2032500000.000 -1.9958104132E+001 -8.0988247589E+001 -4.4937724057E+001 -4.9173466279E+001 -8.0397278981E+001 -1.0676087904E+002 -1.8648399092E+001 -1.6810122567E+002
2165000000.000 -1.9361335457E+001 -8.1855825492E+001 -4.5011236141E+001 -8.0987541188E+001 -9.2114987344E+001 +1.2948282098E+002 -1.7723766576E+001 -1.6124276183E+002
2297500000.000 -1.8917978140E+001 -8.3294559746E+001 -4.4909759205E+001 -1.1528122462E+002 -8.4264917711E+001 +1.5293271603E+002 -1.7229695061E+001 -1.5722198879E+002
2430000000.000 -1.8527532701E+001 -8.4050766848E+001 -4.5066094409E+001 -1.4947786275E+002 -8.2766675199E+001 -1.1498054426E+002 -1.6899503577E+001 -1.5299032718E+002
2562500000.000 -1.8040338166E+001 -8.5099765536E+001 -4.5156659804E+001 +1.7714698200E+002 -8.1489304982E+001 -2.5192677932E+000 -1.6803398182E+001 -1.5084577979E+002
2695000000.000 -1.7702372999E+001 -8.6706637486E+001 -4.5179152284E+001 +1.3861811762E+002 -7.7644657866E+001 +1.5001429419E+002 -1.7366893200E+001 -1.4740365092E+002
2827500000.000 -1.7449590196E+001 -8.7757194720E+001 -4.5574100905E+001 +1.0344142708E+002 -9.5561221114E+001 +1.2404740688E+002 -1.7817064332E+001 -1.4040882075E+002
2960000000.000 -1.7079627500E+001 -8.8260133110E+001 -4.5813463624E+001 +6.9911368113E+001 -1.0391530962E+002 -1.4559564516E+002 -1.8112872365E+001 -1.3577981625E+002
3092500000.000 -1.6658091443E+001 -8.9497183458E+001 -4.5528111758E+001 +3.6654085631E+001 -8.4977174623E+001 +8.6643987509E+001 -1.9075040436E+001 -1.2975752000E+002
3225000000.000 -1.6360417744E+001 -9.1020668981E+001 -4.6182772157E+001 +2.8013821984E+000 -7.6851020199E+001 -1.3926611116E+002 -1.9549852021E+001 -1.1981232168E+002
3357500000.000 -1.6150144253E+001 -9.1748539227E+001 -4.5526673873E+001 -2.9686615833E+001 -7.8849295778E+001 -3.2519658587E+001 -1.9887364381E+001 -1.1459054943E+002
3490000000.000 -1.5773732943E+001 -9.2467608746E+001 -4.5698477577E+001 -6.4624146796E+001 -8.4333048385E+001 +7.5865289032E+001 -2.1092983071E+001 -1.0907223040E+002
3622500000.000 -1.5425435278E+001 -9.3572630590E+001 -4.6194675201E+001 -9.6842552010E+001 -8.0689833356E+001 -1.6130563070E+002 -2.1923021251E+001 -9.8265097209E+001
3755000000.000 -1.5122374892E+001 -9.4542111812E+001 -4.5582487403E+001 -1.2957873733E+002 -7.6062462664E+001 -2.8501769555E+001 -2.2601383875E+001 -9.4720541359E+001
3887500000.000 -1.4837841486E+001 -9.5325272381E+001 -4.5802045818E+001 -1.6322751822E+002 -1.0555611407E+002 +4.9419828070E+001 -2.4934092728E+001 -8.8555274990E+001
4020000000.000 -1.4602389802E+001 -9.6008268500E+001 -4.5574865508E+001 +1.6216584442E+002 -8.6585791193E+001 +1.6281855658E+002 -2.6640991525E+001 -7.3580917499E+001
4152500000.000 -1.4301625354E+001 -9.6466938813E+001 -4.5330897563E+001 +1.2985759089E+002 -1.1164586947E+002 +1.4817972368E+002 -2.8732244135E+001 -6.4821448141E+001
4285000000.000 -1.4007422130E+001 -9.7250940339E+001 -4.5110415380E+001 +9.4820441171E+001 -8.3563401237E+001 -2.7509595224E+001 -3.3213609861E+001 -3.9325136087E+001
4417500000.000 -1.3797757590E+001 -9.8150383402E+001 -4.5466066557E+001 +6.1024811158E+001 -8.6795967070E+001 -1.5343390515E+002 -3.1737961334E+001 +7.0930771543E+000
4550000000.000 -1.3577177736E+001 -9.8347305167E+001 -4.5614563804E+001 +2.7826786549E+001 -9.2211969598E+001 -7.1973945776E+001 -3.0224060187E+001 +1.7380785067E+001
4682500000.000 -1.3307923921E+001 -9.8759543772E+001 -4.5449788491E+001 -6.0076668800E+000 -8.4504219423E+001 -1.9843131652E+001 -2.9646881854E+001 +3.7503346541E+001
4815000000.000 -1.3080664275E+001 -9.9635338490E+001 -4.5590583163E+001 -3.6699330113E+001 -8.5148468397E+001 +1.4853199774E+002 -2.7621373647E+001 +4.0360431739E+001
4947500000.000 -1.2905328745E+001 -9.9879871622E+001 -4.5442620105E+001 -7.0432493964E+001 -8.9776770449E+001 +1.7751916239E+002 -2.9319832480E+001 +3.4485975703E+001
5080000000.000 -1.2688215404E+001 -9.9996849280E+001 -4.5288823806E+001 -1.0389798054E+002 -9.0951665433E+001 +9.6767474102E+001 -3.2236149307E+001 +5.5191466892E+001
5212500000.000 -1.2462849074E+001 -1.0056620984E+002 -4.5182486636E+001 -1.3822060047E+002 -8.4501180543E+001 +1.1516574034E+002 -3.1581542629E+001 +6.8019589904E+001
5345000000.000 -1.2320188454E+001 -1.0108684402E+002 -4.5124344619E+001 -1.7288476443E+002 -1.0367076979E+002 +1.7334109102E+001 -3.5293705166E+001 +6.8506093110E+001
5477500000.000 -1.2171743220E+001 -1.0108470644E+002 -4.5031651885E+001 +1.5373915397E+002 -8.8222373744E+001 -4.6228182945E+001 -3.7647440417E+001 +1.3045686491E+002
5610000000.000 -1.1967673774E+001 -1.0135243549E+002 -4.4760420204E+001 +1.1948841130E+002 -8.1466200480E+001 +6.1833422134E+001 -3.3765614370E+001 +1.3438645315E+002
5742500000.000 -1.1828218418E+001 -1.0199656553E+002 -4.5017587522E+001 +8.4888872845E+001 -9.6831188583E+001 +1.1664789638E+002 -3.8150479564E+001 +1.4992618724E+002
5875000000.000 -1.1724821920E+001 -1.0239055726E+002 -4.5020110729E+001 +5.0758389719E+001 -9.5512795679E+001 +1.5236080551E+002 -3.4041725927E+001 -1.7004366730E+002
6007500000.000 -1.1597802892E+001 -1.0261278840E+002 -4.5046565214E+001 +1.7257867401E+001 -8.6635076132E+001 +2.5360123732E+001 -3.2804652601E+001 +1.7915277350E+002
6140000000.000 -1.1419835996E+001 -1.0297021484E+002 -4.4927790737E+001 -1.8125648476E+001 -8.4376927233E+001 -1.6880923870E+002 -3.6400654890E+001 -1.7200775649E+002
6272500000.000 -1.1278368182E+001 -1.0372783290E+002 -4.5036643302E+001 -5.1770703977E+001 -8.5391225986E+001 -1.3689085195E+001 -3.4206809853E+001 -1.4479062849E+002
6405000000.000 -1.1204353604E+001 -1.0447991621E+002 -4.5008953056E+001 -8.5457687152E+001 -9.4675155655E+001 +2.4687724418E+001 -3.3924261300E+001 -1.6227332435E+002
6537500000.000 -1.1083546725E+001 -1.0455051215E+002 -4.5053969020E+001 -1.2006746946E+002 -8.7458821130E+001 +1.4926907635E+002 -4.0148203399E+001 -1.6368966047E+002
6670000000.000 -1.0891450757E+001 -1.0489964605E+002 -4.5240380712E+001 -1.5415087146E+002 -8.6246928496E+001 -8.2165470457E+001 -3.9789383439E+001 -1.4022276729E+002
6802500000.000 -1.0725688183E+001 -1.0587645043E+002 -4.5035439546E+001 +1.7141387570E+002 -8.2512221296E+001 +5.0982737671E+001 -3.9126705135E+001 +1.7758042125E+002
6935000000.000 -1.0679151106E+001 -1.0654576405E+002 -4.5163252761E+001 +1.3745290752E+002 -8.5529058795E+001 +1.2134322530E+002 -3.8537039790E+001 +1.2406015458E+002
7067500000.000 -1.0550857174E+001 -1.0650823174E+002 -4.5230383305E+001 +1.0337435561E+002 -9.0081484943E+001 -1.1387203805E+002 -3.8430313359E+001 +1.1694952608E+002
7200000000.000 -1.0356664464E+001 -1.0697460045E+002 -4.5233959716E+001 +7.0391499958E+001 -8.2892991078E+001 +7.6525011759E+000 -3.2652396804E+001 +1.3037034350E+002
7332500000.000 -1.0229511066E+001 -1.0788017812E+002 -4.5190724877E+001 +3.4801003104E+001 -8.2414060087E+001 +1.2071532268E+002 -2.9130962175E+001 +1.1915497772E+002
7465000000.000 -1.0146417278E+001 -1.0820377530E+002 -4.5372860635E+001 +1.5469930517E+000 -9.4243046177E+001 -8.4305826578E+001 -2.8619437938E+001 +1.2346031493E+002
7597500000.000 -9.9897980825E+000 -1.0839041368E+002 -4.5503685436E+001 -3.2965376397E+001 -8.6691085425E+001 -4.8301740468E+001 -2.6013000353E+001 +1.3731221078E+002
7730000000.000 -9.8255067458E+000 -1.0886510468E+002 -4.5696825665E+001 -6.5864065339E+001 -8.1899268842E+001 +6.7784275885E+001 -2.3742082333E+001 +1.3760099665E+002
7862500000.000 -9.7229665511E+000 -1.0925554531E+002 -4.5503031318E+001 -9.8476290706E+001 -9.1732549287E+001 -1.4505978765E+002 -2.3304447371E+001 +1.4185229154E+002
7995000000.000 -9.6202510864E+000 -1.0935386567E+002 -4.5450270224E+001 -1.3367472014E+002 -8.5710140249E+001 -2.8131000703E+001 -2.1779197726E+001 +1.5434912730E+002
8127500000.000 -9.4399528807E+000 -1.0944319799E+002 -4.5541362168E+001 -1.6734780388E+002 -8.1675730402E+001 +8.4506287967E+001 -2.0032725981E+001 +1.5619500107E+002
8260000000.000 -9.3384056171E+000 -1.1001331173E+002 -4.5524946907E+001 +1.5877554945E+002 -8.5296232983E+001 -9.5757291502E+001 -1.9885790628E+001 +1.6021224584E+002
8392500000.000 -9.2449744590E+000 -1.0997076394E+002 -4.5542217550E+001 +1.2356098282E+002 -8.3283066323E+001 -8.4606475461E+001 -1.9047182345E+001 +1.7031775880E+002
8525000000.000 -9.1364422241E+000 -1.0998652808E+002 -4.5620401911E+001 +9.0641840347E+001 -9.1874927826E+001 -1.4097490548E+002 -1.8206157778E+001 +1.7274664506E+002
8657500000.000 -9.0236441275E+000 -1.1014627817E+002 -4.5607839325E+001 +5.7166938550E+001 -7.9085492092E+001 +1.2346787839E+002 -1.8566582772E+001 +1.7784056271E+002
8790000000.000 -8.9178921218E+000 -1.1029236405E+002 -4.5536889337E+001 +2.3164320475E+001 -8.8345218626E+001 -7.4876502141E+001 -1.8343124048E+001 -1.7197461967E+002
8922500000.000 -8.8534341758E+000 -1.1052853939E+002 -4.5778992400E+001 -1.0928480415E+001 -8.1870270865E+001 +1.0218958303E+000 -1.8006703223E+001 -1.6624651635E+002
9055000000.000 -8.7640918355E+000 -1.1060347735E+002 -4.5530606287E+001 -4.5902947120E+001 -8.4168061986E+001 -1.6105843713E+002 -1.8446970798E+001 -1.5839307623E+002
9187500000.000 -8.6945178518E+000 -1.1079771824E+002 -4.5598317476E+001 -7.9140225534E+001 -9.0667674199E+001 -8.4779339558E+001 -1.8356805052E+001 -1.4681164719E+002
9320000000.000 -8.6119364949E+000 -1.1130345660E+002 -4.5696547434E+001 -1.1344189497E+002 -8.4841935725E+001 +1.7218505541E+001 -1.8239709670E+001 -1.3993666991E+002
9452500000.000 -8.5452537459E+000 -1.1156953721E+002 -4.5540234582E+001 -1.4783870023E+002 -8.7097212734E+001 +1.0624010283E+002 -1.8825995794E+001 -1.3056588112E+002
9585000000.000 -8.4713870427E+000 -1.1177428549E+002 -4.5650816966E+001 +1.7957061043E+002 -8.6983150318E+001 +2.8951305975E+001 -1.8740451954E+001 -1.1875546345E+002
9717500000.000 -8.3579916862E+000 -1.1222976846E+002 -4.5843572327E+001 +1.4522662725E+002 -8.5943442285E+001 -6.7080863646E+001 -1.8852359377E+001 -1.1156028981E+002
9850000000.000 -8.3064477416E+000 -1.1292855485E+002 -4.5858527659E+001 +1.1104001386E+002 -1.0089505810E+002 +1.1924449099E+002 -1.9641869682E+001 -1.0043541268E+002
9982500000.000 -8.2403212223E+000 -1.1301686916E+002 -4.5883495648E+001 +7.7448440129E+001 -8.7711253804E+001 +1.1680162236E+002 -1.9609134414E+001 -8.6983478584E+001
10115000000.000 -8.1430652471E+000 -1.1328946539E+002 -4.5921828198E+001 +4.3864415562E+001 -9.2487181648E+001 -2.4397094379E+001 -1.9935711335E+001 -7.9766175788E+001
10247500000.000 -8.0551991510E+000 -1.1386779345E+002 -4.5861923985E+001 +9.6329971140E+000 -8.3135624034E+001 -5.2014087986E+001 -2.1135826753E+001 -6.5911049465E+001
10380000000.000 -7.9933690984E+000 -1.1425726153E+002 -4.6091749012E+001 -2.3328437239E+001 -9.4865085544E+001 -7.7292377895E+001 -2.0945825767E+001 -5.0294593525E+001
10512500000.000 -7.9152203837E+000 -1.1458937980E+002 -4.5791310466E+001 -5.8067386908E+001 -1.0363974405E+002 +1.7839939759E+002 -2.1482390598E+001 -4.2771299396E+001
10645000000.000 -7.8486183306E+000 -1.1502354266E+002 -4.6071949843E+001 -9.0956444192E+001 -8.5464210876E+001 -8.7290421748E-001 -2.2822423753E+001 -2.3985830629E+001
10777500000.000 -7.7693302326E+000 -1.1528819664E+002 -4.5907079614E+001 -1.2449782907E+002 -9.2131561606E+001 +8.7069849438E+001 -2.2083399118E+001 -6.3331355021E+000
10910000000.000 -7.6737618217E+000 -1.1565221787E+002 -4.6003986057E+001 -1.5687230412E+002 -9.7837070520E+001 +1.4611322093E+002 -2.2733120171E+001 +3.1241959114E+000
11042500000.000 -7.5756693628E+000 -1.1614697777E+002 -4.6001942329E+001 +1.6878095882E+002 -9.0720612319E+001 -1.3443735419E+002 -2.3464679009E+001 +2.7077042697E+001
11175000000.000 -7.4996185954E+000 -1.1636850014E+002 -4.5912832018E+001 +1.3266294704E+002 -8.0986196837E+001 +1.4989003125E+002 -2.2166333814E+001 +4.2204447033E+001
11307500000.000 -7.4362318347E+000 -1.1658714041E+002 -4.5964289212E+001 +9.9307920198E+001 -8.8499296904E+001 -1.7324089799E+002 -2.2704612041E+001 +5.2213347845E+001
11440000000.000 -7.3537167954E+000 -1.1692060957E+002 -4.5904100945E+001 +6.7403151983E+001 -9.1060119984E+001 +6.5374124414E+001 -2.2596410301E+001 +7.5038777462E+001
11572500000.000 -7.2546601385E+000 -1.1689133957E+002 -4.5881285388E+001 +3.3493206338E+001 -9.0380079597E+001 +5.2442908939E+001 -2.1128472420E+001 +8.6433601812E+001
11705000000.000 -7.1943699412E+000 -1.1718895487E+002 -4.5903157017E+001 -3.5039988748E-002 -8.9964911603E+001 -1.6855295554E+002 -2.1754058728E+001 +9.6263393341E+001
11837500000.000 -7.1147817034E+000 -1.1734647412E+002 -4.5859409147E+001 -3.3826184726E+001 -9.5309423084E+001 -8.5698598451E+001 -2.1107108066E+001 +1.1843073972E+002
11970000000.000 -7.0823307664E+000 -1.1745402637E+002 -4.5935436893E+001 -6.8778351241E+001 -9.0335752507E+001 -1.4595638467E+001 -1.9824746526E+001 +1.2469352787E+002
12102500000.000 -7.0410350724E+000 -1.1745244823E+002 -4.5855600546E+001 -1.0269744822E+002 -8.9619520469E+001 -5.0384677956E+001 -2.0735950057E+001 +1.3501850367E+002
12235000000.000 -6.9699584051E+000 -1.1775318088E+002 -4.5874447249E+001 -1.3623200803E+002 -8.7240397075E+001 -7.6819254000E+001 -1.9712667337E+001 +1.5370824312E+002
12367500000.000 -6.9465893700E+000 -1.1787006760E+002 -4.5913606336E+001 -1.7009535262E+002 -8.6818031064E+001 -1.0154692515E+000 -1.8894142839E+001 +1.5694670231E+002
12500000000.000 -6.9155126721E+000 -1.1832412315E+002 -4.5803376737E+001 +1.5540035534E+002 -8.3618147762E+001 -1.0531304139E+002 -2.0056698585E+001 +1.6788711188E+002
12632500000.000 -6.8507114306E+000 -1.1837216111E+002 -4.5952825178E+001 +1.2215911486E+002 -9.8260093686E+001 -8.3034248032E+001 -1.9047886979E+001 -1.7368792814E+002
12765000000.000 -6.8124410312E+000 -1.1862391200E+002 -4.5897774983E+001 +8.9396596919E+001 -8.5715239883E+001 +3.4361636907E+001 -1.8508529558E+001 -1.7236010498E+002
12897500000.000 -6.8101733229E+000 -1.1900475776E+002 -4.5639796499E+001 +5.3475269229E+001 -9.7411446040E+001 +1.7073270350E+002 -2.0166222669E+001 -1.5955816549E+002
13030000000.000 -6.7734298704E+000 -1.1907127288E+002 -4.6014106805E+001 +2.0139379225E+001 -8.4123329251E+001 -4.4617863962E+001 -1.8703888109E+001 -1.4206557235E+002
13162500000.000 -6.6984826520E+000 -1.1934086486E+002 -4.5834177439E+001 -1.3811194135E+001 -8.2718565239E+001 -9.5774875199E+000 -1.8581341065E+001 -1.4281452860E+002
13295000000.000 -6.6534420729E+000 -1.1963641087E+002 -4.5651304419E+001 -4.7579947318E+001 -8.5935101957E+001 -3.8985596507E+001 -2.0033581077E+001 -1.2820097482E+002
13427500000.000 -6.6306005804E+000 -1.2011736772E+002 -4.5877162013E+001 -8.2808652532E+001 -8.5104547426E+001 -1.0473691477E+002 -1.8697626831E+001 -1.1449486857E+002
13560000000.000 -6.6309944026E+000 -1.1997801479E+002 -4.5951906322E+001 -1.1572496887E+002 -8.5318715439E+001 +4.9457855922E+001 -1.8931644854E+001 -1.1556064743E+002
13692500000.000 -6.5544302386E+000 -1.2008298041E+002 -4.5740230149E+001 -1.4957066797E+002 -8.0090085687E+001 +2.0178420561E+001 -2.0790094688E+001 -1.0180334351E+002
13825000000.000 -6.4920210021E+000 -1.2050120596E+002 -4.5764853759E+001 +1.7707268211E+002 -8.6624322226E+001 -1.7457604616E+002 -1.9618731672E+001 -8.7826102585E+001
13957500000.000 -6.4858732608E+000 -1.2099887373E+002 -4.5993020756E+001 +1.4251459881E+002 -8.0580587131E+001 -5.9028024979E+001 -2.0244447119E+001 -9.0490079860E+001
14090000000.000 -6.4685269877E+000 -1.2101395920E+002 -4.5605735121E+001 +1.0798192953E+002 -8.2046559767E+001 -6.6314005905E+001 -2.2510660909E+001 -7.3251281902E+001
14222500000.000 -6.4023430984E+000 -1.2101044469E+002 -4.5707530004E+001 +7.4163564339E+001 -9.5189019731E+001 +3.1175446932E+001 -2.1181762458E+001 -5.9768077791E+001
14355000000.000 -6.3405942774E+000 -1.2157885971E+002 -4.5752162257E+001 +3.8169575232E+001 -8.5363256975E+001 -4.6386809059E+001 -2.2409121215E+001 -6.3398831810E+001
14487500000.000 -6.3221169464E+000 -1.2175918690E+002 -4.5880926170E+001 +4.5267544570E+000 -8.3508380495E+001 +3.0887278508E+001 -2.5240731990E+001 -4.0475819195E+001
14620000000.000 -6.2739341874E+000 -1.2156952553E+002 -4.5751177404E+001 -2.9883517864E+001 -8.1812808500E+001 +1.7342951002E+002 -2.3205660874E+001 -2.8399032430E+001
14752500000.000 -6.1624063293E+000 -1.2181114820E+002 -4.5621661134E+001 -6.3922749401E+001 -8.1538422571E+001 -1.1433788402E+002 -2.5392806457E+001 -3.5946350705E+001
14885000000.000 -6.1367301010E+000 -1.2215941082E+002 -4.5894031323E+001 -9.9057733985E+001 -8.3000809408E+001 -3.1597230398E+001 -2.8416706180E+001 +2.2671282615E+000
15017500000.000 -6.1119814652E+000 -1.2177593534E+002 -4.5972282027E+001 -1.3181212412E+002 -8.7019283123E+001 +1.2256962908E+002 -2.5291301892E+001 +7.4627722469E+000
15150000000.000 -6.0064869100E+000 -1.2155924066E+002 -4.5888277609E+001 -1.6810219557E+002 -8.0559347799E+001 +1.6860211874E+002 -2.9297655007E+001 -1.6831850171E+000
15282500000.000 -5.9398182880E+000 -1.2167650387E+002 -4.6154150777E+001 +1.5796469153E+002 -9.9815000165E+001 -1.4811975403E+002 -3.0464728080E+001 +5.7950754631E+001
