!  2-Port S-parameters saved by WinCal
! VAR MeasName=S-Parameters (CALIBRATED_DATA) read from VNA (C)
! VAR MeasDate=10/5/2015 4:47:20 PM
! VAR NAME=M6079_4_7_3_2_20C_1.1mA_-17.5dBm
! VAR FILENAME=M6079_4_7_3_2_20C_1.1mA_-17.5dBm.S2P
! VAR DATE=10/5/2015 4:47:20 PM
! VAR PHYS_PORTS=2,1
! VAR ObjTypeName=DATASET
! VAR IndexType=Frequency
!
# Hz S DB R 50
45000000.000 -1.0160785782E+001 -1.2956175886E+000 -4.8781387884E+001 +6.6936975624E+001 -5.7456091632E+001 -1.5857996055E+002 -3.1182504601E+001 +4.9380953177E+000
177500000.000 -9.7855769027E+000 -6.3244050772E+000 -4.8683659861E+001 +6.4695143123E+001 -7.7551238995E+001 +3.0135905900E+001 -3.2529829042E+001 +4.6041507792E+001
310000000.000 -9.7655569968E+000 -1.1099884778E+001 -4.9936551566E+001 +3.9483267029E+001 -9.0426873888E+001 -6.8611652230E+001 -2.3302819627E+001 +6.3831688054E+001
442500000.000 -1.0181025547E+001 -1.4104023975E+001 -4.7043192699E+001 -5.6427017394E+000 -9.1778905970E+001 -3.5206245680E-001 -2.2362929031E+001 +1.7108424144E+001
575000000.000 -1.0440304158E+001 -1.7070868047E+001 -4.7543178724E+001 -4.3297415161E+001 -9.3817388798E+001 -1.6988370671E+002 -3.0527940354E+001 +2.2235813998E+001
707500000.000 -1.0495908897E+001 -2.0337471245E+001 -4.7995556625E+001 -7.8778850153E+001 -9.2643562637E+001 -1.4016894563E+002 -3.4547238089E+001 +8.2470887495E+001
840000000.000 -1.0625100361E+001 -2.2902107884E+001 -4.7962680381E+001 -1.1454772832E+002 -8.6548164135E+001 +5.4607604412E+000 -2.9696123012E+001 +1.2763776903E+002
972500000.000 -1.0696852121E+001 -2.5578999767E+001 -4.8052138815E+001 -1.5072460885E+002 -9.2659196600E+001 +1.2124910895E+002 -2.5904641296E+001 +1.3503812500E+002
1105000000.000 -1.0698925007E+001 -2.8366304351E+001 -4.8173636551E+001 +1.7306234045E+002 -8.3261372373E+001 -8.4354640746E+001 -2.4380731259E+001 +1.4063419813E+002
1237500000.000 -1.0668093481E+001 -3.1011888744E+001 -4.8558534440E+001 +1.3659667244E+002 -8.9052799968E+001 +7.6652221086E+001 -2.3377790669E+001 +1.4998414541E+002
1370000000.000 -1.0711634157E+001 -3.3591029971E+001 -4.8499984543E+001 +1.0034580813E+002 -8.9245466042E+001 -1.1122455256E+002 -2.2042651955E+001 +1.5977309217E+002
1502500000.000 -1.0759638365E+001 -3.5565387750E+001 -4.8256756818E+001 +6.6223396401E+001 -9.0486502706E+001 +8.6610798384E+001 -2.0850090670E+001 +1.6616778423E+002
1635000000.000 -1.0623299568E+001 -3.8178747851E+001 -4.8676453905E+001 +2.8253149246E+001 -8.7467874625E+001 +2.1748969137E+001 -2.0004682153E+001 +1.7314541492E+002
1767500000.000 -1.0586552301E+001 -4.0478741475E+001 -4.8609083598E+001 -8.6490612992E+000 -8.3629903579E+001 -6.4314981296E+001 -1.8992405300E+001 +1.7831234032E+002
1900000000.000 -1.0647282394E+001 -4.2016325921E+001 -4.8230391523E+001 -4.4424445319E+001 -8.5622383624E+001 -1.6604138969E+002 -1.8856368015E+001 -1.7841332873E+002
2032500000.000 -1.0629753928E+001 -4.4250645507E+001 -4.8160724223E+001 -7.8745936403E+001 -8.7224401163E+001 -8.0925023413E+001 -1.8658934797E+001 -1.6807700129E+002
2165000000.000 -1.0581413395E+001 -4.6033685036E+001 -4.7695231787E+001 -1.1324731288E+002 -7.9982928995E+001 +8.2512201456E+001 -1.7726151988E+001 -1.6120543447E+002
2297500000.000 -1.0632539820E+001 -4.7307165217E+001 -4.6923966893E+001 -1.4760402385E+002 -7.8269867711E+001 -1.7452973820E+002 -1.7236030702E+001 -1.5721477973E+002
2430000000.000 -1.0582677110E+001 -4.8678767735E+001 -4.6622296678E+001 +1.7586494158E+002 -8.3667337882E+001 -1.6968554386E+002 -1.6897047976E+001 -1.5301917466E+002
2562500000.000 -1.0430716960E+001 -5.0430447647E+001 -4.6521587326E+001 +1.4115667448E+002 -7.6921653702E+001 +1.6402047599E+001 -1.6802609565E+001 -1.5076204815E+002
2695000000.000 -1.0373395481E+001 -5.1622803258E+001 -4.5599449053E+001 +1.0513344659E+002 -8.1699452904E+001 -1.7302630391E+002 -1.7375718554E+001 -1.4740476290E+002
2827500000.000 -1.0252852515E+001 -5.3124125060E+001 -4.5595202981E+001 +6.6588255003E+001 -8.2888142119E+001 -1.2855150186E+002 -1.7825863919E+001 -1.4043365833E+002
2960000000.000 -1.0026042245E+001 -5.5288536326E+001 -4.6086183587E+001 +2.6549047114E+001 -8.2976784791E+001 +5.1893861283E+001 -1.8105966038E+001 -1.3583636626E+002
3092500000.000 -9.8130100424E+000 -5.7218765045E+001 -4.5792334463E+001 -1.2246796542E+001 -8.8235205660E+001 -1.5358891970E+002 -1.9081026025E+001 -1.2973155664E+002
3225000000.000 -9.6812091390E+000 -5.9263397906E+001 -4.5551612503E+001 -4.9525608586E+001 -8.2843376417E+001 -8.1826346463E+001 -1.9562490573E+001 -1.1986732727E+002
3357500000.000 -9.5395454699E+000 -6.1398956686E+001 -4.6117821871E+001 -9.0171295580E+001 -8.3708610665E+001 +4.9366771867E+001 -1.9887898265E+001 -1.1460877235E+002
3490000000.000 -9.3548464487E+000 -6.3494639079E+001 -4.6280371636E+001 -1.2902558463E+002 -7.9949706293E+001 +9.8294563844E+001 -2.1106572652E+001 -1.0918471718E+002
3622500000.000 -9.1889280837E+000 -6.5639408121E+001 -4.6206197993E+001 -1.6822260302E+002 -8.3502388848E+001 -8.5773044510E+001 -2.1945123863E+001 -9.8418954995E+001
3755000000.000 -9.0874080928E+000 -6.8006784148E+001 -4.6459621966E+001 +1.5424334431E+002 -8.5949134408E+001 -5.4927683142E+001 -2.2620189644E+001 -9.4724865485E+001
3887500000.000 -9.0023120456E+000 -7.0130812323E+001 -4.7345515965E+001 +1.1475591507E+002 -9.1170799716E+001 -3.0874677448E+001 -2.4948919153E+001 -8.8775042515E+001
4020000000.000 -8.9030485963E+000 -7.1857087063E+001 -4.7292926284E+001 +7.6892057819E+001 -7.9973192038E+001 +1.6755658775E+002 -2.6660206030E+001 -7.3754381913E+001
4152500000.000 -8.8058054945E+000 -7.3657100072E+001 -4.7591762958E+001 +3.8025296596E+001 -9.0237454837E+001 -9.7623407516E+001 -2.8725388646E+001 -6.4971208061E+001
4285000000.000 -8.7281847766E+000 -7.5480699203E+001 -4.8462614481E+001 +1.5455177415E+000 -7.8239693060E+001 +9.1798947385E+001 -3.3165124040E+001 -3.9073949017E+001
4417500000.000 -8.6665661147E+000 -7.7161785898E+001 -4.8807324674E+001 -3.7403861032E+001 -8.0629133772E+001 +1.7596245096E+002 -3.1800222973E+001 +6.9644350189E+000
4550000000.000 -8.5888659881E+000 -7.8467916945E+001 -4.9104186717E+001 -7.4962914239E+001 -8.1394906361E+001 -5.3453914323E+001 -3.0238366490E+001 +1.7215022286E+001
4682500000.000 -8.5234545720E+000 -7.9849742734E+001 -4.9814521790E+001 -1.1082651526E+002 -9.4699207662E+001 -9.3733094725E+001 -2.9655109387E+001 +3.7350495479E+001
4815000000.000 -8.4602263133E+000 -8.1358058180E+001 -5.0321943262E+001 -1.4483206477E+002 -8.7486517658E+001 +1.3991781021E+002 -2.7613208435E+001 +4.0204598244E+001
4947500000.000 -8.3992373612E+000 -8.2410674712E+001 -5.0341355160E+001 +1.7900925766E+002 -8.9340085457E+001 -9.8526898955E+001 -2.9297644564E+001 +3.4292981926E+001
5080000000.000 -8.3306741375E+000 -8.3374125294E+001 -5.1080530522E+001 +1.4100402675E+002 -8.5966947038E+001 +6.1572381834E+001 -3.2240781154E+001 +5.5137515188E+001
5212500000.000 -8.2557068794E+000 -8.4575213875E+001 -5.1238427925E+001 +1.0789773786E+002 -8.8451892748E+001 +5.0995314261E+001 -3.1584293427E+001 +6.7860113023E+001
5345000000.000 -8.2093118699E+000 -8.5597671355E+001 -5.1061577075E+001 +6.9453667237E+001 -8.4589284386E+001 -1.2932812504E+002 -3.5343174520E+001 +6.8273975749E+001
5477500000.000 -8.1594033686E+000 -8.6282188995E+001 -5.1840393987E+001 +3.5736295248E+001 -8.9952789051E+001 -1.2673342938E+001 -3.7671812066E+001 +1.3071825101E+002
5610000000.000 -8.0776336613E+000 -8.7140471679E+001 -5.2190586257E+001 +1.3731898078E+000 -9.5534063852E+001 +2.5376228402E+001 -3.3779788601E+001 +1.3461673741E+002
5742500000.000 -8.0355642123E+000 -8.8136393568E+001 -5.2445950340E+001 -3.4023501858E+001 -8.6350043184E+001 -1.7019544452E+002 -3.8288080279E+001 +1.4946791583E+002
5875000000.000 -8.0085310680E+000 -8.8907423225E+001 -5.2638532863E+001 -6.6514736997E+001 -9.2111934855E+001 -4.1368519609E+001 -3.4086201099E+001 -1.7015208310E+002
6007500000.000 -7.9570158072E+000 -8.9556397619E+001 -5.3267295713E+001 -1.0349291863E+002 -8.7516175817E+001 +3.2606344234E+001 -3.2793880332E+001 +1.7918719628E+002
6140000000.000 -7.8832310197E+000 -9.0340178183E+001 -5.3531359891E+001 -1.3436011938E+002 -9.9229140848E+001 -1.4109349495E+002 -3.6426470596E+001 -1.7131220363E+002
6272500000.000 -7.8315882609E+000 -9.1329065018E+001 -5.3214354712E+001 -1.6756277320E+002 -8.3833768170E+001 +6.8296269612E+001 -3.4231389210E+001 -1.4424392160E+002
6405000000.000 -7.8192410879E+000 -9.2220205351E+001 -5.3835043911E+001 +1.6229051747E+002 -1.0071153692E+002 +1.7515242947E+002 -3.3911915256E+001 -1.6226803160E+002
6537500000.000 -7.7642590894E+000 -9.2672533537E+001 -5.4040344184E+001 +1.2900919627E+002 -9.0694220762E+001 +9.5128401100E+001 -4.0167754385E+001 -1.6328288093E+002
6670000000.000 -7.6620165958E+000 -9.3394244523E+001 -5.3945256680E+001 +9.7505176740E+001 -9.1160922147E+001 -1.3722083875E+002 -3.9876230980E+001 -1.4050687112E+002
6802500000.000 -7.5897234370E+000 -9.4552455974E+001 -5.4158129426E+001 +6.4662778156E+001 -8.5381604374E+001 -1.2860695953E+001 -3.9075029140E+001 +1.7762428080E+002
6935000000.000 -7.5887936974E+000 -9.5418190520E+001 -5.4543486900E+001 +3.0802198430E+001 -8.9991749449E+001 +1.2027391123E+002 -3.8541549999E+001 +1.2411095677E+002
7067500000.000 -7.5186658540E+000 -9.5775301400E+001 -5.4422667784E+001 -3.5939013328E-002 -8.5773928551E+001 +1.7788543050E+002 -3.8483570731E+001 +1.1598735165E+002
7200000000.000 -7.4112097236E+000 -9.6550268002E+001 -5.4256001413E+001 -3.3009974284E+001 -8.5239509134E+001 -1.4019392934E+002 -3.2732491246E+001 +1.3011072145E+002
7332500000.000 -7.3538577416E+000 -9.7651223924E+001 -5.4621906459E+001 -6.6991894962E+001 -8.3729392194E+001 +6.7546737909E+001 -2.9150715052E+001 +1.1896237279E+002
7465000000.000 -7.3139680741E+000 -9.8283925403E+001 -5.4946013020E+001 -1.0217833550E+002 -8.5620944106E+001 +1.7030376405E+002 -2.8625560076E+001 +1.2335624037E+002
7597500000.000 -7.2212776174E+000 -9.8820653206E+001 -5.4740938466E+001 -1.3708694792E+002 -8.4861055861E+001 -7.3388592052E+001 -2.6029646055E+001 +1.3715407871E+002
7730000000.000 -7.1282809292E+000 -9.9585106854E+001 -5.5337010079E+001 -1.7262884247E+002 -9.3415816700E+001 +2.5478072782E+001 -2.3749626250E+001 +1.3741626078E+002
7862500000.000 -7.0734410500E+000 -1.0029566604E+002 -5.5853267609E+001 +1.5153580279E+002 -8.2158316948E+001 +1.7639362253E+002 -2.3313514551E+001 +1.4189481822E+002
7995000000.000 -7.0163745257E+000 -1.0068614854E+002 -5.5241339518E+001 +1.1775725310E+002 -9.0046159797E+001 -9.9570757397E+000 -2.1783421385E+001 +1.5433276649E+002
8127500000.000 -6.9010911576E+000 -1.0117217422E+002 -5.5919649926E+001 +8.0117549031E+001 -8.4207779304E+001 +6.6161517772E+001 -2.0029798958E+001 +1.5616755793E+002
8260000000.000 -6.8439392897E+000 -1.0193766686E+002 -5.6161447357E+001 +4.9395610010E+001 -9.8573952613E+001 +3.7298717048E+001 -1.9889197597E+001 +1.6015369364E+002
8392500000.000 -6.7900528507E+000 -1.0223392949E+002 -5.6084576118E+001 +1.5251683659E+001 -9.1940538053E+001 -7.2405073745E+001 -1.9045289958E+001 +1.7033776581E+002
8525000000.000 -6.7254732208E+000 -1.0256706550E+002 -5.6569639947E+001 -2.3550857565E+001 -9.6681063013E+001 -6.8087016994E+001 -1.8195097369E+001 +1.7266642326E+002
8657500000.000 -6.6553658101E+000 -1.0300053854E+002 -5.6598573136E+001 -5.5966108141E+001 -9.2960983282E+001 +1.4571169719E+002 -1.8562046929E+001 +1.7773789086E+002
8790000000.000 -6.5910381828E+000 -1.0338998934E+002 -5.6975296485E+001 -9.1962803911E+001 -8.2412623702E+001 -1.0485227791E+002 -1.8337627000E+001 -1.7197608496E+002
8922500000.000 -6.5583074231E+000 -1.0384585227E+002 -5.6859044263E+001 -1.3137949276E+002 -8.6937455391E+001 -7.4088490150E+001 -1.8003099148E+001 -1.6628093990E+002
9055000000.000 -6.4998495660E+000 -1.0415858494E+002 -5.7174398663E+001 -1.6448526394E+002 -9.2998544120E+001 +1.5927269414E+002 -1.8436047226E+001 -1.5850402138E+002
9187500000.000 -6.4655182490E+000 -1.0452323805E+002 -5.7489472338E+001 +1.6277277692E+002 -1.0688831905E+002 -4.0747280411E+001 -1.8358530751E+001 -1.4688200309E+002
9320000000.000 -6.4157361140E+000 -1.0519557555E+002 -5.7694840078E+001 +1.2578763946E+002 -8.7557136251E+001 -1.9998776983E+001 -1.8241349187E+001 -1.4001615797E+002
9452500000.000 -6.3763929314E+000 -1.0563537010E+002 -5.7458858138E+001 +8.9994902284E+001 -8.6849713560E+001 +6.3838211700E+001 -1.8828697567E+001 -1.3058617189E+002
9585000000.000 -6.3310742657E+000 -1.0601708466E+002 -5.8011540740E+001 +5.7963808433E+001 -8.5723512551E+001 +1.7065602370E+002 -1.8743143425E+001 -1.1882131638E+002
9717500000.000 -6.2598540383E+000 -1.0664484293E+002 -5.8182990378E+001 +2.1933626324E+001 -8.7773419626E+001 -4.5748879540E+001 -1.8845988673E+001 -1.1164042578E+002
9850000000.000 -6.2354506948E+000 -1.0742149166E+002 -5.8166589423E+001 -1.3776023292E+001 -8.1871901208E+001 +7.9485091577E+001 -1.9635368612E+001 -1.0048292864E+002
9982500000.000 -6.1992630856E+000 -1.0767803355E+002 -5.8669469797E+001 -4.7348079038E+001 -9.0480049929E+001 +7.0552744021E+001 -1.9595922356E+001 -8.7036118193E+001
10115000000.000 -6.1332495270E+000 -1.0814646980E+002 -5.9289971136E+001 -8.4550567765E+001 -8.2281947845E+001 -1.2816322880E+002 -1.9931391225E+001 -7.9852837797E+001
10247500000.000 -6.0777258276E+000 -1.0881342719E+002 -5.9184265111E+001 -1.2129699797E+002 -8.6018042609E+001 +3.2433551539E+001 -2.1139400122E+001 -6.5933263848E+001
10380000000.000 -6.0473161174E+000 -1.0931851991E+002 -5.9753534384E+001 -1.5045337178E+002 -9.9235060111E+001 +3.8627757876E+001 -2.0932380649E+001 -5.0355503834E+001
10512500000.000 -5.9975295769E+000 -1.0981429992E+002 -5.9332837881E+001 +1.7115068539E+002 -1.0426824342E+002 -6.1751525972E+001 -2.1471263589E+001 -4.2890490458E+001
10645000000.000 -5.9556979776E+000 -1.1035616853E+002 -6.0366157434E+001 +1.4053740680E+002 -8.3666024078E+001 +7.2099317266E+001 -2.2827465333E+001 -2.4126590252E+001
10777500000.000 -5.9068313828E+000 -1.1077681726E+002 -6.0508843335E+001 +1.0867542135E+002 -9.2616283888E+001 +9.0462953872E+001 -2.2080326904E+001 -6.3895679909E+000
10910000000.000 -5.8435556330E+000 -1.1126851337E+002 -6.0776547880E+001 +7.4149247157E+001 -8.3119436534E+001 -1.0035433200E+002 -2.2725792336E+001 +3.0197053475E+000
11042500000.000 -5.7778100056E+000 -1.1187339899E+002 -6.0905057184E+001 +4.3226873298E+001 -9.0455766286E+001 -2.2254485129E+001 -2.3465322688E+001 +2.7004244180E+001
11175000000.000 -5.7271979849E+000 -1.1225030378E+002 -6.1718931193E+001 +4.1682094551E+000 -9.0848070310E+001 +2.5440068403E+001 -2.2164191468E+001 +4.2220025570E+001
11307500000.000 -5.6871165322E+000 -1.1257728049E+002 -6.1609163440E+001 -2.5332490847E+001 -9.2964036350E+001 -6.4409496746E+001 -2.2689934439E+001 +5.2112997425E+001
11440000000.000 -5.6318659753E+000 -1.1303722530E+002 -6.1758261680E+001 -5.9842284218E+001 -9.1261457551E+001 -1.2800547245E+001 -2.2603994697E+001 +7.4952107291E+001
11572500000.000 -5.5629803465E+000 -1.1319815489E+002 -6.2082475800E+001 -9.1679963018E+001 -9.0825561916E+001 +1.6884764808E+002 -2.1139966155E+001 +8.6291525788E+001
11705000000.000 -5.5258668804E+000 -1.1359722151E+002 -6.2435858531E+001 -1.2819455018E+002 -8.4248019310E+001 -1.4102163145E+002 -2.1734236230E+001 +9.6230266690E+001
11837500000.000 -5.4707561052E+000 -1.1386366791E+002 -6.2157346070E+001 -1.6068175180E+002 -8.5475015851E+001 -4.6912410614E+001 -2.1110224135E+001 +1.1841362835E+002
11970000000.000 -5.4551680688E+000 -1.1410687841E+002 -6.3125826962E+001 +1.7063463508E+002 -8.6598245873E+001 +3.6076011556E+001 -1.9832840789E+001 +1.2466532187E+002
12102500000.000 -5.4274279939E+000 -1.1426676403E+002 -6.2785697788E+001 +1.3297953499E+002 -1.0089118532E+002 -1.7517252587E+002 -2.0732380922E+001 +1.3498822977E+002
12235000000.000 -5.3796388931E+000 -1.1465297080E+002 -6.2748722256E+001 +1.0084809099E+002 -8.6105044249E+001 +1.6242521394E+002 -1.9697016885E+001 +1.5375683714E+002
12367500000.000 -5.3696451875E+000 -1.1486567108E+002 -6.2548643894E+001 +6.4297229033E+001 -8.4037205989E+001 +1.7882190654E+001 -1.8894395700E+001 +1.5686230785E+002
12500000000.000 -5.3556996166E+000 -1.1539008877E+002 -6.3817791825E+001 +3.5107302865E+001 -8.8013471561E+001 +1.1933859411E+002 -2.0061823073E+001 +1.6786634580E+002
12632500000.000 -5.3099675995E+000 -1.1556129227E+002 -6.3090069673E+001 +1.7257391428E+000 -9.0725413454E+001 -1.3124735853E+002 -1.9031365282E+001 -1.7375307525E+002
12765000000.000 -5.2886641412E+000 -1.1589370314E+002 -6.2926040266E+001 -3.1189335761E+001 -8.8017094333E+001 -1.7543902117E+001 -1.8504217637E+001 -1.7242517480E+002
12897500000.000 -5.2949610020E+000 -1.1632408736E+002 -6.3810889648E+001 -7.1183207784E+001 -9.2208619374E+001 +1.6547927511E+002 -2.0170987584E+001 -1.5961066880E+002
13030000000.000 -5.2729240520E+000 -1.1649760896E+002 -6.4953816301E+001 -1.0028215368E+002 -8.7216350975E+001 -1.3945928068E+002 -1.8702106418E+001 -1.4204131654E+002
13162500000.000 -5.2215264308E+000 -1.1685177375E+002 -6.2790005149E+001 -1.3152346206E+002 -9.3980265825E+001 -1.1182222017E+002 -1.8564780223E+001 -1.4284848004E+002
13295000000.000 -5.1923808170E+000 -1.1720411677E+002 -6.4393344069E+001 -1.7252305573E+002 -8.5131704353E+001 +3.5763456910E+001 -2.0048360186E+001 -1.2825820409E+002
13427500000.000 -5.1830169425E+000 -1.1773960919E+002 -6.5117142178E+001 +1.5607719798E+002 -9.3930615724E+001 -1.7926241795E+002 -1.8705966196E+001 -1.1443304534E+002
13560000000.000 -5.1900263512E+000 -1.1773700353E+002 -6.5845206743E+001 +1.1830902943E+002 -9.2862161250E+001 -9.8393533945E+001 -1.8926488337E+001 -1.1564504574E+002
13692500000.000 -5.1327986120E+000 -1.1795316037E+002 -6.5362560214E+001 +8.1503204649E+001 -8.1455124803E+001 +1.0828251797E+002 -2.0803663393E+001 -1.0192496104E+002
13825000000.000 -5.0942264148E+000 -1.1840475271E+002 -6.7287051168E+001 +6.1177002444E+001 -8.2658914961E+001 -1.0335986589E+002 -1.9627085146E+001 -8.7788389019E+001
13957500000.000 -5.0976984363E+000 -1.1891349757E+002 -6.6518866210E+001 +1.8779779575E+001 -8.7177400689E+001 -8.0381331683E+001 -2.0251792044E+001 -9.0598496820E+001
14090000000.000 -5.0853246964E+000 -1.1904789431E+002 -6.6456337313E+001 -1.8102811325E+001 -8.1278892040E+001 +5.2811081326E+001 -2.2537257473E+001 -7.3409259219E+001
14222500000.000 -5.0432653437E+000 -1.1916948536E+002 -6.6464540728E+001 -5.1176287089E+001 -8.7430578724E+001 -1.0543775859E+001 -2.1193839695E+001 -5.9965227002E+001
14355000000.000 -5.0034277147E+000 -1.1974256636E+002 -6.6265072777E+001 -6.6061584806E+001 -8.3809582648E+001 -7.6161213922E+001 -2.2415771298E+001 -6.3480129669E+001
14487500000.000 -4.9916109996E+000 -1.1997201497E+002 -6.8541251685E+001 -1.0947725780E+002 -8.4003656042E+001 +2.2577561515E+001 -2.5241963993E+001 -4.0543207996E+001
14620000000.000 -4.9625932916E+000 -1.1993151184E+002 -6.7823705693E+001 -1.4096210476E+002 -8.6776154965E+001 -5.1143099871E+001 -2.3211696438E+001 -2.8458343536E+001
14752500000.000 -4.8800959451E+000 -1.2019506892E+002 -6.6566734819E+001 +1.7504790193E+002 -8.2656704943E+001 -1.0798404119E+002 -2.5432242405E+001 -3.5976466242E+001
14885000000.000 -4.8567439055E+000 -1.2056983131E+002 -6.6601526873E+001 +1.5636894968E+002 -8.5906208144E+001 -7.5917775230E+001 -2.8402395938E+001 +2.3928864778E+000
15017500000.000 -4.8473831619E+000 -1.2037035540E+002 -6.7380589668E+001 +1.1275596648E+002 -9.1234710837E+001 +1.5439189206E+002 -2.5282698209E+001 +7.2751744461E+000
15150000000.000 -4.7691552831E+000 -1.2022559760E+002 -6.6161753709E+001 +7.3970689927E+001 -7.8621860472E+001 -1.0043337458E+002 -2.9338318975E+001 -1.7968123042E+000
15282500000.000 -4.7123301050E+000 -1.2037357794E+002 -6.6380669467E+001 +4.7155099823E+001 -8.3034318687E+001 -5.1534717646E+001 -3.0445725590E+001 +5.8273218358E+001
