!  2-Port S-parameters saved by WinCal
! VAR MeasName=S-Parameters (CALIBRATED_DATA) read from VNA (C)
! VAR MeasDate=10/5/2015 4:48:48 PM
! VAR NAME=M6079_4_7_3_2_20C_1.5mA_-17.5dBm
! VAR FILENAME=M6079_4_7_3_2_20C_1.5mA_-17.5dBm.S2P
! VAR DATE=10/5/2015 4:48:48 PM
! VAR PHYS_PORTS=2,1
! VAR ObjTypeName=DATASET
! VAR IndexType=Frequency
!
# Hz S DB R 50
45000000.000 -1.2738365925E+001 -7.6357008260E-001 -4.3060343054E+001 +1.0506033381E+002 -7.2544372360E+001 -1.4063344447E+002 -3.0739290739E+001 +7.3520783991E+000
177500000.000 -1.2992616904E+001 -4.4193543152E+000 -4.4411818591E+001 +6.8292597410E+001 -7.1363908495E+001 +1.2462712589E+002 -3.2539198768E+001 +4.5034370589E+001
310000000.000 -1.2766435525E+001 -8.1053716022E+000 -4.5622789908E+001 +3.5757021773E+001 -7.9375240036E+001 +1.7044134678E+002 -2.3313802511E+001 +6.3801412353E+001
442500000.000 -1.3081739400E+001 -1.0679832647E+001 -4.3608656720E+001 -2.7930552998E+000 -8.3483849940E+001 -7.9462784074E+001 -2.2363914934E+001 +1.7038387270E+001
575000000.000 -1.3226324379E+001 -1.3506412728E+001 -4.4027764520E+001 -3.9501060643E+001 -8.6897593928E+001 -1.7889016742E+002 -3.0546292459E+001 +2.2366923528E+001
707500000.000 -1.3122622621E+001 -1.6636079465E+001 -4.4379130015E+001 -7.3550090437E+001 -9.1899475913E+001 -1.5454315519E+002 -3.4547288463E+001 +8.2585567810E+001
840000000.000 -1.3180915130E+001 -1.9290516660E+001 -4.4250941692E+001 -1.0801634796E+002 -8.5941640883E+001 +9.0158408203E+000 -2.9694704785E+001 +1.2750217261E+002
972500000.000 -1.3077187845E+001 -2.2078705739E+001 -4.4420868467E+001 -1.4283558353E+002 -8.1217948275E+001 +1.2558249698E+002 -2.5926632912E+001 +1.3497553815E+002
1105000000.000 -1.2970822293E+001 -2.5099306665E+001 -4.4358315052E+001 -1.7779740184E+002 -8.3690264965E+001 +1.4747748312E+002 -2.4352700954E+001 +1.4054293852E+002
1237500000.000 -1.2847579849E+001 -2.7792139814E+001 -4.4501593535E+001 +1.4678833517E+002 -8.6622224244E+001 -2.9243237899E+001 -2.3383740814E+001 +1.4995214079E+002
1370000000.000 -1.2771273694E+001 -3.0618672213E+001 -4.4514131183E+001 +1.1252144541E+002 -8.9794309608E+001 +1.4536196130E+002 -2.2041243839E+001 +1.5975588874E+002
1502500000.000 -1.2776418890E+001 -3.2779589745E+001 -4.4368036102E+001 +7.7773516026E+001 -8.4232103587E+001 -1.1225143549E+002 -2.0848305379E+001 +1.6619053738E+002
1635000000.000 -1.2518668976E+001 -3.5541543266E+001 -4.4570167173E+001 +4.2867770596E+001 -8.4335788830E+001 +1.8224240161E+001 -2.0006630536E+001 +1.7317911782E+002
1767500000.000 -1.2442807920E+001 -3.8029172577E+001 -4.4351144758E+001 +8.3548655478E+000 -8.5886619591E+001 +5.3359615485E+001 -1.8998557221E+001 +1.7830140174E+002
1900000000.000 -1.2535927506E+001 -3.9670482268E+001 -4.3882016900E+001 -2.5275469043E+001 -8.3167171185E+001 +6.9907655256E+001 -1.8857287208E+001 -1.7842466251E+002
2032500000.000 -1.2427069723E+001 -4.1841966197E+001 -4.3824444434E+001 -6.0235644486E+001 -8.1821510820E+001 -5.9382966512E+001 -1.8663257393E+001 -1.6803075560E+002
2165000000.000 -1.2321735139E+001 -4.3977083809E+001 -4.3696384797E+001 -9.3485176800E+001 -8.0639962346E+001 +1.6610362846E+002 -1.7725770794E+001 -1.6122938847E+002
2297500000.000 -1.2320688101E+001 -4.6459571305E+001 -4.3623224807E+001 -1.2521739371E+002 -8.2616596723E+001 -3.2078466080E+001 -1.7226772856E+001 -1.5723352636E+002
2430000000.000 -1.2212925450E+001 -4.8458731235E+001 -4.3647330922E+001 -1.5918458073E+002 -8.4802315215E+001 -1.9140689465E+001 -1.6892294040E+001 -1.5303170474E+002
2562500000.000 -1.2043096242E+001 -5.0442090739E+001 -4.3563657705E+001 +1.6690460909E+002 -7.5655647516E+001 -9.9673052784E-001 -1.6797408366E+001 -1.5078124526E+002
2695000000.000 -1.1983868294E+001 -5.2847313502E+001 -4.3500179182E+001 +1.3443198951E+002 -7.2699312829E+001 +1.1948237286E+002 -1.7360960415E+001 -1.4745928244E+002
2827500000.000 -1.1910058404E+001 -5.4527392570E+001 -4.3692150246E+001 +1.0038371937E+002 -8.4741995329E+001 +1.2880280213E+002 -1.7814336305E+001 -1.4044574366E+002
2960000000.000 -1.1729458842E+001 -5.5904764151E+001 -4.3641443804E+001 +6.4732975064E+001 -7.4666500979E+001 -2.0342714020E+001 -1.8091970880E+001 -1.3586479969E+002
3092500000.000 -1.1565663316E+001 -5.7985492394E+001 -4.3456608156E+001 +3.0677754359E+001 -7.3283667577E+001 +8.9156751503E+001 -1.9089738647E+001 -1.2982547928E+002
3225000000.000 -1.1468683972E+001 -5.9949535988E+001 -4.3359587417E+001 -4.0235731832E+000 -8.4216066409E+001 -1.3425994236E+001 -1.9562105912E+001 -1.1984670026E+002
3357500000.000 -1.1319908550E+001 -6.1269717312E+001 -4.3334591637E+001 -3.9501052281E+001 -8.2729974029E+001 +5.7850424782E+000 -1.9875093188E+001 -1.1467913834E+002
3490000000.000 -1.1122700012E+001 -6.2930534430E+001 -4.3445682287E+001 -7.3410093526E+001 -8.9247726994E+001 -2.6173359878E+001 -2.1095219466E+001 -1.0915080497E+002
3622500000.000 -1.0965147124E+001 -6.4895568286E+001 -4.3306254414E+001 -1.0887678058E+002 -7.8229922493E+001 -1.4971937720E+002 -2.1930712435E+001 -9.8333160298E+001
3755000000.000 -1.0791120685E+001 -6.6676154323E+001 -4.3340699496E+001 -1.4448961624E+002 -8.8994616684E+001 -4.0003974082E+001 -2.2617399625E+001 -9.4803386804E+001
3887500000.000 -1.0623765000E+001 -6.8289606165E+001 -4.3266843676E+001 -1.7951249819E+002 -7.9604128266E+001 +6.2364175500E+001 -2.4937652294E+001 -8.8568193144E+001
4020000000.000 -1.0515187615E+001 -6.9752973841E+001 -4.3164282567E+001 +1.4641464693E+002 -9.6906958303E+001 +1.0473015168E+002 -2.6661113717E+001 -7.3674195681E+001
4152500000.000 -1.0349209094E+001 -7.1177333082E+001 -4.3179856676E+001 +1.1198431521E+002 -8.4678097006E+001 -1.4131420170E+002 -2.8726968216E+001 -6.4824611629E+001
4285000000.000 -1.0179116540E+001 -7.2644123376E+001 -4.3271857991E+001 +7.5132706319E+001 -9.6837752560E+001 +1.1888876471E+002 -3.3203733606E+001 -3.9120281236E+001
4417500000.000 -1.0066176458E+001 -7.3997205020E+001 -4.3128423977E+001 +4.1294617015E+001 -8.4508991664E+001 -1.2501832059E+002 -3.1785788362E+001 +7.2137289950E+000
4550000000.000 -9.9191859010E+000 -7.4923373741E+001 -4.3134235885E+001 +5.0840756242E+000 -8.2028617452E+001 +1.6030939562E+001 -3.0235406348E+001 +1.7248007956E+001
4682500000.000 -9.6659262014E+000 -7.5954078082E+001 -4.3181418900E+001 -3.3954557309E+001 -8.4402867415E+001 -2.9346461642E+001 -2.9671462405E+001 +3.7184020840E+001
4815000000.000 -9.4765192003E+000 -7.7215116848E+001 -4.2861701450E+001 -7.1918175698E+001 -8.8187743896E+001 +7.4362396158E+001 -2.7636761788E+001 +4.0346583689E+001
4947500000.000 -9.3114446617E+000 -7.8026895890E+001 -4.2745171667E+001 -1.0827022110E+002 -9.1432163718E+001 -1.4176967984E+002 -2.9307609046E+001 +3.4386166353E+001
5080000000.000 -9.0007739870E+000 -7.9171898821E+001 -4.3003915072E+001 -1.5175468078E+002 -8.4304803146E+001 +8.0707885872E+001 -3.2276461507E+001 +5.5252295881E+001
5212500000.000 -8.7876022345E+000 -8.0619108708E+001 -4.2972099102E+001 +1.6830946175E+002 -9.1086272337E+001 +1.0347691603E+002 -3.1585038217E+001 +6.7844679642E+001
5345000000.000 -8.6905287299E+000 -8.1487223055E+001 -4.2557855219E+001 +1.3247969353E+002 -9.6024306790E+001 +7.9464135591E+001 -3.5342999011E+001 +6.8150511147E+001
5477500000.000 -8.5120340553E+000 -8.2583455320E+001 -4.2901119596E+001 +9.2003533083E+001 -8.0979726080E+001 -4.6535924823E+001 -3.7701147460E+001 +1.3103522812E+002
5610000000.000 -8.3376060181E+000 -8.3972949182E+001 -4.3254664307E+001 +5.1759742579E+001 -8.5843042313E+001 +1.5472942156E+002 -3.3801627619E+001 +1.3454100760E+002
5742500000.000 -8.2386650869E+000 -8.5061839473E+001 -4.3019839357E+001 +1.5164879587E+001 -9.1705176125E+001 +1.4198543994E+002 -3.8210267091E+001 +1.4977140973E+002
5875000000.000 -8.1572760760E+000 -8.6007426804E+001 -4.2949341594E+001 -2.1718051576E+001 -8.4452315583E+001 -8.6344750461E+001 -3.4066320542E+001 -1.6986941008E+002
6007500000.000 -8.0395654588E+000 -8.7210414722E+001 -4.3387338490E+001 -6.2672493893E+001 -8.6817178648E+001 +5.5517020306E+001 -3.2816190572E+001 +1.7930698787E+002
6140000000.000 -7.9346565854E+000 -8.8314931214E+001 -4.3523962107E+001 -9.8960266629E+001 -8.7589023654E+001 +1.2078134237E+002 -3.6432012716E+001 -1.7157960227E+002
6272500000.000 -7.8473965789E+000 -8.9335380642E+001 -4.3049286000E+001 -1.3350552327E+002 -8.6522428413E+001 -1.2054062127E+000 -3.4171554456E+001 -1.4421392462E+002
6405000000.000 -7.8102707557E+000 -9.0612363600E+001 -4.3344216866E+001 -1.7081821687E+002 -8.3655724538E+001 +5.7793515098E+001 -3.3916751029E+001 -1.6209257433E+002
6537500000.000 -7.7408396368E+000 -9.1526332228E+001 -4.3825153312E+001 +1.5139716083E+002 -9.8643475590E+001 +3.9465723740E+001 -4.0173683168E+001 -1.6318088583E+002
6670000000.000 -7.6113911875E+000 -9.2255946322E+001 -4.3358145013E+001 +1.1706324715E+002 -9.3580134380E+001 -1.7689480132E+002 -3.9917943837E+001 -1.4018940441E+002
6802500000.000 -7.5328531004E+000 -9.3750673747E+001 -4.3689224267E+001 +7.9511489887E+001 -9.2710884443E+001 -2.6503187844E+001 -3.9132341947E+001 +1.7789555765E+002
6935000000.000 -7.5503744651E+000 -9.5069637894E+001 -4.4592781597E+001 +4.1555964122E+001 -8.4817057359E+001 +1.0629841046E+002 -3.8510372476E+001 +1.2364793828E+002
7067500000.000 -7.4561648176E+000 -9.5418721610E+001 -4.4134005774E+001 +7.7187238545E+000 -8.5561941125E+001 -1.0726513019E+002 -3.8490321959E+001 +1.1633400036E+002
7200000000.000 -7.3246377556E+000 -9.6162040499E+001 -4.3615102680E+001 -2.5430308628E+001 -8.6727966858E+001 +4.3090520283E+001 -3.2679432215E+001 +1.3026909567E+002
7332500000.000 -7.2881656346E+000 -9.7566699949E+001 -4.4268568951E+001 -6.3576754939E+001 -8.9741207126E+001 +7.3016486541E+001 -2.9125749352E+001 +1.1909466874E+002
7465000000.000 -7.2468927056E+000 -9.8250277624E+001 -4.4345871255E+001 -9.7680845356E+001 -8.8558692448E+001 -1.2649367374E+002 -2.8598289908E+001 +1.2340173955E+002
7597500000.000 -7.1215641297E+000 -9.8552553353E+001 -4.3364182256E+001 -1.2918053322E+002 -8.9843436094E+001 -8.9767980872E+001 -2.6011329054E+001 +1.3742919854E+002
7730000000.000 -7.0561744077E+000 -9.9656959417E+001 -4.4326601058E+001 -1.6801420505E+002 -8.7384121353E+001 +3.1869588891E+001 -2.3753941906E+001 +1.3752947510E+002
7862500000.000 -7.0288057244E+000 -1.0058973871E+002 -4.5183318533E+001 +1.5503511605E+002 -8.3998605108E+001 +1.4091549287E+002 -2.3305788348E+001 +1.4196724668E+002
7995000000.000 -6.9386412739E+000 -1.0079157075E+002 -4.4152863543E+001 +1.2447050579E+002 -8.1608851340E+001 -3.5938420398E+001 -2.1773553744E+001 +1.5435213052E+002
8127500000.000 -6.8272732033E+000 -1.0131896337E+002 -4.4427103693E+001 +8.9661150607E+001 -8.7524125506E+001 +4.7664001267E+001 -2.0030219976E+001 +1.5621188043E+002
8260000000.000 -6.8006427946E+000 -1.0227257546E+002 -4.5174315667E+001 +5.3274347748E+001 -9.0215191416E+001 +1.3645688710E+002 -1.9878912388E+001 +1.6016900027E+002
8392500000.000 -6.7354901908E+000 -1.0252345368E+002 -4.4835235083E+001 +2.0942705515E+001 -8.7117509370E+001 +1.3376866691E+002 -1.9050521496E+001 +1.7035375109E+002
8525000000.000 -6.6656104172E+000 -1.0281520149E+002 -4.4624403249E+001 -1.3259835194E+001 -8.7531462272E+001 +2.2715992487E+001 -1.8200646965E+001 +1.7275664327E+002
8657500000.000 -6.6249873271E+000 -1.0341064645E+002 -4.5512550420E+001 -5.0185520725E+001 -8.3912747066E+001 -1.6213271603E+002 -1.8564156018E+001 +1.7780964869E+002
8790000000.000 -6.5628840138E+000 -1.0383220982E+002 -4.5825365201E+001 -8.5231477749E+001 -8.4473218393E+001 -8.9841034002E+001 -1.8344017303E+001 -1.7196466804E+002
8922500000.000 -6.5209793602E+000 -1.0421863051E+002 -4.5385905784E+001 -1.1702956761E+002 -8.5784166158E+001 -7.5247873641E+001 -1.8001927075E+001 -1.6622740817E+002
9055000000.000 -6.4795452909E+000 -1.0461389426E+002 -4.5828500745E+001 -1.5236168993E+002 -8.5398853066E+001 +1.1021092492E+002 -1.8439904022E+001 -1.5842920628E+002
9187500000.000 -6.4503052216E+000 -1.0501212841E+002 -4.6159513487E+001 +1.7323275050E+002 -8.7419065919E+001 -1.4179559739E+002 -1.8358173479E+001 -1.4681222804E+002
9320000000.000 -6.3966803761E+000 -1.0564442672E+002 -4.5906331771E+001 +1.4030990998E+002 -8.9204096862E+001 +4.9457322591E+001 -1.8241534365E+001 -1.3997318519E+002
9452500000.000 -6.3665541932E+000 -1.0610335698E+002 -4.6108067067E+001 +1.0515878513E+002 -8.4660209645E+001 +6.9532598930E+001 -1.8824294798E+001 -1.3052613327E+002
9585000000.000 -6.3376898550E+000 -1.0655298392E+002 -4.6766024495E+001 +6.9964500758E+001 -9.2853865813E+001 -1.3673048398E+002 -1.8738579782E+001 -1.1874653168E+002
9717500000.000 -6.2603684582E+000 -1.0715307906E+002 -4.6605900094E+001 +3.6806186661E+001 -8.4866848385E+001 +5.5331809057E+000 -1.8850330978E+001 -1.1159412359E+002
9850000000.000 -6.2426191739E+000 -1.0796355967E+002 -4.6743976110E+001 +1.3957329940E+000 -7.9882047100E+001 +2.7532195249E+001 -1.9638825545E+001 -1.0044024270E+002
9982500000.000 -6.2166788079E+000 -1.0825057681E+002 -4.7275688101E+001 -3.2361755998E+001 -8.5359196986E+001 +1.6539959628E+002 -1.9597936460E+001 -8.7010354860E+001
10115000000.000 -6.1512969954E+000 -1.0868698060E+002 -4.7295674552E+001 -6.6905275319E+001 -8.9128714684E+001 -4.0899465168E+001 -1.9938321860E+001 -7.9800554323E+001
10247500000.000 -6.0989850976E+000 -1.0936731728E+002 -4.7416519740E+001 -1.0111613256E+002 -8.5190689546E+001 +2.7903826439E+001 -2.1141951780E+001 -6.5879322491E+001
10380000000.000 -6.0828770452E+000 -1.0989087339E+002 -4.8032874833E+001 -1.3619105443E+002 -8.4978167668E+001 -1.6013237151E+002 -2.0937389499E+001 -5.0353414585E+001
10512500000.000 -6.0320106623E+000 -1.1037756066E+002 -4.8197540505E+001 -1.6872793059E+002 -8.7895696215E+001 -7.6662717261E+001 -2.1477839283E+001 -4.2849473757E+001
10645000000.000 -5.9878209119E+000 -1.1091344728E+002 -4.8158269204E+001 +1.5655340517E+002 -8.5207707910E+001 +5.7338583772E+001 -2.2829504347E+001 -2.3970173412E+001
10777500000.000 -5.9508179085E+000 -1.1135208172E+002 -4.8662683124E+001 +1.2148170590E+002 -8.9922647920E+001 -4.6206347477E+001 -2.2077816903E+001 -6.3877141472E+000
10910000000.000 -5.8943324231E+000 -1.1184237047E+002 -4.9280912253E+001 +8.8049116784E+001 -8.4268067958E+001 -1.4742859709E+002 -2.2730130602E+001 +2.9882483513E+000
11042500000.000 -5.8279108876E+000 -1.1241845961E+002 -4.9170835543E+001 +5.6424278853E+001 -9.1098250152E+001 +1.6877335225E+001 -2.3460830434E+001 +2.7065896017E+001
11175000000.000 -5.7812419860E+000 -1.1279833959E+002 -4.9386335410E+001 +1.9644889002E+001 -8.5972026307E+001 +9.3791484646E+001 -2.2158997361E+001 +4.2188953331E+001
11307500000.000 -5.7487661481E+000 -1.1312983214E+002 -5.0110535767E+001 -1.4024040572E+001 -9.3524875822E+001 -1.7801956867E+002 -2.2691498910E+001 +5.2106854051E+001
11440000000.000 -5.6942166496E+000 -1.1356698874E+002 -5.0042709542E+001 -4.6108198321E+001 -8.6105158389E+001 +1.9290351366E+001 -2.2587585897E+001 +7.4935448207E+001
11572500000.000 -5.6257453361E+000 -1.1372447469E+002 -5.0487990566E+001 -8.0201133751E+001 -8.3513690711E+001 +8.1615219246E+001 -2.1128637095E+001 +8.6411089900E+001
11705000000.000 -5.5944662842E+000 -1.1412374988E+002 -5.0920375228E+001 -1.1465421722E+002 -8.1327864347E+001 -1.5244057361E+002 -2.1722411737E+001 +9.6256609341E+001
11837500000.000 -5.5419123384E+000 -1.1438807919E+002 -5.0928255220E+001 -1.4847894279E+002 -8.6086184946E+001 +3.0976296646E+001 -2.1088743472E+001 +1.1833146314E+002
11970000000.000 -5.5270128629E+000 -1.1459584559E+002 -5.1133649614E+001 +1.7813667913E+002 -8.1100159762E+001 +4.5202142975E+001 -1.9818112551E+001 +1.2464763910E+002
12102500000.000 -5.5021835545E+000 -1.1475477727E+002 -5.1592814318E+001 +1.4436731242E+002 -8.7371363839E+001 -1.6853553429E+002 -2.0725499587E+001 +1.3496303715E+002
12235000000.000 -5.4571577622E+000 -1.1514390769E+002 -5.1649003423E+001 +1.1165980820E+002 -8.2009704967E+001 -5.8700380277E+001 -1.9690874540E+001 +1.5374623333E+002
12367500000.000 -5.4482832008E+000 -1.1533722140E+002 -5.1694517784E+001 +7.6205702867E+001 -8.4256189210E+001 +1.0089414640E+002 -1.8893517202E+001 +1.5684385716E+002
12500000000.000 -5.4349879463E+000 -1.1586475232E+002 -5.2271000239E+001 +4.1616882030E+001 -8.9354228310E+001 -1.6857025219E+002 -2.0055201028E+001 +1.6783073410E+002
12632500000.000 -5.3938987408E+000 -1.1602303108E+002 -5.2549577705E+001 +9.2518309801E+000 -8.6779527081E+001 -5.7498079792E+001 -1.9033826750E+001 -1.7372178790E+002
12765000000.000 -5.3712023351E+000 -1.1634590908E+002 -5.2772683422E+001 -2.4312850140E+001 -9.0913050724E+001 -1.5393873017E+001 -1.8509189466E+001 -1.7247652392E+002
12897500000.000 -5.3805634310E+000 -1.1677425968E+002 -5.3074362345E+001 -5.9486401382E+001 -8.2950829320E+001 +3.3608166579E+001 -2.0170534515E+001 -1.5964744499E+002
13030000000.000 -5.3588724235E+000 -1.1694547159E+002 -5.3114876713E+001 -9.4800612171E+001 -8.8215085761E+001 +1.4284541473E+002 -1.8700288407E+001 -1.4210554000E+002
13162500000.000 -5.3090706778E+000 -1.1729273762E+002 -5.3585648694E+001 -1.2904668116E+002 -8.8776342202E+001 -9.6446456519E-001 -1.8564882922E+001 -1.4291999518E+002
13295000000.000 -5.2804577732E+000 -1.1763148060E+002 -5.3817806106E+001 -1.6074879129E+002 -8.9868686602E+001 -1.3773827412E+002 -2.0037589157E+001 -1.2825253083E+002
13427500000.000 -5.2727786951E+000 -1.1814581224E+002 -5.4213382699E+001 +1.6562509723E+002 -8.1145383669E+001 -1.7858007650E+002 -1.8701478409E+001 -1.1445267783E+002
13560000000.000 -5.2821997603E+000 -1.1813172098E+002 -5.4432165205E+001 +1.3424312250E+002 -8.6363962447E+001 -5.0484990844E+001 -1.8924872677E+001 -1.1562707768E+002
13692500000.000 -5.2252355267E+000 -1.1834419702E+002 -5.4361324732E+001 +9.6846600057E+001 -8.0149801532E+001 +3.9301477334E+001 -2.0789500396E+001 -1.0182208768E+002
13825000000.000 -5.1847985690E+000 -1.1880070512E+002 -5.5148172749E+001 +6.1959228564E+001 -7.9654062475E+001 -1.3726893024E+002 -1.9617111278E+001 -8.7820229545E+001
13957500000.000 -5.1885747370E+000 -1.1929240987E+002 -5.5408368400E+001 +3.0463197589E+001 -8.0798030387E+001 -6.7937023319E+001 -2.0236505947E+001 -9.0565998933E+001
14090000000.000 -5.1775242274E+000 -1.1940261479E+002 -5.5479766132E+001 -3.2835135198E+000 -9.4383955322E+001 -7.5514950693E+001 -2.2529370967E+001 -7.3296554025E+001
14222500000.000 -5.1364715769E+000 -1.1951510312E+002 -5.5530215987E+001 -3.2340775217E+001 -8.3700324888E+001 -8.4074130016E+001 -2.1174298015E+001 -5.9822807819E+001
14355000000.000 -5.0927762882E+000 -1.2009434962E+002 -5.5451095924E+001 -6.7608092061E+001 -8.6253105186E+001 -8.1872067952E+001 -2.2398763777E+001 -6.3468446082E+001
14487500000.000 -5.0851788551E+000 -1.2031780247E+002 -5.6278549979E+001 -1.0187284415E+002 -8.2662057523E+001 +8.2350906379E+000 -2.5231066254E+001 -4.0584193560E+001
14620000000.000 -5.0559027422E+000 -1.2026308241E+002 -5.6487358828E+001 -1.3392661552E+002 -9.5958656008E+001 -1.2331739162E+002 -2.3192942772E+001 -2.8457789857E+001
14752500000.000 -4.9707517462E+000 -1.2052210865E+002 -5.6862610463E+001 -1.6591065627E+002 -7.8262205509E+001 -1.5492145686E+002 -2.5400352258E+001 -3.5929672645E+001
14885000000.000 -4.9458199905E+000 -1.2088691564E+002 -5.7003642447E+001 +1.5749790799E+002 -8.4638173964E+001 +3.4432769563E+001 -2.8379236145E+001 +2.4037314476E+000
15017500000.000 -4.9381276815E+000 -1.2067334215E+002 -5.7283438161E+001 +1.2477019449E+002 -8.1418186340E+001 +9.3935936106E+001 -2.5286911316E+001 +7.3111234600E+000
15150000000.000 -4.8607047866E+000 -1.2051953481E+002 -5.6832012828E+001 +9.4146440482E+001 -9.7052131058E+001 +1.2384184965E+002 -2.9265368715E+001 -1.6737613581E+000
15282500000.000 -4.8031643976E+000 -1.2066713296E+002 -5.6543756716E+001 +6.1713227378E+001 -8.1236136738E+001 +2.7970577697E+001 -3.0431711541E+001 +5.7904722865E+001
