!  2-Port S-parameters saved by WinCal
! VAR MeasName=S-Parameters (CALIBRATED_DATA) read from VNA (C)
! VAR MeasDate=10/5/2015 4:45:38 PM
! VAR NAME=M6079_4_7_3_2_20C_0.9mA_-17.5dBm
! VAR FILENAME=M6079_4_7_3_2_20C_0.9mA_-17.5dBm.S2P
! VAR DATE=10/5/2015 4:45:38 PM
! VAR PHYS_PORTS=2,1
! VAR ObjTypeName=DATASET
! VAR IndexType=Frequency
!
# Hz S DB R 50
45000000.000 -8.0574531701E+000 -2.1558694548E+000 -5.2517672210E+001 +1.1862289794E+002 -5.7315170612E+001 +7.6441078571E+001 -3.0947627027E+001 +9.9435670511E+000
177500000.000 -8.2150850147E+000 -7.3338703665E+000 -5.0981571247E+001 +6.8846160635E+001 -7.4476714956E+001 +9.1507733052E+001 -3.2530244771E+001 +4.6154393956E+001
310000000.000 -8.0988447663E+000 -1.2720581545E+001 -5.2397475031E+001 +4.4568259398E+001 -7.7436432353E+001 -1.5474965653E+002 -2.3311632728E+001 +6.3801320818E+001
442500000.000 -8.7478041320E+000 -1.5919751675E+001 -4.9809969597E+001 -9.5512567535E+000 -8.3314992111E+001 -6.8408747051E+001 -2.2376529846E+001 +1.7099982551E+001
575000000.000 -9.0542343191E+000 -1.9222179111E+001 -5.0611200722E+001 -4.7370117786E+001 -8.5928241516E+001 +1.3215407526E+002 -3.0533580005E+001 +2.2129982119E+001
707500000.000 -9.2085666230E+000 -2.2515220381E+001 -5.0943604578E+001 -8.3060741609E+001 -9.5975143152E+001 +1.2895787973E+002 -3.4514146441E+001 +8.2734070814E+001
840000000.000 -9.3763826140E+000 -2.5234677359E+001 -5.1065174412E+001 -1.2054626180E+002 -8.2346676387E+001 -1.5574707513E+001 -2.9685912546E+001 +1.2746819997E+002
972500000.000 -9.5192050191E+000 -2.7954930152E+001 -5.1496346462E+001 -1.5707162609E+002 -9.0222954475E+001 +9.7926883271E+001 -2.5902562781E+001 +1.3500304927E+002
1105000000.000 -9.5951789450E+000 -3.0658739467E+001 -5.1371777825E+001 +1.6735157362E+002 -8.2508823470E+001 -1.7507049186E+002 -2.4365251181E+001 +1.4053557857E+002
1237500000.000 -9.6205347371E+000 -3.3160109892E+001 -5.1863492983E+001 +1.2742399298E+002 -8.0353668536E+001 +3.2625160122E+001 -2.3382414452E+001 +1.4996279175E+002
1370000000.000 -9.6987307981E+000 -3.5745045340E+001 -5.2286453935E+001 +9.0458086676E+001 -8.5601299366E+001 +1.3756938837E+002 -2.2038263496E+001 +1.5979848053E+002
1502500000.000 -9.8071210710E+000 -3.8121385502E+001 -5.2371509900E+001 +5.5679443012E+001 -8.7931412728E+001 -7.4458662543E+001 -2.0846543232E+001 +1.6617354462E+002
1635000000.000 -9.7915745280E+000 -4.0479652710E+001 -5.2717895026E+001 +2.0635895818E+001 -9.5584995500E+001 +4.2369215897E-001 -2.0004207973E+001 +1.7317442204E+002
1767500000.000 -9.7969398030E+000 -4.2621688315E+001 -5.2352888199E+001 -1.6827272615E+001 -8.2930652469E+001 +7.0336317340E+001 -1.9001724823E+001 +1.7834951179E+002
1900000000.000 -9.7799003052E+000 -4.4156564882E+001 -5.2174103175E+001 -5.9107133441E+001 -9.5713517797E+001 -3.3630436677E+001 -1.8859642485E+001 -1.7843190505E+002
2032500000.000 -9.7061409454E+000 -4.6102814399E+001 -5.1925076997E+001 -1.0019803066E+002 -8.0796106650E+001 -2.5361864971E+001 -1.8663776240E+001 -1.6807408665E+002
2165000000.000 -9.5748921785E+000 -4.8105638043E+001 -5.2120379640E+001 -1.4039264432E+002 -7.7719393445E+001 -6.9968087678E+001 -1.7727697762E+001 -1.6121973659E+002
2297500000.000 -9.4800073204E+000 -5.0194095498E+001 -5.1866263006E+001 +1.7751172646E+002 -8.2782778205E+001 +1.5014424237E+002 -1.7233062163E+001 -1.5720921214E+002
2430000000.000 -9.4189789955E+000 -5.2215731567E+001 -5.2262405962E+001 +1.3335397127E+002 -8.9842293559E+001 -1.1811108662E+002 -1.6899013215E+001 -1.5293015928E+002
2562500000.000 -9.3327142918E+000 -5.4476905603E+001 -5.2844948052E+001 +9.7229843264E+001 -8.9042069105E+001 +1.0648096352E+002 -1.6794936409E+001 -1.5083883118E+002
2695000000.000 -9.2972419851E+000 -5.6913172541E+001 -5.2557765468E+001 +5.5560020014E+001 -8.4805862673E+001 +1.4717367166E+002 -1.7363652498E+001 -1.4742114622E+002
2827500000.000 -9.3133463857E+000 -5.8928033374E+001 -5.3570999708E+001 +1.0720131596E+001 -8.0918865413E+001 -4.7896922468E+001 -1.7803882347E+001 -1.4039697727E+002
2960000000.000 -9.2864682166E+000 -6.0718822050E+001 -5.4093830954E+001 -2.0182220831E+001 -7.7213384598E+001 +6.4351957632E+001 -1.8097272116E+001 -1.3585042856E+002
3092500000.000 -9.2313993646E+000 -6.2866830886E+001 -5.4394163563E+001 -5.8987404258E+001 -7.9890479364E+001 +1.1539710426E+002 -1.9076600307E+001 -1.2973285245E+002
3225000000.000 -9.2353777286E+000 -6.4976071035E+001 -5.5231041679E+001 -9.5431730760E+001 -8.3294947100E+001 +1.7286376420E+002 -1.9560586919E+001 -1.1982657993E+002
3357500000.000 -9.2427278449E+000 -6.6482339503E+001 -5.4938489630E+001 -1.2566846454E+002 -8.3781421284E+001 +2.1898807960E+001 -1.9887167323E+001 -1.1460893703E+002
3490000000.000 -9.1771098000E+000 -6.8157029203E+001 -5.5508871999E+001 -1.6429123965E+002 -7.8745126813E+001 +7.5678803331E+001 -2.1085440105E+001 -1.0917036340E+002
3622500000.000 -9.1211538650E+000 -7.0028847888E+001 -5.6285791298E+001 +1.5556562861E+002 -8.4178460862E+001 -1.7628511469E+001 -2.1937485253E+001 -9.8234801106E+001
3755000000.000 -9.0852929565E+000 -7.1642165235E+001 -5.6853145624E+001 +1.2302217340E+002 -8.6477159757E+001 +1.3121753935E+001 -2.2644629186E+001 -9.4714419582E+001
3887500000.000 -9.0355157193E+000 -7.3048611981E+001 -5.7526182267E+001 +8.8856856703E+001 -7.9611141045E+001 +3.9748080386E+001 -2.4947629128E+001 -8.8574276354E+001
4020000000.000 -8.9897020942E+000 -7.4427145485E+001 -5.7489471646E+001 +5.0890383677E+001 -7.6049320915E+001 -1.7133127388E+002 -2.6669295320E+001 -7.3624016330E+001
4152500000.000 -8.9144407675E+000 -7.5723504215E+001 -5.8480808548E+001 +1.4640535032E+001 -9.3411479264E+001 -3.0349982385E+001 -2.8715223718E+001 -6.4772065339E+001
4285000000.000 -8.8339803342E+000 -7.7061370604E+001 -5.8648988358E+001 -2.3986233106E+001 -7.8555080354E+001 -1.7121464674E+001 -3.3148959978E+001 -3.9436155742E+001
4417500000.000 -8.7872765979E+000 -7.8413743176E+001 -5.8533965614E+001 -6.2942132898E+001 -8.7982944053E+001 -1.4894585211E+002 -3.1761768142E+001 +7.1318417440E+000
4550000000.000 -8.7204534616E+000 -7.9415374742E+001 -5.9065556719E+001 -9.4989799019E+001 -9.2177561193E+001 -6.2960783667E+001 -3.0242056682E+001 +1.7250470561E+001
4682500000.000 -8.6268174098E+000 -8.0443382680E+001 -6.0493295570E+001 -1.2580387276E+002 -8.2825665573E+001 +2.6998521148E+001 -2.9672045378E+001 +3.7423316545E+001
4815000000.000 -8.5575486845E+000 -8.1733460458E+001 -6.0565742416E+001 -1.5764593592E+002 -8.1758762272E+001 +1.3732081944E+002 -2.7605585108E+001 +4.0316767116E+001
4947500000.000 -8.4972934183E+000 -8.2593756625E+001 -6.1562647398E+001 +1.6735700884E+002 -9.0052325252E+001 -1.4046286608E+002 -2.9306145629E+001 +3.4482067534E+001
5080000000.000 -8.4095209451E+000 -8.3382960253E+001 -6.2513814750E+001 +1.2824983967E+002 -9.1034783892E+001 -2.0431676067E+001 -3.2220175219E+001 +5.5188570763E+001
5212500000.000 -8.3208817417E+000 -8.4444949963E+001 -6.2837021902E+001 +9.4877461718E+001 -8.2141869370E+001 +1.0762906547E+002 -3.1546368357E+001 +6.7854686544E+001
5345000000.000 -8.2785896105E+000 -8.5359893974E+001 -6.2512762118E+001 +5.0516771203E+001 -9.8040452175E+001 -7.1114601824E+001 -3.5324414515E+001 +6.8429589583E+001
5477500000.000 -8.2124814116E+000 -8.5941319831E+001 -6.3455922932E+001 +2.0248711748E+001 -1.0783598272E+002 -5.6630954748E+001 -3.7613524021E+001 +1.3112363486E+002
5610000000.000 -8.1161154814E+000 -8.6731035722E+001 -6.3477955100E+001 -9.3998975764E+000 -8.8900808664E+001 -5.3708194169E+001 -3.3750241467E+001 +1.3464344066E+002
5742500000.000 -8.0703315747E+000 -8.7694701364E+001 -6.4171400018E+001 -4.5867593133E+001 -9.3127777466E+001 +1.4824845281E+002 -3.8199652882E+001 +1.4992514608E+002
5875000000.000 -8.0363550785E+000 -8.8460540975E+001 -6.4253164946E+001 -8.4690035221E+001 -8.5296463240E+001 +5.2070516687E+000 -3.4068525891E+001 -1.7017510281E+002
6007500000.000 -7.9720145508E+000 -8.9056503426E+001 -6.5104250331E+001 -1.1966712083E+002 -8.6739449050E+001 +9.1662667170E+001 -3.2763700670E+001 +1.7945606155E+002
6140000000.000 -7.8896011196E+000 -8.9859059258E+001 -6.5076145682E+001 -1.5456931621E+002 -9.3477466207E+001 -1.2453031186E+002 -3.6434258891E+001 -1.7183196768E+002
6272500000.000 -7.8354805166E+000 -9.0894298410E+001 -6.5089262031E+001 +1.7740677120E+002 -8.2044465811E+001 -8.6722038959E+001 -3.4209701938E+001 -1.4434328434E+002
6405000000.000 -7.8149344235E+000 -9.1803944360E+001 -6.6858293983E+001 +1.4479677551E+002 -9.2431562940E+001 -1.3709059674E+002 -3.3910970462E+001 -1.6192249691E+002
6537500000.000 -7.7533467359E+000 -9.2258958360E+001 -6.6252830921E+001 +1.0685967032E+002 -9.2289007887E+001 +1.6548648918E+002 -4.0113512444E+001 -1.6340442075E+002
6670000000.000 -7.6496788512E+000 -9.3036622267E+001 -6.7200581360E+001 +7.5075638704E+001 -8.2974680990E+001 -1.0509059430E+002 -3.9861321474E+001 -1.3988648167E+002
6802500000.000 -7.5715285421E+000 -9.4201187557E+001 -6.6656318210E+001 +4.4320553094E+001 -8.9418062809E+001 -6.8460569185E+001 -3.9124996894E+001 +1.7779104087E+002
6935000000.000 -7.5659669262E+000 -9.5020050493E+001 -6.6800383291E+001 +4.1729205110E+000 -9.0398030879E+001 -1.3242341569E+002 -3.8491890100E+001 +1.2381809759E+002
7067500000.000 -7.4942418817E+000 -9.5419707024E+001 -6.7225545988E+001 -3.6298657646E+001 -8.6504132790E+001 -1.3415266577E+002 -3.8456981785E+001 +1.1662642853E+002
7200000000.000 -7.3848039056E+000 -9.6227677998E+001 -6.6484120937E+001 -6.1716566667E+001 -8.8048292888E+001 +2.7739331441E+001 -3.2660972335E+001 +1.3032912404E+002
7332500000.000 -7.3259448070E+000 -9.7286327285E+001 -6.6868399066E+001 -1.0745914470E+002 -8.2469193592E+001 -6.9556488061E+001 -2.9146920147E+001 +1.1905597327E+002
7465000000.000 -7.2866988151E+000 -9.7908387175E+001 -6.7569494520E+001 -1.3007289005E+002 -8.8827837412E+001 +9.9297012352E+001 -2.8581937381E+001 +1.2353294597E+002
7597500000.000 -7.1933374727E+000 -9.8431808242E+001 -6.7987952699E+001 -1.7525734473E+002 -8.4737796358E+001 +3.0351737188E+001 -2.6003650309E+001 +1.3745792837E+002
7730000000.000 -7.0969562611E+000 -9.9169154360E+001 -6.7796662774E+001 +1.5173329751E+002 -8.9477186512E+001 -1.1722588104E+002 -2.3748677320E+001 +1.3747911329E+002
7862500000.000 -7.0433560353E+000 -9.9812218711E+001 -6.7729106773E+001 +1.1972090267E+002 -8.3651534866E+001 +7.1363624744E+001 -2.3308039995E+001 +1.4202261489E+002
7995000000.000 -6.9880210875E+000 -1.0022163257E+002 -7.0587069602E+001 +8.3050189695E+001 -8.8417803982E+001 -1.7961182696E+002 -2.1768264923E+001 +1.5435996030E+002
8127500000.000 -6.8697957650E+000 -1.0067200711E+002 -6.8899458162E+001 +5.4620205601E+001 -8.7946728907E+001 +4.5836512827E+001 -2.0026241781E+001 +1.5626655848E+002
8260000000.000 -6.8083432268E+000 -1.0140530145E+002 -6.9965097818E+001 +1.5390965327E+001 -8.4798718720E+001 +2.2549685402E+001 -1.9883041856E+001 +1.6031498869E+002
8392500000.000 -6.7563876654E+000 -1.0170929077E+002 -6.8304764859E+001 -1.4056175807E+001 -1.0200412614E+002 +8.4243931377E+001 -1.9045267242E+001 +1.7039538991E+002
8525000000.000 -6.6888899259E+000 -1.0200322572E+002 -7.0673526943E+001 -5.2727768176E+001 -8.5714323622E+001 +1.1065454939E+001 -1.8199500080E+001 +1.7272536997E+002
8657500000.000 -6.6173740385E+000 -1.0242256384E+002 -7.1581085150E+001 -8.4062197318E+001 -9.7985535219E+001 +1.4645839569E+002 -1.8558178321E+001 +1.7779633453E+002
8790000000.000 -6.5477246096E+000 -1.0280146612E+002 -7.0586890022E+001 -1.1847859336E+002 -9.9585519004E+001 +1.5452823399E+002 -1.8340104063E+001 -1.7197560459E+002
8922500000.000 -6.5139354375E+000 -1.0324666627E+002 -7.1915959597E+001 -1.5919003085E+002 -8.3453803330E+001 -9.1077174120E+000 -1.8004179865E+001 -1.6620051460E+002
9055000000.000 -6.4535034695E+000 -1.0356686124E+002 -7.1221369694E+001 +1.7609083950E+002 -8.4491466212E+001 +1.5678519284E+002 -1.8437148413E+001 -1.5839319545E+002
9187500000.000 -6.4162233109E+000 -1.0393904180E+002 -7.3496380165E+001 +1.5365435765E+002 -8.6380572901E+001 -1.6102262297E+002 -1.8361282011E+001 -1.4682043963E+002
9320000000.000 -6.3658509355E+000 -1.0458696500E+002 -7.1589463375E+001 +1.0732559442E+002 -9.4546794797E+001 +1.8769997508E+001 -1.8242486766E+001 -1.3994458793E+002
9452500000.000 -6.3256520787E+000 -1.0502194429E+002 -7.4593033886E+001 +8.3922891010E+001 -8.8568231272E+001 +8.1503198007E+001 -1.8827711506E+001 -1.3050269713E+002
9585000000.000 -6.2786714604E+000 -1.0541120403E+002 -7.0142711694E+001 +6.2529074847E+001 -8.7761493461E+001 +1.7973397089E+002 -1.8740005982E+001 -1.1872150780E+002
9717500000.000 -6.2066415975E+000 -1.0605262645E+002 -7.0425653738E+001 +1.6949921685E+001 -8.9420833829E+001 -4.1454858897E+001 -1.8844445359E+001 -1.1157259000E+002
9850000000.000 -6.1779615733E+000 -1.0682612647E+002 -7.1715079645E+001 -1.7455078058E+001 -8.6810777809E+001 -7.5180166741E+001 -1.9637135744E+001 -1.0038490590E+002
9982500000.000 -6.1388187311E+000 -1.0710025296E+002 -7.2935864739E+001 -5.0872536986E+001 -1.0208813146E+002 +2.2366347122E+000 -1.9606302478E+001 -8.6946811562E+001
10115000000.000 -6.0745867623E+000 -1.0758031641E+002 -7.2247909082E+001 -9.0681997945E+001 -9.1782762176E+001 +2.9963831244E+001 -1.9932303664E+001 -7.9739379543E+001
10247500000.000 -6.0206854349E+000 -1.0825800816E+002 -7.2376243493E+001 -1.3644705622E+002 -8.8515610755E+001 +1.6898017026E+002 -2.1140561459E+001 -6.5858849795E+001
10380000000.000 -5.9858574186E+000 -1.0877364728E+002 -7.1861863957E+001 -1.5329656252E+002 -9.1102735601E+001 -1.5319590364E+002 -2.0940764159E+001 -5.0300148613E+001
10512500000.000 -5.9353600367E+000 -1.0928146643E+002 -7.3617249382E+001 +1.5794235604E+002 -7.7498270190E+001 -7.3026691644E+001 -2.1468634318E+001 -4.2867320255E+001
10645000000.000 -5.8939167938E+000 -1.0982410453E+002 -7.2059283283E+001 +1.3863829825E+002 -8.3395942083E+001 +2.5908819329E+001 -2.2823722893E+001 -2.4026073791E+001
10777500000.000 -5.8432513318E+000 -1.1024905743E+002 -7.3897632377E+001 +1.0249142485E+002 -8.4565670750E+001 +1.6445830187E+002 -2.2081489869E+001 -6.2954097777E+000
10910000000.000 -5.7816249469E+000 -1.1075135877E+002 -7.3105952103E+001 +5.5719429785E+001 -1.0062084187E+002 -1.0719332677E+002 -2.2723694910E+001 +2.9980120436E+000
11042500000.000 -5.7157675682E+000 -1.1137943998E+002 -7.5251769198E+001 +1.3115010803E+001 -9.2192510030E+001 -3.0102911276E+001 -2.3458311650E+001 +2.7130523514E+001
11175000000.000 -5.6636421691E+000 -1.1175934074E+002 -7.3344568683E+001 +8.1941901944E-001 -8.2582425082E+001 +1.4313843537E+002 -2.2163022737E+001 +4.2286890885E+001
11307500000.000 -5.6242302384E+000 -1.1208246050E+002 -7.7519908512E+001 -4.8079087543E+001 -9.8683465154E+001 +4.7904910046E+001 -2.2693420150E+001 +5.2149848004E+001
11440000000.000 -5.5692602402E+000 -1.1254925147E+002 -7.8519884385E+001 -3.9701399158E+001 -8.5680129390E+001 +3.4521506335E+000 -2.2595170864E+001 +7.5019610297E+001
11572500000.000 -5.4993448609E+000 -1.1271879263E+002 -7.4561310949E+001 -7.0342337790E+001 -8.7166433623E+001 +1.4688138522E+002 -2.1136643316E+001 +8.6417760462E+001
11705000000.000 -5.4623881578E+000 -1.1313486110E+002 -7.8834110905E+001 -1.5146312131E+002 -8.5077633785E+001 +1.5854812631E+002 -2.1733746227E+001 +9.6235282604E+001
11837500000.000 -5.4075411854E+000 -1.1341339359E+002 -8.2304054194E+001 +1.7373171912E+002 -8.3626813628E+001 -7.6141383176E+001 -2.1097665065E+001 +1.1839985948E+002
11970000000.000 -5.3924811872E+000 -1.1365778416E+002 -7.3226634263E+001 -1.6207629759E+002 -8.7526542821E+001 +4.0217725606E+000 -1.9807163754E+001 +1.2470691577E+002
12102500000.000 -5.3617424070E+000 -1.1383643020E+002 -7.6530757517E+001 +1.5214797947E+002 -8.5349804700E+001 -1.0036016013E+002 -2.0727026819E+001 +1.3504705190E+002
12235000000.000 -5.3149386333E+000 -1.1423502232E+002 -7.8517359194E+001 +8.1012498727E+001 -8.5985758108E+001 -6.0981324229E+001 -1.9690230960E+001 +1.5382355509E+002
12367500000.000 -5.3049902947E+000 -1.1443875745E+002 -7.3291437968E+001 +5.5098444621E+001 -8.4579655716E+001 +3.4502355219E+000 -1.8879954187E+001 +1.5691341765E+002
12500000000.000 -5.2866762731E+000 -1.1497456938E+002 -7.7678436507E+001 +3.0519638163E+001 -8.5479124372E+001 +1.5298561806E+002 -2.0055322194E+001 +1.6794979520E+002
12632500000.000 -5.2457643052E+000 -1.1515805174E+002 -7.6348873510E+001 -4.4021045226E-001 -8.3396729837E+001 -1.0371017656E+002 -1.9037725867E+001 -1.7370517957E+002
12765000000.000 -5.2231803436E+000 -1.1550634528E+002 -7.5261133103E+001 -3.1603126469E+001 -8.7353186194E+001 -7.6620617441E+000 -1.8505710493E+001 -1.7242943437E+002
12897500000.000 -5.2297756906E+000 -1.1594179112E+002 -7.7610572422E+001 -6.1301563034E+001 -8.4985737504E+001 +1.1528462293E+002 -2.0169623973E+001 -1.5955455821E+002
13030000000.000 -5.2076485795E+000 -1.1611713660E+002 -7.7159588066E+001 -8.9538269979E+001 -9.0968648835E+001 -1.7863782372E+002 -1.8704778837E+001 -1.4201800613E+002
13162500000.000 -5.1569920561E+000 -1.1648505193E+002 -7.6259750824E+001 -1.4542472773E+002 -9.1249722842E+001 +1.6297563393E+002 -1.8562052208E+001 -1.4288301956E+002
13295000000.000 -5.1281833075E+000 -1.1684235835E+002 -7.4496075943E+001 +1.6306881228E+002 -8.4522475094E+001 +9.6820444055E+001 -2.0047849174E+001 -1.2817722339E+002
13427500000.000 -5.1186380027E+000 -1.1738057682E+002 -7.9300995969E+001 +1.4741990376E+002 -8.2807514844E+001 -1.5626356946E+002 -1.8711567309E+001 -1.1442913956E+002
13560000000.000 -5.1282436955E+000 -1.1738853618E+002 -7.8979744378E+001 +1.1672631581E+002 -8.2484625303E+001 -5.2435392397E+001 -1.8917257100E+001 -1.1556662513E+002
13692500000.000 -5.0691728230E+000 -1.1760584973E+002 -7.8788664471E+001 +3.2336202708E+001 -8.4813738146E+001 +1.3096295220E+002 -2.0801492333E+001 -1.0185335170E+002
13825000000.000 -5.0322687133E+000 -1.1807680118E+002 -7.8667179538E+001 +5.3518946075E+000 -7.5926388434E+001 -1.4076208127E+002 -1.9620085513E+001 -8.7785984076E+001
13957500000.000 -5.0344385535E+000 -1.1858629301E+002 -8.3296696118E+001 -1.9028860451E+001 -8.7309649861E+001 -8.8467227489E+001 -2.0250869737E+001 -9.0530938741E+001
14090000000.000 -5.0223099345E+000 -1.1871321128E+002 -7.6344079887E+001 -2.3104024285E+001 -8.5626002439E+001 +2.4107868950E+001 -2.2519225982E+001 -7.3337967716E+001
14222500000.000 -4.9803924951E+000 -1.1884518072E+002 -7.8823133868E+001 -2.9754360387E+001 -8.4558552414E+001 -1.4127117497E+002 -2.1198161208E+001 -5.9844336382E+001
14355000000.000 -4.9382578038E+000 -1.1942014780E+002 -8.3181982138E+001 -6.1522103806E+001 -7.9484599357E+001 -1.0426748603E+002 -2.2408536149E+001 -6.3423340566E+001
14487500000.000 -4.9297117873E+000 -1.1965421411E+002 -8.2007556724E+001 -7.0124197856E+001 -8.3271815924E+001 +8.3077168711E+001 -2.5241164690E+001 -4.0494017566E+001
14620000000.000 -4.8995160358E+000 -1.1964004184E+002 -7.6078163108E+001 -1.1575675234E+002 -1.0133792713E+002 +1.1512011884E+002 -2.3212984032E+001 -2.8542155144E+001
14752500000.000 -4.8200254389E+000 -1.1988824180E+002 -8.3689062804E+001 -1.5064882489E+002 -8.8258487825E+001 +8.7331442169E+000 -2.5419823475E+001 -3.5839030835E+001
14885000000.000 -4.7954789876E+000 -1.2028299816E+002 -8.2260740691E+001 -1.6613366557E+002 -8.3691211709E+001 +2.9548486829E+001 -2.8402635501E+001 +2.4908018763E+000
15017500000.000 -4.7858984200E+000 -1.2007770268E+002 -7.7233607395E+001 +1.4166212924E+002 -7.8546674302E+001 +8.4323003624E+001 -2.5278646088E+001 +7.3729234885E+000
15150000000.000 -4.7090080982E+000 -1.1995038467E+002 -7.9508431929E+001 +5.1645429503E+001 -8.2818850057E+001 -1.0934258059E+002 -2.9319572127E+001 -1.6522739650E+000
15282500000.000 -4.6545067926E+000 -1.2009920648E+002 -7.5774590057E+001 +5.8877360240E+001 -8.5192192509E+001 -5.0530799969E+001 -3.0448302392E+001 +5.7904743856E+001
