!  2-Port S-parameters saved by WinCal
! VAR MeasName=S-Parameters (CALIBRATED_DATA) read from VNA (C)
! VAR MeasDate=10/5/2015 6:45:48 PM
! VAR NAME=M6079_2_7_3_3_20C_4.8mA_-17.5dBm
! VAR FILENAME=M6079_2_7_3_3_20C_4.8mA_-17.5dBm.S2P
! VAR DATE=10/5/2015 6:45:48 PM
! VAR PHYS_PORTS=2,1
! VAR ObjTypeName=DATASET
! VAR IndexType=Frequency
!
# Hz S DB R 50
45000000.000 -2.3214141129E+001 -3.9555167663E-001 -4.1553306929E+001 +1.0501012561E+002 -5.8491071978E+001 -1.3536637135E+002 -3.1101312739E+001 +7.1505622362E+000
177500000.000 -2.3043367440E+001 -6.7486278170E+000 -4.2773398963E+001 +6.8662183109E+001 -7.1388439877E+001 +1.7452077380E+002 -3.2662709655E+001 +4.6132285243E+001
310000000.000 -2.2859938054E+001 -1.2736400205E+001 -4.3231727110E+001 +3.7902445800E+001 -7.6295983627E+001 +1.4634780605E+002 -2.3329290738E+001 +6.3933285130E+001
442500000.000 -2.2595955351E+001 -1.8789082183E+001 -4.1805536312E+001 +4.0696640631E-001 -7.7690938788E+001 -1.6695169589E+001 -2.2378246654E+001 +1.7004260925E+001
575000000.000 -2.2266712996E+001 -2.4806055341E+001 -4.2588082563E+001 -3.5410823243E+001 -8.5814550035E+001 -4.8179339579E+001 -3.0559334880E+001 +2.2268871130E+001
707500000.000 -2.1978359639E+001 -2.9929061110E+001 -4.2591163408E+001 -6.9735684053E+001 -7.8532272441E+001 -1.4024474281E+002 -3.4624952848E+001 +8.2969523226E+001
840000000.000 -2.1543303813E+001 -3.4976835257E+001 -4.2654825754E+001 -1.0342411026E+002 -8.1880397460E+001 -1.8716555957E+001 -2.9694852518E+001 +1.2766501883E+002
972500000.000 -2.1110754572E+001 -3.9314222939E+001 -4.2733485768E+001 -1.3747116071E+002 -8.0200663414E+001 +9.0937114332E+001 -2.5917355904E+001 +1.3509468854E+002
1105000000.000 -2.0695285965E+001 -4.3854705871E+001 -4.2903253010E+001 -1.7021298908E+002 -9.2991146175E+001 -4.0479263813E-001 -2.4378885588E+001 +1.4058800515E+002
1237500000.000 -2.0288378292E+001 -4.7462765186E+001 -4.2903851866E+001 +1.5535041317E+002 -8.2259122693E+001 +1.8336896672E+001 -2.3379954289E+001 +1.4992186791E+002
1370000000.000 -1.9859647791E+001 -5.1218270294E+001 -4.2923163174E+001 +1.2061672435E+002 -9.8052693123E+001 +1.3523821591E+002 -2.2053623679E+001 +1.5984965984E+002
1502500000.000 -1.9451445557E+001 -5.4313719179E+001 -4.3010842726E+001 +8.6901510056E+001 -8.5862406703E+001 -1.4821811661E+002 -2.0854480689E+001 +1.6623515156E+002
1635000000.000 -1.8991640812E+001 -5.6983556650E+001 -4.3041908354E+001 +5.2999807341E+001 -8.5803056062E+001 -1.0821574362E+002 -2.0009014344E+001 +1.7318164375E+002
1767500000.000 -1.8550002811E+001 -6.0037401157E+001 -4.3040885357E+001 +1.8674658198E+001 -8.6879790040E+001 +3.7761110204E+001 -1.9004196899E+001 +1.7837438808E+002
1900000000.000 -1.8204631439E+001 -6.2248827470E+001 -4.3010328812E+001 -1.5474370332E+001 -8.3975305165E+001 -8.1689572818E+001 -1.8853302285E+001 -1.7837556679E+002
2032500000.000 -1.7839737644E+001 -6.4453338331E+001 -4.3137283184E+001 -4.9262199002E+001 -8.2632801322E+001 -3.7721371954E+001 -1.8670030526E+001 -1.6801552874E+002
2165000000.000 -1.7392151742E+001 -6.6440697136E+001 -4.3471046763E+001 -8.3249699994E+001 -9.0268503776E+001 +6.1886664955E+001 -1.7725208851E+001 -1.6115068491E+002
2297500000.000 -1.7073756499E+001 -6.8470407131E+001 -4.3271749990E+001 -1.1759079971E+002 -8.2920631344E+001 -1.7972514489E+002 -1.7232759532E+001 -1.5719625868E+002
2430000000.000 -1.6760891756E+001 -7.0057790734E+001 -4.3360338555E+001 -1.5090026866E+002 -7.4163050584E+001 -5.7699520948E+001 -1.6898466704E+001 -1.5299038025E+002
2562500000.000 -1.6401574918E+001 -7.1821735429E+001 -4.3211872024E+001 +1.7331765476E+002 -8.7855848128E+001 -4.9873723620E+001 -1.6795309184E+001 -1.5068851327E+002
2695000000.000 -1.6147771888E+001 -7.3939767606E+001 -4.3236079894E+001 +1.4050998395E+002 -8.6944182547E+001 +1.2969884367E+001 -1.7371842861E+001 -1.4730795496E+002
2827500000.000 -1.5950703873E+001 -7.5420316024E+001 -4.3493303089E+001 +1.0635358050E+002 -7.7477651856E+001 -1.1765392192E+002 -1.7816858255E+001 -1.4035919096E+002
2960000000.000 -1.5642458058E+001 -7.6609586697E+001 -4.3620735462E+001 +7.2206690941E+001 -8.2218155089E+001 +9.6403179194E+001 -1.8098180055E+001 -1.3577849821E+002
3092500000.000 -1.5304057147E+001 -7.8365045938E+001 -4.3512267292E+001 +3.8890920862E+001 -8.2820468658E+001 -3.5836189850E+001 -1.9076983846E+001 -1.2962515019E+002
3225000000.000 -1.5086546644E+001 -8.0325838009E+001 -4.3708768072E+001 +4.7664235625E+000 -8.9165755298E+001 -7.7333524666E+001 -1.9563447689E+001 -1.1972245190E+002
3357500000.000 -1.4894750823E+001 -8.1495532996E+001 -4.3351047645E+001 -2.8277894717E+001 -9.1707115928E+001 -5.5503853396E+001 -1.9897278501E+001 -1.1444717246E+002
3490000000.000 -1.4586503900E+001 -8.2652869786E+001 -4.3634855156E+001 -6.2027400321E+001 -7.9955682294E+001 -1.7143563316E+002 -2.1101072007E+001 -1.0906968568E+002
3622500000.000 -1.4280375384E+001 -8.4133828438E+001 -4.3625918790E+001 -9.5018695115E+001 -9.2742861437E+001 -8.0658651896E+001 -2.1928407921E+001 -9.8248199619E+001
3755000000.000 -1.4026539574E+001 -8.5580732185E+001 -4.3638357612E+001 -1.2875840498E+002 -7.9999036577E+001 -5.4031624527E+001 -2.2625982437E+001 -9.4656813139E+001
3887500000.000 -1.3794420245E+001 -8.6690329514E+001 -4.3579719439E+001 -1.6235175209E+002 -1.0173948428E+002 +3.4866779052E+001 -2.4960372193E+001 -8.8459943378E+001
4020000000.000 -1.3579951008E+001 -8.7648903078E+001 -4.3410758511E+001 +1.6191051060E+002 -8.3820505587E+001 +1.1362586755E+002 -2.6659951446E+001 -7.3597979702E+001
4152500000.000 -1.3311541353E+001 -8.8512263849E+001 -4.3648253572E+001 +1.2845686977E+002 -1.0558230480E+002 +7.7833841603E+001 -2.8757103260E+001 -6.4671346792E+001
4285000000.000 -1.3064413907E+001 -8.9643946900E+001 -4.3547548174E+001 +9.4350788389E+001 -7.8700602976E+001 +2.0161323543E+001 -3.3211757049E+001 -3.8748471714E+001
4417500000.000 -1.2883785180E+001 -9.0759120803E+001 -4.3663413066E+001 +6.0283276795E+001 -8.5930495037E+001 +1.3474905810E+002 -3.1726877771E+001 +7.5302870885E+000
4550000000.000 -1.2682192951E+001 -9.1304647296E+001 -4.3839411958E+001 +2.6211466025E+001 -8.6932604639E+001 +4.1819983904E+001 -3.0256061810E+001 +1.7573888479E+001
4682500000.000 -1.2442775409E+001 -9.2075278327E+001 -4.3895009000E+001 -7.3332865386E+000 -8.0631328986E+001 +2.0295151146E+000 -2.9622212950E+001 +3.7930411129E+001
4815000000.000 -1.2239646664E+001 -9.3164449103E+001 -4.3869092071E+001 -3.9538793993E+001 -8.6437917394E+001 +1.7146513718E+002 -2.7625069131E+001 +4.0695969574E+001
4947500000.000 -1.2073392595E+001 -9.3665228279E+001 -4.3962460440E+001 -7.2566502072E+001 -8.6773993965E+001 -8.1740190457E+001 -2.9291930882E+001 +3.4911517315E+001
5080000000.000 -1.1881632606E+001 -9.4102984771E+001 -4.3732383786E+001 -1.0646619198E+002 -8.6124385873E+001 -9.6033037105E+000 -3.2203506589E+001 +5.6106115088E+001
5212500000.000 -1.1673762456E+001 -9.4880006967E+001 -4.3772158389E+001 -1.4001108088E+002 -1.0203055131E+002 +6.1416844981E+001 -3.1534231390E+001 +6.8650747968E+001
5345000000.000 -1.1540915565E+001 -9.5584779733E+001 -4.3617278156E+001 -1.7404141757E+002 -9.1152498319E+001 -1.3071916854E+002 -3.5235028703E+001 +6.9182348907E+001
5477500000.000 -1.1402629202E+001 -9.5852201215E+001 -4.3557441752E+001 +1.5148297272E+002 -8.2796529625E+001 -5.2248875046E+001 -3.7429698568E+001 +1.3081599273E+002
5610000000.000 -1.1218122273E+001 -9.6291716388E+001 -4.3512234371E+001 +1.1703097188E+002 -8.2134339023E+001 +1.3668871220E+002 -3.3651159256E+001 +1.3469306126E+002
5742500000.000 -1.1088309261E+001 -9.7087702268E+001 -4.3542646912E+001 +8.2781739914E+001 -8.3097582027E+001 +1.5617403691E+002 -3.7907954439E+001 +1.5025858110E+002
5875000000.000 -1.0995620393E+001 -9.7659181535E+001 -4.3512981595E+001 +4.8745714994E+001 -1.0500820088E+002 +3.8834471878E+001 -3.3950131871E+001 -1.7067107450E+002
6007500000.000 -1.0880869841E+001 -9.8030578028E+001 -4.3509067147E+001 +1.5382169684E+001 -9.0620354967E+001 +1.1137803361E+002 -3.2703271695E+001 +1.7917911862E+002
6140000000.000 -1.0719832741E+001 -9.8571013397E+001 -4.3504480668E+001 -1.9314462759E+001 -8.7654778243E+001 -1.6879667501E+002 -3.6226606033E+001 -1.7152382853E+002
6272500000.000 -1.0588782762E+001 -9.9490046205E+001 -4.3503059962E+001 -5.4035913256E+001 -8.9592538758E+001 -1.1155863221E+002 -3.4032541302E+001 -1.4459429499E+002
6405000000.000 -1.0527452630E+001 -1.0036501867E+002 -4.3506523113E+001 -8.7563134349E+001 -8.9171427209E+001 +9.2022086322E+001 -3.3825241584E+001 -1.6191983504E+002
6537500000.000 -1.0411305851E+001 -1.0057656290E+002 -4.3505916902E+001 -1.2186316086E+002 -9.2059706170E+001 +1.4032862493E+002 -3.9958703403E+001 -1.6259779931E+002
6670000000.000 -1.0230981007E+001 -1.0112841292E+002 -4.3676026141E+001 -1.5562284864E+002 -8.7494841761E+001 -1.7943343474E+002 -3.9542972073E+001 -1.3916422896E+002
6802500000.000 -1.0088895743E+001 -1.0220009981E+002 -4.3710480147E+001 +1.6954512815E+002 -9.2668740710E+001 +4.4578308367E+000 -3.9041552405E+001 +1.7858569757E+002
6935000000.000 -1.0047138120E+001 -1.0292377841E+002 -4.3713335473E+001 +1.3653767301E+002 -8.4112523938E+001 +1.7977382010E+002 -3.8653399800E+001 +1.2424100894E+002
7067500000.000 -9.9235416725E+000 -1.0308109209E+002 -4.3597475858E+001 +1.0218556221E+002 -9.3329500178E+001 -1.4464392060E+002 -3.8650331682E+001 +1.1660061458E+002
7200000000.000 -9.7527673867E+000 -1.0368887813E+002 -4.3688588312E+001 +6.8742789020E+001 -9.0793525618E+001 -1.7114771140E+002 -3.2719907616E+001 +1.3075150738E+002
7332500000.000 -9.6383587258E+000 -1.0466014564E+002 -4.3707532863E+001 +3.4650404245E+001 -8.5600482616E+001 +9.5174544130E+001 -2.9167693768E+001 +1.1890241431E+002
7465000000.000 -9.5542982926E+000 -1.0510262762E+002 -4.3760967256E+001 +4.0229814156E-001 -9.4139517974E+001 -1.1384521490E+002 -2.8639596246E+001 +1.2336594467E+002
7597500000.000 -9.4142953091E+000 -1.0545798492E+002 -4.3780805167E+001 -3.2626142081E+001 -8.7240325593E+001 -1.7696513698E+002 -2.6030357714E+001 +1.3756616948E+002
7730000000.000 -9.2636135648E+000 -1.0603750225E+002 -4.3857864266E+001 -6.6856503985E+001 -9.7367371586E+001 +6.7756944904E+001 -2.3765034962E+001 +1.3751958460E+002
7862500000.000 -9.1668417594E+000 -1.0651158630E+002 -4.3819643883E+001 -1.0061665922E+002 -9.7398119558E+001 -1.4398556568E+002 -2.3319358969E+001 +1.4191545134E+002
7995000000.000 -9.0730404414E+000 -1.0674137068E+002 -4.3782104738E+001 -1.3408625966E+002 -8.8858642004E+001 +1.9186420912E+001 -2.1780897177E+001 +1.5439730836E+002
8127500000.000 -8.9038133575E+000 -1.0699684378E+002 -4.3863433207E+001 -1.6814251521E+002 -8.9205341338E+001 +8.5251704023E+001 -2.0032375884E+001 +1.5622239296E+002
8260000000.000 -8.8068318901E+000 -1.0764010366E+002 -4.3693563988E+001 +1.5814348052E+002 -8.7207695105E+001 -1.4617758952E+002 -1.9885017924E+001 +1.6028741448E+002
8392500000.000 -8.7213682340E+000 -1.0773467176E+002 -4.3807004754E+001 +1.2476425587E+002 -8.7104503679E+001 -7.7649544336E+001 -1.9044114083E+001 +1.7045624333E+002
8525000000.000 -8.6204551221E+000 -1.0785241121E+002 -4.3711710021E+001 +8.9700507298E+001 -9.7147727892E+001 +1.2477875189E+002 -1.8210524085E+001 +1.7283262389E+002
8657500000.000 -8.5090931764E+000 -1.0811904357E+002 -4.3845362570E+001 +5.7056733976E+001 -9.6216858969E+001 +5.0540941885E+001 -1.8566990898E+001 +1.7796471171E+002
8790000000.000 -8.4084435526E+000 -1.0837307829E+002 -4.3773027305E+001 +2.2894221924E+001 -9.6509910052E+001 +1.3923392366E+002 -1.8331207178E+001 -1.7176889018E+002
8922500000.000 -8.3562180489E+000 -1.0868601284E+002 -4.3687126953E+001 -1.1801427327E+001 -8.1984144391E+001 -4.7233250273E+000 -1.8002901289E+001 -1.6605768741E+002
9055000000.000 -8.2698906603E+000 -1.0881247841E+002 -4.3824244802E+001 -4.5735136466E+001 -1.0296237345E+002 +1.5796306912E+002 -1.8440282864E+001 -1.5819825136E+002
9187500000.000 -8.2045486051E+000 -1.0911539265E+002 -4.3684534681E+001 -7.9631849081E+001 -8.4270978615E+001 -1.1813541050E+002 -1.8359795025E+001 -1.4655836437E+002
9320000000.000 -8.1294759825E+000 -1.0971230105E+002 -4.3667417429E+001 -1.1304975074E+002 -8.9460275127E+001 +4.9925203078E+001 -1.8239939143E+001 -1.3973922220E+002
9452500000.000 -8.0742284506E+000 -1.1003419908E+002 -4.3658192520E+001 -1.4795777049E+002 -9.4146582870E+001 +3.8373083253E+001 -1.8837698130E+001 -1.3031034509E+002
9585000000.000 -7.9975679528E+000 -1.1028546898E+002 -4.3572207920E+001 +1.7765395278E+002 -8.1781763244E+001 -1.7169831729E+002 -1.8742366475E+001 -1.1844791696E+002
9717500000.000 -7.8943467151E+000 -1.1085745083E+002 -4.3528206938E+001 +1.4389498500E+002 -9.1102845149E+001 -4.1555578367E+001 -1.8848948103E+001 -1.1131899972E+002
9850000000.000 -7.8525080016E+000 -1.1158610930E+002 -4.3654617907E+001 +1.1008531841E+002 -7.9384584278E+001 +5.2512879384E+001 -1.9645295703E+001 -1.0013463046E+002
9982500000.000 -7.7878326821E+000 -1.1174529765E+002 -4.3601292099E+001 +7.5460207024E+001 -8.5161636869E+001 +1.7556214624E+002 -1.9621506516E+001 -8.6608227348E+001
10115000000.000 -7.6958722788E+000 -1.1205972032E+002 -4.3710782327E+001 +4.1331113116E+001 -9.4615876343E+001 -1.5214451911E+002 -1.9947148207E+001 -7.9407968786E+001
10247500000.000 -7.6138754154E+000 -1.1271342100E+002 -4.3710782826E+001 +8.0003870111E+000 -1.0149149222E+002 -8.8128773705E+000 -2.1159297553E+001 -6.5647206399E+001
10380000000.000 -7.5561331580E+000 -1.1318872686E+002 -4.3659377012E+001 -2.6147962475E+001 -8.2898611606E+001 -1.7759743217E+002 -2.0966851710E+001 -4.9905091919E+001
10512500000.000 -7.4826519735E+000 -1.1357677499E+002 -4.3724926851E+001 -6.0413040339E+001 -8.7471430660E+001 -1.0469759927E+002 -2.1508006037E+001 -4.2358952212E+001
10645000000.000 -7.4250091851E+000 -1.1401987948E+002 -4.3690637847E+001 -9.3164764178E+001 -8.3938990068E+001 +7.8175121939E+000 -2.2832486518E+001 -2.3542155886E+001
10777500000.000 -7.3459891041E+000 -1.1434652454E+002 -4.3655827890E+001 -1.2770853591E+002 -8.2899719341E+001 +1.1315358636E+002 -2.2093592184E+001 -5.7783990896E+000
10910000000.000 -7.2583009573E+000 -1.1479288456E+002 -4.3576016540E+001 -1.6209319806E+002 -8.6603505263E+001 -1.2280942313E+002 -2.2755182125E+001 +3.8418273537E+000
11042500000.000 -7.1742058607E+000 -1.1534418132E+002 -4.3527675204E+001 +1.6427964240E+002 -8.8885899339E+001 -5.3951237740E+001 -2.3459152062E+001 +2.7863597198E+001
11175000000.000 -7.0943206172E+000 -1.1559077523E+002 -4.3562916891E+001 +1.2966270032E+002 -8.2746380992E+001 +8.6252150872E+001 -2.2171895921E+001 +4.2820436144E+001
11307500000.000 -7.0356747174E+000 -1.1585312063E+002 -4.3516228268E+001 +9.5735044030E+001 -7.8437144281E+001 -1.6122281080E+002 -2.2699069248E+001 +5.2859616179E+001
11440000000.000 -6.9609990494E+000 -1.1626355226E+002 -4.3587228105E+001 +6.1624995248E+001 -8.7256524565E+001 -8.0135141745E+001 -2.2558504878E+001 +7.5675525758E+001
11572500000.000 -6.8676915367E+000 -1.1624091132E+002 -4.3502082736E+001 +2.7698839269E+001 -8.2024959487E+001 +8.8207648397E+001 -2.1118539347E+001 +8.6890913206E+001
11705000000.000 -6.8079202336E+000 -1.1657703738E+002 -4.3470318268E+001 -6.4913533500E+000 -8.3184037617E+001 -1.3771098177E+002 -2.1738062210E+001 +9.6942550549E+001
11837500000.000 -6.7291565997E+000 -1.1680855105E+002 -4.3509401110E+001 -3.9785660624E+001 -9.4823531379E+001 +1.0892218088E+002 -2.1066335151E+001 +1.1903468248E+002
11970000000.000 -6.7018002104E+000 -1.1696340787E+002 -4.3484623294E+001 -7.4975006589E+001 -9.0895562408E+001 -1.6021379640E+002 -1.9820662880E+001 +1.2523652467E+002
12102500000.000 -6.6596759963E+000 -1.1700188179E+002 -4.3470317714E+001 -1.0901790336E+002 -8.8475884917E+001 +4.1902915831E+001 -2.0736570252E+001 +1.3555011141E+002
12235000000.000 -6.5916367447E+000 -1.1734255502E+002 -4.3442611081E+001 -1.4310451863E+002 -8.8677527037E+001 -4.2904538685E+000 -1.9681121492E+001 +1.5424905704E+002
12367500000.000 -6.5717205286E+000 -1.1748243188E+002 -4.3397866000E+001 -1.7750246236E+002 -8.0717052493E+001 -2.0161549962E+001 -1.8879614621E+001 +1.5739801661E+002
12500000000.000 -6.5414590551E+000 -1.1800575895E+002 -4.3564354933E+001 +1.4837374706E+002 -8.2485309545E+001 +1.0207173581E+002 -2.0057814562E+001 +1.6846999896E+002
12632500000.000 -6.4785581710E+000 -1.1814296195E+002 -4.3558522026E+001 +1.1374520017E+002 -8.2391734662E+001 -1.0281715047E+001 -1.9055729892E+001 -1.7324412042E+002
12765000000.000 -6.4434935837E+000 -1.1836739869E+002 -4.3551960496E+001 +8.0181050025E+001 -8.3025336258E+001 +2.8570882597E+001 -1.8525752882E+001 -1.7204883878E+002
12897500000.000 -6.4413759085E+000 -1.1883017178E+002 -4.3487432137E+001 +4.5598929001E+001 -9.0776363007E+001 +1.4787100403E+002 -2.0171105706E+001 -1.5910060636E+002
13030000000.000 -6.4079932262E+000 -1.1900150824E+002 -4.3550940393E+001 +1.0950676811E+001 -9.0818612399E+001 -6.3292323291E+001 -1.8720103913E+001 -1.4161002350E+002
13162500000.000 -6.3378691957E+000 -1.1928148620E+002 -4.3503220794E+001 -2.3017635596E+001 -8.9546708263E+001 -4.7241815099E+001 -1.8607662917E+001 -1.4234694569E+002
13295000000.000 -6.2960742289E+000 -1.1959332328E+002 -4.3486532425E+001 -5.7633361935E+001 -7.9810528809E+001 +1.6933680486E+001 -2.0066319909E+001 -1.2768085308E+002
13427500000.000 -6.2700474961E+000 -1.2013480951E+002 -4.3369723441E+001 -9.1073251506E+001 -8.3659095018E+001 -1.4269814617E+002 -1.8746162159E+001 -1.1407428548E+002
13560000000.000 -6.2800228228E+000 -1.2003559555E+002 -4.3473220436E+001 -1.2545808984E+002 -8.4477682773E+001 +8.6142417698E+001 -1.8983540629E+001 -1.1517804676E+002
13692500000.000 -6.2004289854E+000 -1.2015826710E+002 -4.3373106892E+001 -1.6006800447E+002 -8.7676999359E+001 +8.0241290742E+001 -2.0847172174E+001 -1.0140255378E+002
13825000000.000 -6.1418654657E+000 -1.2066179767E+002 -4.3386655560E+001 +1.6578516346E+002 -8.3019033061E+001 -1.2604225751E+002 -1.9672043404E+001 -8.7538879074E+001
13957500000.000 -6.1379831635E+000 -1.2113609654E+002 -4.3467918673E+001 +1.3173821978E+002 -8.9434523568E+001 -9.3581857316E+001 -2.0311756639E+001 -9.0222022866E+001
14090000000.000 -6.1222006160E+000 -1.2120556577E+002 -4.3414786596E+001 +9.7585682314E+001 -8.6213050181E+001 +1.3902613903E+002 -2.2611407422E+001 -7.2784403028E+001
14222500000.000 -6.0604544081E+000 -1.2128217862E+002 -4.3233868217E+001 +6.3034254572E+001 -7.7888266397E+001 -1.3245574739E+002 -2.1252002244E+001 -5.9599094804E+001
14355000000.000 -5.9997679717E+000 -1.2186005192E+002 -4.3317518562E+001 +2.8618765671E+001 -9.3979226001E+001 -1.9781605646E+001 -2.2508202683E+001 -6.3265338677E+001
14487500000.000 -5.9847209511E+000 -1.2208161461E+002 -4.3429431447E+001 -5.8673386708E+000 -8.4375871482E+001 -9.9159759633E+001 -2.5353369503E+001 -4.0175385018E+001
14620000000.000 -5.9375673074E+000 -1.2198941172E+002 -4.3530219681E+001 -3.9921644133E+001 -7.8970170525E+001 +1.1069206145E+002 -2.3267394490E+001 -2.8167815159E+001
14752500000.000 -5.8368702089E+000 -1.2222513702E+002 -4.3384795119E+001 -7.5453034877E+001 -8.2254982232E+001 +1.7290072531E+002 -2.5474492268E+001 -3.5912990523E+001
14885000000.000 -5.8029975637E+000 -1.2259936470E+002 -4.3414255158E+001 -1.0980466513E+002 -8.1872800408E+001 +9.3219048747E+001 -2.8524454047E+001 +2.7303331811E+000
15017500000.000 -5.7819578043E+000 -1.2231932312E+002 -4.3556452840E+001 -1.4435590061E+002 -9.6627455139E+001 +4.2014785248E+001 -2.5342490358E+001 +7.5846244521E+000
15150000000.000 -5.6880501763E+000 -1.2212489901E+002 -4.3515202602E+001 -1.7925673846E+002 -9.5181361536E+001 +6.7749934216E+000 -2.9367013063E+001 -1.6934688703E+000
15282500000.000 -5.6235652343E+000 -1.2225929129E+002 -4.3632655901E+001 +1.4644174592E+002 -7.6794273106E+001 -3.7264206284E+001 -3.0643322693E+001 +5.8374700059E+001
