!  2-Port S-parameters saved by WinCal
! VAR MeasName=S-Parameters (CALIBRATED_DATA) read from VNA (C)
! VAR MeasDate=10/5/2015 5:58:20 PM
! VAR NAME=M6079_2_7_3_2_20C_1.5mA_-17.5dBm
! VAR FILENAME=M6079_2_7_3_2_20C_1.5mA_-17.5dBm.S2P
! VAR DATE=10/5/2015 5:58:20 PM
! VAR PHYS_PORTS=2,1
! VAR ObjTypeName=DATASET
! VAR IndexType=Frequency
!
# Hz S DB R 50
45000000.000 -1.3022976446E+001 -1.1453713626E+000 -4.5352406121E+001 +1.0708524560E+002 -6.0639899774E+001 +3.6115889703E+001 -3.0439359943E+001 +4.7511136023E+000
177500000.000 -1.3122927321E+001 -4.3412902076E+000 -4.4051930015E+001 +6.5753783289E+001 -6.9530978398E+001 +4.9250825201E+001 -3.2492695847E+001 +4.5416760268E+001
310000000.000 -1.2992286203E+001 -8.4978713769E+000 -4.4802044046E+001 +3.5091616217E+001 -7.9198436359E+001 -1.3056688480E+002 -2.3311383985E+001 +6.3925103082E+001
442500000.000 -1.3200107679E+001 -1.0758968211E+001 -4.3213796327E+001 -3.2094494101E+000 -8.2127746395E+001 -2.0199541046E+001 -2.2362351341E+001 +1.7062232638E+001
575000000.000 -1.3342839689E+001 -1.3598281680E+001 -4.3338886928E+001 -3.9649383592E+001 -9.5830805783E+001 +3.8962642728E-001 -3.0523229532E+001 +2.2359971027E+001
707500000.000 -1.3233781837E+001 -1.6758227253E+001 -4.3848899186E+001 -7.3546941401E+001 -8.7645588060E+001 +1.6511234789E+002 -3.4540817807E+001 +8.2920171013E+001
840000000.000 -1.3288858160E+001 -1.9472954939E+001 -4.3806522478E+001 -1.0861305180E+002 -8.7416264011E+001 -8.1501954010E+001 -2.9675839140E+001 +1.2745085940E+002
972500000.000 -1.3179318939E+001 -2.2347391388E+001 -4.3886400108E+001 -1.4407678893E+002 -8.2688611949E+001 +1.1926141453E+002 -2.5913414454E+001 +1.3511754373E+002
1105000000.000 -1.3070385704E+001 -2.5367711132E+001 -4.3914029116E+001 -1.7770133608E+002 -7.9886157867E+001 -1.2957414400E+002 -2.4349423859E+001 +1.4052803140E+002
1237500000.000 -1.2940049243E+001 -2.8115833022E+001 -4.4097254119E+001 +1.4713822407E+002 -8.1975938163E+001 +2.3333703562E+001 -2.3381233320E+001 +1.4989461033E+002
1370000000.000 -1.2857797375E+001 -3.0967709692E+001 -4.4093864576E+001 +1.1250572371E+002 -8.2301091831E+001 +1.2034734781E+002 -2.2046623942E+001 +1.5982828670E+002
1502500000.000 -1.2864611829E+001 -3.3193673284E+001 -4.3782159934E+001 +7.8159623718E+001 -8.0845375275E+001 -1.4169438427E+002 -2.0845380473E+001 +1.6619279820E+002
1635000000.000 -1.2597694796E+001 -3.5941847745E+001 -4.4077777868E+001 +4.3240340567E+001 -1.0695956452E+002 -6.8554635199E+001 -1.9993324066E+001 +1.7310822019E+002
1767500000.000 -1.2518290771E+001 -3.8508637734E+001 -4.3992893294E+001 +8.3821896753E+000 -8.4844077611E+001 +4.6869368522E+001 -1.8991362581E+001 +1.7827749881E+002
1900000000.000 -1.2607941031E+001 -4.0159967051E+001 -4.3443874338E+001 -2.5417944503E+001 -8.7713292533E+001 +1.4423196805E+002 -1.8856908400E+001 -1.7840364557E+002
2032500000.000 -1.2498645060E+001 -4.2335182700E+001 -4.3508479902E+001 -5.9885381961E+001 -7.9060267725E+001 -4.8203722895E+001 -1.8656220286E+001 -1.6801953826E+002
2165000000.000 -1.2380021073E+001 -4.4447192463E+001 -4.3325717617E+001 -9.2974250723E+001 -8.8947097814E+001 +3.8415389951E+001 -1.7718593395E+001 -1.6122594508E+002
2297500000.000 -1.2381881388E+001 -4.6781195163E+001 -4.3123046079E+001 -1.2590852056E+002 -8.5154026190E+001 +1.5840521343E+002 -1.7228993260E+001 -1.5722737860E+002
2430000000.000 -1.2287595456E+001 -4.8738433199E+001 -4.3202059018E+001 -1.5877659374E+002 -7.6267294526E+001 -4.9771389378E+001 -1.6903854940E+001 -1.5298599803E+002
2562500000.000 -1.2110043739E+001 -5.0747298621E+001 -4.3120910526E+001 +1.6567143124E+002 -8.0674035515E+001 +3.8397552215E+001 -1.6796784647E+001 -1.5078008252E+002
2695000000.000 -1.2047562722E+001 -5.3100355586E+001 -4.3044896235E+001 +1.3454603217E+002 -7.8435925980E+001 +1.5529446020E+002 -1.7368946797E+001 -1.4737390343E+002
2827500000.000 -1.1967021173E+001 -5.4788405665E+001 -4.3041998488E+001 +9.9991468859E+001 -8.6558789642E+001 -1.4116995936E+002 -1.7827730385E+001 -1.4040581530E+002
2960000000.000 -1.1773255090E+001 -5.6228113660E+001 -4.2960099934E+001 +6.5039732059E+001 -7.5987429864E+001 -1.4089733603E+001 -1.8098417964E+001 -1.3584309023E+002
3092500000.000 -1.1604770462E+001 -5.8284214845E+001 -4.2814832015E+001 +3.0182064536E+001 -8.1301400291E+001 +1.0387628379E+002 -1.9075606410E+001 -1.2972229386E+002
3225000000.000 -1.1507616715E+001 -6.0271231241E+001 -4.2895385418E+001 -4.2897711991E+000 -7.5856753091E+001 +1.7406795972E+002 -1.9560984812E+001 -1.1978019115E+002
3357500000.000 -1.1349589302E+001 -6.1565057716E+001 -4.2930439414E+001 -3.9678370980E+001 -9.1224867087E+001 +1.5939870069E+002 -1.9881431860E+001 -1.1466039587E+002
3490000000.000 -1.1148412217E+001 -6.3250791255E+001 -4.2811338536E+001 -7.4473463353E+001 -9.6757071121E+001 +1.0857144315E+002 -2.1093197755E+001 -1.0915142229E+002
3622500000.000 -1.0985560668E+001 -6.5177491113E+001 -4.2686503909E+001 -1.0920186042E+002 -8.6878571212E+001 +2.3261081701E+001 -2.1940811456E+001 -9.8273876792E+001
3755000000.000 -1.0809075865E+001 -6.6991474278E+001 -4.2782510698E+001 -1.4534221861E+002 -8.7755901659E+001 -1.9472709755E+001 -2.2616023357E+001 -9.4805588219E+001
3887500000.000 -1.0630518463E+001 -6.8588332933E+001 -4.2754557703E+001 +1.7969611612E+002 -8.7277924114E+001 +1.0473419440E+001 -2.4956297879E+001 -8.8541904960E+001
4020000000.000 -1.0525467917E+001 -7.0040732006E+001 -4.2687384688E+001 +1.4513073363E+002 -8.2011085086E+001 +1.6606881684E+002 -2.6654134755E+001 -7.3650926060E+001
4152500000.000 -1.0351584923E+001 -7.1412107423E+001 -4.2781663122E+001 +1.1030013241E+002 -7.8505207554E+001 -6.1861236216E+001 -2.8700661889E+001 -6.4777811905E+001
4285000000.000 -1.0173069350E+001 -7.2886903381E+001 -4.2828512645E+001 +7.5269051546E+001 -8.1920366581E+001 +8.2461835819E+001 -3.3184310428E+001 -3.9273444251E+001
4417500000.000 -1.0059851759E+001 -7.4278298093E+001 -4.2762728413E+001 +4.0388070015E+001 -8.7248822368E+001 -1.7802040583E+002 -3.1773836300E+001 +7.2956258427E+000
4550000000.000 -9.9084841058E+000 -7.5157574611E+001 -4.2578740802E+001 +4.9233207677E+000 -8.8992213668E+001 +2.2762955576E+001 -3.0259151951E+001 +1.7348927005E+001
4682500000.000 -9.6524991010E+000 -7.6282653682E+001 -4.2652297575E+001 -3.4485512597E+001 -8.2737992516E+001 +3.5517953813E+001 -2.9641689624E+001 +3.7594169146E+001
4815000000.000 -9.4686393654E+000 -7.7554686638E+001 -4.2501045434E+001 -7.1772455808E+001 -8.4800669790E+001 +1.7301439644E+002 -2.7633663157E+001 +4.0463994214E+001
4947500000.000 -9.3061776013E+000 -7.8347174958E+001 -4.2384250130E+001 -1.0868392094E+002 -9.0879551114E+001 +5.5862945797E+000 -2.9303102775E+001 +3.4392882442E+001
5080000000.000 -9.0181460577E+000 -7.9446477028E+001 -4.2495883111E+001 -1.5086015439E+002 -8.3727081352E+001 -5.3282211495E+001 -3.2217925481E+001 +5.5288481809E+001
5212500000.000 -8.8108903545E+000 -8.0842874002E+001 -4.2625841815E+001 +1.6978442111E+002 -9.0664392387E+001 +2.3919025502E+001 -3.1547129881E+001 +6.8037551880E+001
5345000000.000 -8.7119213118E+000 -8.1709439679E+001 -4.2233817668E+001 +1.3442909743E+002 -8.7245418030E+001 -8.9889404758E+001 -3.5300527200E+001 +6.8481525959E+001
5477500000.000 -8.5346199922E+000 -8.2735937591E+001 -4.2429719427E+001 +9.4302802721E+001 -8.2543735041E+001 -1.0753386131E+001 -3.7620369188E+001 +1.3055059741E+002
5610000000.000 -8.3507052289E+000 -8.4074173577E+001 -4.2878876830E+001 +5.4824654884E+001 -9.4079277490E+001 -3.5136400234E+001 -3.3733793858E+001 +1.3437648907E+002
5742500000.000 -8.2537091839E+000 -8.5134958265E+001 -4.2605403268E+001 +1.8075182167E+001 -8.9932720540E+001 +3.5821665799E+001 -3.8170421415E+001 +1.4979613419E+002
5875000000.000 -8.1675358073E+000 -8.6045340581E+001 -4.2481884620E+001 -1.8822402838E+001 -9.4950584185E+001 -1.8040553566E+001 -3.4039252562E+001 -1.7033687565E+002
6007500000.000 -8.0526679504E+000 -8.7215048293E+001 -4.2868408988E+001 -5.9211927854E+001 -9.2976788463E+001 +1.1943557903E+002 -3.2791286345E+001 +1.7900870701E+002
6140000000.000 -7.9357631934E+000 -8.8340886057E+001 -4.2991875190E+001 -9.5781566868E+001 -8.8937255608E+001 +1.5721704363E+002 -3.6349582555E+001 -1.7179934200E+002
6272500000.000 -7.8470656890E+000 -8.9333248091E+001 -4.2596277229E+001 -1.3095252231E+002 -8.9869813149E+001 +1.1798213517E+002 -3.4209198117E+001 -1.4482757011E+002
6405000000.000 -7.8069789302E+000 -9.0633610720E+001 -4.2895528403E+001 -1.6785437715E+002 -9.1660034183E+001 +2.3604697056E+001 -3.3885635762E+001 -1.6236591420E+002
6537500000.000 -7.7311460008E+000 -9.1526759232E+001 -4.3304173554E+001 +1.5403730629E+002 -9.2484266586E+001 +5.5159236731E+001 -4.0119935614E+001 -1.6367486502E+002
6670000000.000 -7.6031743864E+000 -9.2245413724E+001 -4.2825974674E+001 +1.1909740614E+002 -9.8265278164E+001 -7.3560273235E+001 -3.9791342114E+001 -1.4040957650E+002
6802500000.000 -7.5194141658E+000 -9.3767772376E+001 -4.3345309958E+001 +8.2333310539E+001 -9.4767195513E+001 -2.0523221155E+001 -3.9002716003E+001 +1.7740750246E+002
6935000000.000 -7.5292191571E+000 -9.5063538167E+001 -4.4075895030E+001 +4.3701100117E+001 -9.0080965260E+001 +1.6180688590E+002 -3.8493539590E+001 +1.2408570104E+002
7067500000.000 -7.4357028884E+000 -9.5445209762E+001 -4.3675989561E+001 +9.9128910805E+000 -8.2619547147E+001 -9.6750972249E+001 -3.8490235000E+001 +1.1660304572E+002
7200000000.000 -7.3102068579E+000 -9.6192576228E+001 -4.3212773982E+001 -2.3617149172E+001 -8.1984357681E+001 -8.3607347910E+000 -3.2664003555E+001 +1.3062396214E+002
7332500000.000 -7.2672135724E+000 -9.7578904712E+001 -4.3896368488E+001 -6.1310488408E+001 -8.1847470660E+001 +4.0083794017E+001 -2.9106138541E+001 +1.1914409201E+002
7465000000.000 -7.2257180407E+000 -9.8260496070E+001 -4.4055646937E+001 -9.5770867033E+001 -8.3822390806E+001 +1.7392663199E+002 -2.8630495726E+001 +1.2349440639E+002
7597500000.000 -7.1015247876E+000 -9.8604790744E+001 -4.3045037619E+001 -1.2750804281E+002 -8.3659162047E+001 -1.1586783159E+001 -2.6015795103E+001 +1.3739025241E+002
7730000000.000 -7.0345690053E+000 -9.9708487374E+001 -4.4055734533E+001 -1.6590192487E+002 -9.7226188693E+001 +1.1714508155E+002 -2.3750445041E+001 +1.3753917710E+002
7862500000.000 -7.0065064772E+000 -1.0060810436E+002 -4.4783005127E+001 +1.5706957803E+002 -8.4580986680E+001 -1.4067929190E+002 -2.3307472721E+001 +1.4197885826E+002
7995000000.000 -6.9144022728E+000 -1.0083216514E+002 -4.3982055596E+001 +1.2549824574E+002 -8.5792820383E+001 -6.6003100164E+001 -2.1775400085E+001 +1.5434033266E+002
8127500000.000 -6.8022062036E+000 -1.0136396172E+002 -4.3945431399E+001 +9.0114027724E+001 -8.8719729000E+001 +3.3481618051E+000 -2.0032108028E+001 +1.5627829591E+002
8260000000.000 -6.7762824084E+000 -1.0229232749E+002 -4.4830412025E+001 +5.3637047092E+001 -8.1548767412E+001 +1.7913260557E+002 -1.9884067866E+001 +1.6019341270E+002
8392500000.000 -6.7070036387E+000 -1.0254769072E+002 -4.4454054706E+001 +2.0770710149E+001 -8.9342211744E+001 -3.6689058726E+001 -1.9046190245E+001 +1.7038442837E+002
8525000000.000 -6.6345207038E+000 -1.0284369256E+002 -4.4203011118E+001 -1.2541788393E+001 -8.8714810673E+001 +1.6239715399E+002 -1.8200078633E+001 +1.7275532886E+002
8657500000.000 -6.5954960248E+000 -1.0342772016E+002 -4.5183021967E+001 -4.9564198528E+001 -8.3921460559E+001 +1.3941706810E+002 -1.8566033401E+001 +1.7789262041E+002
8790000000.000 -6.5327018037E+000 -1.0385585930E+002 -4.5195478577E+001 -8.4598180711E+001 -8.4203844324E+001 -3.9592288146E+001 -1.8338100900E+001 -1.7193371560E+002
8922500000.000 -6.4869849630E+000 -1.0423805451E+002 -4.4945466757E+001 -1.1714802938E+002 -8.5958747931E+001 +1.1216779964E+002 -1.8006337432E+001 -1.6622206406E+002
9055000000.000 -6.4494061862E+000 -1.0463238928E+002 -4.5431099470E+001 -1.5310158536E+002 -9.2479469800E+001 +1.3771543841E+002 -1.8441625966E+001 -1.5838345874E+002
9187500000.000 -6.4179083034E+000 -1.0502314675E+002 -4.5654575147E+001 +1.7260077641E+002 -8.5247362515E+001 -7.0962999887E+001 -1.8359947417E+001 -1.4679376003E+002
9320000000.000 -6.3634040463E+000 -1.0565107428E+002 -4.5418837775E+001 +1.3940257636E+002 -8.7958084077E+001 +9.9533373377E+001 -1.8241907228E+001 -1.3995946158E+002
9452500000.000 -6.3348994049E+000 -1.0609979400E+002 -4.5630373469E+001 +1.0551376433E+002 -8.2921122091E+001 +1.2299067592E+002 -1.8826707199E+001 -1.3050457255E+002
9585000000.000 -6.3042785297E+000 -1.0653849102E+002 -4.6363324694E+001 +6.9561374906E+001 -9.4941625416E+001 -8.5954943816E+001 -1.8740975429E+001 -1.1868621017E+002
9717500000.000 -6.2260797008E+000 -1.0713774303E+002 -4.6048601372E+001 +3.5746057604E+001 -9.2686541464E+001 -7.5311904153E+001 -1.8848705854E+001 -1.1157958745E+002
9850000000.000 -6.2098844749E+000 -1.0793877155E+002 -4.6182559558E+001 +5.9289537138E-001 -8.1117325777E+001 +1.1924416683E+002 -1.9649021554E+001 -1.0039928451E+002
9982500000.000 -6.1835443546E+000 -1.0821803777E+002 -4.6826026224E+001 -3.4082891132E+001 -8.4084233214E+001 +1.5355104644E+002 -1.9621246372E+001 -8.6989741902E+001
10115000000.000 -6.1194679079E+000 -1.0864970632E+002 -4.6941020293E+001 -6.6981287052E+001 -9.3406565215E+001 -7.1591116612E+001 -1.9937064532E+001 -7.9766769094E+001
10247500000.000 -6.0689244857E+000 -1.0933128655E+002 -4.6985035746E+001 -1.0118659490E+002 -8.9835703718E+001 +1.0025775089E+002 -2.1139356053E+001 -6.5914287411E+001
10380000000.000 -6.0497675426E+000 -1.0986424418E+002 -4.7734961240E+001 -1.3659698883E+002 -9.2255598924E+001 +1.2370038278E+002 -2.0944216902E+001 -5.0297070828E+001
10512500000.000 -5.9993410021E+000 -1.1034046284E+002 -4.7644174608E+001 -1.7098114227E+002 -8.1626215973E+001 -7.3723322260E+001 -2.1478063397E+001 -4.2744906075E+001
10645000000.000 -5.9602774820E+000 -1.1086272593E+002 -4.7694698431E+001 +1.5620502141E+002 -8.4826034315E+001 -5.1711757889E+001 -2.2822796539E+001 -2.3980303107E+001
10777500000.000 -5.9200733938E+000 -1.1128594497E+002 -4.8363566653E+001 +1.2040504397E+002 -8.6145907365E+001 +1.3536749154E+002 -2.2089345090E+001 -6.2563798161E+000
10910000000.000 -5.8631458495E+000 -1.1175453696E+002 -4.8788420353E+001 +8.7301211853E+001 -9.7970927274E+001 +1.1445147155E+002 -2.2744113927E+001 +3.0591088852E+000
11042500000.000 -5.7971966897E+000 -1.1235900118E+002 -4.8738306727E+001 +5.2988890777E+001 -8.8949818874E+001 -7.7306414548E+001 -2.3473689710E+001 +2.7111111461E+001
11175000000.000 -5.7540772135E+000 -1.1272499781E+002 -4.9035359190E+001 +2.0136847844E+001 -8.2402052639E+001 -1.5061572383E+002 -2.2169114534E+001 +4.2255193408E+001
11307500000.000 -5.7218859735E+000 -1.1301935046E+002 -4.9659029473E+001 -1.4056894588E+001 -9.9265284513E+001 +1.7098990168E+002 -2.2685520654E+001 +5.2243055427E+001
11440000000.000 -5.6664159109E+000 -1.1347433605E+002 -4.9749818498E+001 -4.9271692187E+001 -8.3290344858E+001 -2.3831445666E+001 -2.2593410616E+001 +7.5147720064E+001
11572500000.000 -5.5966680395E+000 -1.1360944933E+002 -4.9781998559E+001 -8.2836578158E+001 -8.3503263712E+001 +4.3864739767E+001 -2.1135087503E+001 +8.6453341526E+001
11705000000.000 -5.5652852337E+000 -1.1397596653E+002 -5.0414427567E+001 -1.1600274991E+002 -8.5540939323E+001 +1.2945283336E+002 -2.1735948825E+001 +9.6371141881E+001
11837500000.000 -5.5124164685E+000 -1.1425301096E+002 -5.0439890599E+001 -1.4990171518E+002 -8.4817446861E+001 -1.5086915700E+001 -2.1103040325E+001 +1.1846984077E+002
11970000000.000 -5.4989421917E+000 -1.1447325372E+002 -5.0676099435E+001 +1.7733276871E+002 -8.6757371550E+001 +7.0881292367E+000 -1.9827133422E+001 +1.2480613579E+002
12102500000.000 -5.4757888923E+000 -1.1458611820E+002 -5.1002243098E+001 +1.4456433105E+002 -8.5062235454E+001 +1.5864547540E+002 -2.0731862331E+001 +1.3508238669E+002
12235000000.000 -5.4309215971E+000 -1.1496547120E+002 -5.1088730512E+001 +1.0968775066E+002 -8.8163573890E+001 -1.2260506999E+002 -1.9692973446E+001 +1.5379820250E+002
12367500000.000 -5.4189927095E+000 -1.1516838608E+002 -5.1224117839E+001 +7.7512191246E+001 -8.8641535706E+001 +4.3020986681E+001 -1.8894707681E+001 +1.5697021289E+002
12500000000.000 -5.4099511070E+000 -1.1569254966E+002 -5.1809274839E+001 +3.9895827410E+001 -8.2215329771E+001 +1.4963431258E+002 -2.0061659796E+001 +1.6794536924E+002
12632500000.000 -5.3673955042E+000 -1.1584769455E+002 -5.2081945033E+001 +7.3684500230E+000 -8.3854188909E+001 -1.7248713107E+002 -1.9055235867E+001 -1.7368059128E+002
12765000000.000 -5.3454544912E+000 -1.1615917186E+002 -5.2020585272E+001 -2.5899503146E+001 -9.1820544167E+001 +1.4037560241E+002 -1.8512884598E+001 -1.7238040706E+002
12897500000.000 -5.3580747360E+000 -1.1658533825E+002 -5.2279149730E+001 -6.0847212064E+001 -8.9726342477E+001 -1.5476737269E+002 -2.0163342752E+001 -1.5953909880E+002
13030000000.000 -5.3358723895E+000 -1.1674716906E+002 -5.2695376400E+001 -9.5200562988E+001 -8.4596328557E+001 -1.2120112571E+002 -1.8709448083E+001 -1.4207280432E+002
13162500000.000 -5.2854199675E+000 -1.1708238050E+002 -5.3097942991E+001 -1.2712291199E+002 -8.3665009142E+001 -2.7501056889E+001 -1.8584147722E+001 -1.4280514193E+002
13295000000.000 -5.2582620792E+000 -1.1742316294E+002 -5.3268332283E+001 -1.6274527601E+002 -8.5399648196E+001 +1.1340237594E+002 -2.0051984123E+001 -1.2811758442E+002
13427500000.000 -5.2522857453E+000 -1.1793945662E+002 -5.3653818138E+001 +1.6353769090E+002 -8.6670076467E+001 -1.5923827602E+002 -1.8723014503E+001 -1.1439507813E+002
13560000000.000 -5.2617789030E+000 -1.1789652136E+002 -5.3712654941E+001 +1.2894453788E+002 -7.7853304881E+001 -7.0329803829E+001 -1.8950062119E+001 -1.1553079356E+002
13692500000.000 -5.2035482620E+000 -1.1808840243E+002 -5.4421914879E+001 +9.5862384127E+001 -8.8111291858E+001 +1.0017880018E+002 -2.0805756641E+001 -1.0175390920E+002
13825000000.000 -5.1665850784E+000 -1.1853431864E+002 -5.4196171667E+001 +6.1671498326E+001 -8.0250286025E+001 +1.6500518612E+002 -1.9624840664E+001 -8.7784771061E+001
13957500000.000 -5.1683895258E+000 -1.1903274171E+002 -5.4933878506E+001 +2.9689564642E+001 -8.0136444569E+001 -5.7335904554E+001 -2.0261783361E+001 -9.0536111561E+001
14090000000.000 -5.1629681663E+000 -1.1913615226E+002 -5.5673698070E+001 -1.4632683134E+000 -7.6557531220E+001 +7.6718860416E+001 -2.2529068718E+001 -7.3239132365E+001
14222500000.000 -5.1195686894E+000 -1.1922423642E+002 -5.5624686971E+001 -3.3541827440E+001 -9.2527053661E+001 +1.3019168929E+002 -2.1210251547E+001 -5.9806679226E+001
14355000000.000 -5.0770812861E+000 -1.1979916186E+002 -5.5350897242E+001 -6.9910631487E+001 -8.4619183561E+001 +1.2146280242E+002 -2.2418513512E+001 -6.3412996913E+001
14487500000.000 -5.0743359749E+000 -1.2001308741E+002 -5.5310848244E+001 -1.0204498895E+002 -7.9858894930E+001 -1.2269591723E+001 -2.5258536931E+001 -4.0526158948E+001
14620000000.000 -5.0412781599E+000 -1.1993069139E+002 -5.5626967608E+001 -1.3617360658E+002 -8.4742713682E+001 +1.1396623036E+002 -2.3210972320E+001 -2.8387416382E+001
14752500000.000 -4.9556221815E+000 -1.2021780272E+002 -5.6254013355E+001 -1.7174219110E+002 -8.1046913043E+001 -1.3950291120E+002 -2.5396579601E+001 -3.5901599008E+001
14885000000.000 -4.9396138780E+000 -1.2058406032E+002 -5.6066326776E+001 +1.5588561272E+002 -7.9676953578E+001 +3.5250217869E+000 -2.8437230889E+001 +2.3447228418E+000
15017500000.000 -4.9243847596E+000 -1.2030136736E+002 -5.6455624102E+001 +1.2335563443E+002 -8.4337942761E+001 -1.1301594327E+002 -2.5322001932E+001 +7.2941162912E+000
15150000000.000 -4.8412581813E+000 -1.2016995992E+002 -5.6464791892E+001 +8.9595362673E+001 -8.1609369668E+001 +1.6798723854E+002 -2.9330438478E+001 -1.6063317750E+000
15282500000.000 -4.7904022510E+000 -1.2033727525E+002 -5.8161747822E+001 +5.8107695988E+001 -7.8845977560E+001 -2.0265562610E+001 -3.0530842547E+001 +5.7878185068E+001
