!  2-Port S-parameters saved by WinCal
! VAR MeasName=S-Parameters (CALIBRATED_DATA) read from VNA (C)
! VAR MeasDate=10/5/2015 6:44:26 PM
! VAR NAME=M6079_2_7_3_3_20C_3.8mA_-17.5dBm
! VAR FILENAME=M6079_2_7_3_3_20C_3.8mA_-17.5dBm.S2P
! VAR DATE=10/5/2015 6:44:26 PM
! VAR PHYS_PORTS=2,1
! VAR ObjTypeName=DATASET
! VAR IndexType=Frequency
!
# Hz S DB R 50
45000000.000 -2.0714864107E+001 -5.9567237664E-001 -4.2382669248E+001 +9.1673430261E+001 -6.2426594895E+001 +1.6883936138E+001 -3.0799072965E+001 +7.8924641673E+000
177500000.000 -2.0536169256E+001 -5.4436382561E+000 -4.3061366983E+001 +6.8875569233E+001 -7.2251505765E+001 +6.3317595714E+001 -3.2595604269E+001 +4.6332832659E+001
310000000.000 -2.0417809906E+001 -1.0549355989E+001 -4.2947792350E+001 +3.8111335076E+001 -8.5236134599E+001 -1.1395041074E+002 -2.3316920537E+001 +6.3923267541E+001
442500000.000 -2.0253646412E+001 -1.5474600852E+001 -4.1919506933E+001 +7.2927876860E-001 -8.2428205789E+001 -4.2508106065E+001 -2.2399585547E+001 +1.7143822919E+001
575000000.000 -2.0034615760E+001 -2.0610237146E+001 -4.2417411371E+001 -3.5901609450E+001 -8.1939503728E+001 -9.3158367424E+001 -3.0564698912E+001 +2.2333194822E+001
707500000.000 -1.9857640192E+001 -2.5050406159E+001 -4.2604170187E+001 -6.9739357969E+001 -8.8312449460E+001 -3.9760917738E+001 -3.4587627436E+001 +8.2964392951E+001
840000000.000 -1.9564193806E+001 -2.9579353340E+001 -4.2655184657E+001 -1.0371465103E+002 -8.2016478932E+001 -5.4848519557E+001 -2.9690255384E+001 +1.2755954410E+002
972500000.000 -1.9257013948E+001 -3.3579881330E+001 -4.2869890475E+001 -1.3723989613E+002 -9.0970893597E+001 -1.2367698367E+002 -2.5919904882E+001 +1.3508707791E+002
1105000000.000 -1.8971807498E+001 -3.7772806712E+001 -4.2874743911E+001 -1.7152829501E+002 -8.4617842343E+001 -1.6322560810E+002 -2.4373609780E+001 +1.4056276261E+002
1237500000.000 -1.8685822748E+001 -4.1268285991E+001 -4.2814584502E+001 +1.5413354020E+002 -8.7662679654E+001 -6.0255118703E+001 -2.3391195012E+001 +1.4997591557E+002
1370000000.000 -1.8357859592E+001 -4.4936036711E+001 -4.2794341603E+001 +1.2052487797E+002 -8.6472593513E+001 +1.3208765507E+002 -2.2044991284E+001 +1.5979098579E+002
1502500000.000 -1.8049501027E+001 -4.8000328317E+001 -4.2924823675E+001 +8.6479868473E+001 -8.5012439627E+001 -1.5848163316E+002 -2.0862171869E+001 +1.6626993215E+002
1635000000.000 -1.7686599679E+001 -5.0833602408E+001 -4.2954861071E+001 +5.2251285052E+001 -8.0104972444E+001 -2.7614353118E+001 -2.0015287680E+001 +1.7315905268E+002
1767500000.000 -1.7339149713E+001 -5.3951334106E+001 -4.2933249859E+001 +1.7781583504E+001 -8.4961934853E+001 +9.1865277150E+001 -1.9000779353E+001 +1.7833604875E+002
1900000000.000 -1.7060016520E+001 -5.6305179072E+001 -4.2945845866E+001 -1.6725876602E+001 -8.2377496420E+001 +1.6006149095E+002 -1.8861922691E+001 -1.7835285500E+002
2032500000.000 -1.6764064278E+001 -5.8631040116E+001 -4.3222387490E+001 -5.0796671710E+001 -9.3036913450E+001 -1.0522530711E+002 -1.8666026947E+001 -1.6799047210E+002
2165000000.000 -1.6378570738E+001 -6.0774701692E+001 -4.3174802407E+001 -8.3881140545E+001 -8.0223002690E+001 -1.0108579845E+001 -1.7737300680E+001 -1.6113945422E+002
2297500000.000 -1.6118151179E+001 -6.2986064793E+001 -4.3295396037E+001 -1.1883510786E+002 -8.8754675368E+001 -6.7760940655E+001 -1.7240571381E+001 -1.5717113001E+002
2430000000.000 -1.5857956226E+001 -6.4772303329E+001 -4.3320322268E+001 -1.5304815379E+002 -7.6213159811E+001 -8.2336404943E+001 -1.6914884362E+001 -1.5300735586E+002
2562500000.000 -1.5536252314E+001 -6.6635924360E+001 -4.3329543444E+001 +1.7434903490E+002 -7.7889847224E+001 +7.1323119573E+001 -1.6799744881E+001 -1.5073449791E+002
2695000000.000 -1.5317628530E+001 -6.8803226639E+001 -4.3358514767E+001 +1.4045987954E+002 -7.9966957968E+001 +1.2555868816E+002 -1.7385222820E+001 -1.4738577046E+002
2827500000.000 -1.5155854395E+001 -7.0502908605E+001 -4.3472241038E+001 +1.0638505624E+002 -8.0138527046E+001 +1.4267682928E+002 -1.7817923683E+001 -1.4033570189E+002
2960000000.000 -1.4889850908E+001 -7.1840601785E+001 -4.3193581809E+001 +7.1685471406E+001 -8.4553293836E+001 +3.5604316844E+001 -1.8098054510E+001 -1.3574744501E+002
3092500000.000 -1.4592440183E+001 -7.3749177276E+001 -4.3510002844E+001 +3.7964718550E+001 -8.3040749561E+001 -1.7946383330E+002 -1.9097847009E+001 -1.2964716556E+002
3225000000.000 -1.4397899205E+001 -7.5781300686E+001 -4.3476381300E+001 +4.2886451650E+000 -8.3344267354E+001 -6.4059229257E+001 -1.9561650654E+001 -1.1975158295E+002
3357500000.000 -1.4230288927E+001 -7.7007069439E+001 -4.3537099218E+001 -2.8315909370E+001 -7.5538945644E+001 +3.4371579779E+001 -1.9892634702E+001 -1.1453525233E+002
3490000000.000 -1.3953821738E+001 -7.8381495597E+001 -4.3386195134E+001 -6.1997644245E+001 -7.8905918432E+001 -1.7392539363E+002 -2.1116979657E+001 -1.0902447164E+002
3622500000.000 -1.3678761509E+001 -8.0020150248E+001 -4.3417420052E+001 -9.8839902957E+001 -9.4871973811E+001 +1.2145563642E+002 -2.1954127185E+001 -9.8259001093E+001
3755000000.000 -1.3452138673E+001 -8.1527513469E+001 -4.3389429996E+001 -1.2995336816E+002 -8.6876889544E+001 -1.5799169059E+002 -2.2644444274E+001 -9.4729186950E+001
3887500000.000 -1.3235030689E+001 -8.2803070964E+001 -4.3479250908E+001 -1.6429939772E+002 -8.1264162908E+001 -1.7383218419E+000 -2.4972462997E+001 -8.8626389181E+001
4020000000.000 -1.3039536088E+001 -8.3868406106E+001 -4.3551704743E+001 +1.6161706730E+002 -8.4602921009E+001 -1.2465203969E+002 -2.6678989810E+001 -7.3565885602E+001
4152500000.000 -1.2793828888E+001 -8.4873415942E+001 -4.3543200945E+001 +1.2818053134E+002 -8.0393430151E+001 -8.7381617742E+001 -2.8736461711E+001 -6.4937076546E+001
4285000000.000 -1.2566457903E+001 -8.6107340351E+001 -4.3449813668E+001 +9.2722057998E+001 -9.0047886213E+001 +8.5815496612E+001 -3.3282691860E+001 -3.9032336820E+001
4417500000.000 -1.2397854866E+001 -8.7306357995E+001 -4.3652408293E+001 +5.9584550960E+001 -8.2503877998E+001 -2.9863909585E+001 -3.1765294925E+001 +7.5638616810E+000
4550000000.000 -1.2207571424E+001 -8.7962352486E+001 -4.3641942587E+001 +2.4654412967E+001 -8.7284046749E+001 -1.1358400340E+002 -3.0276836260E+001 +1.7660400894E+001
4682500000.000 -1.1979751118E+001 -8.8850557149E+001 -4.3756200491E+001 -8.8577156476E+000 -8.9602754054E+001 -1.2341332167E+002 -2.9673650789E+001 +3.7978323322E+001
4815000000.000 -1.1795023093E+001 -9.0016996671E+001 -4.3912582480E+001 -4.0714511642E+001 -9.1914614560E+001 +1.0099103686E+002 -2.7654302896E+001 +4.0677690498E+001
4947500000.000 -1.1640250163E+001 -9.0627800633E+001 -4.3712653561E+001 -7.4684993076E+001 -8.9770623260E+001 -1.7428450101E+002 -2.9342124067E+001 +3.4947926644E+001
5080000000.000 -1.1452159485E+001 -9.1166672346E+001 -4.3626685958E+001 -1.0722090058E+002 -8.7106852229E+001 -7.7472766408E+001 -3.2228308373E+001 +5.6033682018E+001
5212500000.000 -1.1259740618E+001 -9.2042784737E+001 -4.3596406861E+001 -1.4103356021E+002 -9.3075414500E+001 +6.9437201057E+001 -3.1551903169E+001 +6.8529669862E+001
5345000000.000 -1.1133859949E+001 -9.2823706323E+001 -4.3409086185E+001 -1.7517639283E+002 -9.2154611961E+001 +1.7080680027E+002 -3.5306684660E+001 +6.8998369250E+001
5477500000.000 -1.0997877760E+001 -9.3158670882E+001 -4.3265667886E+001 +1.5087254505E+002 -9.9793238625E+001 -1.0527151430E+001 -3.7446357372E+001 +1.3119186307E+002
5610000000.000 -1.0824719474E+001 -9.3690113778E+001 -4.3282962863E+001 +1.1639209811E+002 -8.6205576445E+001 +9.0854739464E+001 -3.3694916351E+001 +1.3481023314E+002
5742500000.000 -1.0703066783E+001 -9.4537345600E+001 -4.3228761093E+001 +8.1760072418E+001 -8.8379860832E+001 +5.6697527309E+001 -3.8014014451E+001 +1.5051448487E+002
5875000000.000 -1.0613664239E+001 -9.5172670304E+001 -4.3230587159E+001 +4.7459731026E+001 -8.7124069366E+001 -1.0657226560E+002 -3.3975295984E+001 -1.7021174683E+002
6007500000.000 -1.0503639559E+001 -9.5584074626E+001 -4.3185249210E+001 +1.3276073701E+001 -9.0779478721E+001 +5.8900755286E+001 -3.2690452754E+001 +1.7939232243E+002
6140000000.000 -1.0350110578E+001 -9.6203510109E+001 -4.3295228284E+001 -2.1054423427E+001 -9.0489708617E+001 +1.6509859795E+002 -3.6280360511E+001 -1.7124571619E+002
6272500000.000 -1.0228253070E+001 -9.7191200899E+001 -4.3211279466E+001 -5.4622975114E+001 -8.9110489940E+001 -7.9767903637E+001 -3.4056040261E+001 -1.4426687046E+002
6405000000.000 -1.0170221330E+001 -9.8087439237E+001 -4.3298084200E+001 -8.8675905067E+001 -8.8513086069E+001 +6.9505198779E+001 -3.3840857687E+001 -1.6201060612E+002
6537500000.000 -1.0058218713E+001 -9.8343047086E+001 -4.3314269833E+001 -1.2266069678E+002 -8.4011240725E+001 +1.1404434224E+002 -4.0081995648E+001 -1.6231774057E+002
6670000000.000 -9.8851711104E+000 -9.8974754223E+001 -4.3367134617E+001 -1.5761734676E+002 -8.3752122887E+001 -1.3518597932E+002 -3.9665745431E+001 -1.3961142635E+002
6802500000.000 -9.7520801447E+000 -1.0009841029E+002 -4.3319332389E+001 +1.6849023723E+002 -9.0563761501E+001 +5.7344723187E+001 -3.9098681399E+001 +1.7818955054E+002
6935000000.000 -9.7121118257E+000 -1.0083208969E+002 -4.3302140339E+001 +1.3482341027E+002 -8.9551135737E+001 +5.8886744056E+001 -3.8637450242E+001 +1.2385394327E+002
7067500000.000 -9.5914242362E+000 -1.0104611780E+002 -4.3400320333E+001 +1.0065527887E+002 -9.0777239543E+001 -8.7877332694E+001 -3.8589812259E+001 +1.1691094691E+002
7200000000.000 -9.4283118718E+000 -1.0171707798E+002 -4.3265889972E+001 +6.6357293404E+001 -8.8428168698E+001 +5.3478184971E+001 -3.2719078005E+001 +1.3042008250E+002
7332500000.000 -9.3226879160E+000 -1.0272186122E+002 -4.3425965194E+001 +3.2517510615E+001 -9.0192832998E+001 -6.8465147645E+001 -2.9174004523E+001 +1.1896670333E+002
7465000000.000 -9.2412022610E+000 -1.0319627608E+002 -4.3359220161E+001 -1.0096013616E+000 -9.1691923656E+001 +4.7311586172E+001 -2.8636746975E+001 +1.2346149515E+002
7597500000.000 -9.1067679787E+000 -1.0362060361E+002 -4.3376324571E+001 -3.5220982214E+001 -8.8955695955E+001 -3.0227788091E+001 -2.6038171370E+001 +1.3745067203E+002
7730000000.000 -8.9611429565E+000 -1.0424625883E+002 -4.3351021264E+001 -6.9377641339E+001 -8.3081229215E+001 +6.2535288602E+001 -2.3768066169E+001 +1.3747152763E+002
7862500000.000 -8.8655236871E+000 -1.0475591165E+002 -4.3366779188E+001 -1.0325757734E+002 -8.3519616456E+001 -1.7495858049E+002 -2.3316183490E+001 +1.4190949037E+002
7995000000.000 -8.7748114923E+000 -1.0503380139E+002 -4.3388245838E+001 -1.3651970941E+002 -9.7510345312E+001 +1.5175771774E+002 -2.1777478681E+001 +1.5430696154E+002
8127500000.000 -8.6149792652E+000 -1.0532210178E+002 -4.3398751567E+001 -1.7117104997E+002 -9.4884660968E+001 +7.5761948444E+001 -2.0037595812E+001 +1.5618082484E+002
8260000000.000 -8.5180583853E+000 -1.0600463105E+002 -4.3318448403E+001 +1.5480377703E+002 -8.0858797151E+001 +1.0098368813E+002 -1.9890449800E+001 +1.6027227891E+002
8392500000.000 -8.4360685733E+000 -1.0615537069E+002 -4.3322972813E+001 +1.2096959529E+002 -8.7651126819E+001 -5.6113519140E+001 -1.9038203840E+001 +1.7042509802E+002
8525000000.000 -8.3376995400E+000 -1.0630604965E+002 -4.3318709361E+001 +8.7529140927E+001 -8.9917396084E+001 +2.5949725534E+000 -1.8202958508E+001 +1.7277799368E+002
8657500000.000 -8.2304506047E+000 -1.0661046856E+002 -4.3168148619E+001 +5.3388999657E+001 -8.7137415950E+001 +5.4688621499E+001 -1.8566278710E+001 +1.7793706451E+002
8790000000.000 -8.1321997808E+000 -1.0691174648E+002 -4.3158752619E+001 +1.8543079735E+001 -8.7502824833E+001 +1.5849663852E+002 -1.8329944271E+001 -1.7188851499E+002
8922500000.000 -8.0812298338E+000 -1.0723408613E+002 -4.3170178239E+001 -1.4763594084E+001 -8.2492637991E+001 -5.4743051339E+000 -1.8001203456E+001 -1.6615705657E+002
9055000000.000 -7.9971358782E+000 -1.0741230288E+002 -4.3027350978E+001 -4.9547561764E+001 -9.8798551666E+001 +4.4784782457E+001 -1.8441860993E+001 -1.5830815746E+002
9187500000.000 -7.9309956103E+000 -1.0774666365E+002 -4.3139830875E+001 -8.3339537132E+001 -8.3489960088E+001 -7.6267036966E+001 -1.8356208699E+001 -1.4666712657E+002
9320000000.000 -7.8593206019E+000 -1.0835022012E+002 -4.3056805182E+001 -1.1754487558E+002 -8.6354850225E+001 -7.3148420068E+001 -1.8238150855E+001 -1.3984966865E+002
9452500000.000 -7.8069831289E+000 -1.0869575903E+002 -4.3039355386E+001 -1.5220218864E+002 -9.0092634477E+001 +1.1477692734E+002 -1.8832201446E+001 -1.3041498138E+002
9585000000.000 -7.7306139735E+000 -1.0898028584E+002 -4.2913466801E+001 +1.7415919027E+002 -8.7053674080E+001 +1.5380693826E+002 -1.8739128923E+001 -1.1857832536E+002
9717500000.000 -7.6327795228E+000 -1.0956871806E+002 -4.2899177609E+001 +1.3973653740E+002 -8.8216514006E+001 -4.7459163108E+001 -1.8847629119E+001 -1.1144099189E+002
9850000000.000 -7.5898789886E+000 -1.1032386437E+002 -4.2855325061E+001 +1.0577491747E+002 -8.7190263539E+001 +5.6854506404E+001 -1.9647521630E+001 -1.0025453829E+002
9982500000.000 -7.5252917630E+000 -1.1049934277E+002 -4.2842137175E+001 +7.0131023186E+001 -7.9943201537E+001 +1.6762621445E+002 -1.9618889757E+001 -8.6781066396E+001
10115000000.000 -7.4359528306E+000 -1.1085400015E+002 -4.2826897809E+001 +3.6724251562E+001 -7.8626315427E+001 -7.8835872548E+001 -1.9933547385E+001 -7.9495331588E+001
10247500000.000 -7.3558384219E+000 -1.1152575271E+002 -4.2881978681E+001 +3.3559533783E+000 -8.6714205053E+001 +2.6408932273E+001 -2.1156084000E+001 -6.5703378375E+001
10380000000.000 -7.2999216600E+000 -1.1201096348E+002 -4.2751467134E+001 -3.2057857317E+001 -8.5690336790E+001 +1.5551863279E+002 -2.0957919327E+001 -5.0024755328E+001
10512500000.000 -7.2282251800E+000 -1.1243237751E+002 -4.2775423091E+001 -6.5830554921E+001 -8.5766315031E+001 +4.8362845701E+001 -2.1495198935E+001 -4.2547527333E+001
10645000000.000 -7.1699550842E+000 -1.1289038821E+002 -4.2646837433E+001 -9.9426381571E+001 -8.8947442646E+001 -3.4718316327E+001 -2.2838176444E+001 -2.3637880056E+001
10777500000.000 -7.0931426086E+000 -1.1325340159E+002 -4.2727310694E+001 -1.3490215352E+002 -8.9909401790E+001 +1.4327905842E+002 -2.2095603470E+001 -5.9755137084E+000
10910000000.000 -7.0075177274E+000 -1.1371843910E+002 -4.2663628089E+001 -1.6895363848E+002 -8.8378158503E+001 -8.5006851806E+001 -2.2738794735E+001 +3.5133568087E+000
11042500000.000 -6.9249191592E+000 -1.1429958630E+002 -4.2711593194E+001 +1.5717395131E+002 -8.3357648945E+001 -3.0352209518E+001 -2.3461171487E+001 +2.7642542053E+001
11175000000.000 -6.8487739947E+000 -1.1455522589E+002 -4.2569160182E+001 +1.2271018210E+002 -8.7933702724E+001 +9.8453285243E+001 -2.2175708544E+001 +4.2652572857E+001
11307500000.000 -6.7876652638E+000 -1.1484450750E+002 -4.2497459010E+001 +8.8287903792E+001 -9.1408836747E+001 +9.8152274448E+001 -2.2706984630E+001 +5.2671913046E+001
11440000000.000 -6.7160268437E+000 -1.1528914157E+002 -4.2496312106E+001 +5.3127188966E+001 -7.9538570948E+001 -3.0320541205E+001 -2.2574817112E+001 +7.5563038430E+001
11572500000.000 -6.6225305619E+000 -1.1529777454E+002 -4.2414890188E+001 +1.9519983725E+001 -9.1077591277E+001 +8.6528766079E+001 -2.1121535304E+001 +8.6842517580E+001
11705000000.000 -6.5650052076E+000 -1.1563838768E+002 -4.2449275106E+001 -1.5557071415E+001 -9.4203070877E+001 -3.9278909091E+001 -2.1743550340E+001 +9.6707495720E+001
11837500000.000 -6.4888066083E+000 -1.1592049879E+002 -4.2479581563E+001 -4.9712523158E+001 -8.8246973323E+001 -1.0770579455E+002 -2.1086908441E+001 +1.1880439107E+002
11970000000.000 -6.4594662164E+000 -1.1609869379E+002 -4.2449125621E+001 -8.3858000474E+001 -8.4310778199E+001 +9.0369893875E+001 -1.9815888759E+001 +1.2509912908E+002
12102500000.000 -6.4179857560E+000 -1.1615658019E+002 -4.2346364393E+001 -1.1916637771E+002 -8.4760184871E+001 +1.4925280418E+002 -2.0733663544E+001 +1.3543220335E+002
12235000000.000 -6.3515714306E+000 -1.1651549861E+002 -4.2414289150E+001 -1.5268150379E+002 -8.8092472330E+001 -1.2479402760E+002 -1.9687760306E+001 +1.5414594656E+002
12367500000.000 -6.3324883529E+000 -1.1668582386E+002 -4.2178479303E+001 +1.7262611075E+002 -8.3085072110E+001 +1.8200987623E+001 -1.8894876550E+001 +1.5729974854E+002
12500000000.000 -6.2979669300E+000 -1.1722143231E+002 -4.2378102704E+001 +1.3612414931E+002 -8.3999952255E+001 +1.5365809450E+002 -2.0067201062E+001 +1.6833368792E+002
12632500000.000 -6.2378246797E+000 -1.1740934385E+002 -4.2447664260E+001 +1.0270635155E+002 -9.0922266129E+001 +1.6415486878E+002 -1.9058179025E+001 -1.7333106346E+002
12765000000.000 -6.2018825581E+000 -1.1765900447E+002 -4.2327810862E+001 +6.8002596593E+001 -8.6661024098E+001 +8.3892492814E+001 -1.8527825177E+001 -1.7209349718E+002
12897500000.000 -6.1978678442E+000 -1.1814387017E+002 -4.2398054775E+001 +3.2837667740E+001 -8.9164398870E+001 +6.5642552133E+001 -2.0170375191E+001 -1.5923838125E+002
13030000000.000 -6.1637743586E+000 -1.1834048564E+002 -4.2356458836E+001 -2.6402322201E+000 -8.6761075481E+001 -7.8866025051E+001 -1.8724925926E+001 -1.4171716519E+002
13162500000.000 -6.0960872095E+000 -1.1863607905E+002 -4.2484391882E+001 -3.5610392962E+001 -9.0478226947E+001 -6.0668663736E+001 -1.8612713392E+001 -1.4247877524E+002
13295000000.000 -6.0562253541E+000 -1.1897547811E+002 -4.2389510924E+001 -7.1211272692E+001 -9.7289734363E+001 +9.2160416712E+001 -2.0081922602E+001 -1.2778558122E+002
13427500000.000 -6.0298309134E+000 -1.1955512780E+002 -4.2529844344E+001 -1.0641718586E+002 -8.6978136142E+001 -1.3810560968E+002 -1.8742946769E+001 -1.1417255822E+002
13560000000.000 -6.0402305640E+000 -1.1948729820E+002 -4.2404456952E+001 -1.4077207566E+002 -7.9943388855E+001 -6.7765428843E+001 -1.8981705692E+001 -1.1521747063E+002
13692500000.000 -5.9627500218E+000 -1.1963867000E+002 -4.2431341869E+001 -1.7494203455E+002 -7.8303004842E+001 +4.9407655321E+001 -2.0836408691E+001 -1.0147417904E+002
13825000000.000 -5.9066604054E+000 -1.2017084846E+002 -4.2515246797E+001 +1.5032573795E+002 -9.6234769096E+001 -1.0270177076E+002 -1.9666125140E+001 -8.7561608089E+001
13957500000.000 -5.9038227932E+000 -1.2065605489E+002 -4.2589749463E+001 +1.1489057886E+002 -8.7251902150E+001 -1.5841507573E+002 -2.0298348035E+001 -9.0260135393E+001
14090000000.000 -5.8887559863E+000 -1.2077945609E+002 -4.2427974697E+001 +7.9866436021E+001 -7.9617775100E+001 +1.2775925720E+002 -2.2592553273E+001 -7.2841392589E+001
14222500000.000 -5.8286883971E+000 -1.2088074771E+002 -4.2576111026E+001 +4.5860255757E+001 -8.6473593535E+001 +1.5858276146E+002 -2.1235328260E+001 -5.9610979717E+001
14355000000.000 -5.7699320796E+000 -1.2144913448E+002 -4.2691882486E+001 +1.0786911353E+001 -8.1745068783E+001 -8.1562132574E+001 -2.2487679597E+001 -6.3326914927E+001
14487500000.000 -5.7580117803E+000 -1.2171964127E+002 -4.2784397549E+001 -2.4454236130E+001 -8.3662343191E+001 +6.1261125041E+001 -2.5317250603E+001 -4.0222628192E+001
14620000000.000 -5.7132894151E+000 -1.2166278622E+002 -4.2790120317E+001 -5.9439052608E+001 -8.2993722268E+001 +1.6709277487E+002 -2.3270161092E+001 -2.8251682612E+001
14752500000.000 -5.6166125246E+000 -1.2192700737E+002 -4.2827175586E+001 -9.5104520341E+001 -8.7332000705E+001 +4.6061984156E+001 -2.5472559672E+001 -3.5962047873E+001
14885000000.000 -5.5845485522E+000 -1.2232337352E+002 -4.2860582095E+001 -1.3011069251E+002 -8.8680659309E+001 -6.8459166016E+001 -2.8564641965E+001 +2.6931482345E+000
15017500000.000 -5.5636704005E+000 -1.2207765572E+002 -4.2961684876E+001 -1.6429315372E+002 -8.4838520162E+001 +1.0871358764E+002 -2.5343359446E+001 +7.5568348716E+000
15150000000.000 -5.4752959755E+000 -1.2192357243E+002 -4.3120484705E+001 +1.6089868575E+002 -8.0036477754E+001 +1.7723820973E+002 -2.9419133184E+001 -1.8362510505E+000
15282500000.000 -5.4135058882E+000 -1.2208177477E+002 -4.3151145265E+001 +1.2585631155E+002 -8.4206579124E+001 -1.0967173529E+001 -3.0629683257E+001 +5.8137391189E+001
