!  2-Port S-parameters saved by WinCal
! VAR MeasName=S-Parameters (CALIBRATED_DATA) read from VNA (C)
! VAR MeasDate=10/5/2015 6:49:10 PM
! VAR NAME=M6079_2_7_3_3_20C_7.4mA_-17.5dBm
! VAR FILENAME=M6079_2_7_3_3_20C_7.4mA_-17.5dBm.S2P
! VAR DATE=10/5/2015 6:49:10 PM
! VAR PHYS_PORTS=2,1
! VAR ObjTypeName=DATASET
! VAR IndexType=Frequency
!
# Hz S DB R 50
45000000.000 -3.2587519357E+001 -2.5495065577E+000 -4.1645827961E+001 +1.1177933515E+002 -6.4510035189E+001 -1.9335283641E+001 -3.0761583876E+001 +5.1223622198E+000
177500000.000 -3.2103928980E+001 -1.6234491159E+001 -4.3387595181E+001 +6.8508065567E+001 -7.6282563163E+001 +8.5998241957E+001 -3.2659371718E+001 +4.5029870936E+001
310000000.000 -3.1230389121E+001 -2.9359163385E+001 -4.3567568257E+001 +3.8478048223E+001 -7.1990576193E+001 -1.1536466718E+002 -2.3350163598E+001 +6.4025050335E+001
442500000.000 -3.0001976430E+001 -3.9321388569E+001 -4.2631908164E+001 +7.6942185833E-001 -8.5816069241E+001 -1.1533427651E+002 -2.2382999507E+001 +1.7263620079E+001
575000000.000 -2.8717668683E+001 -4.8458568223E+001 -4.3170272079E+001 -3.5007657253E+001 -8.9852125811E+001 +1.1078477045E+002 -3.0543755875E+001 +2.2330206064E+001
707500000.000 -2.7671359087E+001 -5.5079003207E+001 -4.3376228658E+001 -6.8725811008E+001 -9.5504983477E+001 -1.0058702915E+002 -3.4587689957E+001 +8.3286054679E+001
840000000.000 -2.6496650411E+001 -6.0117660643E+001 -4.3432417680E+001 -1.0233654883E+002 -8.5164340513E+001 -5.3056994893E+001 -2.9679658545E+001 +1.2757935508E+002
972500000.000 -2.5460106345E+001 -6.4033352298E+001 -4.3438313743E+001 -1.3647968871E+002 -8.4924741583E+001 +1.4017154403E+002 -2.5925905615E+001 +1.3515746019E+002
1105000000.000 -2.4522278380E+001 -6.7991945966E+001 -4.3504925832E+001 -1.7007269690E+002 -8.3174896983E+001 -1.1766297465E+002 -2.4366918787E+001 +1.4062008177E+002
1237500000.000 -2.3726598577E+001 -7.0773160384E+001 -4.3503650656E+001 +1.5618118098E+002 -8.9249934736E+001 +2.8305599843E+000 -2.3389947637E+001 +1.4990045663E+002
1370000000.000 -2.2925891799E+001 -7.3634126113E+001 -4.3588324129E+001 +1.2176265694E+002 -9.2676544924E+001 +3.1633679333E+001 -2.2047949624E+001 +1.5982802152E+002
1502500000.000 -2.2240304645E+001 -7.5676288652E+001 -4.3701728234E+001 +8.7560061039E+001 -8.6324296715E+001 +1.7680876715E+002 -2.0854393694E+001 +1.6623280924E+002
1635000000.000 -2.1528622894E+001 -7.7190766600E+001 -4.3648400274E+001 +5.3871126816E+001 -9.1013663779E+001 -1.3240316112E+002 -2.0015707040E+001 +1.7320062002E+002
1767500000.000 -2.0858702133E+001 -7.9275407788E+001 -4.3690984550E+001 +1.9004491633E+001 -8.4851902167E+001 +9.0882523300E+001 -1.9002383077E+001 +1.7836498113E+002
1900000000.000 -2.0358246667E+001 -8.0580365130E+001 -4.3734264376E+001 -1.5310552016E+001 -8.3264562670E+001 +1.4599053633E+002 -1.8859889218E+001 -1.7835324068E+002
2032500000.000 -1.9841178838E+001 -8.1979764196E+001 -4.3830139543E+001 -4.8525672009E+001 -8.2867758562E+001 -2.5724421010E+001 -1.8664941565E+001 -1.6803797968E+002
2165000000.000 -1.9253184997E+001 -8.2900108686E+001 -4.3910767228E+001 -8.1872625107E+001 -8.3233389347E+001 +3.7219250272E+001 -1.7735945160E+001 -1.6115496569E+002
2297500000.000 -1.8826277415E+001 -8.4264137892E+001 -4.3764376517E+001 -1.1691747957E+002 -8.3996117616E+001 -1.0971444041E+002 -1.7232244552E+001 -1.5720458268E+002
2430000000.000 -1.8414870188E+001 -8.5148341550E+001 -4.3712538922E+001 -1.5163710933E+002 -7.5660239081E+001 -5.1455073592E+001 -1.6907127924E+001 -1.5294748843E+002
2562500000.000 -1.7955855647E+001 -8.6117444553E+001 -4.4010472163E+001 +1.7564318967E+002 -7.9950178599E+001 +5.3579380040E+000 -1.6808399173E+001 -1.5068165729E+002
2695000000.000 -1.7615950911E+001 -8.7866730985E+001 -4.4186932295E+001 +1.4049409118E+002 -8.8203499812E+001 -1.6532278516E+002 -1.7378316850E+001 -1.4742257576E+002
2827500000.000 -1.7363743112E+001 -8.8931798915E+001 -4.4415438411E+001 +1.0804066367E+002 -8.7441313004E+001 -2.8689101709E+001 -1.7816084512E+001 -1.4031042665E+002
2960000000.000 -1.7010677480E+001 -8.9513535167E+001 -4.3833092653E+001 +7.3427082731E+001 -7.9688816967E+001 +7.9988202818E+001 -1.8106215913E+001 -1.3571459112E+002
3092500000.000 -1.6595198529E+001 -9.0756180033E+001 -4.4383167739E+001 +3.9236870569E+001 -9.2955631375E+001 +1.6523157277E+002 -1.9072908118E+001 -1.2963605001E+002
3225000000.000 -1.6294828011E+001 -9.2303268766E+001 -4.4140869767E+001 +4.0345085594E+000 -8.2229977720E+001 +1.4775566519E+002 -1.9560673720E+001 -1.1973354131E+002
3357500000.000 -1.6074772854E+001 -9.3064402016E+001 -4.4520584156E+001 -2.8664763924E+001 -8.0603165934E+001 -3.2724228843E+001 -1.9898931423E+001 -1.1442839971E+002
3490000000.000 -1.5720984766E+001 -9.3819582523E+001 -4.4390507699E+001 -6.1090786761E+001 -7.8078504758E+001 +1.3674471853E+002 -2.1107486010E+001 -1.0891625628E+002
3622500000.000 -1.5359020569E+001 -9.4801512080E+001 -4.4649355042E+001 -9.4905468393E+001 -9.4703970793E+001 -1.7689317564E+001 -2.1930530761E+001 -9.8170249772E+001
3755000000.000 -1.5050734686E+001 -9.5870267067E+001 -4.4284684558E+001 -1.2845087519E+002 -9.4622219198E+001 -5.4607268816E+001 -2.2647647691E+001 -9.4689290461E+001
3887500000.000 -1.4786960847E+001 -9.6593950335E+001 -4.4081646177E+001 -1.6255614746E+002 -8.6150089629E+001 +7.5984249148E+001 -2.4980500925E+001 -8.8357442200E+001
4020000000.000 -1.4552778033E+001 -9.7205524503E+001 -4.4159731257E+001 +1.6359266374E+002 -8.0292113681E+001 -1.1898835285E+002 -2.6685018436E+001 -7.3684490685E+001
4152500000.000 -1.4253508038E+001 -9.7683485056E+001 -4.4307348152E+001 +1.2883425715E+002 -7.9350101073E+001 +2.0265344760E+000 -2.8788540297E+001 -6.4639526278E+001
4285000000.000 -1.3968270030E+001 -9.8480791439E+001 -4.4435506498E+001 +9.5645359748E+001 -7.8615670815E+001 +2.2300247039E+001 -3.3295836034E+001 -3.8606566001E+001
4417500000.000 -1.3762359279E+001 -9.9305319058E+001 -4.4615722061E+001 +6.2912146101E+001 -8.8994688219E+001 +1.7861711149E+002 -3.1766311175E+001 +7.5455268353E+000
4550000000.000 -1.3547964124E+001 -9.9569681578E+001 -4.4419945178E+001 +2.6894298600E+001 -1.0399682648E+002 +2.6736130811E+001 -3.0236080423E+001 +1.7718494129E+001
4682500000.000 -1.3282095831E+001 -1.0001312097E+002 -4.4663526834E+001 -5.6926883523E+000 -8.3849096534E+001 +1.5711135407E+002 -2.9664238891E+001 +3.7936220433E+001
4815000000.000 -1.3054784051E+001 -1.0085636048E+002 -4.4714662322E+001 -3.7639537555E+001 -8.9307480348E+001 +1.6302167696E+002 -2.7618654732E+001 +4.0753175735E+001
4947500000.000 -1.2877601652E+001 -1.0113058287E+002 -4.4554024449E+001 -7.2570674798E+001 -9.0509035899E+001 -1.2816436174E+002 -2.9297356098E+001 +3.4932617132E+001
5080000000.000 -1.2671190520E+001 -1.0128744113E+002 -4.4564889379E+001 -1.0443579775E+002 -8.8019996263E+001 -2.5511169990E+001 -3.2217417075E+001 +5.6210953694E+001
5212500000.000 -1.2443861711E+001 -1.0179555744E+002 -4.4292161142E+001 -1.3922165796E+002 -9.4920888069E+001 +1.6841073743E+002 -3.1512290685E+001 +6.8625547454E+001
5345000000.000 -1.2296590968E+001 -1.0234364996E+002 -4.4324701308E+001 -1.7312643215E+002 -1.0309604183E+002 -7.6266898641E+001 -3.5259293972E+001 +6.9409124749E+001
5477500000.000 -1.2152497747E+001 -1.0240932121E+002 -4.4302208588E+001 +1.5322041146E+002 -8.7952032225E+001 -3.0566450640E+000 -3.7402851096E+001 +1.3116210164E+002
5610000000.000 -1.1959093737E+001 -1.0261240998E+002 -4.4278128089E+001 +1.1921028520E+002 -8.3231464768E+001 -8.2619091700E+000 -3.3649026788E+001 +1.3503161608E+002
5742500000.000 -1.1813644126E+001 -1.0327485101E+002 -4.4279213591E+001 +8.4451139515E+001 -8.8444547700E+001 -1.6871164786E+002 -3.7926356269E+001 +1.5070859206E+002
5875000000.000 -1.1715999211E+001 -1.0371598064E+002 -4.4304795044E+001 +5.0470622957E+001 -8.3844193326E+001 -6.2093746517E+001 -3.3920135395E+001 -1.7029633898E+002
6007500000.000 -1.1596802780E+001 -1.0392906433E+002 -4.4210020361E+001 +1.5743401078E+001 -8.4438208503E+001 +1.2397574229E+002 -3.2678336976E+001 +1.7940257808E+002
6140000000.000 -1.1422579259E+001 -1.0427793972E+002 -4.4302388737E+001 -1.8478900343E+001 -8.5327786272E+001 +8.2861050150E+001 -3.6230959147E+001 -1.7118290800E+002
6272500000.000 -1.1276724505E+001 -1.0507086686E+002 -4.4356271939E+001 -5.2460151924E+001 -8.6264218694E+001 -8.9835363716E+001 -3.4099872185E+001 -1.4464781358E+002
6405000000.000 -1.1206923624E+001 -1.0587339548E+002 -4.4296491331E+001 -8.6447002205E+001 -1.0302787209E+002 +5.3723702218E+001 -3.3851772827E+001 -1.6193624513E+002
6537500000.000 -1.1088600108E+001 -1.0592989927E+002 -4.4523973266E+001 -1.2047510586E+002 -8.9611855012E+001 -1.0268353212E+002 -3.9967609641E+001 -1.6223386322E+002
6670000000.000 -1.0896108776E+001 -1.0630495553E+002 -4.4466913134E+001 -1.5503513900E+002 -9.8198566424E+001 -1.7033342135E+002 -3.9585418982E+001 -1.3966682091E+002
6802500000.000 -1.0733572363E+001 -1.0727237022E+002 -4.4503565545E+001 +1.7215671808E+002 -8.9868872207E+001 -1.5573170872E+002 -3.9054120440E+001 +1.7847580562E+002
6935000000.000 -1.0686551371E+001 -1.0793252485E+002 -4.4497867740E+001 +1.3808504498E+002 -9.1913730359E+001 -5.7809342118E+001 -3.8672554109E+001 +1.2389948147E+002
7067500000.000 -1.0554598696E+001 -1.0794103192E+002 -4.4571852040E+001 +1.0384668274E+002 -8.2105144833E+001 -1.3564043974E+002 -3.8684651545E+001 +1.1655139957E+002
7200000000.000 -1.0371924190E+001 -1.0838658564E+002 -4.4634482831E+001 +7.0844711785E+001 -8.8633796048E+001 +1.2986403521E+001 -3.2745388570E+001 +1.3062134755E+002
7332500000.000 -1.0245619656E+001 -1.0926776656E+002 -4.4625568258E+001 +3.6237952021E+001 -8.5368296576E+001 +2.2543406042E+001 -2.9166044140E+001 +1.1894482877E+002
7465000000.000 -1.0155908358E+001 -1.0959304596E+002 -4.4592539835E+001 +2.5829858488E+000 -8.3011614425E+001 -1.3199181271E+002 -2.8645741508E+001 +1.2343870532E+002
7597500000.000 -1.0008953316E+001 -1.0983272735E+002 -4.4789888165E+001 -3.1712821825E+001 -8.7543404521E+001 -5.9571466020E+001 -2.6040661780E+001 +1.3750099176E+002
7730000000.000 -9.8439563349E+000 -1.1026428663E+002 -4.4740033502E+001 -6.4585307651E+001 -8.7236095129E+001 +1.4438164181E+001 -2.3760859823E+001 +1.3752195084E+002
7862500000.000 -9.7405032989E+000 -1.1067224584E+002 -4.4824073468E+001 -9.8395048544E+001 -8.9570188604E+001 -1.1582887289E+002 -2.3323207215E+001 +1.4190369514E+002
7995000000.000 -9.6425500996E+000 -1.1078149329E+002 -4.4848834821E+001 -1.3219500172E+002 -8.9363441523E+001 +1.4211167515E+002 -2.1781439761E+001 +1.5439856862E+002
8127500000.000 -9.4630928642E+000 -1.1088730310E+002 -4.4931119077E+001 -1.6648748753E+002 -8.2542695277E+001 +4.9870131494E+001 -2.0029853505E+001 +1.5620096149E+002
8260000000.000 -9.3595365317E+000 -1.1147044422E+002 -4.4818377494E+001 +1.6017318960E+002 -8.3794557462E+001 -1.7015259043E+002 -1.9885650715E+001 +1.6026071168E+002
8392500000.000 -9.2711830539E+000 -1.1144452517E+002 -4.4809556292E+001 +1.2666076387E+002 -8.2158031372E+001 -7.6088528796E+001 -1.9042394449E+001 +1.7041249302E+002
8525000000.000 -9.1649944529E+000 -1.1145165976E+002 -4.4950910002E+001 +9.2036700963E+001 -7.9048006837E+001 +5.4106090523E+001 -1.8208987370E+001 +1.7285182226E+002
8657500000.000 -9.0509872591E+000 -1.1162421325E+002 -4.4835999635E+001 +5.9001085665E+001 -8.8362622147E+001 -1.7827521636E+002 -1.8563893007E+001 +1.7796358403E+002
8790000000.000 -8.9467187539E+000 -1.1181959978E+002 -4.4778267846E+001 +2.4354394371E+001 -9.1895215174E+001 -1.0201999577E+002 -1.8334855550E+001 -1.7184744212E+002
8922500000.000 -8.8897519969E+000 -1.1203407913E+002 -4.4926534381E+001 -8.5709037948E+000 -8.7877224366E+001 +3.9669528305E+001 -1.8000980034E+001 -1.6607872274E+002
9055000000.000 -8.8065900105E+000 -1.1213030877E+002 -4.4887818930E+001 -4.3494080885E+001 -9.6220793389E+001 +8.5848686956E+001 -1.8443058038E+001 -1.5823421314E+002
9187500000.000 -8.7344454490E+000 -1.1235569712E+002 -4.4811536179E+001 -7.6990595270E+001 -7.8836415118E+001 -1.7297246671E+002 -1.8355967749E+001 -1.4659236816E+002
9320000000.000 -8.6554231397E+000 -1.1290131461E+002 -4.4746144328E+001 -1.1124720729E+002 -8.3908135998E+001 -5.7038717172E+001 -1.8236728172E+001 -1.3981089114E+002
9452500000.000 -8.5965309246E+000 -1.1316955810E+002 -4.4809490182E+001 -1.4516100648E+002 -8.0949145105E+001 +1.6630849719E+002 -1.8836752178E+001 -1.3035018905E+002
9585000000.000 -8.5178747479E+000 -1.1333907733E+002 -4.4890184131E+001 -1.7903328694E+002 -9.0090568839E+001 -1.0295640368E+002 -1.8739792263E+001 -1.1847527392E+002
9717500000.000 -8.4078739168E+000 -1.1382601062E+002 -4.4957530832E+001 +1.4649698887E+002 -8.6133429862E+001 -7.2315876690E+001 -1.8851901114E+001 -1.1135333136E+002
9850000000.000 -8.3579778713E+000 -1.1453107584E+002 -4.4990688239E+001 +1.1334898283E+002 -8.9848954243E+001 +7.4942105108E+001 -1.9649447833E+001 -1.0020777517E+002
9982500000.000 -8.2937851895E+000 -1.1461823012E+002 -4.5033674849E+001 +8.0182871221E+001 -8.3511098682E+001 +1.7830817097E+002 -1.9630785033E+001 -8.6686431518E+001
10115000000.000 -8.1965836672E+000 -1.1486001803E+002 -4.4922701417E+001 +4.5217918358E+001 -9.0366727998E+001 -4.2612086996E+001 -1.9937260622E+001 -7.9413535864E+001
10247500000.000 -8.1059897177E+000 -1.1548532727E+002 -4.4987688214E+001 +1.1995475643E+001 -8.1737858870E+001 +4.7950366353E+000 -2.1165168128E+001 -6.5599484640E+001
10380000000.000 -8.0466738051E+000 -1.1587978197E+002 -4.4994945557E+001 -2.2522753550E+001 -8.5210652209E+001 +1.4408484640E+002 -2.0971218527E+001 -4.9852056603E+001
10512500000.000 -7.9708126827E+000 -1.1620288912E+002 -4.5004101356E+001 -5.5500364018E+001 -9.8570017877E+001 -8.7165508541E+001 -2.1505166949E+001 -4.2412251157E+001
10645000000.000 -7.9069698477E+000 -1.1659031386E+002 -4.5038496032E+001 -9.0017079910E+001 -8.6341333626E+001 -1.5726360123E+001 -2.2837331927E+001 -2.3582532735E+001
10777500000.000 -7.8232671513E+000 -1.1689801696E+002 -4.4948739002E+001 -1.2369073730E+002 -9.0174331136E+001 +1.6498662784E+002 -2.2105190536E+001 -5.8785333879E+000
10910000000.000 -7.7295714859E+000 -1.1728382891E+002 -4.4953822618E+001 -1.5728589866E+002 -8.3974194346E+001 -1.5120501719E+002 -2.2753547115E+001 +3.7779434625E+000
11042500000.000 -7.6415193206E+000 -1.1774784280E+002 -4.5056898435E+001 +1.6952784631E+002 -8.5409661478E+001 -1.5321772918E+001 -2.3457896065E+001 +2.7875783803E+001
11175000000.000 -7.5579984529E+000 -1.1792884541E+002 -4.5043881743E+001 +1.3455976327E+002 -9.4204209506E+001 -1.3489545284E+002 -2.2181208161E+001 +4.2764416757E+001
11307500000.000 -7.4946916577E+000 -1.1814232354E+002 -4.5034308403E+001 +1.0108513551E+002 -9.5771666483E+001 -1.0038052469E+002 -2.2689219529E+001 +5.2860220621E+001
11440000000.000 -7.4146204103E+000 -1.1851362930E+002 -4.5044862761E+001 +6.7210525269E+001 -8.4818890955E+001 -3.8943115032E+001 -2.2555645152E+001 +7.5756014531E+001
11572500000.000 -7.3178390342E+000 -1.1842753195E+002 -4.4992860099E+001 +3.2787289864E+001 -8.9978299079E+001 +3.8083581181E+001 -2.1123960717E+001 +8.7001071510E+001
11705000000.000 -7.2551939243E+000 -1.1870005965E+002 -4.5082065463E+001 -3.7765032813E-001 -8.0601108762E+001 +1.2467027088E+002 -2.1734760418E+001 +9.6966785010E+001
11837500000.000 -7.1749987276E+000 -1.1888778769E+002 -4.5181917180E+001 -3.4435189908E+001 -8.6822112595E+001 -2.4977864047E+001 -2.1076310755E+001 +1.1907406802E+002
11970000000.000 -7.1437723867E+000 -1.1901304971E+002 -4.5076263003E+001 -6.8794286055E+001 -8.8440772498E+001 +7.4178183040E+001 -1.9814944619E+001 +1.2531208642E+002
12102500000.000 -7.0996657234E+000 -1.1898114653E+002 -4.5023975247E+001 -1.0369062612E+002 -8.2465502153E+001 +1.3481156069E+002 -2.0729907398E+001 +1.3557322445E+002
12235000000.000 -7.0297759857E+000 -1.1928179528E+002 -4.5035670169E+001 -1.3668534350E+002 -8.3781287405E+001 -7.4409849149E+001 -1.9690598690E+001 +1.5435465882E+002
12367500000.000 -7.0036444774E+000 -1.1939636521E+002 -4.5032967949E+001 -1.7066836354E+002 -8.5705078385E+001 +4.5721978021E+000 -1.8882864302E+001 +1.5750978804E+002
12500000000.000 -6.9769476699E+000 -1.1987199520E+002 -4.5180845041E+001 +1.5556959314E+002 -8.3647787270E+001 -1.7618678949E+002 -2.0062180726E+001 +1.6857868295E+002
12632500000.000 -6.9134199876E+000 -1.1996072252E+002 -4.5113236918E+001 +1.2107898189E+002 -8.6825737131E+001 -1.4637720559E+001 -1.9053013417E+001 -1.7314360503E+002
12765000000.000 -6.8728039955E+000 -1.2014967169E+002 -4.5107823335E+001 +8.8378946862E+001 -8.2832838237E+001 -7.2743540992E+001 -1.8520180015E+001 -1.7190691412E+002
12897500000.000 -6.8690211870E+000 -1.2057756706E+002 -4.5189383841E+001 +5.3162874575E+001 -9.0171242339E+001 -2.1832409197E+001 -2.0161525402E+001 -1.5901028914E+002
13030000000.000 -6.8367206246E+000 -1.2072196749E+002 -4.5219978712E+001 +1.9345779794E+001 -8.7181025624E+001 -9.5585581361E+001 -1.8716855202E+001 -1.4151628204E+002
13162500000.000 -6.7626075902E+000 -1.2096245008E+002 -4.5080280060E+001 -1.4132574783E+001 -8.7828831655E+001 -9.6364624701E+000 -1.8610856964E+001 -1.4223414294E+002
13295000000.000 -6.7184084832E+000 -1.2123249558E+002 -4.5112651376E+001 -4.8770089316E+001 -8.7462524337E+001 -6.0521726530E+001 -2.0066273707E+001 -1.2760551979E+002
13427500000.000 -6.6899432486E+000 -1.2172751681E+002 -4.5284737660E+001 -8.2786872771E+001 -8.7406434867E+001 -7.1411456293E+001 -1.8749265508E+001 -1.1398189701E+002
13560000000.000 -6.6982744712E+000 -1.2163487199E+002 -4.5199975477E+001 -1.1640385859E+002 -8.9837016500E+001 -1.5610729182E+002 -1.8994710680E+001 -1.1499772310E+002
13692500000.000 -6.6161003053E+000 -1.2170724022E+002 -4.5228011175E+001 -1.4937197797E+002 -9.1140979861E+001 -1.4913062750E+002 -2.0837009253E+001 -1.0123441167E+002
13825000000.000 -6.5540873483E+000 -1.2216245961E+002 -4.5350477223E+001 +1.7560750208E+002 -7.9392354283E+001 +1.7908048020E+002 -1.9676953357E+001 -8.7413119867E+001
13957500000.000 -6.5501570272E+000 -1.2263696247E+002 -4.5318856651E+001 +1.4159522104E+002 -8.8596941593E+001 -1.4389335384E+002 -2.0324880619E+001 -9.0040841274E+001
14090000000.000 -6.5331515396E+000 -1.2267092252E+002 -4.5359101738E+001 +1.0901619738E+002 -8.1252692846E+001 +8.2396069651E+001 -2.2610124621E+001 -7.2647912359E+001
14222500000.000 -6.4682829867E+000 -1.2267748484E+002 -4.5066983925E+001 +7.3881094161E+001 -7.8389309888E+001 +1.0944878863E+002 -2.1250711447E+001 -5.9425415709E+001
14355000000.000 -6.4007524435E+000 -1.2324978373E+002 -4.5174337024E+001 +3.9324806593E+001 -7.8937340566E+001 -1.2601015527E+002 -2.2510509406E+001 -6.3153059464E+001
14487500000.000 -6.3830505557E+000 -1.2344383022E+002 -4.5161996464E+001 +5.4456115585E+000 -8.6045858027E+001 -4.7093869038E+001 -2.5365338932E+001 -3.9990342807E+001
14620000000.000 -6.3360650616E+000 -1.2329630040E+002 -4.5071709863E+001 -2.8804569918E+001 -8.2628758452E+001 -7.8712729305E+001 -2.3287033333E+001 -2.8070797553E+001
14752500000.000 -6.2294549537E+000 -1.2348888063E+002 -4.5271910720E+001 -6.3558249733E+001 -8.6194440155E+001 -8.5087889779E+001 -2.5498561493E+001 -3.5995142328E+001
14885000000.000 -6.1928066474E+000 -1.2383896192E+002 -4.5292285699E+001 -9.7239691268E+001 -7.8417239444E+001 -2.2079216640E+001 -2.8598676539E+001 +2.7302278123E+000
15017500000.000 -6.1723424322E+000 -1.2350500428E+002 -4.5406468698E+001 -1.3185022345E+002 -7.9523499819E+001 +9.2692289773E+001 -2.5371169853E+001 +7.8472857627E+000
15150000000.000 -6.0745611914E+000 -1.2328113958E+002 -4.5163889752E+001 -1.6604180713E+002 -8.1044665591E+001 -1.4059880787E+002 -2.9404939632E+001 -1.7299377415E+000
15282500000.000 -6.0045858811E+000 -1.2338026682E+002 -4.5490921471E+001 +1.6024243166E+002 -8.8115179442E+001 -3.5831046293E+001 -3.0624475057E+001 +5.8374860274E+001
