!  2-Port S-parameters saved by WinCal
! VAR MeasName=S-Parameters (CALIBRATED_DATA) read from VNA (C)
! VAR MeasDate=10/5/2015 4:55:31 PM
! VAR NAME=M6079_4_7_3_2_20C_4.8mA_-17.5dBm
! VAR FILENAME=M6079_4_7_3_2_20C_4.8mA_-17.5dBm.S2P
! VAR DATE=10/5/2015 4:55:31 PM
! VAR PHYS_PORTS=2,1
! VAR ObjTypeName=DATASET
! VAR IndexType=Frequency
!
# Hz S DB R 50
45000000.000 -2.0991673553E+001 -5.3410810903E-001 -4.2025258847E+001 +9.9397106421E+001 -6.5043705374E+001 +1.7384179744E+002 -3.0658803517E+001 +9.2637411097E+000
177500000.000 -2.0758431510E+001 -5.3719283051E+000 -4.2973739783E+001 +6.8223954008E+001 -8.0528712865E+001 +6.8588231360E+001 -3.2516391904E+001 +4.5618692664E+001
310000000.000 -2.0656260750E+001 -1.0100969517E+001 -4.3148345191E+001 +3.9305703061E+001 -7.5527151310E+001 -6.8799682454E+001 -2.3309067633E+001 +6.3759721341E+001
442500000.000 -2.0480061809E+001 -1.4952247948E+001 -4.1982133608E+001 +7.8604699119E-001 -9.2299085923E+001 -5.8071995286E+001 -2.2357108553E+001 +1.7057619669E+001
575000000.000 -2.0265067024E+001 -2.0092650450E+001 -4.2580281530E+001 -3.4886435269E+001 -8.3555897669E+001 -9.1056384340E+000 -3.0492083281E+001 +2.2483279896E+001
707500000.000 -2.0084199345E+001 -2.4393178474E+001 -4.2804248929E+001 -6.9169048437E+001 -8.9979451725E+001 +3.6521512904E+000 -3.4535012486E+001 +8.2848611865E+001
840000000.000 -1.9775797853E+001 -2.8899443494E+001 -4.2941422957E+001 -1.0296703483E+002 -8.3359864547E+001 +4.6308074152E+000 -2.9700154396E+001 +1.2754029772E+002
972500000.000 -1.9471422285E+001 -3.2889194994E+001 -4.3075936141E+001 -1.3655276881E+002 -9.4542949011E+001 -1.4538370968E+002 -2.5895156388E+001 +1.3489945981E+002
1105000000.000 -1.9170859901E+001 -3.7028831439E+001 -4.2935180626E+001 -1.7090858837E+002 -8.6666235313E+001 -1.4962573004E+002 -2.4350080444E+001 +1.4049642517E+002
1237500000.000 -1.8871213983E+001 -4.0490960462E+001 -4.3065867172E+001 +1.5510115141E+002 -8.0339483857E+001 -3.3945534525E+001 -2.3371737229E+001 +1.4982845589E+002
1370000000.000 -1.8548385868E+001 -4.4109463747E+001 -4.3125154065E+001 +1.2158082716E+002 -8.4558859892E+001 +7.8394322612E+001 -2.2030791181E+001 +1.5970477177E+002
1502500000.000 -1.8228180890E+001 -4.7140501174E+001 -4.3277985682E+001 +8.7291410180E+001 -9.3676207999E+001 +1.0470802354E+002 -2.0833092432E+001 +1.6616563494E+002
1635000000.000 -1.7859404852E+001 -4.9887126161E+001 -4.3202056804E+001 +5.3561839917E+001 -8.2721713955E+001 -3.0496042184E+001 -1.9997368988E+001 +1.7307418061E+002
1767500000.000 -1.7514153107E+001 -5.2962321700E+001 -4.3203767684E+001 +1.9305148515E+001 -8.7075815149E+001 +1.0745553147E+002 -1.8988268695E+001 +1.7831119791E+002
1900000000.000 -1.7214371823E+001 -5.5266930415E+001 -4.3223421248E+001 -1.4778631516E+001 -1.1047846873E+002 -1.3057349466E+002 -1.8847451507E+001 -1.7843410493E+002
2032500000.000 -1.6919599438E+001 -5.7613701432E+001 -4.3250179651E+001 -4.8732432752E+001 -8.3412840714E+001 -4.2849757694E+000 -1.8659842290E+001 -1.6808722380E+002
2165000000.000 -1.6535749468E+001 -5.9706397829E+001 -4.3433354166E+001 -8.2856115253E+001 -8.8413829321E+001 -8.6871652078E+000 -1.7723506457E+001 -1.6122203047E+002
2297500000.000 -1.6255698345E+001 -6.1886241998E+001 -4.3396158687E+001 -1.1643137692E+002 -8.4921861672E+001 -5.7775911888E+001 -1.7233637566E+001 -1.5725933183E+002
2430000000.000 -1.5997480479E+001 -6.3690203383E+001 -4.3672254658E+001 -1.5036036660E+002 -7.6403229783E+001 -6.2575633354E+001 -1.6905727416E+001 -1.5299000846E+002
2562500000.000 -1.5666671402E+001 -6.5496075423E+001 -4.3616466199E+001 +1.7651980308E+002 -7.6102259506E+001 +6.1009985518E+001 -1.6799665248E+001 -1.5075212354E+002
2695000000.000 -1.5453390867E+001 -6.7623386742E+001 -4.3388222219E+001 +1.4148861546E+002 -8.0661714484E+001 +1.5336078090E+002 -1.7366696030E+001 -1.4737765734E+002
2827500000.000 -1.5283225952E+001 -6.9263527592E+001 -4.3453977545E+001 +1.0851917228E+002 -8.8999512664E+001 +1.7465063191E+002 -1.7804675389E+001 -1.4039264881E+002
2960000000.000 -1.5006066195E+001 -7.0633102526E+001 -4.3738929414E+001 +7.4955309818E+001 -8.1086646521E+001 -1.5320237023E+002 -1.8100283460E+001 -1.3576254079E+002
3092500000.000 -1.4706289724E+001 -7.2547305737E+001 -4.3615519691E+001 +4.1357977610E+001 -7.9318221034E+001 +1.1126787505E+002 -1.9074280736E+001 -1.2980959596E+002
3225000000.000 -1.4514688807E+001 -7.4506748308E+001 -4.3475611538E+001 +8.8833021973E+000 -7.9905008239E+001 -1.1737328372E+002 -1.9556219642E+001 -1.1977656545E+002
3357500000.000 -1.4343214954E+001 -7.5707820502E+001 -4.3749792354E+001 -2.6376903821E+001 -8.5986943279E+001 +2.4476508097E+001 -1.9884042632E+001 -1.1457103816E+002
3490000000.000 -1.4055131778E+001 -7.7110321324E+001 -4.3842306350E+001 -5.9066506797E+001 -8.0903452621E+001 +1.3702179813E+002 -2.1100170215E+001 -1.0910963173E+002
3622500000.000 -1.3786130122E+001 -7.8813734830E+001 -4.3680769045E+001 -9.3207149543E+001 -8.3186565137E+001 -1.0767414128E+002 -2.1929822641E+001 -9.8354369720E+001
3755000000.000 -1.3558000218E+001 -8.0273418240E+001 -4.3791758157E+001 -1.2709522243E+002 -8.6864561588E+001 -6.0119450673E+001 -2.2616729019E+001 -9.4714086793E+001
3887500000.000 -1.3330976528E+001 -8.1541149334E+001 -4.3724622755E+001 -1.6147948862E+002 -7.9610244169E+001 +3.5963756113E+001 -2.4931564712E+001 -8.8582697409E+001
4020000000.000 -1.3132845953E+001 -8.2703821313E+001 -4.3679656529E+001 +1.6423775507E+002 -8.5380976670E+001 -2.5292415185E+001 -2.6666567939E+001 -7.3688186734E+001
4152500000.000 -1.2892995555E+001 -8.3723065764E+001 -4.3723677932E+001 +1.3052281512E+002 -9.0662237634E+001 +1.2978528544E+002 -2.8755602201E+001 -6.4811786481E+001
4285000000.000 -1.2655603266E+001 -8.4956449267E+001 -4.3888518004E+001 +9.6066622806E+001 -8.0821288833E+001 +4.1964368124E+001 -3.3173824394E+001 -3.9397155956E+001
4417500000.000 -1.2475904401E+001 -8.6175409127E+001 -4.3848663897E+001 +6.1818127831E+001 -8.7918420376E+001 +1.3303069617E+002 -3.1746431442E+001 +6.8978165992E+000
4550000000.000 -1.2286058081E+001 -8.6849201210E+001 -4.3994114342E+001 +2.8563493234E+001 -8.5883724218E+001 +1.5511993701E+002 -3.0203006860E+001 +1.7266973585E+001
4682500000.000 -1.2057701176E+001 -8.7723743677E+001 -4.4035413673E+001 -4.9320764343E+000 -7.9828803249E+001 +6.1267781370E+001 -2.9645205693E+001 +3.7200655808E+001
4815000000.000 -1.1867957620E+001 -8.8902973556E+001 -4.4272843836E+001 -3.8138530034E+001 -8.6647921889E+001 +1.6591145044E+002 -2.7608203011E+001 +4.0166403138E+001
4947500000.000 -1.1711112953E+001 -8.9511829416E+001 -4.4200690773E+001 -7.1834800026E+001 -8.6358534136E+001 -7.9992351286E+000 -2.9282544059E+001 +3.4178971173E+001
5080000000.000 -1.1516117831E+001 -9.0013167660E+001 -4.4068812061E+001 -1.0495615762E+002 -8.4493007169E+001 +1.7265278153E+001 -3.2205418784E+001 +5.5115091986E+001
5212500000.000 -1.1322029129E+001 -9.0920722769E+001 -4.4153953926E+001 -1.3733806846E+002 -8.8302438241E+001 +1.6996452463E+002 -3.1547053197E+001 +6.7647605430E+001
5345000000.000 -1.1199564065E+001 -9.1707919901E+001 -4.4012513359E+001 -1.7124130982E+002 -8.5509111033E+001 -1.6831790179E+002 -3.5334941159E+001 +6.7992811450E+001
5477500000.000 -1.1060111588E+001 -9.1999476980E+001 -4.3901779322E+001 +1.5491133213E+002 -8.2809345454E+001 +2.5480717948E+001 -3.7597553356E+001 +1.3037858672E+002
5610000000.000 -1.0877799956E+001 -9.2597701155E+001 -4.3957688063E+001 +1.1988624782E+002 -9.0077430694E+001 +1.0662243701E+002 -3.3783295562E+001 +1.3420386988E+002
5742500000.000 -1.0758709913E+001 -9.3471697040E+001 -4.3930335712E+001 +8.5691892502E+001 -8.4311123368E+001 -1.0494406508E+002 -3.8209640034E+001 +1.4955744991E+002
5875000000.000 -1.0668500756E+001 -9.4058174237E+001 -4.3941661834E+001 +5.2018637938E+001 -9.0472240765E+001 +1.6581208015E+002 -3.4083220241E+001 -1.7046404047E+002
6007500000.000 -1.0548459438E+001 -9.4468948138E+001 -4.4058321628E+001 +1.7048725344E+001 -8.1378378115E+001 +6.6344839815E+001 -3.2797493003E+001 +1.7890067794E+002
6140000000.000 -1.0392681167E+001 -9.5126602829E+001 -4.3983356790E+001 -1.6690137346E+001 -8.3952345941E+001 +1.3949248831E+002 -3.6414627295E+001 -1.7163311421E+002
6272500000.000 -1.0272909361E+001 -9.6088149912E+001 -4.4078043373E+001 -5.0346308813E+001 -8.6005256827E+001 -9.0856560079E+001 -3.4248379163E+001 -1.4463790877E+002
6405000000.000 -1.0211634567E+001 -9.6946167463E+001 -4.3897701916E+001 -8.5152133057E+001 -8.2845319700E+001 +1.2739546311E+001 -3.3935162048E+001 -1.6252695424E+002
6537500000.000 -1.0098512378E+001 -9.7244671405E+001 -4.3996214502E+001 -1.1900562887E+002 -8.8154149128E+001 +1.4133976559E+002 -4.0136337453E+001 -1.6349268201E+002
6670000000.000 -9.9276999833E+000 -9.7843947666E+001 -4.3963986135E+001 -1.5245042972E+002 -1.0038187266E+002 +7.1349932932E+001 -3.9867612908E+001 -1.4031983256E+002
6802500000.000 -9.7895607004E+000 -9.8984971941E+001 -4.4064907292E+001 +1.7368775036E+002 -8.7088682864E+001 -1.2431416314E+001 -3.9044128008E+001 +1.7739510408E+002
6935000000.000 -9.7505510891E+000 -9.9766614294E+001 -4.4017112243E+001 +1.4004083320E+002 -9.7481656859E+001 -2.9995740342E+001 -3.8422995025E+001 +1.2388786284E+002
7067500000.000 -9.6299244584E+000 -9.9966695674E+001 -4.4012167861E+001 +1.0589327987E+002 -9.0490522437E+001 -1.0974270009E+002 -3.8458072025E+001 +1.1658142052E+002
7200000000.000 -9.4595151458E+000 -1.0062109155E+002 -4.4124785604E+001 +7.2293651234E+001 -8.4729994149E+001 +4.1749958302E+001 -3.2659629844E+001 +1.3040477186E+002
7332500000.000 -9.3519651384E+000 -1.0167074060E+002 -4.4217756225E+001 +3.8110967734E+001 -8.7923762711E+001 +4.7466944631E+001 -2.9130352475E+001 +1.1908831268E+002
7465000000.000 -9.2765913281E+000 -1.0215853786E+002 -4.4169939549E+001 +4.5705760915E+000 -8.5819996733E+001 -1.3071757505E+002 -2.8593947782E+001 +1.2365256709E+002
7597500000.000 -9.1345580501E+000 -1.0252175048E+002 -4.4247984661E+001 -2.9145265668E+001 -1.0704459224E+002 +7.1763450204E+001 -2.6013100361E+001 +1.3744514987E+002
7730000000.000 -8.9887972894E+000 -1.0318810249E+002 -4.4282303506E+001 -6.2285625935E+001 -8.9305325677E+001 +1.5781965570E+002 -2.3747813760E+001 +1.3752768995E+002
7862500000.000 -8.8941470688E+000 -1.0373574285E+002 -4.4237248369E+001 -9.6374345075E+001 -9.7889790184E+001 +5.7327387781E+001 -2.3306684208E+001 +1.4192809935E+002
7995000000.000 -8.8059291874E+000 -1.0398130929E+002 -4.4298533714E+001 -1.2925472228E+002 -8.9241431496E+001 -7.5492709352E+001 -2.1773640424E+001 +1.5439050931E+002
8127500000.000 -8.6352309112E+000 -1.0427118774E+002 -4.4327749407E+001 -1.6417164881E+002 -8.1547516353E+001 +4.5594301437E+001 -2.0024573870E+001 +1.5614923067E+002
8260000000.000 -8.5429260147E+000 -1.0495761889E+002 -4.4434232660E+001 +1.6257849496E+002 -9.8232203030E+001 +1.0479807262E+002 -1.9884683097E+001 +1.6019195103E+002
8392500000.000 -8.4577690170E+000 -1.0510304931E+002 -4.4274956369E+001 +1.2847414284E+002 -8.7902232128E+001 -3.2312210562E+001 -1.9042380930E+001 +1.7037677208E+002
8525000000.000 -8.3598307779E+000 -1.0526876992E+002 -4.4283584005E+001 +9.5169721803E+001 -8.4940300104E+001 +1.2570512746E+001 -1.8200812241E+001 +1.7275113157E+002
8657500000.000 -8.2534304402E+000 -1.0558014899E+002 -4.4259603268E+001 +6.0850279660E+001 -8.7427609758E+001 +1.1104778190E+002 -1.8563907532E+001 +1.7781527319E+002
8790000000.000 -8.1565336008E+000 -1.0585110495E+002 -4.4199016568E+001 +2.7275379015E+001 -9.8712736893E+001 +1.3172524307E+002 -1.8340294997E+001 -1.7198454369E+002
8922500000.000 -8.1020621088E+000 -1.0619781068E+002 -4.4273493810E+001 -6.3426590944E+000 -8.5274389852E+001 -2.8992202855E+001 -1.8001252437E+001 -1.6627497649E+002
9055000000.000 -8.0138613427E+000 -1.0639165052E+002 -4.4235871988E+001 -4.0764651033E+001 -8.7127537820E+001 +4.8631837255E+001 -1.8441544743E+001 -1.5843671240E+002
9187500000.000 -7.9499935861E+000 -1.0669401583E+002 -4.4260108873E+001 -7.4223446867E+001 -9.0480935102E+001 -1.4548532278E+002 -1.8357851681E+001 -1.4676604509E+002
9320000000.000 -7.8770026582E+000 -1.0729486776E+002 -4.4105609803E+001 -1.0815427625E+002 -9.3421481711E+001 -5.6820682901E+001 -1.8237191954E+001 -1.3995296420E+002
9452500000.000 -7.8159370711E+000 -1.0764760979E+002 -4.4044414624E+001 -1.4228094804E+002 -8.4216978524E+001 -8.3053088623E+001 -1.8823420749E+001 -1.3055636799E+002
9585000000.000 -7.7471497304E+000 -1.0795400448E+002 -4.4193214043E+001 -1.7619402418E+002 -9.3120894827E+001 -1.6175459951E+002 -1.8732510168E+001 -1.1870950271E+002
9717500000.000 -7.6462878150E+000 -1.0852295866E+002 -4.4205465897E+001 +1.5068571986E+002 -8.5030030400E+001 +3.8855804887E+001 -1.8839912249E+001 -1.1166362146E+002
9850000000.000 -7.6003492957E+000 -1.0925273165E+002 -4.4038773163E+001 +1.1595524457E+002 -9.1627794080E+001 -5.6916748963E+001 -1.9639960716E+001 -1.0044588703E+002
9982500000.000 -7.5404624582E+000 -1.0944407865E+002 -4.4277625135E+001 +8.1883174900E+001 -8.7944399036E+001 -1.1267395699E+002 -1.9604539940E+001 -8.6964162294E+001
10115000000.000 -7.4505049091E+000 -1.0983076290E+002 -4.4205963202E+001 +4.7815043325E+001 -8.8119246064E+001 -8.3142978900E+001 -1.9936655169E+001 -7.9751822249E+001
10247500000.000 -7.3697471698E+000 -1.1047238157E+002 -4.4251626980E+001 +1.4488671585E+001 -8.5069837684E+001 -1.4263880437E+002 -2.1135680177E+001 -6.5933308485E+001
10380000000.000 -7.3201957130E+000 -1.1094536664E+002 -4.4218449351E+001 -2.0036596705E+001 -8.6974716069E+001 +8.3532742323E+001 -2.0944537548E+001 -5.0330145933E+001
10512500000.000 -7.2468673271E+000 -1.1138260728E+002 -4.4171093964E+001 -5.3698916540E+001 -8.8233782663E+001 -6.3937433265E+001 -2.1470138730E+001 -4.2814743761E+001
10645000000.000 -7.1860826059E+000 -1.1188198586E+002 -4.4169666142E+001 -8.6967370385E+001 -8.8031360909E+001 +6.8852580173E+001 -2.2830992976E+001 -2.4007681215E+001
10777500000.000 -7.1143625332E+000 -1.1223817740E+002 -4.4016051824E+001 -1.2125353437E+002 -8.4612008310E+001 +9.9692364590E+001 -2.2078842304E+001 -6.3521504057E+000
10910000000.000 -7.0281842837E+000 -1.1268859079E+002 -4.4210641433E+001 -1.5602692564E+002 -8.3513455684E+001 -1.2987601106E+002 -2.2721789076E+001 +3.0093301764E+000
11042500000.000 -6.9376516033E+000 -1.1325651167E+002 -4.4302359837E+001 +1.7070093944E+002 -8.1536982490E+001 -6.9530425408E+001 -2.3457593105E+001 +2.7007492073E+001
11175000000.000 -6.8668674133E+000 -1.1356050920E+002 -4.4173927298E+001 +1.3819880358E+002 -8.7557428995E+001 +2.2195006642E+001 -2.2165143078E+001 +4.2185969364E+001
11307500000.000 -6.8097509276E+000 -1.1383572603E+002 -4.3996935164E+001 +1.0240040100E+002 -9.2952188763E+001 -3.7933820179E+001 -2.2699086117E+001 +5.2173665844E+001
11440000000.000 -6.7347159084E+000 -1.1424332571E+002 -4.4110864299E+001 +6.8846458288E+001 -8.3236985140E+001 -7.0466641815E+001 -2.2603173045E+001 +7.5011585537E+001
11572500000.000 -6.6419306607E+000 -1.1432348869E+002 -4.4122693287E+001 +3.5593579582E+001 -8.2867900094E+001 +1.0785180342E+002 -2.1137442130E+001 +8.6382481090E+001
11705000000.000 -6.5885070789E+000 -1.1470812830E+002 -4.4090534522E+001 +1.2120809124E+000 -1.0935305527E+002 -1.2964137511E+002 -2.1740394681E+001 +9.6202466734E+001
11837500000.000 -6.5149772197E+000 -1.1492005803E+002 -4.4211242789E+001 -3.3471652458E+001 -9.7543980413E+001 -5.2723091540E+001 -2.1094152761E+001 +1.1839578971E+002
11970000000.000 -6.4858253411E+000 -1.1508320298E+002 -4.4188163789E+001 -6.8650518365E+001 -8.7021429186E+001 +1.9166615283E+001 -1.9816534433E+001 +1.2466646057E+002
12102500000.000 -6.4424294978E+000 -1.1519076787E+002 -4.4167877655E+001 -1.0184455001E+002 -8.4049851386E+001 +1.7292562438E+002 -2.0733145795E+001 +1.3500672644E+002
12235000000.000 -6.3802173366E+000 -1.1556089444E+002 -4.4064433368E+001 -1.3530383490E+002 -8.7951825862E+001 -5.2967482162E+001 -1.9699309156E+001 +1.5375408946E+002
12367500000.000 -6.3627193458E+000 -1.1572561264E+002 -4.4174791457E+001 -1.7008953024E+002 -8.0555878107E+001 +4.2213686876E+001 -1.8891240938E+001 +1.5692139386E+002
12500000000.000 -6.3302605755E+000 -1.1621903114E+002 -4.4207064328E+001 +1.5550980285E+002 -8.3145499281E+001 -1.7278219581E+002 -2.0053065993E+001 +1.6790124962E+002
12632500000.000 -6.2709702219E+000 -1.1633406325E+002 -4.4092837345E+001 +1.2237535899E+002 -8.8077177461E+001 -1.7660638065E+002 -1.9034617058E+001 -1.7367989408E+002
12765000000.000 -6.2373011546E+000 -1.1664281805E+002 -4.4186207921E+001 +8.7694537605E+001 -8.7035288782E+001 -9.7869210791E+001 -1.8507775930E+001 -1.7242019594E+002
12897500000.000 -6.2347971487E+000 -1.1706037754E+002 -4.4438201547E+001 +5.4429499179E+001 -8.8383084373E+001 -1.6210814386E+002 -2.0160638512E+001 -1.5959327146E+002
13030000000.000 -6.2007791537E+000 -1.1718458760E+002 -4.4200225668E+001 +2.0741967954E+001 -8.5678283871E+001 -3.5465401838E+001 -1.8709600002E+001 -1.4208635234E+002
13162500000.000 -6.1342496395E+000 -1.1751818930E+002 -4.4232322532E+001 -1.3939703393E+001 -8.2185939120E+001 -8.5691410083E+001 -1.8564339224E+001 -1.4285998107E+002
13295000000.000 -6.0901757960E+000 -1.1783661015E+002 -4.4227045368E+001 -4.8161786292E+001 -8.3824405668E+001 +9.1070855432E+001 -2.0041851725E+001 -1.2825233091E+002
13427500000.000 -6.0697765119E+000 -1.1836149559E+002 -4.4246965301E+001 -8.1608122431E+001 -8.5469396200E+001 -7.2337901813E+001 -1.8705941505E+001 -1.1447434529E+002
13560000000.000 -6.0721829890E+000 -1.1830611665E+002 -4.4122078887E+001 -1.1540236321E+002 -8.2929191182E+001 +2.4400643206E+001 -1.8926382989E+001 -1.1555261636E+002
13692500000.000 -5.9990010294E+000 -1.1847724401E+002 -4.4308940261E+001 -1.5016245760E+002 -8.0380234375E+001 +1.0122815201E+002 -2.0790889280E+001 -1.0189494624E+002
13825000000.000 -5.9433803960E+000 -1.1892650567E+002 -4.4103367030E+001 +1.7607953537E+002 -8.2381928502E+001 +1.0901388963E+002 -1.9613919509E+001 -8.7816846470E+001
13957500000.000 -5.9406557357E+000 -1.1943844486E+002 -4.4261822146E+001 +1.4194967237E+002 -8.3444781797E+001 -8.8279770547E+001 -2.0251545486E+001 -9.0535480012E+001
14090000000.000 -5.9196942662E+000 -1.1952128936E+002 -4.4019455365E+001 +1.0802598448E+002 -8.0545918716E+001 +9.6384116552E+001 -2.2525082713E+001 -7.3283677120E+001
14222500000.000 -5.8623665269E+000 -1.1959793660E+002 -4.4361205685E+001 +7.3516717238E+001 -8.1955450137E+001 +1.7751033096E+002 -2.1182933969E+001 -5.9801252872E+001
14355000000.000 -5.8051529171E+000 -1.2018240181E+002 -4.4216323293E+001 +3.9525071094E+001 -8.4197142837E+001 -1.0433545405E+002 -2.2408728682E+001 -6.3483962557E+001
14487500000.000 -5.7872984827E+000 -1.2040763467E+002 -4.4267871335E+001 +4.1589539632E+000 -8.6246405922E+001 +4.2357978433E+001 -2.5243808512E+001 -4.0590455284E+001
14620000000.000 -5.7466116410E+000 -1.2031143825E+002 -4.4214731301E+001 -2.8668552610E+001 -7.7303191440E+001 -1.7100020349E+002 -2.3202140741E+001 -2.8395461216E+001
14752500000.000 -5.6479351498E+000 -1.2056788646E+002 -4.4256032003E+001 -6.3361156503E+001 -8.8310164679E+001 -9.4352041491E+001 -2.5392971915E+001 -3.5989851107E+001
14885000000.000 -5.6144986205E+000 -1.2094830321E+002 -4.4257886309E+001 -9.6937460404E+001 -8.9220668402E+001 +1.3266459082E-001 -2.8396427791E+001 +2.3711117513E+000
15017500000.000 -5.5939952571E+000 -1.2069681498E+002 -4.4218486442E+001 -1.3184133090E+002 -8.2417780282E+001 +1.2950395444E+002 -2.5278179051E+001 +7.3340832292E+000
15150000000.000 -5.5026343458E+000 -1.2051540741E+002 -4.4372245794E+001 -1.6532522041E+002 -8.5367269226E+001 -9.2209978795E+001 -2.9281896672E+001 -1.5273558164E+000
15282500000.000 -5.4366192581E+000 -1.2068114069E+002 -4.4394804013E+001 +1.6003160495E+002 -7.9044083680E+001 -5.1288533320E+001 -3.0433441291E+001 +5.7779559599E+001
