!  2-Port S-parameters saved by WinCal
! VAR MeasName=S-Parameters (CALIBRATED_DATA) read from VNA (C)
! VAR MeasDate=10/5/2015 4:52:07 PM
! VAR NAME=M6079_4_7_3_2_20C_2.9mA_-17.5dBm
! VAR FILENAME=M6079_4_7_3_2_20C_2.9mA_-17.5dBm.S2P
! VAR DATE=10/5/2015 4:52:07 PM
! VAR PHYS_PORTS=2,1
! VAR ObjTypeName=DATASET
! VAR IndexType=Frequency
!
# Hz S DB R 50
45000000.000 -1.6978622736E+001 -6.0507329644E-001 -4.2226869871E+001 +1.0031526713E+002 -7.4651756207E+001 -9.4959951171E+001 -3.0494820937E+001 +5.5658924250E+000
177500000.000 -1.6915893090E+001 -4.2148863555E+000 -4.3434222754E+001 +6.8345119971E+001 -8.3407253116E+001 +1.4198590009E+002 -3.2561677256E+001 +4.6189763941E+001
310000000.000 -1.6837700080E+001 -7.8242620168E+000 -4.3356389687E+001 +4.0510364269E+001 -8.0101487220E+001 +1.5387437686E+002 -2.3307893803E+001 +6.3736788872E+001
442500000.000 -1.6748184656E+001 -1.1611204055E+001 -4.2148911739E+001 +2.1343672571E-001 -8.1604343293E+001 -3.8758847006E+001 -2.2357621911E+001 +1.7124652540E+001
575000000.000 -1.6646418452E+001 -1.5569916056E+001 -4.2763334265E+001 -3.6324601272E+001 -8.6179467295E+001 +1.0956652602E+002 -3.0524788800E+001 +2.2388022398E+001
707500000.000 -1.6561836070E+001 -1.8995103439E+001 -4.3065255206E+001 -6.9651474727E+001 -8.6003773242E+001 +1.4662426083E+002 -3.4589889923E+001 +8.2800092953E+001
840000000.000 -1.6401823386E+001 -2.2639863707E+001 -4.3106883085E+001 -1.0373112370E+002 -8.9329546886E+001 -1.6902031127E+002 -2.9710295576E+001 +1.2761495516E+002
972500000.000 -1.6234550974E+001 -2.5971977210E+001 -4.3141463750E+001 -1.3774557261E+002 -8.4352440400E+001 +1.1419481574E+002 -2.5902311491E+001 +1.3512349195E+002
1105000000.000 -1.6083307554E+001 -2.9481686134E+001 -4.3258071950E+001 -1.7165568885E+002 -8.1802687830E+001 -1.4600759249E+002 -2.4362996820E+001 +1.4058289243E+002
1237500000.000 -1.5918295287E+001 -3.2554805725E+001 -4.3342670742E+001 +1.5449963336E+002 -8.8009286016E+001 +4.0441929890E+001 -2.3384164382E+001 +1.4991510205E+002
1370000000.000 -1.5727897023E+001 -3.5822002482E+001 -4.3368699106E+001 +1.2043410556E+002 -8.5475954568E+001 +4.5154512106E+001 -2.2041699137E+001 +1.5979603195E+002
1502500000.000 -1.5546422935E+001 -3.8663896546E+001 -4.3471935399E+001 +8.6754849944E+001 -8.8177396896E+001 +1.3804176749E+002 -2.0851560503E+001 +1.6622745909E+002
1635000000.000 -1.5314377957E+001 -4.1331704657E+001 -4.3440423489E+001 +5.2577949237E+001 -9.6186209491E+001 -1.5374646127E+002 -2.0002588776E+001 +1.7314046849E+002
1767500000.000 -1.5088239443E+001 -4.4264240905E+001 -4.3457685166E+001 +1.8503771390E+001 -8.7002129214E+001 +7.6760164279E+001 -1.8995997076E+001 +1.7832332958E+002
1900000000.000 -1.4903881846E+001 -4.6640210149E+001 -4.3403375014E+001 -1.6094215052E+001 -8.6965024071E+001 -6.1122901863E+001 -1.8856392099E+001 -1.7841907462E+002
2032500000.000 -1.4715357563E+001 -4.9000044945E+001 -4.3502192439E+001 -5.0413262891E+001 -8.9758647255E+001 -1.2252745728E+002 -1.8658315380E+001 -1.6803957892E+002
2165000000.000 -1.4438998034E+001 -5.1236903046E+001 -4.3598590245E+001 -8.4756348087E+001 -9.8044211207E+001 +5.2761163652E+001 -1.7727667247E+001 -1.6118781317E+002
2297500000.000 -1.4255072396E+001 -5.3479806451E+001 -4.3606018834E+001 -1.1805216190E+002 -9.4016067683E+001 -1.3793123432E+002 -1.7231542793E+001 -1.5720997549E+002
2430000000.000 -1.4076481179E+001 -5.5360341913E+001 -4.3797378684E+001 -1.5091519666E+002 -7.6244233259E+001 -9.8312279165E+001 -1.6898084684E+001 -1.5301912503E+002
2562500000.000 -1.3832354320E+001 -5.7358385127E+001 -4.3629469394E+001 +1.7515624489E+002 -7.7160032127E+001 -4.0575436246E+000 -1.6793651301E+001 -1.5074315804E+002
2695000000.000 -1.3696614660E+001 -5.9622950901E+001 -4.3773747670E+001 +1.4075808557E+002 -8.5337820452E+001 -9.7383941506E+001 -1.7390850420E+001 -1.4739275358E+002
2827500000.000 -1.3568956196E+001 -6.1302188875E+001 -4.3858494865E+001 +1.0567153689E+002 -8.0123233094E+001 -1.3954523315E+002 -1.7813429089E+001 -1.4041982694E+002
2960000000.000 -1.3358310060E+001 -6.2863456959E+001 -4.3793867123E+001 +7.2531201076E+001 -7.4116879714E+001 +2.2276574791E+001 -1.8091965194E+001 -1.3586728080E+002
3092500000.000 -1.3142464874E+001 -6.4908641488E+001 -4.3822689478E+001 +3.8494164188E+001 -8.3746007191E+001 -1.3373729233E+002 -1.9083549846E+001 -1.2976074660E+002
3225000000.000 -1.3004030470E+001 -6.6949158026E+001 -4.4033066983E+001 +5.6859406780E+000 -7.8959098450E+001 -1.1832486411E+002 -1.9559723018E+001 -1.1984486843E+002
3357500000.000 -1.2879114023E+001 -6.8336615316E+001 -4.3884093504E+001 -2.6870778631E+001 -7.9864320683E+001 +6.9497324774E+001 -1.9878411416E+001 -1.1458486886E+002
3490000000.000 -1.2649227438E+001 -6.9939347498E+001 -4.3906235200E+001 -6.0468174413E+001 -7.4612596074E+001 +1.2843356215E+002 -2.1103744748E+001 -1.0917034516E+002
3622500000.000 -1.2437454754E+001 -7.1738674220E+001 -4.3781825313E+001 -9.5003852105E+001 -8.2144993690E+001 +1.2040846874E+002 -2.1949627349E+001 -9.8348691492E+001
3755000000.000 -1.2264884917E+001 -7.3368979316E+001 -4.3868075410E+001 -1.2888926189E+002 -8.1679531062E+001 -6.6081662988E+000 -2.2623793740E+001 -9.4688266765E+001
3887500000.000 -1.2082458995E+001 -7.4801276886E+001 -4.3747792473E+001 -1.6243696147E+002 -7.6719356958E+001 +1.6644633749E+002 -2.4956407029E+001 -8.8650202368E+001
4020000000.000 -1.1921639292E+001 -7.6119357998E+001 -4.3973655372E+001 +1.6233501030E+002 -7.9350040882E+001 -1.5137341773E+002 -2.6658517365E+001 -7.3674309375E+001
4152500000.000 -1.1720557160E+001 -7.7342879906E+001 -4.3750415134E+001 +1.2793863843E+002 -8.5127904900E+001 +8.0498099487E+001 -2.8746810925E+001 -6.4772922998E+001
4285000000.000 -1.1523891890E+001 -7.8744992469E+001 -4.3938691626E+001 +9.4262677702E+001 -8.7755041433E+001 -3.2715652480E+001 -3.3198800914E+001 -3.9183983085E+001
4417500000.000 -1.1379376652E+001 -8.0083250657E+001 -4.4000759991E+001 +5.9596590959E+001 -9.7462671110E+001 +1.2816013576E+002 -3.1756886018E+001 +6.9786150219E+000
4550000000.000 -1.1216538273E+001 -8.0939745003E+001 -4.4095751109E+001 +2.6436807211E+001 -8.0342900724E+001 -5.7772671690E+001 -3.0239724139E+001 +1.7240113937E+001
4682500000.000 -1.1019322624E+001 -8.1996521833E+001 -4.4179880338E+001 -6.9018516129E+000 -8.2741338350E+001 +1.4080249979E+001 -2.9663937243E+001 +3.7298785101E+001
4815000000.000 -1.0861519039E+001 -8.3320305158E+001 -4.4177752865E+001 -4.0540654321E+001 -9.2209898700E+001 +1.2480980853E+002 -2.7624636160E+001 +4.0395985410E+001
4947500000.000 -1.0726556560E+001 -8.4061794607E+001 -4.4105190302E+001 -7.3369182640E+001 -9.5028540457E+001 +9.2729829549E-001 -2.9292144417E+001 +3.4337659535E+001
5080000000.000 -1.0557403264E+001 -8.4763135515E+001 -4.3994500514E+001 -1.0762482029E+002 -8.5583828830E+001 +1.7316469361E+000 -3.2267612385E+001 +5.5227235913E+001
5212500000.000 -1.0389662670E+001 -8.5803548643E+001 -4.3807781388E+001 -1.4079581918E+002 -8.8403896480E+001 +1.3621042699E+002 -3.1541062427E+001 +6.7643770408E+001
5345000000.000 -1.0283749170E+001 -8.6701808672E+001 -4.3770552331E+001 -1.7544911519E+002 -8.8182044584E+001 -6.0491782769E+001 -3.5321200198E+001 +6.7998465528E+001
5477500000.000 -1.0157829041E+001 -8.7152497573E+001 -4.3746233922E+001 +1.5099400287E+002 -9.2228757524E+001 -1.4670494019E+002 -3.7687619020E+001 +1.3082473438E+002
5610000000.000 -9.9942748121E+000 -8.7897003175E+001 -4.3700252835E+001 +1.1683724921E+002 -8.7066790447E+001 +7.7799976485E+001 -3.3760106790E+001 +1.3453001015E+002
5742500000.000 -9.8967246032E+000 -8.8855220481E+001 -4.3592260278E+001 +8.2517293236E+001 -8.4545543090E+001 -1.1647886674E+002 -3.8269480466E+001 +1.4936602236E+002
5875000000.000 -9.8140709460E+000 -8.9531836895E+001 -4.3538838266E+001 +4.7733216230E+001 -9.1875072160E+001 +2.0803580819E+001 -3.4075772490E+001 -1.7012756630E+002
6007500000.000 -9.7067198645E+000 -9.0053457513E+001 -4.3484925911E+001 +1.3048448945E+001 -1.0117089296E+002 -4.5185972315E-001 -3.2780222108E+001 +1.7921703339E+002
6140000000.000 -9.5655162106E+000 -9.0838928046E+001 -4.3557028337E+001 -2.0654050017E+001 -1.0125154182E+002 +3.3739638360E+001 -3.6404027361E+001 -1.7121786509E+002
6272500000.000 -9.4635420368E+000 -9.1861269297E+001 -4.3556620612E+001 -5.4683540335E+001 -9.5764189437E+001 -1.2979592181E+002 -3.4245315980E+001 -1.4432347443E+002
6405000000.000 -9.4085186644E+000 -9.2759356302E+001 -4.3525231187E+001 -8.8462420150E+001 -1.0298721867E+002 +8.3286205952E+001 -3.3935163572E+001 -1.6229312597E+002
6537500000.000 -9.3059182203E+000 -9.3169070163E+001 -4.3559958664E+001 -1.2325682119E+002 -8.5236277307E+001 -1.4093877669E+002 -4.0153516767E+001 -1.6374024022E+002
6670000000.000 -9.1519883974E+000 -9.3892135795E+001 -4.3511596896E+001 -1.5712335893E+002 -8.5242851811E+001 -6.4183824974E+001 -3.9921820496E+001 -1.4028785707E+002
6802500000.000 -9.0321554481E+000 -9.5111358829E+001 -4.3509160251E+001 +1.6936702167E+002 -8.7159326292E+001 -1.1820103562E+001 -3.9055740554E+001 +1.7751917590E+002
6935000000.000 -8.9990658743E+000 -9.5908676288E+001 -4.3479508282E+001 +1.3451841303E+002 -8.8460003413E+001 +8.6235185806E+001 -3.8483592647E+001 +1.2380906633E+002
7067500000.000 -8.8904701925E+000 -9.6231370281E+001 -4.3451978792E+001 +1.0032884478E+002 -8.5749891317E+001 -1.5829002825E+002 -3.8436274785E+001 +1.1627522230E+002
7200000000.000 -8.7393827417E+000 -9.7014091963E+001 -4.3495695586E+001 +6.6834672012E+001 -8.1976620524E+001 -1.8031559573E+001 -3.2689413759E+001 +1.3044241258E+002
7332500000.000 -8.6451138388E+000 -9.8102337749E+001 -4.3483695868E+001 +3.2415177057E+001 -8.7850355606E+001 +7.6649491297E+001 -2.9120415616E+001 +1.1905187410E+002
7465000000.000 -8.5769472250E+000 -9.8664798317E+001 -4.3449543516E+001 -1.9715025430E+000 -8.6325756130E+001 -1.2892324400E+002 -2.8596914842E+001 +1.2347151158E+002
7597500000.000 -8.4522704339E+000 -9.9142086531E+001 -4.3550295478E+001 -3.5236561547E+001 -8.9441388016E+001 -8.8942955521E+001 -2.6014982320E+001 +1.3733283370E+002
7730000000.000 -8.3149873073E+000 -9.9893216382E+001 -4.3496671188E+001 -7.0096316707E+001 -1.0902411245E+002 +8.2798758297E+001 -2.3744255438E+001 +1.3754689001E+002
7862500000.000 -8.2281822317E+000 -1.0050387477E+002 -4.3444308155E+001 -1.0370869341E+002 -8.3161731001E+001 -1.1199134901E+002 -2.3308667606E+001 +1.4186702947E+002
7995000000.000 -8.1485842601E+000 -1.0081836468E+002 -4.3419934821E+001 -1.3706109939E+002 -8.1881620502E+001 -8.3219548524E+001 -2.1771836152E+001 +1.5430999155E+002
8127500000.000 -7.9971357762E+000 -1.0124405994E+002 -4.3472363829E+001 -1.7069912393E+002 -9.5573960521E+001 -1.0210147392E+002 -2.0027401695E+001 +1.5616974826E+002
8260000000.000 -7.9092837720E+000 -1.0197014118E+002 -4.3325003890E+001 +1.5463276718E+002 -8.3400136541E+001 +8.5255759899E+001 -1.9887661454E+001 +1.6021468428E+002
8392500000.000 -7.8298579862E+000 -1.0218545058E+002 -4.3246312116E+001 +1.2057565349E+002 -8.0613192709E+001 -1.1912068044E+002 -1.9043815178E+001 +1.7024606761E+002
8525000000.000 -7.7414325500E+000 -1.0242661325E+002 -4.3255986702E+001 +8.6760973555E+001 -8.3789581001E+001 +4.4608920555E+001 -1.8200972265E+001 +1.7273129492E+002
8657500000.000 -7.6403707230E+000 -1.0283321710E+002 -4.3105220757E+001 +5.2690651268E+001 -8.2625635125E+001 +1.3919182045E+002 -1.8560957929E+001 +1.7774373479E+002
8790000000.000 -7.5482849212E+000 -1.0314478252E+002 -4.3118726717E+001 +1.8411442610E+001 -8.4057922330E+001 -1.5256224821E+002 -1.8337462184E+001 -1.7200722388E+002
8922500000.000 -7.4975780054E+000 -1.0354611824E+002 -4.3064575383E+001 -1.5913085752E+001 -9.0590761444E+001 +4.3385454128E+001 -1.7995572014E+001 -1.6627519389E+002
9055000000.000 -7.4134948558E+000 -1.0381022186E+002 -4.2969735162E+001 -5.0000424492E+001 -8.9545399581E+001 +8.0554000175E+001 -1.8439722032E+001 -1.5847091519E+002
9187500000.000 -7.3548016703E+000 -1.0414602052E+002 -4.2950346596E+001 -8.4417695740E+001 -9.2195050052E+001 +1.1595831657E+001 -1.8355462555E+001 -1.4684768855E+002
9320000000.000 -7.2868065707E+000 -1.0477908574E+002 -4.2866308777E+001 -1.1900883452E+002 -9.1492723318E+001 -7.4527482071E+001 -1.8238065380E+001 -1.4003198956E+002
9452500000.000 -7.2277254020E+000 -1.0519026942E+002 -4.2894832363E+001 -1.5278955559E+002 -9.2317344129E+001 +1.1044205933E+002 -1.8819970869E+001 -1.3057708114E+002
9585000000.000 -7.1621678200E+000 -1.0555506640E+002 -4.2804692254E+001 +1.7138508666E+002 -9.3309407187E+001 -1.4815851456E+002 -1.8734884282E+001 -1.1872023601E+002
9717500000.000 -7.0699515519E+000 -1.0615760554E+002 -4.2819443533E+001 +1.3829457927E+002 -8.2361454599E+001 +5.0207021136E+000 -1.8845723276E+001 -1.1165002549E+002
9850000000.000 -7.0249809764E+000 -1.0692147136E+002 -4.2704407455E+001 +1.0351967175E+002 -8.9117417671E+001 +4.2417554167E+001 -1.9634845055E+001 -1.0044392955E+002
9982500000.000 -6.9646079204E+000 -1.0715948114E+002 -4.2654753548E+001 +6.8629377731E+001 -1.0177317950E+002 -3.3914691642E+001 -1.9609650097E+001 -8.6968651655E+001
10115000000.000 -6.8793413704E+000 -1.0759929074E+002 -4.2568377493E+001 +3.4512494539E+001 -8.6929383326E+001 -7.2398429165E+001 -1.9931154208E+001 -7.9758380608E+001
10247500000.000 -6.8067869143E+000 -1.0827877714E+002 -4.2639075670E+001 +2.2582783264E-001 -8.4787455063E+001 +8.9815804192E+000 -2.1143238870E+001 -6.5941065082E+001
10380000000.000 -6.7538744891E+000 -1.0877969040E+002 -4.2584382164E+001 -3.5129903037E+001 -9.0371452925E+001 +1.3536612611E+002 -2.0939646566E+001 -5.0379025032E+001
10512500000.000 -6.6879081094E+000 -1.0925119529E+002 -4.2528045158E+001 -6.8781288837E+001 -7.9431695658E+001 -1.6924291676E+002 -2.1479773206E+001 -4.2871917546E+001
10645000000.000 -6.6305474296E+000 -1.0977798053E+002 -4.2410706186E+001 -1.0270325093E+002 -8.8208564099E+001 +7.1183854868E+001 -2.2826429429E+001 -2.3971092498E+001
10777500000.000 -6.5566125505E+000 -1.1020079461E+002 -4.2260796827E+001 -1.3788712318E+002 -8.7442718349E+001 +1.0183505142E+002 -2.2082933547E+001 -6.3607457895E+000
10910000000.000 -6.4747395980E+000 -1.1070073612E+002 -4.2307840927E+001 -1.7336406915E+002 -9.1844818811E+001 -1.3566105311E+002 -2.2738028050E+001 +3.0239661238E+000
11042500000.000 -6.3929899988E+000 -1.1129709465E+002 -4.2356031636E+001 +1.5299184166E+002 -9.0868108139E+001 -5.2721338577E+001 -2.3464048412E+001 +2.7052972935E+001
11175000000.000 -6.3239125358E+000 -1.1168036580E+002 -4.2264506419E+001 +1.1814861804E+002 -8.2845930351E+001 -1.6681578775E+002 -2.2162208135E+001 +4.2278214940E+001
11307500000.000 -6.2632631205E+000 -1.1203313162E+002 -4.2245782822E+001 +8.2195394278E+001 -9.1488085197E+001 -1.3743652783E+002 -2.2696730280E+001 +5.2119655897E+001
11440000000.000 -6.1938972056E+000 -1.1248443592E+002 -4.2175644322E+001 +4.8404497245E+001 -8.2108232822E+001 -3.5980164844E+001 -2.2588007916E+001 +7.5013960880E+001
11572500000.000 -6.1055512284E+000 -1.1263820121E+002 -4.2141665750E+001 +1.3781020660E+001 -8.5936866205E+001 +1.1974697893E+002 -2.1127127550E+001 +8.6371819172E+001
11705000000.000 -6.0523245808E+000 -1.1304996097E+002 -4.2194872258E+001 -2.1555483936E+001 -8.8732183525E+001 -1.6591777845E+002 -2.1739918587E+001 +9.6255850910E+001
11837500000.000 -5.9820798709E+000 -1.1334579432E+002 -4.2228375996E+001 -5.6428924110E+001 -8.8850411571E+001 +3.8353915384E+001 -2.1103020657E+001 +1.1837101152E+002
11970000000.000 -5.9544652903E+000 -1.1356042117E+002 -4.2153224487E+001 -9.0441091595E+001 -9.9036720579E+001 +1.0770546166E+002 -1.9826512257E+001 +1.2467293158E+002
12102500000.000 -5.9098796020E+000 -1.1373584172E+002 -4.2029174222E+001 -1.2637777166E+002 -8.9833633145E+001 -1.4872565566E+002 -2.0731867716E+001 +1.3494787779E+002
12235000000.000 -5.8504200924E+000 -1.1415277145E+002 -4.2174522340E+001 -1.6079209809E+002 -8.4874229714E+001 -1.0399178383E+002 -1.9694827559E+001 +1.5380394243E+002
12367500000.000 -5.8341639285E+000 -1.1434495098E+002 -4.2056546932E+001 +1.6434848578E+002 -8.9868582780E+001 +3.0739426052E+001 -1.8889070732E+001 +1.5687312956E+002
12500000000.000 -5.7960700193E+000 -1.1491354481E+002 -4.2177851425E+001 +1.2829465890E+002 -8.7110837903E+001 +1.4726637309E+002 -2.0052529895E+001 +1.6792674401E+002
12632500000.000 -5.7397642615E+000 -1.1511507439E+002 -4.2279805529E+001 +9.3648677912E+001 -8.6968332235E+001 -5.6243909089E+001 -1.9041064197E+001 -1.7372637845E+002
12765000000.000 -5.7092053428E+000 -1.1546653628E+002 -4.2146885193E+001 +5.8561396778E+001 -8.6526295437E+001 -1.1032832285E+002 -1.8514471410E+001 -1.7243104113E+002
12897500000.000 -5.7067140359E+000 -1.1592471191E+002 -4.2266083664E+001 +2.3573228709E+001 -8.5378814278E+001 +1.5042724035E+002 -2.0156578185E+001 -1.5957236437E+002
13030000000.000 -5.6749450276E+000 -1.1613897033E+002 -4.2309798258E+001 -1.1771996470E+001 -9.6455767298E+001 -1.5860545777E+002 -1.8698447805E+001 -1.4201956928E+002
13162500000.000 -5.6127504742E+000 -1.1652252365E+002 -4.2468994367E+001 -4.6440243893E+001 -9.3285139672E+001 +1.0923645945E+002 -1.8564249275E+001 -1.4281626058E+002
13295000000.000 -5.5725494393E+000 -1.1689404768E+002 -4.2321118620E+001 -8.1420173904E+001 -8.1824248541E+001 +1.3110541709E+002 -2.0036812603E+001 -1.2820937416E+002
13427500000.000 -5.5541635479E+000 -1.1747513733E+002 -4.2464958518E+001 -1.1658127883E+002 -8.4965487472E+001 -1.1763026721E+002 -1.8699419318E+001 -1.1438244072E+002
13560000000.000 -5.5592449187E+000 -1.1751126734E+002 -4.2443094943E+001 -1.5225646271E+002 -8.7646269858E+001 +3.6879677893E+001 -1.8915547820E+001 -1.1556337016E+002
13692500000.000 -5.4898755160E+000 -1.1773034808E+002 -4.2591951873E+001 +1.7389279929E+002 -8.8696667391E+001 +1.3035524144E+002 -2.0797449509E+001 -1.0184041204E+002
13825000000.000 -5.4442141232E+000 -1.1824467993E+002 -4.2702751015E+001 +1.3866269349E+002 -8.8455543085E+001 -7.6611951794E+001 -1.9620154739E+001 -8.7852963372E+001
13957500000.000 -5.4425190969E+000 -1.1880656509E+002 -4.2810891966E+001 +1.0339835764E+002 -8.1928618340E+001 +1.4727902533E+002 -2.0240979009E+001 -9.0534828972E+001
14090000000.000 -5.4269172899E+000 -1.1894579630E+002 -4.2887434402E+001 +6.8789634226E+001 -9.1515868644E+001 -1.4376862908E+002 -2.2531409409E+001 -7.3310842311E+001
14222500000.000 -5.3757464237E+000 -1.1908440565E+002 -4.2928893472E+001 +3.3331240405E+001 -8.8151468091E+001 -1.4202142044E+002 -2.1175448758E+001 -5.9801023052E+001
14355000000.000 -5.3294668757E+000 -1.1971523837E+002 -4.3130362661E+001 -9.5591842137E-001 -8.3276912203E+001 -3.1047031343E+001 -2.2404038898E+001 -6.3402720353E+001
14487500000.000 -5.3143152270E+000 -1.1998341156E+002 -4.3077981861E+001 -3.6838745941E+001 -7.9817602795E+001 +1.4908248297E+002 -2.5233162710E+001 -4.0543483347E+001
14620000000.000 -5.2808377140E+000 -1.1996377167E+002 -4.3341300282E+001 -7.0725391821E+001 -8.5675666180E+001 +1.4945488994E+002 -2.3191457945E+001 -2.8389680150E+001
14752500000.000 -5.1930994625E+000 -1.2025792468E+002 -4.3422250233E+001 -1.0665384193E+002 -8.8775449575E+001 +1.6491300616E+002 -2.5401683382E+001 -3.5848103002E+001
14885000000.000 -5.1675183880E+000 -1.2066692930E+002 -4.3533779536E+001 -1.4062108389E+002 -7.6672088740E+001 -2.6445316395E+001 -2.8408649922E+001 +2.5702912846E+000
15017500000.000 -5.1533909520E+000 -1.2046658791E+002 -4.3811320146E+001 -1.7636433095E+002 -8.3070088582E+001 +4.9353046235E+001 -2.5261621533E+001 +7.3503289698E+000
15150000000.000 -5.0713584152E+000 -1.2034625141E+002 -4.3942423298E+001 +1.4873305109E+002 -8.3422458952E+001 -1.6279929899E+002 -2.9289845083E+001 -1.7007873160E+000
15282500000.000 -5.0126780284E+000 -1.2053011855E+002 -4.4163090697E+001 +1.1468824060E+002 -8.2443389837E+001 -1.2901841560E+002 -3.0453808976E+001 +5.7733510424E+001
