!  2-Port S-parameters saved by WinCal
! VAR MeasName=S-Parameters (CALIBRATED_DATA) read from VNA (C)
! VAR MeasDate=10/5/2015 6:01:24 PM
! VAR NAME=M6079_2_7_3_2_20C_2.9mA_-17.5dBm
! VAR FILENAME=M6079_2_7_3_2_20C_2.9mA_-17.5dBm.S2P
! VAR DATE=10/5/2015 6:01:24 PM
! VAR PHYS_PORTS=2,1
! VAR ObjTypeName=DATASET
! VAR IndexType=Frequency
!
# Hz S DB R 50
45000000.000 -1.7030509370E+001 -4.1925265229E-001 -4.0570145164E+001 +1.0252184604E+002 -6.4285351772E+001 -7.9225382993E+001 -3.0959333481E+001 +7.6255027374E+000
177500000.000 -1.7027169847E+001 -4.2848967972E+000 -4.2939895579E+001 +6.9841387187E+001 -7.4327880757E+001 +8.5404817298E+001 -3.2589303435E+001 +4.5829695258E+001
310000000.000 -1.6957726491E+001 -7.9929115514E+000 -4.2846702395E+001 +3.7837571841E+001 -7.9504010135E+001 -1.1619991386E+002 -2.3313789868E+001 +6.3910207731E+001
442500000.000 -1.6871703073E+001 -1.1842172386E+001 -4.1850724109E+001 +1.1494977812E-001 -8.1352294575E+001 -1.0968351846E+002 -2.2365199474E+001 +1.7089014778E+001
575000000.000 -1.6762747237E+001 -1.5813447783E+001 -4.2371473671E+001 -3.5049219793E+001 -9.8060486888E+001 +7.3711625018E+001 -3.0547882471E+001 +2.2112751950E+001
707500000.000 -1.6675055795E+001 -1.9273023548E+001 -4.2484404550E+001 -6.9798309753E+001 -8.4222019958E+001 -1.2530106559E+002 -3.4561876107E+001 +8.2646685947E+001
840000000.000 -1.6506822179E+001 -2.2972077603E+001 -4.2684137826E+001 -1.0370771053E+002 -8.3575067442E+001 +2.1044680659E+001 -2.9673115017E+001 +1.2751258514E+002
972500000.000 -1.6334063152E+001 -2.6329193557E+001 -4.2648848929E+001 -1.3757834557E+002 -8.3445686839E+001 +6.0263975831E+001 -2.5903485286E+001 +1.3496035528E+002
1105000000.000 -1.6175395415E+001 -2.9863219728E+001 -4.2850144162E+001 -1.7059442448E+002 -8.3671550958E+001 -1.1889862916E+002 -2.4360005357E+001 +1.4052196584E+002
1237500000.000 -1.6002696038E+001 -3.2922547433E+001 -4.2837614239E+001 +1.5439204830E+002 -8.7677723966E+001 +7.8658659258E+001 -2.3373865269E+001 +1.4992649908E+002
1370000000.000 -1.5810620297E+001 -3.6208718048E+001 -4.2899116624E+001 +1.2025327949E+002 -9.3161134479E+001 -3.9160760017E+001 -2.2041304884E+001 +1.5974100587E+002
1502500000.000 -1.5615780185E+001 -3.9059555099E+001 -4.2913168701E+001 +8.7448791535E+001 -8.4138443741E+001 -7.4377546751E+001 -2.0847781917E+001 +1.6617649681E+002
1635000000.000 -1.5372374419E+001 -4.1725164775E+001 -4.2946688267E+001 +5.3174978241E+001 -8.4012723299E+001 -8.7054696982E+001 -2.0001022713E+001 +1.7314611441E+002
1767500000.000 -1.5148688178E+001 -4.4717086374E+001 -4.2947683798E+001 +1.8488322811E+001 -8.5859294945E+001 +3.2725407160E+001 -1.8994756291E+001 +1.7830993569E+002
1900000000.000 -1.4959414876E+001 -4.7052324436E+001 -4.3092705829E+001 -1.6714001703E+001 -8.8535365441E+001 +1.6661793635E+002 -1.8849192029E+001 -1.7843379104E+002
2032500000.000 -1.4759254420E+001 -4.9386516474E+001 -4.3070081044E+001 -5.0274127744E+001 -8.2902618116E+001 -3.1498970973E+000 -1.8656845022E+001 -1.6809330780E+002
2165000000.000 -1.4483058658E+001 -5.1675870745E+001 -4.3208111454E+001 -8.3748200989E+001 -9.1827847442E+001 +4.6117877181E+000 -1.7721348240E+001 -1.6124285155E+002
2297500000.000 -1.4293598543E+001 -5.3932806299E+001 -4.3137947466E+001 -1.1753127397E+002 -8.1416034874E+001 -1.5206968409E+002 -1.7228993260E+001 -1.5722737860E+002
2430000000.000 -1.4109117782E+001 -5.5827520462E+001 -4.3183093256E+001 -1.5214370940E+002 -8.1089187125E+001 -2.6073783397E+001 -1.6893518043E+001 -1.5301387501E+002
2562500000.000 -1.3859718278E+001 -5.7807238945E+001 -4.3366468614E+001 +1.7446644973E+002 -8.4817239929E+001 -4.4367946790E+001 -1.6787541659E+001 -1.5080724358E+002
2695000000.000 -1.3711899315E+001 -5.9985669775E+001 -4.3330907764E+001 +1.4042541556E+002 -8.3886645378E+001 -8.3202578598E+001 -1.7362438450E+001 -1.4744157699E+002
2827500000.000 -1.3584010517E+001 -6.1668550852E+001 -4.3324414106E+001 +1.0487671044E+002 -8.8735618265E+001 -1.6539410110E+002 -1.7821399487E+001 -1.4038736892E+002
2960000000.000 -1.3377056143E+001 -6.3232491081E+001 -4.3449498153E+001 +7.1495008257E+001 -8.0466606393E+001 +5.1178391360E+001 -1.8101659170E+001 -1.3582477170E+002
3092500000.000 -1.3146186615E+001 -6.5286853867E+001 -4.3406791432E+001 +3.8552120826E+001 -7.9759994060E+001 +1.0186534664E+002 -1.9071260885E+001 -1.2972912513E+002
3225000000.000 -1.3013253899E+001 -6.7335006297E+001 -4.3518889331E+001 +4.6096943133E+000 -8.3225109739E+001 -1.5773548600E+002 -1.9565869542E+001 -1.1978665804E+002
3357500000.000 -1.2877135035E+001 -6.8650111878E+001 -4.3532929829E+001 -2.9777200176E+001 -8.0351287976E+001 -5.0628964581E+001 -1.9884127530E+001 -1.1455943756E+002
3490000000.000 -1.2644507563E+001 -7.0277589077E+001 -4.3454377967E+001 -6.3231270150E+001 -7.6186815261E+001 +3.2561108674E+001 -2.1106966598E+001 -1.0910152306E+002
3622500000.000 -1.2431361735E+001 -7.2075150932E+001 -4.3339993216E+001 -9.7190474171E+001 -8.2923837048E+001 -1.1903979966E+002 -2.1933579044E+001 -9.8335930520E+001
3755000000.000 -1.2248695646E+001 -7.3703334567E+001 -4.3478411769E+001 -1.3098741383E+002 -8.6145924549E+001 +3.0336867554E+001 -2.2629256280E+001 -9.4646700159E+001
3887500000.000 -1.2068679689E+001 -7.5132873873E+001 -4.3323866488E+001 -1.6432697139E+002 -8.5449364915E+001 +9.1199234088E+001 -2.4961221574E+001 -8.8603007668E+001
4020000000.000 -1.1905997070E+001 -7.6423044888E+001 -4.3240642006E+001 +1.6194584221E+002 -8.8116615043E+001 -1.3172548417E+002 -2.6668789303E+001 -7.3654449811E+001
4152500000.000 -1.1700779022E+001 -7.7640792263E+001 -4.3374935509E+001 +1.2756982041E+002 -9.7773246425E+001 -7.1250163489E+000 -2.8739886617E+001 -6.4781216681E+001
4285000000.000 -1.1503705535E+001 -7.9005960222E+001 -4.3270434833E+001 +9.3314209850E+001 -8.9702817880E+001 +6.3195023647E+001 -3.3192956297E+001 -3.9258854548E+001
4417500000.000 -1.1361110548E+001 -8.0317588569E+001 -4.3406316043E+001 +6.0296500165E+001 -8.5287426401E+001 +1.5919346571E+002 -3.1751086970E+001 +6.9952309131E+000
4550000000.000 -1.1194586929E+001 -8.1184376648E+001 -4.3433991042E+001 +2.5521775417E+001 -8.6589650503E+001 -1.2489867062E+002 -3.0246050466E+001 +1.7422526865E+001
4682500000.000 -1.0995995028E+001 -8.2243491844E+001 -4.3443893951E+001 -7.9187285213E+000 -8.5821244127E+001 +7.5081885578E+001 -2.9662889627E+001 +3.7641153186E+001
4815000000.000 -1.0837866871E+001 -8.3537758735E+001 -4.3510843151E+001 -4.0513838201E+001 -8.3672114701E+001 +1.2052855475E+002 -2.7634403838E+001 +4.0478541612E+001
4947500000.000 -1.0703259383E+001 -8.4270614320E+001 -4.3373891182E+001 -7.2790783057E+001 -9.2559885393E+001 -1.6214112799E+002 -2.9320610403E+001 +3.4695254592E+001
5080000000.000 -1.0529257067E+001 -8.4965985554E+001 -4.3246136115E+001 -1.0688804612E+002 -8.1487524226E+001 +1.6695604774E+001 -3.2223057525E+001 +5.5349170095E+001
5212500000.000 -1.0360611369E+001 -8.5996718256E+001 -4.3197442036E+001 -1.4094836702E+002 -8.6615392059E+001 -1.4766365459E+001 -3.1554479032E+001 +6.8102653127E+001
5345000000.000 -1.0255729901E+001 -8.6869288704E+001 -4.3122789377E+001 -1.7432309583E+002 -8.8129401791E+001 -1.5568305170E+002 -3.5278636243E+001 +6.8453121528E+001
5477500000.000 -1.0128377487E+001 -8.7325071033E+001 -4.3055394349E+001 +1.5066001807E+002 -8.9613985663E+001 +1.5174710779E+001 -3.7611957680E+001 +1.3019272937E+002
5610000000.000 -9.9633030168E+000 -8.8050492491E+001 -4.2995044686E+001 +1.1590958087E+002 -8.4942194209E+001 +6.5185490216E+001 -3.3754325779E+001 +1.3447572968E+002
5742500000.000 -9.8623755230E+000 -8.8987658561E+001 -4.2908685966E+001 +8.1888529716E+001 -8.3854651287E+001 -1.1247323352E+002 -3.8084073629E+001 +1.4995097989E+002
5875000000.000 -9.7806372657E+000 -8.9665728990E+001 -4.2879381630E+001 +4.7991287620E+001 -9.3734817389E+001 -1.7490913837E+002 -3.4045324151E+001 -1.7019598360E+002
6007500000.000 -9.6763338133E+000 -9.0199765983E+001 -4.2886794817E+001 +1.3341942745E+001 -8.7385330947E+001 +7.3352667538E+001 -3.2759644936E+001 +1.7919989132E+002
6140000000.000 -9.5322273715E+000 -9.0948380187E+001 -4.2965598903E+001 -2.1671855533E+001 -9.5287854720E+001 +8.3050421923E+001 -3.6361871179E+001 -1.7185846060E+002
6272500000.000 -9.4279204762E+000 -9.1980553842E+001 -4.2950664908E+001 -5.5763418431E+001 -8.8474694718E+001 -3.7267699962E+001 -3.4179810071E+001 -1.4449124814E+002
6405000000.000 -9.3735067763E+000 -9.2889894271E+001 -4.2962304560E+001 -8.9654177618E+001 -8.3627347400E+001 -2.5024235338E+001 -3.3892985007E+001 -1.6238455746E+002
6537500000.000 -9.2679150678E+000 -9.3272300108E+001 -4.2959011415E+001 -1.2399101595E+002 -8.4999326798E+001 -1.4317678487E+002 -4.0083979654E+001 -1.6350553272E+002
6670000000.000 -9.1149441818E+000 -9.3980660349E+001 -4.3051630546E+001 -1.5828113364E+002 -8.3590210788E+001 -1.0864006045E+002 -3.9774147342E+001 -1.4003594372E+002
6802500000.000 -8.9940609442E+000 -9.5177932189E+001 -4.3014156526E+001 +1.6819465740E+002 -8.8299860666E+001 +9.8099100483E+001 -3.9043280039E+001 +1.7760356282E+002
6935000000.000 -8.9571278640E+000 -9.5978718370E+001 -4.3047025916E+001 +1.3351277363E+002 -9.3406412238E+001 +1.7207194599E+002 -3.8549142653E+001 +1.2382984433E+002
7067500000.000 -8.8504104918E+000 -9.6280548504E+001 -4.3032838590E+001 +9.9354058482E+001 -8.7163672512E+001 -1.4411618393E+002 -3.8493005115E+001 +1.1694409333E+002
7200000000.000 -8.6983509234E+000 -9.7064797310E+001 -4.3050228733E+001 +6.5786855782E+001 -8.5988705953E+001 +4.7727312353E+001 -3.2700350177E+001 +1.3046676534E+002
7332500000.000 -8.6055991521E+000 -9.8141424183E+001 -4.3033362853E+001 +3.0942163940E+001 -9.1775283564E+001 -1.5506451934E+002 -2.9163654906E+001 +1.1901863210E+002
7465000000.000 -8.5337763341E+000 -9.8668752615E+001 -4.3065113057E+001 -2.3899907254E+000 -8.6757494297E+001 -1.4241540024E+002 -2.8615015475E+001 +1.2353643252E+002
7597500000.000 -8.4111106733E+000 -9.9173126012E+001 -4.3006987273E+001 -3.6252695736E+001 -8.3278086995E+001 -2.4348113233E+001 -2.6020406571E+001 +1.3747505273E+002
7730000000.000 -8.2760214064E+000 -9.9899114261E+001 -4.3037448391E+001 -6.9872187405E+001 -8.8038834488E+001 +3.2577965136E+001 -2.3745585520E+001 +1.3761633386E+002
7862500000.000 -8.1897571370E+000 -1.0048894301E+002 -4.3031281257E+001 -1.0449418662E+002 -8.9881431975E+001 -1.2445459994E+002 -2.3299279687E+001 +1.4201094680E+002
7995000000.000 -8.1079657680E+000 -1.0081934987E+002 -4.3045568400E+001 -1.3731451156E+002 -8.0620278328E+001 -2.6615286339E+001 -2.1769516078E+001 +1.5443919403E+002
8127500000.000 -7.9565012685E+000 -1.0123322561E+002 -4.2946686982E+001 -1.7148639821E+002 -8.5809962839E+001 +2.0899605593E+001 -2.0026047430E+001 +1.5625275287E+002
8260000000.000 -7.8696919195E+000 -1.0193701360E+002 -4.2952391270E+001 +1.5416273671E+002 -8.6516030780E+001 +1.2885884916E+002 -1.9889153925E+001 +1.6028680586E+002
8392500000.000 -7.7900776179E+000 -1.0214865502E+002 -4.2881032982E+001 +1.2036672608E+002 -9.2943918564E+001 +1.3564807299E+002 -1.9048301904E+001 +1.7041981456E+002
8525000000.000 -7.6983080812E+000 -1.0238363718E+002 -4.2765471587E+001 +8.6850591161E+001 -9.0648295154E+001 +2.9670234881E+001 -1.8202461150E+001 +1.7279453068E+002
8657500000.000 -7.5980841897E+000 -1.0276123629E+002 -4.2697310374E+001 +5.1790127257E+001 -8.9263696620E+001 +1.0399187594E+002 -1.8565481056E+001 +1.7784454519E+002
8790000000.000 -7.5064529139E+000 -1.0308263488E+002 -4.2665045520E+001 +1.7772680818E+001 -8.6322465867E+001 +3.8188008679E+001 -1.8338258352E+001 -1.7191533685E+002
8922500000.000 -7.4544237798E+000 -1.0345650746E+002 -4.2538309262E+001 -1.6544320578E+001 -8.4692296174E+001 +1.0010102017E+001 -1.8009735670E+001 -1.6620403849E+002
9055000000.000 -7.3720209579E+000 -1.0372211252E+002 -4.2561646441E+001 -5.1018715967E+001 -8.9032856162E+001 +6.0367090940E+001 -1.8447818530E+001 -1.5833776477E+002
9187500000.000 -7.3121174091E+000 -1.0406478335E+002 -4.2436977037E+001 -8.5829601052E+001 -9.0134728538E+001 -1.1637497545E+002 -1.8358441379E+001 -1.4671589436E+002
9320000000.000 -7.2426654893E+000 -1.0469623416E+002 -4.2374637697E+001 -1.1993151184E+002 -9.5189827126E+001 -9.5821983231E+001 -1.8241073116E+001 -1.3990577553E+002
9452500000.000 -7.1870706371E+000 -1.0507621249E+002 -4.2358433052E+001 -1.5431181568E+002 -8.5741982110E+001 +4.7683067960E+001 -1.8832650679E+001 -1.3043507561E+002
9585000000.000 -7.1189973618E+000 -1.0544307004E+002 -4.2237597161E+001 +1.7112026854E+002 -9.3566997164E+001 -7.0998613211E+001 -1.8736363328E+001 -1.1861573827E+002
9717500000.000 -7.0249254541E+000 -1.0602277667E+002 -4.2256449938E+001 +1.3669109129E+002 -8.5755865844E+001 +6.7115127916E+001 -1.8853116904E+001 -1.1149020221E+002
9850000000.000 -6.9837180410E+000 -1.0680010084E+002 -4.2142216734E+001 +1.0252880771E+002 -8.8624845678E+001 -1.7044959171E+002 -1.9640214415E+001 -1.0029696898E+002
9982500000.000 -6.9231842705E+000 -1.0702256993E+002 -4.2028664452E+001 +6.7409732719E+001 -8.8731284469E+001 -7.0557053464E+001 -1.9615177920E+001 -8.6868303450E+001
10115000000.000 -6.8353766481E+000 -1.0743708552E+002 -4.2058995457E+001 +3.2508641028E+001 -7.9703001592E+001 -8.8227871367E+001 -1.9944956038E+001 -7.9640373197E+001
10247500000.000 -6.7615623780E+000 -1.0811639800E+002 -4.1957336206E+001 -1.4410777730E+000 -9.2152502385E+001 +1.3100756876E+001 -2.1145636369E+001 -6.5805571202E+001
10380000000.000 -6.7059559269E+000 -1.0863060299E+002 -4.1859830666E+001 -3.7041149554E+001 -8.7104753354E+001 +1.1599295597E+002 -2.0943850240E+001 -5.0153249104E+001
10512500000.000 -6.6410640138E+000 -1.0910782600E+002 -4.1812917409E+001 -7.1071125102E+001 -8.6909231179E+001 -6.2464231516E+001 -2.1489704950E+001 -4.2669353239E+001
10645000000.000 -6.5851419274E+000 -1.0962106404E+002 -4.1829743467E+001 -1.0585783627E+002 -8.8183598445E+001 +6.2859438870E+001 -2.2827291835E+001 -2.3831272100E+001
10777500000.000 -6.5130146945E+000 -1.1002041823E+002 -4.1764947550E+001 -1.4069763844E+002 -8.4767096394E+001 +1.6831250249E+002 -2.2090209180E+001 -6.1003976174E+000
10910000000.000 -6.4267789921E+000 -1.1051894586E+002 -4.1658545392E+001 -1.7629701068E+002 -8.4348511227E+001 -1.5022541842E+002 -2.2744353873E+001 +3.2483404473E+000
11042500000.000 -6.3457570770E+000 -1.1113903471E+002 -4.1655813446E+001 +1.5056265053E+002 -8.7208457327E+001 +4.2211133842E+001 -2.3466985647E+001 +2.7343090586E+001
11175000000.000 -6.2782747012E+000 -1.1151844654E+002 -4.1628204909E+001 +1.1625556634E+002 -8.6417988654E+001 +1.6047828887E+002 -2.2157456921E+001 +4.2437381902E+001
11307500000.000 -6.2180479922E+000 -1.1181834960E+002 -4.1484870672E+001 +8.0234996380E+001 -8.7949362332E+001 +1.6849197218E+002 -2.2697299788E+001 +5.2431498867E+001
11440000000.000 -6.1491696272E+000 -1.1228978699E+002 -4.1582255572E+001 +4.5533119548E+001 -9.1361613414E+001 -2.4363911805E+001 -2.2580724968E+001 +7.5303753645E+001
11572500000.000 -6.0611393352E+000 -1.1242514021E+002 -4.1599634188E+001 +1.1758910392E+001 -8.3410566987E+001 +1.2796300405E+002 -2.1125399503E+001 +8.6591900500E+001
11705000000.000 -6.0070148668E+000 -1.1282654076E+002 -4.1475046514E+001 -2.3580155679E+001 -9.0947131676E+001 -2.9114190080E+001 -2.1730392419E+001 +9.6458316274E+001
11837500000.000 -5.9388245595E+000 -1.1312126034E+002 -4.1433303003E+001 -5.8585862016E+001 -8.9880157112E+001 +3.0525625745E+001 -2.1091724561E+001 +1.1860709712E+002
11970000000.000 -5.9129437759E+000 -1.1335664587E+002 -4.1458203460E+001 -9.2391997823E+001 -9.4158634355E+001 +3.3543517801E+001 -1.9816100147E+001 +1.2488070138E+002
12102500000.000 -5.8688319587E+000 -1.1349527716E+002 -4.1443596389E+001 -1.2815849494E+002 -8.8988695032E+001 +1.7463015558E+002 -2.0732318863E+001 +1.3521690742E+002
12235000000.000 -5.8090987398E+000 -1.1389456893E+002 -4.1357493341E+001 -1.6276716673E+002 -8.6720941000E+001 -8.5137790890E+001 -1.9691845352E+001 +1.5391230826E+002
12367500000.000 -5.7875382099E+000 -1.1410922674E+002 -4.1424218282E+001 +1.6276829333E+002 -8.6663610487E+001 +7.7842154599E+001 -1.8892157735E+001 +1.5707348781E+002
12500000000.000 -5.7552213838E+000 -1.1466178599E+002 -4.1440744640E+001 +1.2625487800E+002 -8.5437130979E+001 +1.5096633125E+002 -2.0046309082E+001 +1.6814665069E+002
12632500000.000 -5.7001321790E+000 -1.1486835813E+002 -4.1440064491E+001 +9.0748163083E+001 -8.5974382372E+001 -1.5061194537E+002 -1.9047879913E+001 -1.7358150524E+002
12765000000.000 -5.6675159344E+000 -1.1520970197E+002 -4.1417847130E+001 +5.6733683705E+001 -8.5741338425E+001 +7.0243985304E+001 -1.8504366037E+001 -1.7223939162E+002
12897500000.000 -5.6667327021E+000 -1.1567387706E+002 -4.1571406219E+001 +2.1339670533E+001 -8.8898094323E+001 +2.3508522285E+001 -2.0165843254E+001 -1.5941162259E+002
13030000000.000 -5.6344491676E+000 -1.1588364075E+002 -4.1645608250E+001 -1.4477513635E+001 -8.8873363367E+001 +1.2514501225E+002 -1.8700513881E+001 -1.4193008241E+002
13162500000.000 -5.5698719742E+000 -1.1626511100E+002 -4.1660412642E+001 -4.8478805454E+001 -9.2983895639E+001 -2.4321977396E+000 -1.8580346021E+001 -1.4266792989E+002
13295000000.000 -5.5374050246E+000 -1.1663975614E+002 -4.1739190945E+001 -8.3749376031E+001 -8.8612557999E+001 -3.9296497730E+000 -2.0041533395E+001 -1.2796320087E+002
13427500000.000 -5.5198015055E+000 -1.1722940588E+002 -4.1851118857E+001 -1.1886397080E+002 -8.0748420484E+001 -1.5475330790E+002 -1.8710418824E+001 -1.1434088558E+002
13560000000.000 -5.5225294567E+000 -1.1720524622E+002 -4.1880938933E+001 -1.5458661255E+002 -8.2429121942E+001 -8.6695044821E+001 -1.8941586089E+001 -1.1541409745E+002
13692500000.000 -5.4566886662E+000 -1.1744739081E+002 -4.1978802839E+001 +1.7096975851E+002 -7.9907403482E+001 +7.5323509582E+001 -2.0802309880E+001 -1.0163902041E+002
13825000000.000 -5.4075536643E+000 -1.1794529993E+002 -4.2113354287E+001 +1.3550513205E+002 -7.8288766011E+001 -1.7145346079E+002 -1.9633002779E+001 -8.7768009685E+001
13957500000.000 -5.4065089968E+000 -1.1850930215E+002 -4.2243809324E+001 +1.0060542211E+002 -8.3839427099E+001 -5.4356931787E+001 -2.0272150661E+001 -9.0446539447E+001
14090000000.000 -5.3971631083E+000 -1.1864630727E+002 -4.2186801548E+001 +6.5425021011E+001 -8.3979192869E+001 -7.0881806918E+000 -2.2538182775E+001 -7.3074191667E+001
14222500000.000 -5.3463944247E+000 -1.1878477959E+002 -4.2486719467E+001 +3.0064109100E+001 -8.7544962873E+001 +8.1057526689E+001 -2.1216013306E+001 -5.9697234710E+001
14355000000.000 -5.2987245725E+000 -1.1939640827E+002 -4.2539691948E+001 -5.2318723597E+000 -8.0954355153E+001 -1.1363497060E+002 -2.2448300934E+001 -6.3314446332E+001
14487500000.000 -5.2915290532E+000 -1.1967269227E+002 -4.2526633630E+001 -3.9227696223E+001 -8.4987532380E+001 -1.6802890217E+001 -2.5279513069E+001 -4.0388620612E+001
14620000000.000 -5.2545579706E+000 -1.1961144205E+002 -4.2798372143E+001 -7.4624339543E+001 -8.3013639901E+001 +9.7629165145E+001 -2.3229772969E+001 -2.8341013045E+001
14752500000.000 -5.1627200396E+000 -1.1994548948E+002 -4.2900503945E+001 -1.1046405876E+002 -8.3221798367E+001 -1.5833471067E+002 -2.5424559198E+001 -3.5851531187E+001
14885000000.000 -5.1438072817E+000 -1.2035246498E+002 -4.2885111757E+001 -1.4470471398E+002 -8.2802896849E+001 +8.1054060427E-001 -2.8445767909E+001 +2.5813060202E+000
15017500000.000 -5.1280026756E+000 -1.2010164087E+002 -4.3153390095E+001 -1.7962488131E+002 -8.5938077823E+001 -1.5490634281E+002 -2.5306327993E+001 +7.4026799317E+000
15150000000.000 -5.0423308223E+000 -1.1999059148E+002 -4.3443885599E+001 +1.4549660188E+002 -8.3453176678E+001 -1.5338949121E+002 -2.9352419478E+001 -1.6906251538E+000
15282500000.000 -4.9892696689E+000 -1.2017842127E+002 -4.3443633578E+001 +1.1059312248E+002 -8.2429939116E+001 -7.4181396776E+000 -3.0459725440E+001 +5.7788563601E+001
