!  2-Port S-parameters saved by WinCal
! VAR MeasName=S-Parameters (CALIBRATED_DATA) read from VNA (C)
! VAR MeasDate=10/5/2015 4:50:22 PM
! VAR NAME=M6079_4_7_3_2_20C_2.1mA_-17.5dBm
! VAR FILENAME=M6079_4_7_3_2_20C_2.1mA_-17.5dBm.S2P
! VAR DATE=10/5/2015 4:50:22 PM
! VAR PHYS_PORTS=2,1
! VAR ObjTypeName=DATASET
! VAR IndexType=Frequency
!
# Hz S DB R 50
45000000.000 -1.5321928656E+001 -1.1071995444E+000 -4.1858469309E+001 +9.7291645365E+001 -5.4139353599E+001 -1.0956584237E+002 -3.0838859995E+001 +3.6259565154E+000
177500000.000 -1.5265688792E+001 -3.8528515297E+000 -4.3699094254E+001 +6.9630958455E+001 -7.6639475128E+001 +1.2230686599E+002 -3.2578753234E+001 +4.6058902500E+001
310000000.000 -1.5217071588E+001 -7.1944168630E+000 -4.3419406784E+001 +3.8652218069E+001 -8.5899383910E+001 +1.3665230468E+002 -2.3306892811E+001 +6.3766791900E+001
442500000.000 -1.5151249305E+001 -1.0573097212E+001 -4.2407390778E+001 -1.1121022018E+000 -8.6127194324E+001 +9.6737734672E+001 -2.2359602000E+001 +1.7062667158E+001
575000000.000 -1.5081652705E+001 -1.4166237976E+001 -4.3077073130E+001 -3.6156190449E+001 -8.9996812955E+001 -1.2500666812E+002 -3.0521270970E+001 +2.2453886827E+001
707500000.000 -1.5023455769E+001 -1.7339761860E+001 -4.3197429624E+001 -7.0240348904E+001 -8.8443258724E+001 -3.4737796127E+001 -3.4568126440E+001 +8.2623675260E+001
840000000.000 -1.4909716794E+001 -2.0702682642E+001 -4.3327735865E+001 -1.0385448385E+002 -9.0136814438E+001 +1.1509911942E+002 -2.9673393701E+001 +1.2752658551E+002
972500000.000 -1.4781956922E+001 -2.3765819527E+001 -4.3548333633E+001 -1.3852946508E+002 -8.4566201882E+001 +1.3713876727E+002 -2.5896765292E+001 +1.3512646036E+002
1105000000.000 -1.4673597190E+001 -2.7016098021E+001 -4.3552434758E+001 -1.7270307872E+002 -9.6866505098E+001 +6.0631405020E+001 -2.4356152485E+001 +1.4055925046E+002
1237500000.000 -1.4552586492E+001 -2.9880989286E+001 -4.3590562072E+001 +1.5308673192E+002 -9.7026730874E+001 +7.9526876758E+001 -2.3383562299E+001 +1.4995654955E+002
1370000000.000 -1.4407566586E+001 -3.2918850486E+001 -4.3535819684E+001 +1.1912576953E+002 -8.1114660904E+001 +8.1813614973E+001 -2.2039008936E+001 +1.5978783532E+002
1502500000.000 -1.4271410258E+001 -3.5670899719E+001 -4.3643039640E+001 +8.5179932405E+001 -8.9432257157E+001 +9.8877633355E+001 -2.0851405722E+001 +1.6619295714E+002
1635000000.000 -1.4092331896E+001 -3.8180856019E+001 -4.3619326208E+001 +5.1659931258E+001 -8.8687470488E+001 +7.3422482921E+001 -2.0006325953E+001 +1.7319918331E+002
1767500000.000 -1.3911018307E+001 -4.1005387265E+001 -4.3544191907E+001 +1.7268115897E+001 -9.6204497132E+001 -2.0317809245E+001 -1.8990670615E+001 +1.7832046432E+002
1900000000.000 -1.3765338560E+001 -4.3402956172E+001 -4.3693018657E+001 -1.7059553789E+001 -7.9943170527E+001 +1.4989925377E+002 -1.8855035880E+001 -1.7844231890E+002
2032500000.000 -1.3617720718E+001 -4.5720495810E+001 -4.3651572063E+001 -5.0306542634E+001 -8.2874166523E+001 -5.0789312309E+001 -1.8654811778E+001 -1.6807508925E+002
2165000000.000 -1.3392832732E+001 -4.7984391536E+001 -4.3822826631E+001 -8.4765815839E+001 -8.4556175229E+001 +9.6856165815E+001 -1.7729953569E+001 -1.6121645360E+002
2297500000.000 -1.3238761921E+001 -5.0222695834E+001 -4.3842710701E+001 -1.1933215734E+002 -8.6688501830E+001 +5.6476151269E+001 -1.7234439673E+001 -1.5722263607E+002
2430000000.000 -1.3100474874E+001 -5.2144766464E+001 -4.3829065152E+001 -1.5310551905E+002 -7.8208994855E+001 -9.1452062350E+001 -1.6898519987E+001 -1.5303825524E+002
2562500000.000 -1.2900036222E+001 -5.4184080616E+001 -4.3861420169E+001 +1.7306236401E+002 -8.3552268070E+001 +9.0176709352E+001 -1.6799312192E+001 -1.5090926902E+002
2695000000.000 -1.2784878258E+001 -5.6353253510E+001 -4.3979608700E+001 +1.3837578810E+002 -8.5239214619E+001 +1.1419661317E+002 -1.7358434799E+001 -1.4750815408E+002
2827500000.000 -1.2686690628E+001 -5.8090445068E+001 -4.3980276536E+001 +1.0528637869E+002 -8.4081698786E+001 -6.6423415908E+001 -1.7822022777E+001 -1.4039500513E+002
2960000000.000 -1.2512523769E+001 -5.9636195580E+001 -4.3987244237E+001 +7.1238955033E+001 -7.9578680272E+001 -1.4255406088E+000 -1.8099220021E+001 -1.3582081452E+002
3092500000.000 -1.2319514737E+001 -6.1689828571E+001 -4.3815454118E+001 +3.8188773125E+001 -7.5521346152E+001 +1.2124528882E+002 -1.9071723614E+001 -1.2976231648E+002
3225000000.000 -1.2216547081E+001 -6.3756509092E+001 -4.3904793220E+001 +2.7999536885E+000 -7.5153188848E+001 -1.3198557803E+002 -1.9555788221E+001 -1.1979407946E+002
3357500000.000 -1.2105378300E+001 -6.5136771201E+001 -4.3851798711E+001 -2.9107319798E+001 -8.0233542170E+001 -2.3849840636E+001 -1.9878524608E+001 -1.1463499411E+002
3490000000.000 -1.1898752442E+001 -6.6768434152E+001 -4.3830712244E+001 -6.4399727217E+001 -8.8920091913E+001 +1.1558404581E+002 -2.1104695924E+001 -1.0910684354E+002
3622500000.000 -1.1727574386E+001 -6.8625144049E+001 -4.3841984427E+001 -9.6969171200E+001 -8.1292466161E+001 -1.1669243646E+002 -2.1948344038E+001 -9.8424864560E+001
3755000000.000 -1.1570025417E+001 -7.0227303120E+001 -4.3943838719E+001 -1.3168838081E+002 -8.1772132236E+001 -1.4152419434E+001 -2.2618015897E+001 -9.4646606037E+001
3887500000.000 -1.1410915293E+001 -7.1688466774E+001 -4.3626821070E+001 -1.6570772200E+002 -7.6120553223E+001 +1.0875450292E+002 -2.4953178478E+001 -8.8569497969E+001
4020000000.000 -1.1269594650E+001 -7.3047598355E+001 -4.3651041873E+001 +1.6008707968E+002 -8.3741854773E+001 +3.1649990088E+001 -2.6658965189E+001 -7.3734714227E+001
4152500000.000 -1.1088305818E+001 -7.4327939215E+001 -4.3581502964E+001 +1.2518774873E+002 -8.4952209615E+001 -1.2119389783E+002 -2.8703625748E+001 -6.4903442434E+001
4285000000.000 -1.0911414406E+001 -7.5715766314E+001 -4.3681218644E+001 +9.1254390703E+001 -9.6833488577E+001 +1.6202466312E+001 -3.3190902889E+001 -3.9444590160E+001
4417500000.000 -1.0781652677E+001 -7.7076804220E+001 -4.3613395379E+001 +5.6433987656E+001 -8.3852455876E+001 +7.2689426040E+001 -3.1779971190E+001 +7.0763491466E+000
4550000000.000 -1.0627248192E+001 -7.7983697831E+001 -4.3755249020E+001 +2.2513973760E+001 -8.2849517583E+001 -4.0170932730E+001 -3.0224030741E+001 +1.7202453051E+001
4682500000.000 -1.0438759017E+001 -7.9069881893E+001 -4.3755404539E+001 -1.2682231703E+001 -8.6834627091E+001 +8.4247188436E+001 -2.9664352638E+001 +3.7407531663E+001
4815000000.000 -1.0290802400E+001 -8.0395272858E+001 -4.3693426518E+001 -4.5342854325E+001 -1.0395161923E+002 -1.0637803099E+002 -2.7634809455E+001 +4.0235585514E+001
4947500000.000 -1.0163192355E+001 -8.1215713664E+001 -4.3540053624E+001 -7.8906316498E+001 -8.8867153050E+001 -1.1577549068E+002 -2.9296444535E+001 +3.4330024626E+001
5080000000.000 -9.9930492128E+000 -8.1979285337E+001 -4.3492448563E+001 -1.1398052823E+002 -9.0278176051E+001 +5.7156208320E+000 -3.2230772486E+001 +5.5093627209E+001
5212500000.000 -9.8330524876E+000 -8.3089262395E+001 -4.3275680762E+001 -1.4786962721E+002 -8.6183249641E+001 +7.9615206527E+001 -3.1556122256E+001 +6.7837411645E+001
5345000000.000 -9.7448356503E+000 -8.4045515800E+001 -4.3252776180E+001 +1.7810845195E+002 -8.6239556737E+001 -1.7095727459E+002 -3.5308260519E+001 +6.7957378912E+001
5477500000.000 -9.6183139384E+000 -8.4594535662E+001 -4.3162470622E+001 +1.4330900978E+002 -8.3715591166E+001 -1.3555113768E+000 -3.7708102954E+001 +1.3072261005E+002
5610000000.000 -9.4584457923E+000 -8.5415618033E+001 -4.2988761236E+001 +1.0812842033E+002 -8.5534978599E+001 +7.6968318737E+001 -3.3792922025E+001 +1.3428997297E+002
5742500000.000 -9.3747867509E+000 -8.6437145776E+001 -4.2921946246E+001 +7.4380588058E+001 -1.2192615693E+002 -1.7582503718E+001 -3.8181386871E+001 +1.4949456952E+002
5875000000.000 -9.3047275215E+000 -8.7168690216E+001 -4.2944461114E+001 +4.0348832416E+001 -8.1488049659E+001 -1.4272793352E+001 -3.4057099022E+001 -1.7016017084E+002
6007500000.000 -9.2014352688E+000 -8.7719670771E+001 -4.2799818712E+001 +4.7345155713E+000 -8.6208153299E+001 +9.4504089859E+001 -3.2798625514E+001 +1.7891723129E+002
6140000000.000 -9.0701270153E+000 -8.8581499389E+001 -4.2906882748E+001 -3.0077799814E+001 -9.1619425646E+001 +5.5484879747E+001 -3.6443886635E+001 -1.7176419168E+002
6272500000.000 -8.9860286982E+000 -8.9630989777E+001 -4.2779991698E+001 -6.3171604975E+001 -8.7460371123E+001 -6.2606837407E+001 -3.4226629068E+001 -1.4434958749E+002
6405000000.000 -8.9322803581E+000 -9.0542770443E+001 -4.2810105652E+001 -9.7784891724E+001 -8.5782584820E+001 +4.7132822492E+000 -3.3933061585E+001 -1.6236600201E+002
6537500000.000 -8.8326620136E+000 -9.0966843997E+001 -4.2649491712E+001 -1.3257886800E+002 -9.3615060578E+001 +3.0419235509E+001 -4.0135657064E+001 -1.6406337139E+002
6670000000.000 -8.6960070956E+000 -9.1753793130E+001 -4.2563656419E+001 -1.6695985678E+002 -9.2758393102E+001 -1.5651650056E+002 -3.9930217942E+001 -1.4039499958E+002
6802500000.000 -8.5803296324E+000 -9.2940723588E+001 -4.2576857204E+001 +1.5851768584E+002 -9.0086899418E+001 -2.7508727397E+001 -3.9114118152E+001 +1.7727275020E+002
6935000000.000 -8.5383911800E+000 -9.3741027223E+001 -4.2450491175E+001 +1.2228934652E+002 -8.6165916767E+001 +1.4632317588E+002 -3.8472206090E+001 +1.2383878010E+002
7067500000.000 -8.4397811208E+000 -9.4092364895E+001 -4.2343613115E+001 +8.8548855467E+001 -9.4687773208E+001 -8.1276286301E+001 -3.8462252571E+001 +1.1648521218E+002
7200000000.000 -8.2994791726E+000 -9.4899933660E+001 -4.2317589090E+001 +5.5014117398E+001 -8.6206936756E+001 +1.4574743854E+002 -3.2669821308E+001 +1.3016930022E+002
7332500000.000 -8.1994843127E+000 -9.5963252899E+001 -4.2179243163E+001 +1.9161128779E+001 -9.1094816402E+001 -1.2458462749E+002 -2.9143760026E+001 +1.1908380250E+002
7465000000.000 -8.1312353340E+000 -9.6537648853E+001 -4.2141164014E+001 -1.5921386407E+001 -9.2176954034E+001 +1.4981113686E+002 -2.8601215760E+001 +1.2354320371E+002
7597500000.000 -8.0217468638E+000 -9.7056202791E+001 -4.2062271171E+001 -4.8635162571E+001 -9.0456061013E+001 -9.5601942130E+001 -2.6009577127E+001 +1.3741016938E+002
7730000000.000 -7.8750268601E+000 -9.7793048835E+001 -4.1974936810E+001 -8.4590395056E+001 -8.7038675611E+001 -1.6216307797E+002 -2.3734771248E+001 +1.3753578532E+002
7862500000.000 -7.7627908297E+000 -9.8415382160E+001 -4.1808540559E+001 -1.2249415829E+002 -9.5464292742E+001 -1.6403329841E+002 -2.3304477279E+001 +1.4206528331E+002
7995000000.000 -7.7038284532E+000 -9.8765848871E+001 -4.1778614820E+001 -1.5454162823E+002 -8.3168999448E+001 -8.1502524499E+001 -2.1769258866E+001 +1.5439841654E+002
8127500000.000 -7.5485293809E+000 -9.9223429802E+001 -4.1721238513E+001 +1.7058805588E+002 -8.9348426990E+001 +5.4533841123E+001 -2.0032875877E+001 +1.5623532386E+002
8260000000.000 -7.4336092006E+000 -9.9979495016E+001 -4.1569811189E+001 +1.3237321254E+002 -8.6498284852E+001 -1.7830391243E+002 -1.9886488695E+001 +1.6014867463E+002
8392500000.000 -7.3662178417E+000 -1.0025408392E+002 -4.1463439208E+001 +9.9376738744E+001 -8.0968731828E+001 -1.0160242487E+002 -1.9047587788E+001 +1.7034511905E+002
8525000000.000 -7.2735175645E+000 -1.0054855842E+002 -4.1317819150E+001 +6.4916834901E+001 -9.0590178502E+001 -3.6004401748E+001 -1.8200914163E+001 +1.7275641925E+002
8657500000.000 -7.1354848421E+000 -1.0103389680E+002 -4.1260479847E+001 +2.4889420464E+001 -8.3742413107E+001 +1.2795663906E+002 -1.8562040594E+001 +1.7778423256E+002
8790000000.000 -7.0305774526E+000 -1.0144436697E+002 -4.1063674290E+001 -1.1389266811E+001 -8.0160827513E+001 -1.4875060596E+002 -1.8339332668E+001 -1.7196538286E+002
8922500000.000 -6.9940784658E+000 -1.0185501289E+002 -4.1014115167E+001 -4.3309539174E+001 -9.3009032920E+001 +1.0452119591E+002 -1.8005121193E+001 -1.6622581983E+002
9055000000.000 -6.8812928390E+000 -1.0228610053E+002 -4.0977128478E+001 -8.1873789053E+001 -8.5043787760E+001 +8.0917106187E+001 -1.8442694106E+001 -1.5840621128E+002
9187500000.000 -6.8153783910E+000 -1.0272749081E+002 -4.0970823003E+001 -1.1823081628E+002 -1.0835076762E+002 -1.2080130190E+002 -1.8358761466E+001 -1.4676860206E+002
9320000000.000 -6.7542552934E+000 -1.0339249775E+002 -4.0933514852E+001 -1.5174910462E+002 -1.0597764461E+002 -4.0874859810E+001 -1.8246126604E+001 -1.3994539793E+002
9452500000.000 -6.6862173034E+000 -1.0392315291E+002 -4.0923075662E+001 +1.7119654821E+002 -1.0046176532E+002 -7.0157282785E+001 -1.8826682724E+001 -1.3053708960E+002
9585000000.000 -6.5955933369E+000 -1.0453103920E+002 -4.1027322808E+001 +1.3171155579E+002 -9.6525716471E+001 -5.7134856909E+001 -1.8739898419E+001 -1.1869525350E+002
9717500000.000 -6.5238732809E+000 -1.0510447710E+002 -4.0819860476E+001 +1.0016573564E+002 -8.5318589055E+001 -5.7509631556E+001 -1.8845509199E+001 -1.1165358275E+002
9850000000.000 -6.4687623924E+000 -1.0601747143E+002 -4.0888168240E+001 +6.2790731740E+001 -8.5774015082E+001 +9.2604634754E+001 -1.9639598592E+001 -1.0042412576E+002
9982500000.000 -6.4039219704E+000 -1.0647554860E+002 -4.1141906158E+001 +2.5133790824E+001 -9.1198197665E+001 -1.5670425067E+002 -1.9607103016E+001 -8.7007195233E+001
10115000000.000 -6.3328670699E+000 -1.0695427703E+002 -4.1058175958E+001 -8.8113886551E+000 -8.9653548655E+001 +1.7567964057E+002 -1.9932040933E+001 -7.9717653802E+001
10247500000.000 -6.2636863957E+000 -1.0772528493E+002 -4.1141664185E+001 -4.3202966779E+001 -8.6551335063E+001 +6.1384832263E+001 -2.1138020433E+001 -6.5937328201E+001
10380000000.000 -6.2098546982E+000 -1.0853327856E+002 -4.1511926494E+001 -8.3950658213E+001 -9.4943822067E+001 +1.4003544085E+002 -2.0940848703E+001 -5.0331335753E+001
10512500000.000 -6.1555626129E+000 -1.0899486486E+002 -4.1434442605E+001 -1.1574280776E+002 -8.9609026886E+001 +1.6687383244E+002 -2.1462166715E+001 -4.2901849991E+001
10645000000.000 -6.1106570581E+000 -1.0949932590E+002 -4.1308108675E+001 -1.4840165306E+002 -8.1515400675E+001 +3.1585692725E+001 -2.2823680709E+001 -2.3989520065E+001
10777500000.000 -6.0444762456E+000 -1.1020061385E+002 -4.1699795935E+001 +1.7146249835E+002 -1.0054483176E+002 -1.7204304955E+002 -2.2083258900E+001 -6.3162622613E+000
10910000000.000 -5.9783706155E+000 -1.1083750062E+002 -4.1925756840E+001 +1.3575840100E+002 -9.2670721319E+001 -1.1236989943E+002 -2.2717872644E+001 +3.1007525747E+000
11042500000.000 -5.9094157009E+000 -1.1139941917E+002 -4.1860978878E+001 +1.0373495308E+002 -8.4782610647E+001 -8.2334783161E+001 -2.3457759161E+001 +2.7051892030E+001
11175000000.000 -5.8537608200E+000 -1.1190906808E+002 -4.2112361908E+001 +6.8146829608E+001 -8.5444565658E+001 +1.2646280911E+002 -2.2165081706E+001 +4.2280291511E+001
11307500000.000 -5.8138058842E+000 -1.1242443396E+002 -4.2487239648E+001 +3.0318629912E+001 -8.6085167504E+001 -1.2916322357E+002 -2.2684329834E+001 +5.2162485984E+001
11440000000.000 -5.7555238748E+000 -1.1288169798E+002 -4.2419070918E+001 -3.1924438967E+000 -8.2156466789E+001 -1.9620328951E+001 -2.2588669915E+001 +7.5018888241E+001
11572500000.000 -5.6824232049E+000 -1.1309723141E+002 -4.2582000839E+001 -3.8144006233E+001 -8.7936250965E+001 -1.4107420811E+002 -2.1132752895E+001 +8.6366970368E+001
11705000000.000 -5.6483831511E+000 -1.1362554091E+002 -4.2972756094E+001 -7.3738333404E+001 -1.0029985304E+002 -6.0727848257E+001 -2.1722763390E+001 +9.6235415172E+001
11837500000.000 -5.5932961272E+000 -1.1394896789E+002 -4.3038074504E+001 -1.0896937686E+002 -9.7723885623E+001 +1.2964128426E+002 -2.1098308133E+001 +1.1837114140E+002
11970000000.000 -5.5776132697E+000 -1.1418872794E+002 -4.3161759081E+001 -1.4285763433E+002 -8.8056974051E+001 -5.0822956323E+000 -1.9813928946E+001 +1.2466498084E+002
12102500000.000 -5.5522823822E+000 -1.1443367126E+002 -4.3526868437E+001 -1.7819958700E+002 -8.6277235016E+001 +5.2733940408E+001 -2.0729319640E+001 +1.3495125481E+002
12235000000.000 -5.5075114110E+000 -1.1486723461E+002 -4.3657591736E+001 +1.4568474868E+002 -9.3630855773E+001 -3.0266584442E+001 -1.9692854041E+001 +1.5377272262E+002
12367500000.000 -5.4947123331E+000 -1.1509136410E+002 -4.3595019871E+001 +1.1262797158E+002 -9.4870040724E+001 -7.5034162156E+000 -1.8890827087E+001 +1.5689537169E+002
12500000000.000 -5.4831863452E+000 -1.1568883715E+002 -4.4038601140E+001 +7.5528619097E+001 -8.1541004906E+001 +1.3632748496E+002 -2.0065796822E+001 +1.6779988033E+002
12632500000.000 -5.4464798126E+000 -1.1590335325E+002 -4.4426239425E+001 +4.1260580531E+001 -7.9217472321E+001 -1.1604165728E+002 -1.9038539762E+001 -1.7373608244E+002
12765000000.000 -5.4256393906E+000 -1.1624011205E+002 -4.4500207611E+001 +6.8297488088E+000 -9.0387243269E+001 +3.1040310220E+001 -1.8502316425E+001 -1.7245653223E+002
12897500000.000 -5.4351665922E+000 -1.1670759588E+002 -4.4808385871E+001 -2.7551254452E+001 -1.0093033600E+002 +3.0958663574E+001 -2.0160412563E+001 -1.5965320138E+002
13030000000.000 -5.4177628913E+000 -1.1691304128E+002 -4.5139595825E+001 -6.2383909844E+001 -8.5408755800E+001 +1.4255997234E+002 -1.8704288683E+001 -1.4206589987E+002
13162500000.000 -5.3682529194E+000 -1.1729408575E+002 -4.5251912185E+001 -9.7127807891E+001 -9.0595159281E+001 -8.7633841540E+001 -1.8557374881E+001 -1.4285760587E+002
13295000000.000 -5.3405480963E+000 -1.1766998274E+002 -4.5328203178E+001 -1.3186064047E+002 -8.3601332372E+001 -1.4912989110E+002 -2.0032394470E+001 -1.2825345959E+002
13427500000.000 -5.3380264106E+000 -1.1821197134E+002 -4.5762030618E+001 -1.6647445676E+002 -9.4385687709E+001 -6.9225041105E+001 -1.8709180054E+001 -1.1443647125E+002
13560000000.000 -5.3487552874E+000 -1.1821690369E+002 -4.5926303619E+001 +1.5974951419E+002 -8.4260231051E+001 -1.1158521590E+002 -1.8916714649E+001 -1.1560983608E+002
13692500000.000 -5.2926275557E+000 -1.1842784742E+002 -4.6279440559E+001 +1.2502199698E+002 -9.3856273237E+001 +1.0097563952E+002 -2.0786665375E+001 -1.0191108739E+002
13825000000.000 -5.2558827286E+000 -1.1890794937E+002 -4.6917002900E+001 +9.0227182709E+001 -1.0652232300E+002 -4.3935591053E+001 -1.9614224140E+001 -8.7814677634E+001
13957500000.000 -5.2630078986E+000 -1.1943500764E+002 -4.6928893517E+001 +5.6577036867E+001 -8.2660588558E+001 -1.1724322186E+002 -2.0238263735E+001 -9.0527922175E+001
14090000000.000 -5.2537201220E+000 -1.1955308069E+002 -4.7026624868E+001 +2.1139481473E+001 -9.0259100133E+001 +9.1873722574E+000 -2.2520839115E+001 -7.3322583368E+001
14222500000.000 -5.2120809809E+000 -1.1966149347E+002 -4.7511700690E+001 -1.0493721492E+001 -8.6600155322E+001 -7.4520346933E+001 -2.1182545477E+001 -5.9831716499E+001
14355000000.000 -5.1722739118E+000 -1.2024764758E+002 -4.7605196715E+001 -4.6141938074E+001 -8.5704335266E+001 -1.6596575320E+002 -2.2392118782E+001 -6.3355131809E+001
14487500000.000 -5.1648554120E+000 -1.2048169247E+002 -4.7961226508E+001 -7.9394194573E+001 -7.7068790283E+001 +6.8613220808E+001 -2.5221317227E+001 -4.0521290778E+001
14620000000.000 -5.1368279634E+000 -1.2043719756E+002 -4.8041833014E+001 -1.1213370553E+002 -8.2097436976E+001 +1.0968106015E+002 -2.3182517487E+001 -2.8445643177E+001
14752500000.000 -5.0537777471E+000 -1.2070325346E+002 -4.8313423801E+001 -1.4794503015E+002 -8.2866496803E+001 -1.6283481529E+001 -2.5390716292E+001 -3.5923802870E+001
14885000000.000 -5.0344345956E+000 -1.2106574479E+002 -4.8448400365E+001 +1.7894490845E+002 -8.0203951732E+001 -2.9792583274E+001 -2.8372392918E+001 +2.5194236418E+000
15017500000.000 -5.0251440207E+000 -1.2085251831E+002 -4.8834828751E+001 +1.4438811004E+002 -8.3239351944E+001 +1.4015911259E+002 -2.5242613158E+001 +7.3684269498E+000
15150000000.000 -4.9491144349E+000 -1.2070557844E+002 -4.9093096301E+001 +1.1040984042E+002 -8.6051519380E+001 -1.1961469403E+002 -2.9262593398E+001 -1.5334914783E+000
15282500000.000 -4.8921467042E+000 -1.2083682838E+002 -4.9186739379E+001 +7.7940959197E+001 -9.1919530481E+001 -1.1727761105E+002 -3.0435525166E+001 +5.7869634347E+001
