!  2-Port S-parameters saved by WinCal
! VAR MeasName=S-Parameters (CALIBRATED_DATA) read from VNA (C)
! VAR MeasDate=10/5/2015 5:59:47 PM
! VAR NAME=M6079_2_7_3_2_20C_2.1mA_-17.5dBm
! VAR FILENAME=M6079_2_7_3_2_20C_2.1mA_-17.5dBm.S2P
! VAR DATE=10/5/2015 5:59:47 PM
! VAR PHYS_PORTS=2,1
! VAR ObjTypeName=DATASET
! VAR IndexType=Frequency
!
# Hz S DB R 50
45000000.000 -1.5484596594E+001 -3.7688918037E-001 -4.2036983202E+001 +1.0040927131E+002 -5.7027595002E+001 -9.0795555139E+001 -3.1066736798E+001 +8.1016438677E+000
177500000.000 -1.5414773984E+001 -3.9351631421E+000 -4.2629589534E+001 +6.9564929021E+001 -7.8129719558E+001 -1.8783247144E+001 -3.2530151018E+001 +4.5917268934E+001
310000000.000 -1.5357882689E+001 -7.3023066813E+000 -4.2906310334E+001 +3.9474886824E+001 -8.3221573418E+001 -5.5005952780E+001 -2.3304077603E+001 +6.3870353475E+001
442500000.000 -1.5304556159E+001 -1.0711770849E+001 -4.1909816880E+001 -2.0836785649E+000 -7.9634668268E+001 -3.0321107054E+001 -2.2360714007E+001 +1.7184971658E+001
575000000.000 -1.5219326413E+001 -1.4319341809E+001 -4.2611595645E+001 -3.6266138333E+001 -8.8123341438E+001 -1.7948337036E+002 -3.0517769373E+001 +2.2230196845E+001
707500000.000 -1.5161626121E+001 -1.7513879257E+001 -4.2747675482E+001 -7.0571609725E+001 -8.6552924512E+001 -1.1738713083E+002 -3.4569185071E+001 +8.2770168665E+001
840000000.000 -1.5038338078E+001 -2.0912360179E+001 -4.2848826497E+001 -1.0375661274E+002 -8.5354829429E+001 +2.7677208294E-002 -2.9690800084E+001 +1.2733546543E+002
972500000.000 -1.4908188197E+001 -2.4026453047E+001 -4.2856307895E+001 -1.3831129584E+002 -8.1183037099E+001 +3.5259320150E+001 -2.5912042397E+001 +1.3496184250E+002
1105000000.000 -1.4788939513E+001 -2.7250675005E+001 -4.2971681712E+001 -1.7274711759E+002 -8.3794605268E+001 -1.4334022415E+002 -2.4368882086E+001 +1.4055330666E+002
1237500000.000 -1.4658494410E+001 -3.0146198473E+001 -4.3033727017E+001 +1.5355363085E+002 -8.2831790228E+001 +3.8643875185E+001 -2.3380287562E+001 +1.4995786233E+002
1370000000.000 -1.4516282353E+001 -3.3214811518E+001 -4.3069118021E+001 +1.1984958256E+002 -8.5557512152E+001 +1.1944594034E+002 -2.2038407867E+001 +1.5974511205E+002
1502500000.000 -1.4369602316E+001 -3.5981488500E+001 -4.3052251045E+001 +8.5322283133E+001 -8.0206219810E+001 -1.0348544653E+002 -2.0848049356E+001 +1.6617358100E+002
1635000000.000 -1.4173922108E+001 -3.8490158284E+001 -4.3131468037E+001 +5.1562308803E+001 -8.0470332158E+001 -3.7941581114E+001 -2.0005129963E+001 +1.7315166787E+002
1767500000.000 -1.3997165623E+001 -4.1375267648E+001 -4.3124435625E+001 +1.7364650708E+001 -9.3347746426E+001 +1.2263311798E+002 -1.8990349775E+001 +1.7831468643E+002
1900000000.000 -1.3847722069E+001 -4.3742526839E+001 -4.3168550853E+001 -1.6523993177E+001 -8.2575460517E+001 -1.0091014335E+002 -1.8846589299E+001 -1.7843617499E+002
2032500000.000 -1.3691412617E+001 -4.6058586388E+001 -4.3130149911E+001 -5.0928753830E+001 -8.6215043477E+001 -1.7506524115E+002 -1.8654006019E+001 -1.6805899250E+002
2165000000.000 -1.3458757166E+001 -4.8365776867E+001 -4.3202806306E+001 -8.5214542532E+001 -8.6956551393E+001 +7.3071003709E+001 -1.7721452909E+001 -1.6118223429E+002
2297500000.000 -1.3302305376E+001 -5.0644589121E+001 -4.3311921135E+001 -1.1943576475E+002 -8.1312670064E+001 +1.6912535010E+002 -1.7224721886E+001 -1.5720131458E+002
2430000000.000 -1.3150863686E+001 -5.2471262317E+001 -4.3211786570E+001 -1.5247462608E+002 -8.5960485077E+001 -2.1998613884E+001 -1.6893315347E+001 -1.5301798618E+002
2562500000.000 -1.2944641430E+001 -5.4511264996E+001 -4.3289424759E+001 +1.7445734304E+002 -7.8542290545E+001 -2.8028431805E+001 -1.6789607166E+001 -1.5075117366E+002
2695000000.000 -1.2820076124E+001 -5.6767185630E+001 -4.3551612551E+001 +1.3779546500E+002 -7.3790419306E+001 +1.4094291554E+002 -1.7359049019E+001 -1.4739461132E+002
2827500000.000 -1.2728060226E+001 -5.8416673082E+001 -4.3459334134E+001 +1.0531328554E+002 -8.7028318539E+001 +5.7738755496E+001 -1.7808222038E+001 -1.4034902518E+002
2960000000.000 -1.2545326123E+001 -6.0004594196E+001 -4.3413192704E+001 +7.2523688733E+001 -7.7038427429E+001 +2.2190917605E+001 -1.8104611466E+001 -1.3585239015E+002
3092500000.000 -1.2354143841E+001 -6.2086708768E+001 -4.3333517053E+001 +3.7651113386E+001 -8.2279305941E+001 +9.8368308516E+001 -1.9070344962E+001 -1.2972410438E+002
3225000000.000 -1.2235422344E+001 -6.4059486229E+001 -4.3484232612E+001 +2.4326582598E+000 -8.7753088477E+001 -9.5171310743E+001 -1.9563991695E+001 -1.1969099579E+002
3357500000.000 -1.2126635543E+001 -6.5437233601E+001 -4.3574603391E+001 -2.9946887269E+001 -7.8996191023E+001 -1.2223435226E+002 -1.9888480653E+001 -1.1463664185E+002
3490000000.000 -1.1918530306E+001 -6.7083471772E+001 -4.3299312009E+001 -6.4845436586E+001 -7.5648385697E+001 -1.7879972218E+002 -2.1104899931E+001 -1.0912569883E+002
3622500000.000 -1.1738062827E+001 -6.8915087507E+001 -4.3208172451E+001 -9.8280195593E+001 -8.0839632136E+001 +1.6083866000E+002 -2.1924991580E+001 -9.8308336112E+001
3755000000.000 -1.1578699553E+001 -7.0565758746E+001 -4.3180541633E+001 -1.3180401962E+002 -9.2155525681E+001 -7.1320210600E+001 -2.2618219850E+001 -9.4774192315E+001
3887500000.000 -1.1417865492E+001 -7.1995296680E+001 -4.3120701931E+001 -1.6624658387E+002 -8.0360399120E+001 -1.7591168847E+002 -2.4932874301E+001 -8.8468670540E+001
4020000000.000 -1.1272281417E+001 -7.3316391336E+001 -4.3158161109E+001 +1.5930941038E+002 -7.8636416978E+001 -1.6334566375E+002 -2.6645963856E+001 -7.3700992678E+001
4152500000.000 -1.1081489297E+001 -7.4551817147E+001 -4.3125708418E+001 +1.2493139588E+002 -8.6684010950E+001 -3.9832119038E+001 -2.8726318434E+001 -6.4780450006E+001
4285000000.000 -1.0902355844E+001 -7.5968220153E+001 -4.3112981871E+001 +8.9614893084E+001 -9.7085000562E+001 -1.9679998464E+001 -3.3187448422E+001 -3.9145515818E+001
4417500000.000 -1.0772964738E+001 -7.7288291151E+001 -4.3055310457E+001 +5.6483358036E+001 -8.7448026545E+001 -5.3325822048E+001 -3.1754639980E+001 +7.2005587272E+000
4550000000.000 -1.0617558728E+001 -7.8227836410E+001 -4.3143598368E+001 +2.2004317757E+001 -9.2264595793E+001 -9.5133756093E+001 -3.0238818830E+001 +1.7426178190E+001
4682500000.000 -1.0425964985E+001 -7.9278317922E+001 -4.3152115250E+001 -1.2547763811E+001 -8.3345916477E+001 -9.0197650985E+000 -2.9637246725E+001 +3.7550707307E+001
4815000000.000 -1.0277437393E+001 -8.0612759443E+001 -4.3094992298E+001 -4.4903440371E+001 -8.8293411726E+001 +1.5255075982E+002 -2.7625894503E+001 +4.0524007476E+001
4947500000.000 -1.0145471469E+001 -8.1438512572E+001 -4.3012150207E+001 -7.9485512155E+001 -9.6462218903E+001 -7.8966880127E+001 -2.9299367684E+001 +3.4575184714E+001
5080000000.000 -9.9737080576E+000 -8.2183689130E+001 -4.2905313465E+001 -1.1437081846E+002 -8.4731019816E+001 +6.7683116305E+000 -3.2221026854E+001 +5.5325874099E+001
5212500000.000 -9.8142473476E+000 -8.3284155539E+001 -4.2752750517E+001 -1.4869498869E+002 -9.3505146044E+001 +8.2031740617E+001 -3.1544081973E+001 +6.8159111611E+001
5345000000.000 -9.7213294993E+000 -8.4215078800E+001 -4.2682879209E+001 +1.7757703509E+002 -8.6362400852E+001 -1.3710564108E+002 -3.5283788011E+001 +6.8340669748E+001
5477500000.000 -9.5938212709E+000 -8.4768785767E+001 -4.2559893228E+001 +1.4246462324E+002 -9.1166660737E+001 +7.8873263205E+001 -3.7659400317E+001 +1.3059563625E+002
5610000000.000 -9.4362599938E+000 -8.5572878360E+001 -4.2533324974E+001 +1.0720719242E+002 -9.1627754017E+001 +8.8105318660E+000 -3.3757408395E+001 +1.3443599626E+002
5742500000.000 -9.3509769034E+000 -8.6562579343E+001 -4.2527345948E+001 +7.3347489242E+001 -8.4297354151E+001 -1.5084152139E+002 -3.8090138254E+001 +1.4986699492E+002
5875000000.000 -9.2778062922E+000 -8.7294623766E+001 -4.2346432409E+001 +3.9092209420E+001 -8.2031879443E+001 -6.3539881613E+001 -3.4047788548E+001 -1.7040548903E+002
6007500000.000 -9.1756557061E+000 -8.7884952517E+001 -4.2274803128E+001 +4.2070231095E+000 -8.8722555321E+001 +8.1656069984E+001 -3.2778264063E+001 +1.7914582578E+002
6140000000.000 -9.0430470633E+000 -8.8684994090E+001 -4.2293803735E+001 -3.0376162533E+001 -8.9508237221E+001 +3.2642773010E+001 -3.6365343402E+001 -1.7157902507E+002
6272500000.000 -8.9570715007E+000 -8.9730294026E+001 -4.2148496546E+001 -6.4344863192E+001 -8.3933482522E+001 -6.5181248743E+001 -3.4184765660E+001 -1.4459500228E+002
6405000000.000 -8.9032554939E+000 -9.0645744245E+001 -4.2110098345E+001 -9.9098394390E+001 -9.1956048751E+001 -1.0846769958E+002 -3.3883380304E+001 -1.6239048809E+002
6537500000.000 -8.7997842797E+000 -9.1086011597E+001 -4.2119552988E+001 -1.3419119534E+002 -9.1509954985E+001 -1.5772470655E+002 -4.0129291442E+001 -1.6311562543E+002
6670000000.000 -8.6651152763E+000 -9.1811607832E+001 -4.2047838247E+001 -1.6763530939E+002 -9.0243628249E+001 -4.7372712775E+001 -3.9779830221E+001 -1.4045158222E+002
6802500000.000 -8.5469904061E+000 -9.3018442025E+001 -4.1969730461E+001 +1.5740201841E+002 -9.1940504951E+001 +1.1028070914E+002 -3.9076273958E+001 +1.7770507007E+002
6935000000.000 -8.5016728996E+000 -9.3799836475E+001 -4.1966578998E+001 +1.2091322288E+002 -9.1566677734E+001 -1.4229056759E+002 -3.8511881216E+001 +1.2411207534E+002
7067500000.000 -8.4012654726E+000 -9.4122649135E+001 -4.1851330768E+001 +8.7683308646E+001 -8.5326968448E+001 -1.1217283460E+002 -3.8544716474E+001 +1.1644001685E+002
7200000000.000 -8.2639127805E+000 -9.4927576590E+001 -4.1689082131E+001 +5.3503440551E+001 -8.5637851029E+001 -1.2317627623E+002 -3.2690396473E+001 +1.3048199194E+002
7332500000.000 -8.1634372337E+000 -9.5994716098E+001 -4.1674737644E+001 +1.7929959418E+001 -9.4046783594E+001 +1.1251293253E+002 -2.9134721640E+001 +1.1925483088E+002
7465000000.000 -8.0928760634E+000 -9.6537759235E+001 -4.1502839591E+001 -1.7141654673E+001 -1.0367596367E+002 -8.9104684364E+000 -2.8613322455E+001 +1.2349193318E+002
7597500000.000 -7.9842798224E+000 -9.7049973516E+001 -4.1449665035E+001 -4.9711224689E+001 -9.3355000307E+001 +9.7958226584E+000 -2.6011632178E+001 +1.3741846638E+002
7730000000.000 -7.8354342548E+000 -9.7790010557E+001 -4.1406588565E+001 -8.6560726060E+001 -8.3374093693E+001 +1.0189206240E+002 -2.3746871115E+001 +1.3761314905E+002
7862500000.000 -7.7223165379E+000 -9.8384577468E+001 -4.1289108818E+001 -1.2457479095E+002 -8.4596732805E+001 -9.6871986054E+001 -2.3312262867E+001 +1.4199070692E+002
7995000000.000 -7.6601750587E+000 -9.8757882901E+001 -4.1118821492E+001 -1.5620726926E+002 -8.4395769631E+001 -8.9704362420E+001 -2.1776160541E+001 +1.5440038188E+002
8127500000.000 -7.5079325142E+000 -9.9211580147E+001 -4.1046783118E+001 +1.6855769748E+002 -8.4835271709E+001 +1.7347248330E+001 -2.0038965965E+001 +1.5627759442E+002
8260000000.000 -7.3877259872E+000 -9.9947160936E+001 -4.0930741425E+001 +1.2988714458E+002 -8.1619387924E+001 -1.5153219552E+002 -1.9888633407E+001 +1.6022613647E+002
8392500000.000 -7.3171558752E+000 -1.0020189589E+002 -4.0818081226E+001 +9.6906079688E+001 -7.7647134443E+001 -9.3208726789E+001 -1.9051488719E+001 +1.7047389235E+002
8525000000.000 -7.2251820100E+000 -1.0048935565E+002 -4.0722626183E+001 +6.3229136363E+001 -8.5407099314E+001 -1.6512554121E+001 -1.8202931035E+001 +1.7280488659E+002
8657500000.000 -7.0853064074E+000 -1.0100176232E+002 -4.0671743160E+001 +2.2899374275E+001 -8.4066879861E+001 +8.9706824892E+001 -1.8561937840E+001 +1.7786395933E+002
8790000000.000 -6.9787724017E+000 -1.0140527666E+002 -4.0547409642E+001 -1.3432127164E+001 -8.4829146000E+001 -1.0648856814E+002 -1.8336012571E+001 -1.7192655436E+002
8922500000.000 -6.9420166981E+000 -1.0181095559E+002 -4.0467054666E+001 -4.5772650041E+001 -9.0965122649E+001 -7.4409470028E+001 -1.7997295713E+001 -1.6618306824E+002
9055000000.000 -6.8324733702E+000 -1.0223581764E+002 -4.0544482125E+001 -8.4303878782E+001 -9.0682540188E+001 +5.7951468891E+001 -1.8442811223E+001 -1.5837839514E+002
9187500000.000 -6.7587397675E+000 -1.0269997682E+002 -4.0458966607E+001 -1.2104970755E+002 -8.1806113669E+001 -1.5341144527E+002 -1.8360583829E+001 -1.4670444991E+002
9320000000.000 -6.7029471835E+000 -1.0333160270E+002 -4.0380712979E+001 -1.5406686194E+002 -9.2331400057E+001 -7.3342187740E+001 -1.8238839958E+001 -1.3988551420E+002
9452500000.000 -6.6355348018E+000 -1.0386372530E+002 -4.0406820687E+001 +1.6880292840E+002 -9.2343333753E+001 +1.4871029362E+002 -1.8826331748E+001 -1.3042214884E+002
9585000000.000 -6.5440105184E+000 -1.0448531794E+002 -4.0624514990E+001 +1.2929642985E+002 -9.3988849966E+001 -1.7566090667E+002 -1.8738008275E+001 -1.1864319321E+002
9717500000.000 -6.4702127876E+000 -1.0505501559E+002 -4.0394730727E+001 +9.7529649849E+001 -8.2692798986E+001 -1.3068478553E+002 -1.8847990124E+001 -1.1155507921E+002
9850000000.000 -6.4200613768E+000 -1.0597884308E+002 -4.0415054852E+001 +6.0123954437E+001 -8.7394892173E+001 +1.4357316528E+002 -1.9643881580E+001 -1.0033974722E+002
9982500000.000 -6.3556905528E+000 -1.0644615143E+002 -4.0682104091E+001 +2.2444594123E+001 -8.0782077575E+001 -1.7680332809E+002 -1.9612921667E+001 -8.6902613464E+001
10115000000.000 -6.2829851037E+000 -1.0689947812E+002 -4.0608815067E+001 -1.1117405127E+001 -8.8021952794E+001 +9.5882542803E+001 -1.9943929293E+001 -7.9687966891E+001
10247500000.000 -6.2187531051E+000 -1.0765709786E+002 -4.0651956709E+001 -4.5136400911E+001 -9.8394819311E+001 +1.1875560338E+002 -2.1147534210E+001 -6.5772595881E+001
10380000000.000 -6.1632983926E+000 -1.0849059597E+002 -4.1073851798E+001 -8.5934207377E+001 -8.7200650326E+001 +1.2174413561E+002 -2.0955588838E+001 -5.0177559843E+001
10512500000.000 -6.1107966847E+000 -1.0894393575E+002 -4.0938293994E+001 -1.1824365275E+002 -8.4552241273E+001 -7.3706990579E+001 -2.1489804258E+001 -4.2662899902E+001
10645000000.000 -6.0670030360E+000 -1.0945729418E+002 -4.0843013096E+001 -1.5100270804E+002 -8.8973975245E+001 -4.2557514405E+001 -2.2836890802E+001 -2.3822820733E+001
10777500000.000 -6.0003888988E+000 -1.1011992506E+002 -4.1213419134E+001 +1.6981767029E+002 -9.6085409741E+001 +1.9042453792E+001 -2.2077840071E+001 -6.1056444470E+000
10910000000.000 -5.9344071817E+000 -1.1077002196E+002 -4.1572102328E+001 +1.3300623649E+002 -1.0122227264E+002 -8.8989526775E+001 -2.2743327975E+001 +3.3140081341E+000
11042500000.000 -5.8677154869E+000 -1.1135093661E+002 -4.1410097336E+001 +1.0103955543E+002 -8.6626796124E+001 -6.2617107426E+001 -2.3455095567E+001 +2.7430788176E+001
11175000000.000 -5.8138379751E+000 -1.1182550572E+002 -4.1585397190E+001 +6.4921397958E+001 -8.8212171101E+001 +6.7725204708E+001 -2.2165781539E+001 +4.2423012128E+001
11307500000.000 -5.7759850095E+000 -1.1231439148E+002 -4.2122021880E+001 +2.8112703133E+001 -8.7969075682E+001 -6.9721580551E+001 -2.2695858223E+001 +5.2512109655E+001
11440000000.000 -5.7180649312E+000 -1.1277950984E+002 -4.1984774464E+001 -5.4881838909E+000 -8.0917146240E+001 -6.7680120723E+001 -2.2584968816E+001 +7.5317708999E+001
11572500000.000 -5.6450946446E+000 -1.1298156958E+002 -4.2157145471E+001 -4.0755144141E+001 -8.6113479434E+001 -1.6691598570E+001 -2.1130120118E+001 +8.6654881704E+001
11705000000.000 -5.6121179445E+000 -1.1347568432E+002 -4.2491046946E+001 -7.6520758603E+001 -8.4295576320E+001 +1.4539305692E+002 -2.1734667802E+001 +9.6493740896E+001
11837500000.000 -5.5566232973E+000 -1.1380192913E+002 -4.2580591677E+001 -1.1143471823E+002 -8.3228564896E+001 -1.4211198526E+002 -2.1086298865E+001 +1.1861579684E+002
11970000000.000 -5.5418360914E+000 -1.1405036097E+002 -4.2539100738E+001 -1.4437340653E+002 -1.0044255865E+002 +1.4489060136E+001 -1.9823441755E+001 +1.2489359082E+002
12102500000.000 -5.5203077435E+000 -1.1426199030E+002 -4.2954715539E+001 +1.7963336423E+002 -8.4521640616E+001 +1.5268549684E+002 -2.0727492393E+001 +1.3518821799E+002
12235000000.000 -5.4747298168E+000 -1.1468408155E+002 -4.3045060713E+001 +1.4426097192E+002 -8.9046401259E+001 -1.1835584883E+002 -1.9695793203E+001 +1.5395594247E+002
12367500000.000 -5.4612176664E+000 -1.1491220388E+002 -4.3122322678E+001 +1.1113347294E+002 -8.6849034193E+001 +9.3990158190E+000 -1.8887837479E+001 +1.5711476297E+002
12500000000.000 -5.4510328967E+000 -1.1551262768E+002 -4.3577470432E+001 +7.3665390158E+001 -8.8882025796E+001 +1.5930121833E+002 -2.0049138731E+001 +1.6816069973E+002
12632500000.000 -5.4142151008E+000 -1.1572056462E+002 -4.3858453888E+001 +3.8709706446E+001 -9.4469334210E+001 -5.4934208552E+001 -1.9046362363E+001 -1.7354518571E+002
12765000000.000 -5.3930678680E+000 -1.1606018511E+002 -4.3946930013E+001 +4.2278904511E+000 -8.2176813533E+001 +3.4646936744E+001 -1.8507539658E+001 -1.7229783534E+002
12897500000.000 -5.4069778660E+000 -1.1651769027E+002 -4.4260659160E+001 -2.9745434735E+001 -8.7591435628E+001 +8.4677755434E+001 -2.0160224948E+001 -1.5936369769E+002
13030000000.000 -5.3896226159E+000 -1.1672430267E+002 -4.4575260095E+001 -6.4256389322E+001 -9.5850112586E+001 +4.9604197559E+001 -1.8703055210E+001 -1.4186910064E+002
13162500000.000 -5.3395077239E+000 -1.1708199699E+002 -4.4902067490E+001 -9.8495609875E+001 -8.4251661376E+001 -5.7670894413E+001 -1.8587424700E+001 -1.4265566399E+002
13295000000.000 -5.3158586009E+000 -1.1744113131E+002 -4.4998285876E+001 -1.3250388250E+002 -9.0331137538E+001 +4.2032426177E+001 -2.0057947778E+001 -1.2800312133E+002
13427500000.000 -5.3114334525E+000 -1.1799570649E+002 -4.5274692519E+001 -1.6821064287E+002 -8.3183726068E+001 +1.3335142061E+002 -1.8710882363E+001 -1.1431125190E+002
13560000000.000 -5.3245293978E+000 -1.1797404068E+002 -4.5596327092E+001 +1.5791111632E+002 -8.1873862893E+001 -6.9527025776E+001 -1.8933243312E+001 -1.1543076647E+002
13692500000.000 -5.2679348752E+000 -1.1818510165E+002 -4.5767424630E+001 +1.2271338315E+002 -8.1409602014E+001 +8.6593735251E+001 -2.0806866731E+001 -1.0155217361E+002
13825000000.000 -5.2324732766E+000 -1.1864435955E+002 -4.6104486796E+001 +8.9213777339E+001 -8.0821095785E+001 -1.4393623225E+002 -1.9635534010E+001 -8.7712824399E+001
13957500000.000 -5.2385152976E+000 -1.1915719698E+002 -4.6296828811E+001 +5.3597722826E+001 -8.6018521438E+001 -1.1866597931E+002 -2.0260891774E+001 -9.0432446764E+001
14090000000.000 -5.2359471908E+000 -1.1927586656E+002 -4.6432598179E+001 +2.0609692938E+001 -8.4819520790E+001 -1.6442176187E+002 -2.2537583758E+001 -7.3151873264E+001
14222500000.000 -5.1926353071E+000 -1.1937126133E+002 -4.6942172870E+001 -1.3241215710E+001 -8.6887904445E+001 -1.4894118811E+002 -2.1203240174E+001 -5.9717360858E+001
14355000000.000 -5.1511360363E+000 -1.1995444451E+002 -4.7230246618E+001 -4.5880481724E+001 -9.9878657206E+001 +1.3046888045E+002 -2.2449260036E+001 -6.3256118771E+001
14487500000.000 -5.1511124500E+000 -1.2018834126E+002 -4.7554403181E+001 -8.2171851929E+001 -9.3124827595E+001 +3.1339469334E+001 -2.5268413533E+001 -4.0415850247E+001
14620000000.000 -5.1202058547E+000 -1.2009916998E+002 -4.7646563640E+001 -1.1452697845E+002 -8.2789955158E+001 +1.0647091925E+002 -2.3225657915E+001 -2.8324576786E+001
14752500000.000 -5.0342556810E+000 -1.2038957318E+002 -4.7835310066E+001 -1.4963474598E+002 -9.0175422054E+001 -1.2715779122E+002 -2.5420019002E+001 -3.5938148717E+001
14885000000.000 -5.0224275422E+000 -1.2075471512E+002 -4.8023941703E+001 +1.7662606345E+002 -8.1859226295E+001 +4.1697542099E+001 -2.8433527104E+001 +2.3061795789E+000
15017500000.000 -5.0064149308E+000 -1.2047146122E+002 -4.8380436042E+001 +1.3932365850E+002 -7.8404012235E+001 +7.3112085941E+001 -2.5314608853E+001 +7.4199405450E+000
15150000000.000 -4.9254887407E+000 -1.2033776563E+002 -4.8709986287E+001 +1.0707480505E+002 -7.7775145017E+001 -1.5411544367E+002 -2.9334031063E+001 -1.4372958084E+000
15282500000.000 -4.8756790002E+000 -1.2049064380E+002 -4.8685624704E+001 +7.3220910863E+001 -7.7847423154E+001 -1.0092114028E+002 -3.0486536370E+001 +5.8101932811E+001
