!  2-Port S-parameters saved by WinCal
! VAR MeasName=S-Parameters (CALIBRATED_DATA) read from VNA (C)
! VAR MeasDate=10/5/2015 6:50:40 PM
! VAR NAME=M6079_2_7_3_3_20C_9.0mA_-17.5dBm
! VAR FILENAME=M6079_2_7_3_3_20C_9.0mA_-17.5dBm.S2P
! VAR DATE=10/5/2015 6:50:40 PM
! VAR PHYS_PORTS=2,1
! VAR ObjTypeName=DATASET
! VAR IndexType=Frequency
!
# Hz S DB R 50
45000000.000 -4.6802400819E+001 -1.9329265934E+001 -4.5478448255E+001 +1.0835134570E+002 -6.2784727332E+001 -1.1706593452E+002 -3.1127961356E+001 +6.9129435947E+000
177500000.000 -4.2303369753E+001 -5.9237207595E+001 -4.5047929811E+001 +7.0624188968E+001 -6.9369655803E+001 +1.3610262782E+002 -3.2714425579E+001 +4.5739851904E+001
310000000.000 -3.7572178565E+001 -7.1066589622E+001 -4.4637642560E+001 +4.0100907546E+001 -8.3398603420E+001 -1.7564608250E+002 -2.3320284073E+001 +6.3924889289E+001
442500000.000 -3.4264336512E+001 -7.5815856143E+001 -4.3252796228E+001 +1.4821419639E+000 -8.1347758557E+001 -1.6161792713E+001 -2.2385726180E+001 +1.7088559357E+001
575000000.000 -3.1681473166E+001 -7.9553732774E+001 -4.4186268195E+001 -3.5185915645E+001 -8.8216227566E+001 -7.5803115203E+001 -3.0553712549E+001 +2.2426915774E+001
707500000.000 -2.9909257525E+001 -8.2312924845E+001 -4.4305445041E+001 -6.7765505201E+001 -9.1783194898E+001 +1.3558751572E+002 -3.4537031383E+001 +8.2955562789E+001
840000000.000 -2.8269256750E+001 -8.3547553859E+001 -4.4316139666E+001 -1.0328963142E+002 -8.3989534854E+001 +4.6181521354E+001 -2.9703587870E+001 +1.2748611915E+002
972500000.000 -2.6931262131E+001 -8.4615703675E+001 -4.4513843406E+001 -1.3699004690E+002 -7.8860199925E+001 +1.3314257411E+002 -2.5922221806E+001 +1.3508404496E+002
1105000000.000 -2.5726270796E+001 -8.6352891568E+001 -4.4357215383E+001 -1.6995948041E+002 -8.1096552961E+001 -1.2968061689E+002 -2.4360639403E+001 +1.4062370404E+002
1237500000.000 -2.4774217507E+001 -8.7351954867E+001 -4.4693909541E+001 +1.5543532709E+002 -8.5524169299E+001 +1.7851651720E+001 -2.3388342720E+001 +1.4990472691E+002
1370000000.000 -2.3846808500E+001 -8.8679333023E+001 -4.4573923643E+001 +1.2199116346E+002 -8.9464958937E+001 +1.2965422801E+002 -2.2051521975E+001 +1.5988422682E+002
1502500000.000 -2.3068345408E+001 -8.9427434690E+001 -4.4574831153E+001 +8.7554255023E+001 -8.9788629079E+001 -4.1013031195E+001 -2.0857307310E+001 +1.6625045245E+002
1635000000.000 -2.2290435683E+001 -8.9834981328E+001 -4.4599790828E+001 +5.3667842025E+001 -9.4845298994E+001 -6.3492952491E+001 -2.0011516858E+001 +1.7319069034E+002
1767500000.000 -2.1555764867E+001 -9.0868011842E+001 -4.4637875110E+001 +1.9790808799E+001 -9.0565752088E+001 -1.7153522270E+002 -1.9001597713E+001 +1.7838851835E+002
1900000000.000 -2.1015625322E+001 -9.1464392581E+001 -4.4853514657E+001 -1.4843254508E+001 -8.1897994435E+001 -1.3866530136E+002 -1.8863134854E+001 -1.7836413489E+002
2032500000.000 -2.0447533840E+001 -9.2113005036E+001 -4.4794971348E+001 -4.9224745436E+001 -9.0241198313E+001 -9.6289611640E+001 -1.8671699296E+001 -1.6801319182E+002
2165000000.000 -1.9830326914E+001 -9.2403433121E+001 -4.4717511334E+001 -8.2690652199E+001 -9.4820747652E+001 +3.9085589112E+001 -1.7732413423E+001 -1.6110242748E+002
2297500000.000 -1.9380825541E+001 -9.3178701150E+001 -4.4951746819E+001 -1.1678436306E+002 -7.9973361144E+001 +1.7022388384E+002 -1.7234581797E+001 -1.5720844853E+002
2430000000.000 -1.8949450723E+001 -9.3548307370E+001 -4.4928212007E+001 -1.5101863869E+002 -8.0498255520E+001 -1.5374071708E+001 -1.6907364801E+001 -1.5297075389E+002
2562500000.000 -1.8460155770E+001 -9.4048967644E+001 -4.4821252682E+001 +1.7430787654E+002 -8.9273685506E+001 +8.6785560690E+001 -1.6809473438E+001 -1.5068809402E+002
2695000000.000 -1.8095405529E+001 -9.5373847615E+001 -4.4975145542E+001 +1.4115217989E+002 -8.0740160518E+001 +1.3727852338E+002 -1.7380584136E+001 -1.4731703192E+002
2827500000.000 -1.7835072086E+001 -9.6260806101E+001 -4.5256219965E+001 +1.0780357669E+002 -7.3971009480E+001 +1.7487333376E+002 -1.7815160575E+001 -1.4031106714E+002
2960000000.000 -1.7454430439E+001 -9.6434178793E+001 -4.5233299012E+001 +7.2504112781E+001 -9.8722778729E+001 +1.4352625596E+002 -1.8119971511E+001 -1.3571945815E+002
3092500000.000 -1.7022459015E+001 -9.7273564335E+001 -4.5261713473E+001 +3.8531957120E+001 -8.9549046650E+001 -1.1805401628E+002 -1.9088087683E+001 -1.2961685681E+002
3225000000.000 -1.6703986768E+001 -9.8677032879E+001 -4.5339194981E+001 +5.6444906756E+000 -7.8839052560E+001 +1.5172352757E+002 -1.9584890763E+001 -1.1970973258E+002
3357500000.000 -1.6473723418E+001 -9.9197039262E+001 -4.5621267780E+001 -2.8697506452E+001 -7.6714667010E+001 -7.1615914982E+001 -1.9914822674E+001 -1.1451649896E+002
3490000000.000 -1.6107611319E+001 -9.9623460998E+001 -4.5462239385E+001 -6.1442088560E+001 -1.1010171402E+002 +1.1425285063E+002 -2.1111281637E+001 -1.0901151635E+002
3622500000.000 -1.5725563221E+001 -1.0040164998E+002 -4.5342273294E+001 -9.6548636527E+001 -8.7369623376E+001 -7.7776217417E+001 -2.1952495865E+001 -9.8218727744E+001
3755000000.000 -1.5413537188E+001 -1.0115066980E+002 -4.5060231053E+001 -1.2909836771E+002 -8.3958252968E+001 +2.3842621746E+000 -2.2664014755E+001 -9.4716036226E+001
3887500000.000 -1.5133002460E+001 -1.0173876164E+002 -4.5056945829E+001 -1.6325016741E+002 -8.1800429712E+001 -4.6601787567E+001 -2.4990645925E+001 -8.8322506675E+001
4020000000.000 -1.4901024689E+001 -1.0213023297E+002 -4.5253548013E+001 +1.6195498454E+002 -8.3346322800E+001 +1.1552242968E+002 -2.6681288737E+001 -7.3558953010E+001
4152500000.000 -1.4591388182E+001 -1.0243316306E+002 -4.5026837253E+001 +1.2858560082E+002 -8.7791008563E+001 +1.4893615851E+002 -2.8765054641E+001 -6.4782441899E+001
4285000000.000 -1.4293967839E+001 -1.0302043611E+002 -4.5210659753E+001 +9.4409585786E+001 -8.2464613949E+001 +1.2223855788E+002 -3.3301374556E+001 -3.8516159667E+001
4417500000.000 -1.4079691240E+001 -1.0369250080E+002 -4.5314073571E+001 +6.0708102069E+001 -8.6142443620E+001 -1.7157541011E+002 -3.1759173207E+001 +7.7057988898E+000
4550000000.000 -1.3862828231E+001 -1.0377891003E+002 -4.5601147809E+001 +2.7064507952E+001 -8.2716486098E+001 -1.0855214436E+002 -3.0268539975E+001 +1.7970560079E+001
4682500000.000 -1.3592580746E+001 -1.0404384863E+002 -4.5583116063E+001 -6.2681829680E+000 -8.3359561867E+001 -1.8617792273E+001 -2.9672437894E+001 +3.8077694079E+001
4815000000.000 -1.3355161998E+001 -1.0476986012E+002 -4.5598229743E+001 -3.8801244907E+001 -9.9689342428E+001 -8.9303357908E+000 -2.7619770205E+001 +4.0957536196E+001
4947500000.000 -1.3180981708E+001 -1.0488441322E+002 -4.5645916852E+001 -7.1670141454E+001 -8.5779988351E+001 +1.3771541792E+002 -2.9327346499E+001 +3.5145430430E+001
5080000000.000 -1.2971322731E+001 -1.0493404981E+002 -4.5604819625E+001 -1.0544813304E+002 -8.6127402642E+001 +1.5314058913E+001 -3.2230193382E+001 +5.6296922393E+001
5212500000.000 -1.2740875559E+001 -1.0532476515E+002 -4.5325831858E+001 -1.4005525203E+002 -8.9100697149E+001 +7.9804291846E+001 -3.1533349876E+001 +6.8978029964E+001
5345000000.000 -1.2592069802E+001 -1.0577521903E+002 -4.5223275237E+001 -1.7466092555E+002 -8.7424230542E+001 +1.1164254741E+002 -3.5276173580E+001 +6.9790335936E+001
5477500000.000 -1.2445284398E+001 -1.0571717920E+002 -4.5160210887E+001 +1.5173829243E+002 -8.9430330359E+001 +2.1857165787E+001 -3.7378157058E+001 +1.3139060638E+002
5610000000.000 -1.2252829147E+001 -1.0581988347E+002 -4.5226262732E+001 +1.1825904534E+002 -9.0272880070E+001 +1.4032797435E+002 -3.3646202251E+001 +1.3507250744E+002
5742500000.000 -1.2104065338E+001 -1.0636320147E+002 -4.5202133268E+001 +8.4059319471E+001 -9.1134097605E+001 -1.3437592912E+002 -3.7917877797E+001 +1.5098360658E+002
5875000000.000 -1.2000616194E+001 -1.0675392117E+002 -4.5287711171E+001 +4.9404152499E+001 -8.3862473744E+001 -2.0757332453E+001 -3.3885683975E+001 -1.7036527733E+002
6007500000.000 -1.1882015572E+001 -1.0691630194E+002 -4.5315729384E+001 +1.6175159119E+001 -8.2049867888E+001 +7.3987783430E+001 -3.2659786597E+001 +1.7938507567E+002
6140000000.000 -1.1707142792E+001 -1.0714243798E+002 -4.5410294781E+001 -1.8326228309E+001 -8.5747322872E+001 -1.1679537264E+002 -3.6212132769E+001 -1.7123611013E+002
6272500000.000 -1.1554058234E+001 -1.0788184325E+002 -4.5303044576E+001 -5.3361020900E+001 -8.9749123526E+001 +8.1413625853E+001 -3.4018865139E+001 -1.4448656953E+002
6405000000.000 -1.1481006294E+001 -1.0864852915E+002 -4.5449375431E+001 -8.7343655211E+001 -8.8965923852E+001 +1.7337295292E+002 -3.3835139501E+001 -1.6176558729E+002
6537500000.000 -1.1362999772E+001 -1.0862314522E+002 -4.5385410209E+001 -1.2168802169E+002 -8.3950799753E+001 +1.0974874429E+002 -3.9969513744E+001 -1.6210400201E+002
6670000000.000 -1.1166058673E+001 -1.0890789499E+002 -4.5458360909E+001 -1.5533753887E+002 -9.1263381993E+001 -9.8216674261E+000 -3.9520349367E+001 -1.3888582008E+002
6802500000.000 -1.0996527328E+001 -1.0983236894E+002 -4.5474856505E+001 +1.7084517013E+002 -8.9718151097E+001 +2.3922005130E+000 -3.9084799383E+001 +1.7871883045E+002
6935000000.000 -1.0949686812E+001 -1.1045028229E+002 -4.5446821659E+001 +1.3698689960E+002 -8.8172877290E+001 +8.6831698267E+001 -3.8665667236E+001 +1.2438411037E+002
7067500000.000 -1.0817800236E+001 -1.1037472669E+002 -4.5472945606E+001 +1.0355719293E+002 -1.0432922934E+002 +7.3812086283E+001 -3.8638873960E+001 +1.1709153868E+002
7200000000.000 -1.0628703454E+001 -1.1073171963E+002 -4.5460523933E+001 +6.8676151309E+001 -8.2380173789E+001 +5.5032128160E+001 -3.2769780620E+001 +1.3056855258E+002
7332500000.000 -1.0497922703E+001 -1.1155566736E+002 -4.5655830919E+001 +3.4806162826E+001 -8.4416820148E+001 +1.4539788835E+002 -2.9171055680E+001 +1.1892722171E+002
7465000000.000 -1.0403974473E+001 -1.1184497346E+002 -4.5661286976E+001 +1.9952600875E+000 -9.3057302930E+001 -3.3911663338E+001 -2.8641253402E+001 +1.2341916267E+002
7597500000.000 -1.0254618986E+001 -1.1200864380E+002 -4.5570297948E+001 -3.3251912826E+001 -8.9941600665E+001 -2.5777967779E+001 -2.6047723476E+001 +1.3749992359E+002
7730000000.000 -1.0088068557E+001 -1.1239471846E+002 -4.5662310445E+001 -6.6578684148E+001 -8.5937595441E+001 +4.0985850467E+001 -2.3759071414E+001 +1.3751904655E+002
7862500000.000 -9.9845187919E+000 -1.1273619881E+002 -4.5753482923E+001 -1.0040271253E+002 -8.5677470917E+001 -1.1058630289E+002 -2.3319962753E+001 +1.4189197834E+002
7995000000.000 -9.8845918983E+000 -1.1281062772E+002 -4.5760721865E+001 -1.3346425281E+002 -9.1466460077E+001 -5.0568905794E+001 -2.1782920733E+001 +1.5431350967E+002
8127500000.000 -9.7025471363E+000 -1.1283831946E+002 -4.5764966421E+001 -1.6860266302E+002 -9.9091903251E+001 +1.2641184494E+002 -2.0037650228E+001 +1.5627421476E+002
8260000000.000 -9.5944379686E+000 -1.1337978835E+002 -4.5869597148E+001 +1.5801112033E+002 -8.4991593956E+001 +1.3918791641E+002 -1.9888799590E+001 +1.6027388964E+002
8392500000.000 -9.5049606109E+000 -1.1329666205E+002 -4.5755513178E+001 +1.2380031236E+002 -8.9387498892E+001 -8.8559414830E+001 -1.9046354560E+001 +1.7043787068E+002
8525000000.000 -9.4017702760E+000 -1.1326941177E+002 -4.5771347722E+001 +9.0562824455E+001 -9.7705081223E+001 +7.0563487800E+001 -1.8208720465E+001 +1.7286638111E+002
8657500000.000 -9.2810847145E+000 -1.1338105415E+002 -4.5671069568E+001 +5.6557403750E+001 -1.1146096515E+002 -1.5605195444E+002 -1.8566548443E+001 +1.7798706708E+002
8790000000.000 -9.1783188708E+000 -1.1350077193E+002 -4.5837973672E+001 +2.4049410170E+001 -8.5382103168E+001 -1.7254610549E+002 -1.8334118733E+001 -1.7182626618E+002
8922500000.000 -9.1201029467E+000 -1.1371592502E+002 -4.5674087516E+001 -1.2263992981E+001 -8.5558783491E+001 -2.4273982904E+000 -1.8004109805E+001 -1.6607539398E+002
9055000000.000 -9.0332072380E+000 -1.1371662142E+002 -4.5829448806E+001 -4.4829916056E+001 -1.0135750797E+002 +5.2330891499E+001 -1.8446196873E+001 -1.5822200813E+002
9187500000.000 -8.9580743560E+000 -1.1391244444E+002 -4.5852447976E+001 -7.8113550140E+001 -1.0166138185E+002 -8.9331283461E+001 -1.8349933496E+001 -1.4651897985E+002
9320000000.000 -8.8780279193E+000 -1.1442726519E+002 -4.5856899140E+001 -1.1242125935E+002 -9.2008993328E+001 +8.3925878906E+001 -1.8238525534E+001 -1.3974477992E+002
9452500000.000 -8.8195375863E+000 -1.1467164750E+002 -4.5860643636E+001 -1.4646169128E+002 -8.0166080314E+001 +3.2958106921E+001 -1.8832676690E+001 -1.3031983988E+002
9585000000.000 -8.7404162169E+000 -1.1482257623E+002 -4.5839490439E+001 +1.7860047028E+002 -9.2463431513E+001 +8.5886923906E+001 -1.8742450345E+001 -1.1843101194E+002
9717500000.000 -8.6263663196E+000 -1.1527084515E+002 -4.5893838316E+001 +1.4595297731E+002 -8.2193588791E+001 -4.0925249571E+001 -1.8846472595E+001 -1.1136605040E+002
9850000000.000 -8.5728898608E+000 -1.1595763145E+002 -4.5886071808E+001 +1.1079029491E+002 -8.5579040916E+001 +8.2852840939E+001 -1.9650854340E+001 -1.0015611732E+002
9982500000.000 -8.5113166044E+000 -1.1600671574E+002 -4.5962177616E+001 +7.6655524448E+001 -9.0289959364E+001 +1.7620774364E+002 -1.9626817777E+001 -8.6633416388E+001
10115000000.000 -8.4101556502E+000 -1.1622631318E+002 -4.5902682607E+001 +4.2931736243E+001 -8.3591068516E+001 -2.0205892755E+001 -1.9950811715E+001 -7.9383548865E+001
10247500000.000 -8.3158509624E+000 -1.1679624556E+002 -4.5853316249E+001 +8.8115672122E+000 -9.6950946608E+001 +1.1448234854E+002 -2.1160341333E+001 -6.5523380385E+001
10380000000.000 -8.2563049866E+000 -1.1719726179E+002 -4.5976898036E+001 -2.4444404727E+001 -8.2989812631E+001 +1.0029110957E+002 -2.0971668417E+001 -4.9878328693E+001
10512500000.000 -8.1778240608E+000 -1.1749734115E+002 -4.5943303042E+001 -5.8113448825E+001 -9.7752657547E+001 -6.7804616758E+001 -2.1501356339E+001 -4.2345342663E+001
10645000000.000 -8.1125296223E+000 -1.1786650652E+002 -4.6085462090E+001 -9.1819744052E+001 -8.4449359452E+001 +2.0844787853E+001 -2.2846539612E+001 -2.3473409321E+001
10777500000.000 -8.0264345222E+000 -1.1812366839E+002 -4.5992180128E+001 -1.2558991018E+002 -9.5729778925E+001 +1.0172661938E+002 -2.2099095929E+001 -5.6953617483E+000
10910000000.000 -7.9316227814E+000 -1.1848108557E+002 -4.6069936250E+001 -1.5926450910E+002 -8.5729320336E+001 -1.6376456381E+002 -2.2748276634E+001 +3.8928772544E+000
11042500000.000 -7.8380011092E+000 -1.1894092256E+002 -4.6000304691E+001 +1.6624802176E+002 -8.3354544538E+001 +1.4884853923E+002 -2.3471922948E+001 +2.7937688249E+001
11175000000.000 -7.7547544804E+000 -1.1909503954E+002 -4.6046402554E+001 +1.3272851831E+002 -7.9708041622E+001 +1.0809621800E+002 -2.2189433563E+001 +4.2883687605E+001
11307500000.000 -7.6914782744E+000 -1.1928825139E+002 -4.5984051827E+001 +9.8250144909E+001 -9.2901156550E+001 +7.7104650717E+001 -2.2702041223E+001 +5.2910238759E+001
11440000000.000 -7.6087196991E+000 -1.1962432127E+002 -4.6054378677E+001 +6.5644571051E+001 -8.4648635660E+001 -2.9493273310E+001 -2.2555472072E+001 +7.5859176341E+001
11572500000.000 -7.5106471496E+000 -1.1949977377E+002 -4.6037766434E+001 +3.1125255819E+001 -8.3580410516E+001 +1.0983357136E+002 -2.1110981913E+001 +8.7127423544E+001
11705000000.000 -7.4450127422E+000 -1.1975075842E+002 -4.5930599386E+001 -2.9431513788E+000 -8.4214058714E+001 +7.9309205466E+001 -2.1730377131E+001 +9.7092261160E+001
11837500000.000 -7.3620832543E+000 -1.1992154458E+002 -4.5915317398E+001 -3.7156009774E+001 -9.8908142006E+001 +1.7004912937E+002 -2.1078439638E+001 +1.1918103052E+002
11970000000.000 -7.3342127734E+000 -1.2002012861E+002 -4.6052339412E+001 -7.1996881518E+001 -1.1160463201E+002 +3.4853377341E+001 -1.9807135438E+001 +1.2536994112E+002
12102500000.000 -7.2871082835E+000 -1.1995791589E+002 -4.6147625469E+001 -1.0633306141E+002 -8.7113775780E+001 -1.4864766273E+002 -2.0723370064E+001 +1.3567526202E+002
12235000000.000 -7.2156644348E+000 -1.2023665072E+002 -4.6081111987E+001 -1.3887424790E+002 -8.7776076434E+001 -3.0754969270E+001 -1.9684540306E+001 +1.5443226376E+002
12367500000.000 -7.1907964420E+000 -1.2034270141E+002 -4.6110674772E+001 -1.7301228809E+002 -9.1169793549E+001 -5.8743871608E+001 -1.8885636041E+001 +1.5757918730E+002
12500000000.000 -7.1632828258E+000 -1.2081086782E+002 -4.6142801443E+001 +1.5226636572E+002 -9.0155981673E+001 +7.9481870007E+001 -2.0060884483E+001 +1.6863654187E+002
12632500000.000 -7.0955338209E+000 -1.2085413832E+002 -4.6142945597E+001 +1.1791585331E+002 -8.5938733431E+001 -3.2988677186E+001 -1.9063857038E+001 -1.7308162990E+002
12765000000.000 -7.0576557152E+000 -1.2104045947E+002 -4.6126259598E+001 +8.5157354090E+001 -8.0303818894E+001 -3.6780154785E+001 -1.8516940364E+001 -1.7183550079E+002
12897500000.000 -7.0517958580E+000 -1.2146858036E+002 -4.6252926576E+001 +5.0080354518E+001 -8.9513463221E+001 -2.5446882079E+001 -2.0160338168E+001 -1.5900852431E+002
13030000000.000 -7.0178802239E+000 -1.2156651493E+002 -4.6190412906E+001 +1.6759019046E+001 -8.8600153506E+001 -6.9092622532E+001 -1.8729304050E+001 -1.4143160683E+002
13162500000.000 -6.9405671277E+000 -1.2177955004E+002 -4.6121659917E+001 -1.7504898551E+001 -8.3541673881E+001 -1.4501666582E+001 -1.8627152720E+001 -1.4219326669E+002
13295000000.000 -6.8958264542E+000 -1.2206626614E+002 -4.6256782865E+001 -5.0400573199E+001 -8.0061735766E+001 +8.9406683555E+001 -2.0072300726E+001 -1.2752491983E+002
13427500000.000 -6.8642305607E+000 -1.2255114389E+002 -4.6480556386E+001 -8.3892986910E+001 -9.3675602216E+001 +4.6023875865E+001 -1.8763405504E+001 -1.1394458910E+002
13560000000.000 -6.8757560588E+000 -1.2240297302E+002 -4.6283601332E+001 -1.1818231357E+002 -8.6834620490E+001 -7.2130658957E+001 -1.9000447961E+001 -1.1494875248E+002
13692500000.000 -6.7915521343E+000 -1.2245726972E+002 -4.6262505722E+001 -1.5280551587E+002 -8.5783111366E+001 -7.7378832507E+001 -2.0848460572E+001 -1.0121257114E+002
13825000000.000 -6.7276046031E+000 -1.2291723352E+002 -4.6416521542E+001 +1.7356981149E+002 -8.5900891150E+001 -5.9912526827E+001 -1.9691649215E+001 -8.7364392214E+001
13957500000.000 -6.7234735227E+000 -1.2336825836E+002 -4.6254350603E+001 +1.3870080908E+002 -7.5001939094E+001 -5.6567653860E+001 -2.0341056501E+001 -9.0077288448E+001
14090000000.000 -6.7046996616E+000 -1.2339099065E+002 -4.6176622897E+001 +1.0573792523E+002 -8.3744544225E+001 +1.2831635217E+002 -2.2619512322E+001 -7.2470575632E+001
14222500000.000 -6.6380539410E+000 -1.2338338355E+002 -4.6222051451E+001 +6.9869734689E+001 -8.3602412676E+001 +1.0818356352E+002 -2.1267228313E+001 -5.9396229473E+001
14355000000.000 -6.5722063879E+000 -1.2392777368E+002 -4.6297506365E+001 +3.7540646310E+001 -9.8224689194E+001 +7.4823277947E+001 -2.2526960550E+001 -6.3173445483E+001
14487500000.000 -6.5530303044E+000 -1.2411184149E+002 -4.6086601257E+001 +2.2304243822E+000 -7.8538120973E+001 -1.6568800603E+001 -2.5371382740E+001 -3.9936455481E+001
14620000000.000 -6.5021175204E+000 -1.2396328329E+002 -4.6352894837E+001 -3.1592253176E+001 -8.4011810897E+001 -3.5051546314E+001 -2.3302867827E+001 -2.8037791402E+001
14752500000.000 -6.3938451258E+000 -1.2412797627E+002 -4.6409034332E+001 -6.5661265213E+001 -8.0153297639E+001 -7.3288270850E+001 -2.5521579189E+001 -3.5764136455E+001
14885000000.000 -6.3570731566E+000 -1.2446742787E+002 -4.6376322969E+001 -9.9446880620E+001 -8.3407549172E+001 +1.1436288750E+002 -2.8630987289E+001 +2.9532104402E+000
15017500000.000 -6.3335153474E+000 -1.2411539276E+002 -4.6571359651E+001 -1.3423118942E+002 -8.4265955716E+001 -1.6333566848E+002 -2.5394927592E+001 +7.8258024598E+000
15150000000.000 -6.2336081046E+000 -1.2387097376E+002 -4.6354058630E+001 -1.6808707010E+002 -8.4716242190E+001 -1.5150007198E+002 -2.9444256446E+001 -1.8188686811E+000
15282500000.000 -6.1648105020E+000 -1.2396372429E+002 -4.6715526265E+001 +1.5650450255E+002 -7.7175613077E+001 -4.1124277988E+001 -3.0670510212E+001 +5.8182779920E+001
