!  2-Port S-parameters saved by WinCal
! VAR MeasName=S-Parameters (CALIBRATED_DATA) read from VNA (C)
! VAR MeasDate=10/5/2015 6:08:00 PM
! VAR NAME=M6079_2_7_3_2_20C_6.0mA_-17.5dBm
! VAR FILENAME=M6079_2_7_3_2_20C_6.0mA_-17.5dBm.S2P
! VAR DATE=10/5/2015 6:08:00 PM
! VAR PHYS_PORTS=2,1
! VAR ObjTypeName=DATASET
! VAR IndexType=Frequency
!
# Hz S DB R 50
45000000.000 -2.3672069287E+001 -4.6700229964E-001 -4.0969225404E+001 +1.0273223715E+002 -5.3036828642E+001 -3.5506334761E+001 -3.1004059156E+001 +6.8536351717E+000
177500000.000 -2.3636499037E+001 -6.6791726557E+000 -4.3403698688E+001 +6.9604832431E+001 -7.6787294263E+001 +9.1993938799E+001 -3.2597240610E+001 +4.5853523680E+001
310000000.000 -2.3422742407E+001 -1.2792485265E+001 -4.2806392047E+001 +4.0433048428E+001 -8.2012912243E+001 -1.4945299815E+002 -2.3332391395E+001 +6.3971480326E+001
442500000.000 -2.3128071010E+001 -1.8994760069E+001 -4.1974091096E+001 +1.5399120090E+000 -7.6970411372E+001 -1.4839068233E+001 -2.2366571482E+001 +1.7049762722E+001
575000000.000 -2.2782441181E+001 -2.5186059473E+001 -4.2665836154E+001 -3.4243155080E+001 -9.4473318674E+001 +1.3956994002E+002 -3.0544568959E+001 +2.2553352065E+001
707500000.000 -2.2478546266E+001 -3.0355427483E+001 -4.2698844873E+001 -6.8419058978E+001 -8.8667454381E+001 +1.7467741042E+002 -3.4581873368E+001 +8.2709358931E+001
840000000.000 -2.1984076817E+001 -3.5401983985E+001 -4.2808321612E+001 -1.0250342190E+002 -9.1113818532E+001 +1.7604326533E+002 -2.9688204818E+001 +1.2745668834E+002
972500000.000 -2.1531719858E+001 -3.9877340995E+001 -4.2836084011E+001 -1.3609395731E+002 -7.8212003387E+001 +1.0931456117E+002 -2.5908797554E+001 +1.3507781224E+002
1105000000.000 -2.1085088415E+001 -4.4360818780E+001 -4.2988288186E+001 -1.6994748105E+002 -8.8155851436E+001 -4.8512651959E+001 -2.4370003246E+001 +1.4062208431E+002
1237500000.000 -2.0645417122E+001 -4.7926167212E+001 -4.3135647850E+001 +1.5594258663E+002 -8.4689602321E+001 +1.4376891854E+001 -2.3379397415E+001 +1.4994449150E+002
1370000000.000 -2.0189172154E+001 -5.1677539927E+001 -4.3022685349E+001 +1.2192232986E+002 -8.8669577888E+001 +1.1101796949E+002 -2.2040499107E+001 +1.5976653942E+002
1502500000.000 -1.9755342329E+001 -5.4697239887E+001 -4.3120717458E+001 +8.8072400699E+001 -8.7026657447E+001 -5.1680037695E+001 -2.0851062388E+001 +1.6617365380E+002
1635000000.000 -1.9273013497E+001 -5.7279508836E+001 -4.3099423125E+001 +5.4521087089E+001 -8.6471965083E+001 -1.5888371729E+002 -2.0007763722E+001 +1.7314958103E+002
1767500000.000 -1.8814118008E+001 -6.0274038738E+001 -4.3043700707E+001 +2.0738990880E+001 -8.4670659305E+001 -8.8159694728E+001 -1.8991806784E+001 +1.7831050966E+002
1900000000.000 -1.8448217556E+001 -6.2409699953E+001 -4.3183457271E+001 -1.5008982645E+001 -8.8495752438E+001 -3.3387005544E+001 -1.8855632787E+001 -1.7837704739E+002
2032500000.000 -1.8074049771E+001 -6.4564207860E+001 -4.3281893885E+001 -4.8500373540E+001 -9.6583375698E+001 +7.8925499459E+000 -1.8663172586E+001 -1.6804619794E+002
2165000000.000 -1.7610198882E+001 -6.6421282831E+001 -4.3263632850E+001 -8.1469332742E+001 -7.9742044074E+001 +1.2566557586E+002 -1.7733222015E+001 -1.6117532620E+002
2297500000.000 -1.7267966624E+001 -6.8484258041E+001 -4.3282812228E+001 -1.1477374829E+002 -7.8057859823E+001 +1.3294063519E+002 -1.7233344828E+001 -1.5718084066E+002
2430000000.000 -1.6963745214E+001 -6.9976346318E+001 -4.3298855141E+001 -1.5022242058E+002 -8.8639174422E+001 -8.3493794954E+001 -1.6908849010E+001 -1.5299669636E+002
2562500000.000 -1.6567181931E+001 -7.1642328137E+001 -4.3585598705E+001 +1.7647632788E+002 -8.6359554388E+001 -1.4070138002E+002 -1.6793571320E+001 -1.5076077123E+002
2695000000.000 -1.6312000948E+001 -7.3720011075E+001 -4.3459431128E+001 +1.3952889523E+002 -1.0523039410E+002 -1.2186284641E+002 -1.7368750844E+001 -1.4748584167E+002
2827500000.000 -1.6099302405E+001 -7.5188987796E+001 -4.3728560104E+001 +1.0502414424E+002 -7.7553009157E+001 -1.4377395301E+002 -1.7824996219E+001 -1.4039202382E+002
2960000000.000 -1.5787732670E+001 -7.6279709502E+001 -4.3701825973E+001 +7.1657666373E+001 -8.6340125983E+001 -5.3125673524E+001 -1.8101086208E+001 -1.3582844368E+002
3092500000.000 -1.5437828410E+001 -7.8010149706E+001 -4.3891755621E+001 +3.7348007118E+001 -8.3065310469E+001 +2.9134857675E+001 -1.9089577157E+001 -1.2972215981E+002
3225000000.000 -1.5208348158E+001 -7.9911799800E+001 -4.3866546778E+001 +4.7684221523E+000 -8.8953680226E+001 +9.3961344991E+001 -1.9559216882E+001 -1.1983816282E+002
3357500000.000 -1.5018889770E+001 -8.0948352546E+001 -4.4044181574E+001 -2.8746442519E+001 -7.9953576708E+001 -8.8263073606E+001 -1.9879362763E+001 -1.1457114810E+002
3490000000.000 -1.4693608777E+001 -8.2135014162E+001 -4.3974905270E+001 -6.3320061994E+001 -7.6270445767E+001 +5.0391526238E+001 -2.1123506928E+001 -1.0911302028E+002
3622500000.000 -1.4395643449E+001 -8.3640057551E+001 -4.3990000197E+001 -9.5866383702E+001 -7.6647371441E+001 -1.5526640821E+002 -2.1942824434E+001 -9.8201233018E+001
3755000000.000 -1.4131759662E+001 -8.5011182614E+001 -4.3861849478E+001 -1.2970680700E+002 -7.7838068427E+001 -6.7604024558E+001 -2.2645037879E+001 -9.4824679982E+001
3887500000.000 -1.3890781445E+001 -8.6135268071E+001 -4.3812806348E+001 -1.6307081241E+002 -8.8771622614E+001 +1.0061065655E+002 -2.4965416515E+001 -8.8548118126E+001
4020000000.000 -1.3669931574E+001 -8.7081771791E+001 -4.3825398107E+001 +1.6302332557E+002 -8.2489267154E+001 -1.6340286485E+002 -2.6673888317E+001 -7.3568438371E+001
4152500000.000 -1.3401158907E+001 -8.7948533725E+001 -4.3581523998E+001 +1.3100522851E+002 -8.6726119845E+001 -6.1017799775E+001 -2.8744108727E+001 -6.4791236026E+001
4285000000.000 -1.3138608189E+001 -8.9067475722E+001 -4.3705382404E+001 +9.6741869936E+001 -7.5524088833E+001 +3.0008652936E+001 -3.3200489622E+001 -3.8999961256E+001
4417500000.000 -1.2953138995E+001 -9.0151483302E+001 -4.3799688008E+001 +6.3210709600E+001 -8.9649210649E+001 +4.9658863268E+001 -3.1766075993E+001 +7.2784014604E+000
4550000000.000 -1.2746316978E+001 -9.0661856199E+001 -4.3906475347E+001 +2.8647894923E+001 -8.7923814261E+001 -1.0031554197E+002 -3.0250012036E+001 +1.7345007075E+001
4682500000.000 -1.2498779031E+001 -9.1411966478E+001 -4.3787058824E+001 -4.2925766765E+000 -9.3256364709E+001 +1.2110185085E+002 -2.9666245810E+001 +3.7546997761E+001
4815000000.000 -1.2297729324E+001 -9.2504103297E+001 -4.3936381233E+001 -3.6930935634E+001 -1.0033186028E+002 +2.7931280273E+001 -2.7629200112E+001 +4.0445805422E+001
4947500000.000 -1.2133451971E+001 -9.2979071378E+001 -4.3765452148E+001 -7.0329448820E+001 -8.2112409349E+001 -9.6207624794E+001 -2.9299228940E+001 +3.4385052926E+001
5080000000.000 -1.1927093146E+001 -9.3367068686E+001 -4.3575399455E+001 -1.0326165168E+002 -8.6638621632E+001 -4.0837947942E+001 -3.2216277648E+001 +5.5339403204E+001
5212500000.000 -1.1719169974E+001 -9.4161964371E+001 -4.3570674762E+001 -1.3750259092E+002 -8.3082492958E+001 +1.1666578014E+002 -3.1594315388E+001 +6.8173532141E+001
5345000000.000 -1.1587391056E+001 -9.4848260476E+001 -4.3549532070E+001 -1.7147482476E+002 -8.1512293487E+001 +1.5586804698E+002 -3.5305466838E+001 +6.8150127439E+001
5477500000.000 -1.1439638969E+001 -9.5041399460E+001 -4.3355179180E+001 +1.5440676294E+002 -8.9716427083E+001 -3.1352530750E+001 -3.7635168223E+001 +1.3088974718E+002
5610000000.000 -1.1251799235E+001 -9.5539330989E+001 -4.3285087038E+001 +1.2039609062E+002 -8.5637481253E+001 +1.1125907110E+002 -3.3775371281E+001 +1.3463485934E+002
5742500000.000 -1.1124587501E+001 -9.6315866166E+001 -4.3388614189E+001 +8.5774784967E+001 -8.5580337276E+001 -1.1536451226E+002 -3.8173918859E+001 +1.5002581048E+002
5875000000.000 -1.1026423174E+001 -9.6823990505E+001 -4.3351401932E+001 +5.1668419239E+001 -8.8388938349E+001 -1.2639493498E+001 -3.4040853675E+001 -1.7005864465E+002
6007500000.000 -1.0908572772E+001 -9.7195451021E+001 -4.3314538208E+001 +1.7163774230E+001 -8.5135987061E+001 +5.9874693918E+001 -3.2772299433E+001 +1.7922250291E+002
6140000000.000 -1.0740978019E+001 -9.7746452854E+001 -4.3429091876E+001 -1.6813422038E+001 -8.3516911142E+001 +1.2349659738E+002 -3.6371462076E+001 -1.7141114224E+002
6272500000.000 -1.0611727750E+001 -9.8635200994E+001 -4.3390658609E+001 -5.0692415813E+001 -8.4390893518E+001 -8.4133426112E+001 -3.4205320438E+001 -1.4443298523E+002
6405000000.000 -1.0543848067E+001 -9.9473451360E+001 -4.3452896490E+001 -8.3992058090E+001 -9.2341956545E+001 +3.8140100031E+001 -3.3956517470E+001 -1.6197607850E+002
6537500000.000 -1.0428074895E+001 -9.9676706489E+001 -4.3467840389E+001 -1.1886789109E+002 -1.0104276714E+002 +8.3854156621E+001 -4.0118294737E+001 -1.6293494083E+002
6670000000.000 -1.0247775269E+001 -1.0018627978E+002 -4.3601553120E+001 -1.5301045435E+002 -8.6753822816E+001 -4.0673591008E+001 -3.9838772761E+001 -1.4005175718E+002
6802500000.000 -1.0097088285E+001 -1.0128087309E+002 -4.3677192665E+001 +1.7299012359E+002 -1.0455738133E+002 -1.4976157543E+002 -3.9089392491E+001 +1.7765481816E+002
6935000000.000 -1.0055399056E+001 -1.0200730937E+002 -4.3788180938E+001 +1.3960954444E+002 -8.6476602823E+001 +1.6404131751E+002 -3.8539156456E+001 +1.2375795425E+002
7067500000.000 -9.9340604163E+000 -1.0213001743E+002 -4.3807096272E+001 +1.0555913480E+002 -8.7124432125E+001 -1.3249019870E+002 -3.8460344278E+001 +1.1636140375E+002
7200000000.000 -9.7564855289E+000 -1.0272562450E+002 -4.3880380697E+001 +7.1307769891E+001 -8.5017425501E+001 -3.7220178471E+001 -3.2677420746E+001 +1.3019009469E+002
7332500000.000 -9.6414664132E+000 -1.0371324714E+002 -4.3814176293E+001 +3.7623506196E+001 -1.0081085106E+002 +9.9240330645E+001 -2.9135464344E+001 +1.1908559778E+002
7465000000.000 -9.5603296101E+000 -1.0413823284E+002 -4.3941057669E+001 +3.7637242968E+000 -8.5670211429E+001 +1.1335821687E+002 -2.8600586476E+001 +1.2351751497E+002
7597500000.000 -9.4132237095E+000 -1.0445302158E+002 -4.3991847306E+001 -3.0426612743E+001 -8.6498624471E+001 -1.2551067236E+001 -2.6018367711E+001 +1.3735384671E+002
7730000000.000 -9.2601230492E+000 -1.0506895962E+002 -4.3984477970E+001 -6.3722966881E+001 -8.6107982994E+001 -2.7607682013E+000 -2.3741148700E+001 +1.3757929728E+002
7862500000.000 -9.1645852549E+000 -1.0553526774E+002 -4.4000902289E+001 -9.6154640704E+001 -8.1706566735E+001 +1.6766392639E+002 -2.3311417598E+001 +1.4195240963E+002
7995000000.000 -9.0680161564E+000 -1.0571752798E+002 -4.4069308044E+001 -1.3141442465E+002 -8.1667702036E+001 -7.3675553220E+001 -2.1774242521E+001 +1.5436779195E+002
8127500000.000 -8.8982238527E+000 -1.0596212167E+002 -4.4026021337E+001 -1.6528749538E+002 -9.5320912579E+001 +1.0209584441E+002 -2.0032582228E+001 +1.5621460092E+002
8260000000.000 -8.8008878836E+000 -1.0659706143E+002 -4.4006328981E+001 +1.6174455809E+002 -8.3193975786E+001 -1.5671963477E+002 -1.9888041846E+001 +1.6023441767E+002
8392500000.000 -8.7124988215E+000 -1.0666545206E+002 -4.3967027485E+001 +1.2841997829E+002 -1.0093043831E+002 -1.1223265693E+002 -1.9049045218E+001 +1.7033156022E+002
8525000000.000 -8.6089948327E+000 -1.0677211978E+002 -4.3984658182E+001 +9.3486010189E+001 -9.1823634965E+001 -2.2707133512E+001 -1.8207182209E+001 +1.7271531330E+002
8657500000.000 -8.4991698881E+000 -1.0703877213E+002 -4.4126053833E+001 +6.0024068811E+001 -8.3900027796E+001 +1.6303938166E+002 -1.8567790197E+001 +1.7785510013E+002
8790000000.000 -8.3982601348E+000 -1.0726652154E+002 -4.3932029338E+001 +2.7009850939E+001 -8.4533677380E+001 -6.4456542880E+001 -1.8335306929E+001 -1.7197095280E+002
8922500000.000 -8.3382387475E+000 -1.0757931266E+002 -4.3891494701E+001 -8.4506263816E+000 -9.4936680673E+001 -2.7361736787E+001 -1.8006134206E+001 -1.6623849168E+002
9055000000.000 -8.2517404169E+000 -1.0773149478E+002 -4.4018400121E+001 -4.1518406320E+001 -9.6557529460E+001 -1.5969606500E+002 -1.8444200739E+001 -1.5837672736E+002
9187500000.000 -8.1854081299E+000 -1.0798799973E+002 -4.4086742870E+001 -7.5157043684E+001 -8.8879272002E+001 +7.6954468660E+001 -1.8362551721E+001 -1.4678034956E+002
9320000000.000 -8.1073922954E+000 -1.0853549107E+002 -4.3973646545E+001 -1.0961041102E+002 -9.0340213082E+001 +8.1017155746E+001 -1.8243555517E+001 -1.3993632714E+002
9452500000.000 -8.0461872430E+000 -1.0887130013E+002 -4.4142514710E+001 -1.4466955504E+002 -8.8544520034E+001 +1.2017076567E+002 -1.8826931340E+001 -1.3052341790E+002
9585000000.000 -7.9736875839E+000 -1.0913908874E+002 -4.4084991345E+001 -1.7741927837E+002 -8.5897637404E+001 +1.7546442522E+002 -1.8737072457E+001 -1.1874107819E+002
9717500000.000 -7.8665513248E+000 -1.0966531621E+002 -4.3913850042E+001 +1.4906491893E+002 -7.9599744532E+001 -3.7659563476E+001 -1.8852434112E+001 -1.1159549594E+002
9850000000.000 -7.8197714759E+000 -1.1040449142E+002 -4.4162525107E+001 +1.1452154404E+002 -8.5852658514E+001 +8.5573997944E+001 -1.9647302412E+001 -1.0043774692E+002
9982500000.000 -7.7576253588E+000 -1.1054654691E+002 -4.4243037227E+001 +8.1154812106E+001 -8.1635184212E+001 +1.3316137707E+002 -1.9612193991E+001 -8.6930085480E+001
10115000000.000 -7.6664152764E+000 -1.1088229421E+002 -4.4089332001E+001 +4.6844019730E+001 -8.4328609994E+001 -4.9589621352E+001 -1.9945681537E+001 -7.9800643668E+001
10247500000.000 -7.5821008768E+000 -1.1150798416E+002 -4.4196381827E+001 +1.3306838261E+001 -8.2091989452E+001 -1.4980846240E+002 -2.1148152081E+001 -6.5940250664E+001
10380000000.000 -7.5269753953E+000 -1.1195819973E+002 -4.4271534953E+001 -2.0686767142E+001 -8.9886085881E+001 -1.3930242338E+002 -2.0942636876E+001 -5.0353198736E+001
10512500000.000 -7.4517575805E+000 -1.1235310858E+002 -4.4243321806E+001 -5.3113180716E+001 -8.9016118686E+001 -1.4059630991E+001 -2.1486716439E+001 -4.2870214958E+001
10645000000.000 -7.3923203150E+000 -1.1283534272E+002 -4.4294847605E+001 -8.7178978985E+001 -8.7122201767E+001 +9.1838762809E+000 -2.2825024772E+001 -2.3887527515E+001
10777500000.000 -7.3180543378E+000 -1.1313914263E+002 -4.4229361823E+001 -1.2156992953E+002 -8.8241061859E+001 -6.9891384983E+001 -2.2075589155E+001 -6.3441764731E+000
10910000000.000 -7.2262256280E+000 -1.1356392671E+002 -4.4154388888E+001 -1.5564815321E+002 -9.0148591921E+001 -7.9247315757E+000 -2.2749536889E+001 +3.0640250935E+000
11042500000.000 -7.1344656858E+000 -1.1411789626E+002 -4.4277271679E+001 +1.7128697662E+002 -8.7609404033E+001 +2.5585732183E+000 -2.3471526738E+001 +2.7153251438E+001
11175000000.000 -7.0608694802E+000 -1.1438115320E+002 -4.4154697243E+001 +1.3700296879E+002 -9.3267793918E+001 -1.5797994024E+002 -2.2161244809E+001 +4.2208070226E+001
11307500000.000 -7.0033492904E+000 -1.1463565354E+002 -4.4135780165E+001 +1.0340472250E+002 -8.3662111865E+001 +1.3469054483E+002 -2.2694855987E+001 +5.2217954415E+001
11440000000.000 -6.9247468001E+000 -1.1502287174E+002 -4.4040057650E+001 +6.9331180988E+001 -8.5534018698E+001 -1.0080112277E+001 -2.2590657285E+001 +7.5079396711E+001
11572500000.000 -6.8284322499E+000 -1.1505619314E+002 -4.4026333513E+001 +3.5592457958E+001 -8.8524651204E+001 +7.1067967109E+001 -2.1129506038E+001 +8.6383295059E+001
11705000000.000 -6.7754861944E+000 -1.1538019617E+002 -4.4242579133E+001 +2.8754130714E+000 -1.0711582626E+002 -6.1369008715E+001 -2.1739830323E+001 +9.6261159881E+001
11837500000.000 -6.6996030365E+000 -1.1559177955E+002 -4.3943641475E+001 -3.1657669103E+001 -8.8683945549E+001 -1.4172996527E+002 -2.1099540817E+001 +1.1842911444E+002
11970000000.000 -6.6705156606E+000 -1.1573831382E+002 -4.4101928433E+001 -6.5460322099E+001 -8.5563794100E+001 +6.5085260172E+001 -1.9824651934E+001 +1.2479215058E+002
12102500000.000 -6.6310862756E+000 -1.1577981291E+002 -4.4206674602E+001 -9.8576920418E+001 -8.3981102186E+001 +1.4967795993E+002 -2.0731861583E+001 +1.3508574941E+002
12235000000.000 -6.5641019397E+000 -1.1611135634E+002 -4.4286577525E+001 -1.3332573545E+002 -9.3904251378E+001 -8.0398527259E+001 -1.9700461399E+001 +1.5374563276E+002
12367500000.000 -6.5415788951E+000 -1.1627859542E+002 -4.3990845245E+001 -1.6631415298E+002 -8.5377148934E+001 +4.6362392983E+001 -1.8899621828E+001 +1.5694805821E+002
12500000000.000 -6.5116106587E+000 -1.1674957135E+002 -4.4073519709E+001 +1.5858782767E+002 -8.5406661048E+001 +1.2118340758E+002 -2.0066016803E+001 +1.6796400134E+002
12632500000.000 -6.4531709086E+000 -1.1684203081E+002 -4.4052610322E+001 +1.2566048376E+002 -8.4965113009E+001 -1.0770031285E+002 -1.9037723325E+001 -1.7372289598E+002
12765000000.000 -6.4175301459E+000 -1.1713393836E+002 -4.3980242344E+001 +9.1896918633E+001 -1.0141524209E+002 +3.1732271638E+001 -1.8517849765E+001 -1.7241692524E+002
12897500000.000 -6.4168419683E+000 -1.1753334066E+002 -4.4074860816E+001 +5.7119130824E+001 -8.9586877515E+001 +1.7508963962E+002 -2.0174340309E+001 -1.5951677343E+002
13030000000.000 -6.3819008670E+000 -1.1763136627E+002 -4.4006462469E+001 +2.2796029357E+001 -8.9277446485E+001 -1.3353463730E-001 -1.8706035751E+001 -1.4203781024E+002
13162500000.000 -6.3099576313E+000 -1.1795168600E+002 -4.4127050527E+001 -1.0357704695E+001 -7.8992437292E+001 -5.8693330829E+001 -1.8580921633E+001 -1.4285389617E+002
13295000000.000 -6.2710575537E+000 -1.1825224362E+002 -4.3976712970E+001 -4.4325136889E+001 -8.2705694708E+001 +6.1381631789E+001 -2.0036653629E+001 -1.2805786443E+002
13427500000.000 -6.2489285167E+000 -1.1876203393E+002 -4.3910062302E+001 -7.8436672610E+001 -8.5222050628E+001 -1.5346281134E+002 -1.8697653740E+001 -1.1445360819E+002
13560000000.000 -6.2509980917E+000 -1.1865488232E+002 -4.3935348247E+001 -1.1170882903E+002 -8.2596732400E+001 -1.2262990962E+002 -1.8934426214E+001 -1.1557156733E+002
13692500000.000 -6.1753967394E+000 -1.1880962401E+002 -4.4135325012E+001 -1.4602083953E+002 -8.0042813358E+001 +2.0773706978E+001 -2.0797678569E+001 -1.0177464140E+002
13825000000.000 -6.1180738984E+000 -1.1922068533E+002 -4.4012599847E+001 +1.7915004738E+002 -7.9716261923E+001 -1.0913201014E+002 -1.9625730518E+001 -8.7774068713E+001
13957500000.000 -6.1138167962E+000 -1.1974093537E+002 -4.4217742801E+001 +1.4634010240E+002 -8.5123581598E+001 +5.7031250828E+001 -2.0259813321E+001 -9.0477435011E+001
14090000000.000 -6.0992686633E+000 -1.1980200154E+002 -4.3996401961E+001 +1.1214058837E+002 -8.3846322819E+001 -1.0890171583E+001 -2.2530045611E+001 -7.3240245986E+001
14222500000.000 -6.0382690625E+000 -1.1981464100E+002 -4.3958860646E+001 +7.7694395671E+001 -8.0761229306E+001 -1.7347841249E+002 -2.1196558796E+001 -5.9766313944E+001
14355000000.000 -5.9784967319E+000 -1.2040749272E+002 -4.4024674546E+001 +4.2519783308E+001 -8.0022573128E+001 -7.4213337306E+001 -2.2418701966E+001 -6.3357469790E+001
14487500000.000 -5.9669903230E+000 -1.2061506508E+002 -4.3976418995E+001 +8.3487338628E+000 -8.8004617924E+001 +6.6844728126E+001 -2.5247526129E+001 -4.0450996614E+001
14620000000.000 -5.9187349131E+000 -1.2045546859E+002 -4.4050227996E+001 -2.4382140061E+001 -7.6976752653E+001 +1.4152400644E+002 -2.3204565610E+001 -2.8359200511E+001
14752500000.000 -5.8109537054E+000 -1.2074333857E+002 -4.3871259422E+001 -6.0542197142E+001 -8.5146882780E+001 -1.5904522040E+002 -2.5404713350E+001 -3.5827382659E+001
14885000000.000 -5.7904174911E+000 -1.2112524809E+002 -4.3915996053E+001 -9.2597499353E+001 -7.8581870992E+001 +2.1673482767E+001 -2.8398204797E+001 +2.3658445727E+000
15017500000.000 -5.7638764950E+000 -1.2076258061E+002 -4.3956843922E+001 -1.2615249908E+002 -8.7873848114E+001 +1.3396587897E+002 -2.5297488564E+001 +7.3200807671E+000
15150000000.000 -5.6641186018E+000 -1.2057837311E+002 -4.3967242781E+001 -1.6292248471E+002 -8.0711793205E+001 -1.3026030172E+002 -2.9342170415E+001 -1.4674867794E+000
15282500000.000 -5.6004598325E+000 -1.2071633045E+002 -4.4239938789E+001 +1.6251665532E+002 -8.5321189381E+001 -2.3884107656E+001 -3.0416344757E+001 +5.7719838350E+001
