!  2-Port S-parameters saved by WinCal
! VAR MeasName=S-Parameters (CALIBRATED_DATA) read from VNA (C)
! VAR MeasDate=10/5/2015 6:40:40 PM
! VAR NAME=M6079_2_7_3_3_20C_2.1mA_-17.5dBm
! VAR FILENAME=M6079_2_7_3_3_20C_2.1mA_-17.5dBm.S2P
! VAR DATE=10/5/2015 6:40:40 PM
! VAR PHYS_PORTS=2,1
! VAR ObjTypeName=DATASET
! VAR IndexType=Frequency
!
# Hz S DB R 50
45000000.000 -1.6806262200E+001 -6.9607135035E-002 -4.2739828457E+001 +1.0440776675E+002 -6.4603384206E+001 -2.7487506437E+001 -3.0814181682E+001 +6.7926536651E+000
177500000.000 -1.6732025379E+001 -4.3701681643E+000 -4.2823971282E+001 +6.9107341246E+001 -7.5437782087E+001 +1.0039539708E+002 -3.2584624065E+001 +4.4723592457E+001
310000000.000 -1.6650359104E+001 -8.0704078867E+000 -4.3028415265E+001 +3.6650365760E+001 -8.7369848318E+001 -1.1568308119E+002 -2.3315515157E+001 +6.3918893069E+001
442500000.000 -1.6581311054E+001 -1.2058918513E+001 -4.1966813668E+001 +1.2334917330E-001 -8.4124565887E+001 -5.5596550337E+001 -2.2373467777E+001 +1.6979605987E+001
575000000.000 -1.6482517638E+001 -1.6049926009E+001 -4.2589808971E+001 -3.6172303036E+001 -8.5338431353E+001 +1.6141155062E+002 -3.0597221802E+001 +2.2071561971E+001
707500000.000 -1.6406105750E+001 -1.9642353782E+001 -4.2845884908E+001 -7.0210755023E+001 -9.0783429129E+001 -1.1835003481E+002 -3.4642077332E+001 +8.2827803463E+001
840000000.000 -1.6259009946E+001 -2.3320227915E+001 -4.2914263401E+001 -1.0439862085E+002 -9.1427258910E+001 -7.2216611791E+001 -2.9724470525E+001 +1.2762789088E+002
972500000.000 -1.6091345880E+001 -2.6639841666E+001 -4.2866091698E+001 -1.3866500333E+002 -9.7943788824E+001 +2.3499405246E+001 -2.5931691079E+001 +1.3518051155E+002
1105000000.000 -1.5950287942E+001 -3.0173134085E+001 -4.2955287090E+001 -1.7335262989E+002 -8.8121794933E+001 -1.4318229914E+002 -2.4379301171E+001 +1.4062555403E+002
1237500000.000 -1.5794767008E+001 -3.3200710351E+001 -4.3056760542E+001 +1.5280520705E+002 -8.4971676357E+001 -3.6547940242E+001 -2.3380542263E+001 +1.4997365721E+002
1370000000.000 -1.5616601905E+001 -3.6377978139E+001 -4.3055597143E+001 +1.1881411183E+002 -8.4619946081E+001 +8.3811666900E+001 -2.2060009899E+001 +1.5985190398E+002
1502500000.000 -1.5442677619E+001 -3.9372034799E+001 -4.3036202883E+001 +8.4860303886E+001 -8.4599255820E+001 -1.5180651935E+002 -2.0852879270E+001 +1.6624270393E+002
1635000000.000 -1.5210986517E+001 -4.1908585412E+001 -4.3079268254E+001 +4.9855348524E+001 -9.3751218625E+001 +8.3860132296E+001 -2.0012519525E+001 +1.7317226528E+002
1767500000.000 -1.4997055825E+001 -4.4913119828E+001 -4.3145070645E+001 +1.5606347656E+001 -8.1407141534E+001 +1.0253071329E+002 -1.9004745544E+001 +1.7836453624E+002
1900000000.000 -1.4830300569E+001 -4.7508211363E+001 -4.3065595130E+001 -1.8129385706E+001 -9.0301597594E+001 -6.1743970870E+001 -1.8855964126E+001 -1.7838656896E+002
2032500000.000 -1.4637259276E+001 -4.9880489189E+001 -4.3254235238E+001 -5.2592043809E+001 -8.5293716933E+001 -5.0032812579E+001 -1.8675541370E+001 -1.6797903188E+002
2165000000.000 -1.4376106606E+001 -5.2178791448E+001 -4.3242067577E+001 -8.6485919676E+001 -8.1904576955E+001 +1.7646030410E+002 -1.7734719546E+001 -1.6114171073E+002
2297500000.000 -1.4193743224E+001 -5.4510240561E+001 -4.3350481728E+001 -1.2026120940E+002 -8.8126132189E+001 -1.5483029097E+002 -1.7237156291E+001 -1.5716680863E+002
2430000000.000 -1.4021783402E+001 -5.6450648194E+001 -4.3291081203E+001 -1.5423451404E+002 -7.3168413438E+001 -8.2658194537E+001 -1.6909617326E+001 -1.5294597900E+002
2562500000.000 -1.3797471396E+001 -5.8379176904E+001 -4.3400157806E+001 +1.7125752462E+002 -7.9041642486E+001 +1.0699437779E+002 -1.6816046893E+001 -1.5071585616E+002
2695000000.000 -1.3646609571E+001 -6.0675705315E+001 -4.3431775061E+001 +1.3801700807E+002 -8.6202754624E+001 +1.0426461971E+002 -1.7380655459E+001 -1.4738968939E+002
2827500000.000 -1.3534450855E+001 -6.2393879243E+001 -4.3350851424E+001 +1.0302654181E+002 -7.4245334436E+001 -9.0184867050E+001 -1.7826569915E+001 -1.4034586577E+002
2960000000.000 -1.3333133873E+001 -6.3878657169E+001 -4.3365258365E+001 +6.9387425230E+001 -8.1223259478E+001 -4.2881475949E+001 -1.8117227341E+001 -1.3577149638E+002
3092500000.000 -1.3112993515E+001 -6.5936683187E+001 -4.3405658071E+001 +3.6602205767E+001 -8.5177613253E+001 +1.4240176437E+002 -1.9096709392E+001 -1.2967165025E+002
3225000000.000 -1.2978729674E+001 -6.7966739283E+001 -4.3410385716E+001 +6.9590688660E-001 -8.6369252701E+001 -9.1775545007E+001 -1.9572285335E+001 -1.1972939700E+002
3357500000.000 -1.2853155066E+001 -6.9343063044E+001 -4.3423933421E+001 -3.2391319622E+001 -7.3719740990E+001 -3.1825322330E+001 -1.9890025681E+001 -1.1456773212E+002
3490000000.000 -1.2628588520E+001 -7.0840890209E+001 -4.3044743334E+001 -6.6447918683E+001 -7.8744549143E+001 +1.0410299667E+002 -2.1120935574E+001 -1.0900979832E+002
3622500000.000 -1.2414077261E+001 -7.2602312942E+001 -4.3071433699E+001 -1.0037166712E+002 -8.2420774799E+001 +1.3585661533E+002 -2.1955471492E+001 -9.8274119659E+001
3755000000.000 -1.2233539026E+001 -7.4236561892E+001 -4.2991029189E+001 -1.3441389528E+002 -8.5096766973E+001 -3.7758847128E+001 -2.2654954908E+001 -9.4645614444E+001
3887500000.000 -1.2051777485E+001 -7.5551469099E+001 -4.2911528712E+001 -1.6879907236E+002 -8.5975036238E+001 +4.7039299637E+001 -2.4989682044E+001 -8.8441144200E+001
4020000000.000 -1.1889694305E+001 -7.6758102636E+001 -4.2864874645E+001 +1.5619896421E+002 -8.0037022537E+001 -1.4483061689E+002 -2.6672560212E+001 -7.3605407245E+001
4152500000.000 -1.1676515825E+001 -7.7933113024E+001 -4.2791798606E+001 +1.2213598098E+002 -8.5473799250E+001 -1.3235174842E+002 -2.8772722021E+001 -6.4854770919E+001
4285000000.000 -1.1476946708E+001 -7.9270428953E+001 -4.2785963122E+001 +8.5971656983E+001 -7.6923948022E+001 +8.1451310434E+001 -3.3286684089E+001 -3.8758695193E+001
4417500000.000 -1.1324180423E+001 -8.0561498978E+001 -4.2936548834E+001 +5.1568747812E+001 -9.0218647793E+001 -1.0487523776E+002 -3.1793871621E+001 +7.6103656870E+000
4550000000.000 -1.1153528085E+001 -8.1401946824E+001 -4.2830723256E+001 +1.7709057994E+001 -8.2170070628E+001 -4.2667415659E+001 -3.0272806545E+001 +1.7900975805E+001
4682500000.000 -1.0938753076E+001 -8.2450136760E+001 -4.2869714717E+001 -1.7532055646E+001 -8.6771929624E+001 +5.4105746631E+001 -2.9646233687E+001 +3.7980471146E+001
4815000000.000 -1.0778031340E+001 -8.3777012882E+001 -4.2819159711E+001 -5.1205902703E+001 -8.7833309740E+001 -1.2036301042E+002 -2.7622729922E+001 +4.0814541359E+001
4947500000.000 -1.0638635194E+001 -8.4576312688E+001 -4.2697642173E+001 -8.4868334707E+001 -9.2664888382E+001 +1.7299246282E+002 -2.9328356665E+001 +3.4831909929E+001
5080000000.000 -1.0463971197E+001 -8.5290609009E+001 -4.2669002048E+001 -1.1961171805E+002 -8.2457320279E+001 +1.0749452388E+001 -3.2206395338E+001 +5.5959001371E+001
5212500000.000 -1.0294540591E+001 -8.6319477972E+001 -4.2517702162E+001 -1.5365209166E+002 -8.4980200574E+001 +7.8906932791E+001 -3.1525867642E+001 +6.8482014813E+001
5345000000.000 -1.0194133279E+001 -8.7197173294E+001 -4.2358970504E+001 +1.7237456258E+002 -9.2326119713E+001 -1.5060706301E+001 -3.5275525608E+001 +6.9324791372E+001
5477500000.000 -1.0068342157E+001 -8.7678206038E+001 -4.2258514840E+001 +1.3759914906E+002 -9.6099558945E+001 -5.5939190528E+001 -3.7454673760E+001 +1.3089928952E+002
5610000000.000 -9.9027715938E+000 -8.8359440913E+001 -4.2105614414E+001 +1.0145741515E+002 -8.6977028114E+001 +1.4913309651E+002 -3.3677831818E+001 +1.3496641295E+002
5742500000.000 -9.8042306955E+000 -8.9272859768E+001 -4.1993035267E+001 +6.7187017309E+001 -8.4554954258E+001 -8.1122513977E+001 -3.7969883492E+001 +1.5092628085E+002
5875000000.000 -9.7282224645E+000 -8.9949089486E+001 -4.1899750632E+001 +3.2821537491E+001 -9.2005871523E+001 -9.3418140096E+001 -3.3965414422E+001 -1.7012332685E+002
6007500000.000 -9.6162608622E+000 -9.0357102035E+001 -4.1677890817E+001 -3.8308299196E+000 -8.3523813569E+001 +8.3427109749E+001 -3.2681453075E+001 +1.7960236412E+002
6140000000.000 -9.4696862364E+000 -9.1097655431E+001 -4.1570505065E+001 -3.8805256600E+001 -9.4038760958E+001 -1.5572656721E+002 -3.6202199338E+001 -1.7092115232E+002
6272500000.000 -9.3724554229E+000 -9.2104342466E+001 -4.1489334429E+001 -7.2702467657E+001 -8.8724604723E+001 -7.3656339561E+001 -3.4054342236E+001 -1.4445463382E+002
6405000000.000 -9.3090805940E+000 -9.2970783874E+001 -4.1384402068E+001 -1.0837516758E+002 -1.0286880262E+002 +6.3170983695E+001 -3.3849111424E+001 -1.6162462787E+002
6537500000.000 -9.1776284770E+000 -9.3281248596E+001 -4.1248319367E+001 -1.4559471839E+002 -8.7307755187E+001 +1.4774770804E+002 -3.9988093076E+001 -1.6217331873E+002
6670000000.000 -9.0323895636E+000 -9.4002445915E+001 -4.1090572248E+001 -1.7915743019E+002 -8.6073099481E+001 -5.4774357727E+001 -3.9624046643E+001 -1.3891030978E+002
6802500000.000 -8.8880108333E+000 -9.5114928260E+001 -4.0981787158E+001 +1.4390650497E+002 -8.9793181948E+001 +1.8132736710E+001 -3.9084291345E+001 +1.7867955590E+002
6935000000.000 -8.7751990708E+000 -9.5813326300E+001 -4.0877798773E+001 +1.0286321508E+002 -8.9576218535E+001 +1.5357006487E+002 -3.8756900623E+001 +1.2356266790E+002
7067500000.000 -8.6727268884E+000 -9.6126626424E+001 -4.0736016543E+001 +6.9444998908E+001 -8.6746069713E+001 -6.9231037027E+001 -3.8689896541E+001 +1.1647678750E+002
7200000000.000 -8.5392379239E+000 -9.6905322352E+001 -4.0644593860E+001 +3.6444696673E+001 -9.1473547233E+001 +2.2295960097E+001 -3.2736079065E+001 +1.3058742674E+002
7332500000.000 -8.3805380766E+000 -9.7982789401E+001 -4.0592975691E+001 -4.0781141954E+000 -8.9598394477E+001 +3.0084214247E+001 -2.9176141199E+001 +1.1886318944E+002
7465000000.000 -8.2824928401E+000 -9.8561950952E+001 -4.0480082871E+001 -3.9996698645E+001 -8.2120174129E+001 -1.5200556284E+002 -2.8661248498E+001 +1.2307223649E+002
7597500000.000 -8.2035220515E+000 -9.9048010373E+001 -4.0333946768E+001 -7.0187660137E+001 -8.0880027022E+001 -2.5152596571E+001 -2.6037412724E+001 +1.3734816785E+002
7730000000.000 -7.9887738463E+000 -9.9901131036E+001 -4.0412642698E+001 -1.1231374910E+002 -8.8020906138E+001 +1.9849948858E+001 -2.3764945652E+001 +1.3739428096E+002
7862500000.000 -7.8210993154E+000 -1.0088633958E+002 -4.0627201730E+001 -1.5552226276E+002 -8.7776470994E+001 +1.5463965731E+002 -2.3323708270E+001 +1.4192349712E+002
7995000000.000 -7.7916075402E+000 -1.0103242030E+002 -4.0307521490E+001 +1.7635180405E+002 -8.6889489038E+001 +6.9065971684E+001 -2.1785269220E+001 +1.5432095110E+002
8127500000.000 -7.6317086510E+000 -1.0156256792E+002 -4.0291816683E+001 +1.4038019218E+002 -8.3526175705E+001 +4.9049871625E+001 -2.0030399284E+001 +1.5618738712E+002
8260000000.000 -7.4853405224E+000 -1.0272546281E+002 -4.0696142313E+001 +9.7516400958E+001 -8.4618208062E+001 +1.5265924703E+002 -1.9884111875E+001 +1.6026435369E+002
8392500000.000 -7.4255196370E+000 -1.0289801695E+002 -4.0428731995E+001 +6.6072483368E+001 -8.8205646185E+001 +8.3748322091E+001 -1.9048209965E+001 +1.7043978152E+002
8525000000.000 -7.3393309011E+000 -1.0318621423E+002 -4.0299323318E+001 +3.2204419760E+001 -7.8974634756E+001 -1.5502992397E+001 -1.8203597886E+001 +1.7279716553E+002
8657500000.000 -7.2060221544E+000 -1.0403721565E+002 -4.0806901736E+001 -9.4081059302E+000 -9.1930356889E+001 +6.2512256158E+001 -1.8562940736E+001 +1.7794341821E+002
8790000000.000 -7.1113878834E+000 -1.0457333359E+002 -4.0831912372E+001 -4.6343786391E+001 -8.6806882411E+001 -9.0282737889E+001 -1.8334584781E+001 -1.7184769799E+002
8922500000.000 -7.0814425448E+000 -1.0487338469E+002 -4.0624178220E+001 -7.7750442485E+001 -8.4666980012E+001 -1.0390774064E+001 -1.8001478525E+001 -1.6611368451E+002
9055000000.000 -7.0005402976E+000 -1.0542970882E+002 -4.0954283442E+001 -1.1571270125E+002 -9.1220493324E+001 +1.1952616676E+002 -1.8443726046E+001 -1.5824032309E+002
9187500000.000 -6.9440936329E+000 -1.0597558067E+002 -4.1167396347E+001 -1.5189322899E+002 -9.1122836768E+001 -1.6597715106E+001 -1.8350765845E+001 -1.4663230839E+002
9320000000.000 -6.8884511287E+000 -1.0660948194E+002 -4.1009786265E+001 +1.7486808616E+002 -8.3081731170E+001 -1.7579013472E+002 -1.8235142460E+001 -1.3978469580E+002
9452500000.000 -6.8462711726E+000 -1.0716761978E+002 -4.1188844304E+001 +1.3890071978E+002 -8.2772861300E+001 +9.2412110896E+001 -1.8839010632E+001 -1.3030013804E+002
9585000000.000 -6.7857502209E+000 -1.0779726838E+002 -4.1575330522E+001 +1.0104399810E+002 -9.2696818311E+001 +1.7712138334E+001 -1.8739591268E+001 -1.1848961005E+002
9717500000.000 -6.7053621043E+000 -1.0834999180E+002 -4.1291709411E+001 +6.8734885718E+001 -8.7062793511E+001 -5.2316665728E+001 -1.8850512157E+001 -1.1141349376E+002
9850000000.000 -6.6725773816E+000 -1.0931175014E+002 -4.1507350556E+001 +3.1224592901E+001 -9.2831992315E+001 +1.2930717208E+002 -1.9640888560E+001 -1.0022531516E+002
9982500000.000 -6.6329912569E+000 -1.0972197784E+002 -4.2037944555E+001 -4.5232324023E+000 -9.1458536889E+001 +2.1633509975E+001 -1.9624748687E+001 -8.6615347235E+001
10115000000.000 -6.5624259970E+000 -1.1013956509E+002 -4.1948675516E+001 -3.8465167876E+001 -7.9536838112E+001 -5.9340950000E+001 -1.9945085063E+001 -7.9406094375E+001
10247500000.000 -6.5031407325E+000 -1.1088834646E+002 -4.2051542009E+001 -7.3063636167E+001 -8.1546734343E+001 +1.2656060758E+001 -2.1151185703E+001 -6.5644023473E+001
10380000000.000 -6.4751588909E+000 -1.1162247088E+002 -4.2728079585E+001 -1.1036321193E+002 -9.0956635314E+001 -1.4965528391E+002 -2.0966775857E+001 -4.9931056541E+001
10512500000.000 -6.4226697211E+000 -1.1207143158E+002 -4.2581537995E+001 -1.4421286504E+002 -8.7171103610E+001 -6.0091909138E+001 -2.1513463570E+001 -4.2421746570E+001
10645000000.000 -6.3742251676E+000 -1.1254239453E+002 -4.2560525506E+001 -1.7715738135E+002 -8.2101804186E+001 +4.9352361275E+000 -2.2834299431E+001 -2.3537454809E+001
10777500000.000 -6.3261639156E+000 -1.1313604549E+002 -4.3062777509E+001 +1.4460466214E+002 -8.5626451570E+001 -1.7827615756E+002 -2.2094844690E+001 -5.8071959767E+000
10910000000.000 -6.2698010690E+000 -1.1368130715E+002 -4.3563483981E+001 +1.1004203450E+002 -8.8342588445E+001 -7.9614342188E+001 -2.2750006025E+001 +3.7673825955E+000
11042500000.000 -6.2034190477E+000 -1.1427326015E+002 -4.3500185621E+001 +7.7544352781E+001 -8.9716106757E+001 +9.5722293516E+001 -2.3461815281E+001 +2.7826855890E+001
11175000000.000 -6.1535417466E+000 -1.1464394206E+002 -4.3842757540E+001 +4.1530952186E+001 -8.9738939159E+001 +1.0436984420E+002 -2.2178302888E+001 +4.2834726632E+001
11307500000.000 -6.1209563204E+000 -1.1503655572E+002 -4.4266651177E+001 +6.3241666100E+000 -9.1386028613E+001 +1.0451295317E+002 -2.2702022073E+001 +5.2818653705E+001
11440000000.000 -6.0645758840E+000 -1.1550633682E+002 -4.4318010726E+001 -2.7286182189E+001 -8.3608208827E+001 -5.5503634543E+001 -2.2557807064E+001 +7.5764502321E+001
11572500000.000 -5.9929907100E+000 -1.1558519196E+002 -4.4504853505E+001 -6.1227105272E+001 -9.1580706281E+001 +9.9859997498E+001 -2.1125526012E+001 +8.6960666393E+001
11705000000.000 -5.9600768853E+000 -1.1598263921E+002 -4.4966822952E+001 -9.6613843702E+001 -8.4363579975E+001 -1.7486066087E+002 -2.1730745330E+001 +9.6963549379E+001
11837500000.000 -5.9011796939E+000 -1.1629509931E+002 -4.5101208769E+001 -1.3109205876E+002 -9.9678859258E+001 +4.4044537644E+001 -2.1063934263E+001 +1.1906828143E+002
11970000000.000 -5.8862010070E+000 -1.1650576430E+002 -4.5208402091E+001 -1.6461547178E+002 -8.9128379413E+001 +1.0164638506E+002 -1.9817646443E+001 +1.2529061931E+002
12102500000.000 -5.8652146873E+000 -1.1663264410E+002 -4.5613717568E+001 +1.5990196218E+002 -8.3260913054E+001 +1.3655450862E+002 -2.0725274802E+001 +1.3560316193E+002
12235000000.000 -5.8165336026E+000 -1.1701341123E+002 -4.5870906088E+001 +1.2471570408E+002 -9.3578497958E+001 -6.1282182928E+001 -1.9680779778E+001 +1.5433665815E+002
12367500000.000 -5.8046558180E+000 -1.1722256864E+002 -4.5801662420E+001 +9.0751289644E+001 -8.9938260731E+001 +6.1370953699E+001 -1.8883304645E+001 +1.5745657058E+002
12500000000.000 -5.7989793626E+000 -1.1778553167E+002 -4.6417134101E+001 +5.5379542857E+001 -9.5353907935E+001 +1.7355729786E+002 -2.0055294638E+001 +1.6853175059E+002
12632500000.000 -5.7534101320E+000 -1.1796117833E+002 -4.6831523240E+001 +2.1483929050E+001 -8.8358485564E+001 -9.3625825676E+001 -1.9050863126E+001 -1.7320648552E+002
12765000000.000 -5.7329320296E+000 -1.1822502669E+002 -4.7056815890E+001 -1.2835647478E+001 -8.0912887904E+001 +1.1657744617E+001 -1.8512186355E+001 -1.7198136587E+002
12897500000.000 -5.7439501192E+000 -1.1870535125E+002 -4.7409623902E+001 -4.6812674577E+001 -8.8492207274E+001 +1.2010205156E+002 -2.0156149664E+001 -1.5897383249E+002
13030000000.000 -5.7248804501E+000 -1.1892000317E+002 -4.7653886170E+001 -8.0777273873E+001 -8.6236848288E+001 -1.3415358510E+002 -1.8704911212E+001 -1.4148986859E+002
13162500000.000 -5.6727266913E+000 -1.1919916814E+002 -4.7865234146E+001 -1.1526253206E+002 -8.3701292684E+001 -3.6383867099E+001 -1.8610922162E+001 -1.4226207912E+002
13295000000.000 -5.6449398804E+000 -1.1955213688E+002 -4.8044572601E+001 -1.5018175201E+002 -8.8660057340E+001 +6.6066878715E+001 -2.0063059653E+001 -1.2757530368E+002
13427500000.000 -5.6347522443E+000 -1.2010004631E+002 -4.8270119981E+001 +1.7607137449E+002 -8.3723234050E+001 -1.2554072512E+002 -1.8733693689E+001 -1.1399413838E+002
13560000000.000 -5.6527628342E+000 -1.2002178584E+002 -4.8773254341E+001 +1.4221186396E+002 -8.0989510365E+001 -1.1577556710E+002 -1.8978037539E+001 -1.1504940888E+002
13692500000.000 -5.5910494878E+000 -1.2019115221E+002 -4.8909232359E+001 +1.0875242211E+002 -8.8674675665E+001 +1.4166190318E+002 -2.0835069041E+001 -1.0119997983E+002
13825000000.000 -5.5474583127E+000 -1.2069029006E+002 -4.9506758932E+001 +7.5219356690E+001 -8.1365079957E+001 -1.4969034590E+002 -1.9668694072E+001 -8.7373459393E+001
13957500000.000 -5.5550909358E+000 -1.2115105921E+002 -4.9624118742E+001 +3.9818283125E+001 -7.9600573310E+001 -9.9074576293E+001 -2.0313879810E+001 -9.0047587846E+001
14090000000.000 -5.5471806675E+000 -1.2126277129E+002 -4.9859907240E+001 +7.5776493641E+000 -7.9027904142E+001 +3.6066800813E+001 -2.2589540212E+001 -7.2628583675E+001
14222500000.000 -5.4981775044E+000 -1.2133676441E+002 -5.0050258988E+001 -2.6708839246E+001 -9.1603589562E+001 -1.6406631293E+002 -2.1244095222E+001 -5.9416035378E+001
14355000000.000 -5.4536522135E+000 -1.2189842570E+002 -5.0462953045E+001 -5.9955594756E+001 -8.9415981494E+001 -1.6159199230E+002 -2.2506548629E+001 -6.3146665682E+001
14487500000.000 -5.4481463402E+000 -1.2213257508E+002 -5.0779655721E+001 -9.4875484135E+001 -8.1837893644E+001 +5.3994150197E+001 -2.5336753336E+001 -4.0101476852E+001
14620000000.000 -5.4145308235E+000 -1.2206484428E+002 -5.0760884448E+001 -1.2683359003E+002 -9.3492160248E+001 -7.0125080326E+001 -2.3279254745E+001 -2.8173571657E+001
14752500000.000 -5.3265367059E+000 -1.2229575755E+002 -5.1366003129E+001 -1.6084642345E+002 -8.5896779761E+001 -1.1932806584E+002 -2.5498720774E+001 -3.5835799016E+001
14885000000.000 -5.3027047599E+000 -1.2266577781E+002 -5.1185307369E+001 +1.6381485855E+002 -8.5249339488E+001 +3.0345496301E+000 -2.8545957852E+001 +2.8190506532E+000
15017500000.000 -5.2885364842E+000 -1.2241153129E+002 -5.1597467794E+001 +1.3210945262E+002 -8.2383817684E+001 +3.9800716615E+001 -2.5360723035E+001 +7.6926335176E+000
15150000000.000 -5.2074804667E+000 -1.2223036791E+002 -5.1890469693E+001 +9.5836699756E+001 -7.6386341071E+001 -1.1175120967E+002 -2.9410567500E+001 -1.6761404029E+000
15282500000.000 -5.1529498476E+000 -1.2235978626E+002 -5.1814974687E+001 +6.3295670749E+001 -8.1728318643E+001 -8.7879578342E+001 -3.0610065506E+001 +5.8354973977E+001
