!  2-Port S-parameters saved by WinCal
! VAR MeasName=S-Parameters (CALIBRATED_DATA) read from VNA (C)
! VAR MeasDate=10/5/2015 5:00:14 PM
! VAR NAME=M6079_4_7_3_2_20C_7.4mA_-17.5dBm
! VAR FILENAME=M6079_4_7_3_2_20C_7.4mA_-17.5dBm.S2P
! VAR DATE=10/5/2015 5:00:14 PM
! VAR PHYS_PORTS=2,1
! VAR ObjTypeName=DATASET
! VAR IndexType=Frequency
!
# Hz S DB R 50
45000000.000 -2.7530824891E+001 -4.6293358255E-001 -4.3924132570E+001 +1.1226491490E+002 -6.7491964058E+001 -3.8046003670E+001 -3.0440724948E+001 +1.7890589050E+000
177500000.000 -2.7303610879E+001 -9.7197303814E+000 -4.3598920567E+001 +7.0393457479E+001 -7.8116288180E+001 -1.5465071829E+002 -3.2520837703E+001 +4.5450778474E+001
310000000.000 -2.6875754581E+001 -1.7675300635E+001 -4.3812308278E+001 +4.0137073627E+001 -8.1461102619E+001 -1.6025121309E+002 -2.3307321422E+001 +6.3772530056E+001
442500000.000 -2.6369894345E+001 -2.5500616299E+001 -4.2733266736E+001 +5.4640604957E-001 -8.1859908266E+001 +2.9085244401E-001 -2.2354011948E+001 +1.7114318347E+001
575000000.000 -2.5727894276E+001 -3.3258103725E+001 -4.3312563357E+001 -3.4042353767E+001 -1.2424265900E+002 +5.0127270835E+001 -3.0525333630E+001 +2.2369651213E+001
707500000.000 -2.5182252478E+001 -3.9181749363E+001 -4.3238787191E+001 -6.8375375352E+001 -8.6266553779E+001 -1.3118861041E+002 -3.4566044302E+001 +8.2746278190E+001
840000000.000 -2.4418418200E+001 -4.4740395939E+001 -4.3419628197E+001 -1.0244665793E+002 -8.4985364334E+001 -4.8273315808E+001 -2.9668252713E+001 +1.2749426217E+002
972500000.000 -2.3712094535E+001 -4.9334551498E+001 -4.3614069438E+001 -1.3550814349E+002 -9.2012264394E+001 +3.4688426306E+001 -2.5906490980E+001 +1.3496186688E+002
1105000000.000 -2.3053167811E+001 -5.4058611157E+001 -4.3513287858E+001 -1.6952432736E+002 -8.5785028832E+001 -6.2852451116E+001 -2.4363423321E+001 +1.4054082535E+002
1237500000.000 -2.2445486192E+001 -5.7533472711E+001 -4.3766765197E+001 +1.5579205151E+002 -9.1003497004E+001 +7.6463361597E+000 -2.3378213396E+001 +1.4987633626E+002
1370000000.000 -2.1814173667E+001 -6.1022829653E+001 -4.3719826208E+001 +1.2215670680E+002 -8.0302080331E+001 +1.0964475587E+002 -2.2039360933E+001 +1.5977814375E+002
1502500000.000 -2.1255571988E+001 -6.3763627612E+001 -4.3732834999E+001 +8.7866470973E+001 -8.1118542939E+001 -1.5527776332E+002 -2.0847520002E+001 +1.6616947716E+002
1635000000.000 -2.0651351356E+001 -6.5994933104E+001 -4.3849958237E+001 +5.4627070002E+001 -8.3057773308E+001 -5.2507773284E-001 -1.9996548915E+001 +1.7313865798E+002
1767500000.000 -2.0077726418E+001 -6.8644557076E+001 -4.3800147856E+001 +2.0338127568E+001 -8.4712630634E+001 +7.2692087291E+001 -1.8992317904E+001 +1.7829288626E+002
1900000000.000 -1.9635016801E+001 -7.0435694137E+001 -4.3537212391E+001 -1.4682964909E+001 -8.9985347128E+001 -1.7569354415E+002 -1.8845405468E+001 -1.7843064520E+002
2032500000.000 -1.9177142344E+001 -7.2300015485E+001 -4.3886242279E+001 -4.8015805295E+001 -8.2841503744E+001 -6.4020146723E+001 -1.8671080620E+001 -1.6807540767E+002
2165000000.000 -1.8648719065E+001 -7.3773992833E+001 -4.3902046565E+001 -8.2282848325E+001 -8.7888243242E+001 +6.3299629140E+000 -1.7726968443E+001 -1.6121604135E+002
2297500000.000 -1.8258024437E+001 -7.5581602365E+001 -4.4134213379E+001 -1.1631529083E+002 -7.7061050430E+001 +1.4110396397E+002 -1.7235816925E+001 -1.5723606426E+002
2430000000.000 -1.7889688042E+001 -7.6802374294E+001 -4.3965098148E+001 -1.4996117744E+002 -7.4175998628E+001 -9.9849253524E+001 -1.6900953795E+001 -1.5298888461E+002
2562500000.000 -1.7456111344E+001 -7.8231444989E+001 -4.3988827683E+001 +1.7744554713E+002 -7.4559049056E+001 +4.2653416410E+001 -1.6791891348E+001 -1.5078428414E+002
2695000000.000 -1.7150431587E+001 -8.0108027030E+001 -4.4326643999E+001 +1.4446598074E+002 -8.2853130788E+001 +9.7162888491E+001 -1.7357596888E+001 -1.4742752805E+002
2827500000.000 -1.6918226346E+001 -8.1371309048E+001 -4.4028724406E+001 +1.1086596075E+002 -7.8206237928E+001 -1.0179718359E+002 -1.7825163569E+001 -1.4044409638E+002
2960000000.000 -1.6570721393E+001 -8.2211884577E+001 -4.3876477489E+001 +7.5746847717E+001 -7.6231916544E+001 -1.7343132844E+001 -1.8098564168E+001 -1.3586173110E+002
3092500000.000 -1.6184746713E+001 -8.3764037156E+001 -4.4196356914E+001 +4.2583090954E+001 -8.3083523954E+001 -5.1377035914E+001 -1.9075186927E+001 -1.2972254947E+002
3225000000.000 -1.5917300098E+001 -8.5479346117E+001 -4.4039524258E+001 +9.2574450099E+000 -8.2749265370E+001 -1.1636331553E+002 -1.9554382647E+001 -1.1979355642E+002
3357500000.000 -1.5705911717E+001 -8.6336680782E+001 -4.4100280207E+001 -2.4537122104E+001 -7.7644945099E+001 -2.2037448218E+001 -1.9879254834E+001 -1.1463483178E+002
3490000000.000 -1.5364853582E+001 -8.7373923289E+001 -4.4164822903E+001 -5.7253637367E+001 -8.0184029749E+001 +6.0131810281E+001 -2.1095944429E+001 -1.0914459132E+002
3622500000.000 -1.5034736930E+001 -8.8672083677E+001 -4.4069486518E+001 -9.3550877088E+001 -7.5073236246E+001 -1.7637836238E+002 -2.1939514044E+001 -9.8294722737E+001
3755000000.000 -1.4748853506E+001 -8.9890146606E+001 -4.4225066768E+001 -1.2745425612E+002 -8.7025566111E+001 +6.9493605278E+000 -2.2617285664E+001 -9.4705496819E+001
3887500000.000 -1.4486256092E+001 -9.0808658873E+001 -4.4240697659E+001 -1.5943744185E+002 -8.8447920429E+001 +1.2772545840E+002 -2.4940151145E+001 -8.8533029722E+001
4020000000.000 -1.4251548083E+001 -9.1669103462E+001 -4.4072258202E+001 +1.6466005943E+002 -8.5122396047E+001 +9.7607743995E+001 -2.6651959052E+001 -7.3677179342E+001
4152500000.000 -1.3970649052E+001 -9.2336949673E+001 -4.4239213002E+001 +1.3087189050E+002 -8.7774578819E+001 -1.0406031706E+002 -2.8719549711E+001 -6.4860778762E+001
4285000000.000 -1.3687953306E+001 -9.3298944093E+001 -4.4510153532E+001 +9.7198490326E+001 -9.8971880644E+001 +3.3408708639E+001 -3.3145808494E+001 -3.9332367687E+001
4417500000.000 -1.3482530687E+001 -9.4260181919E+001 -4.4375825228E+001 +6.3354065475E+001 -8.9998587187E+001 +1.2638399438E+002 -3.1738780168E+001 +7.0150513166E+000
4550000000.000 -1.3269782479E+001 -9.4633672857E+001 -4.4484237088E+001 +2.9534201550E+001 -8.3217357199E+001 -3.7887320105E+001 -3.0241790076E+001 +1.7220160941E+001
4682500000.000 -1.3008930169E+001 -9.5212302040E+001 -4.4930369971E+001 -3.4118848653E+000 -8.8350264646E+001 +5.2601751079E+001 -2.9660213115E+001 +3.7478729004E+001
4815000000.000 -1.2789310316E+001 -9.6217492983E+001 -4.4722303590E+001 -3.7260459082E+001 -8.8873832015E+001 -5.2572480212E+001 -2.7616599331E+001 +4.0226949958E+001
4947500000.000 -1.2622533876E+001 -9.6576587239E+001 -4.4713832785E+001 -6.9772702861E+001 -9.1091318754E+001 -9.9683450464E+001 -2.9300424699E+001 +3.4353753565E+001
5080000000.000 -1.2409636960E+001 -9.6833572018E+001 -4.4805754713E+001 -1.0412957775E+002 -9.3160864301E+001 +3.4997987722E+001 -3.2186017300E+001 +5.5196055010E+001
5212500000.000 -1.2185846123E+001 -9.7515340083E+001 -4.4731811338E+001 -1.3680400822E+002 -8.6145572874E+001 +1.1319119802E+002 -3.1561904863E+001 +6.7799530675E+001
5345000000.000 -1.2052331189E+001 -9.8131587932E+001 -4.4590354380E+001 -1.7124132893E+002 -1.0675371261E+002 +1.4960481116E+002 -3.5262435976E+001 +6.8014517296E+001
5477500000.000 -1.1902132978E+001 -9.8229389890E+001 -4.4521599078E+001 +1.5514810671E+002 -8.3661546869E+001 -2.7751721578E+001 -3.7612229601E+001 +1.3071520037E+002
5610000000.000 -1.1701702375E+001 -9.8611416293E+001 -4.4678090123E+001 +1.2128852856E+002 -8.6433275114E+001 +7.0710693201E+001 -3.3761576918E+001 +1.3408526720E+002
5742500000.000 -1.1569214572E+001 -9.9331640685E+001 -4.4593558193E+001 +8.6383610888E+001 -8.2952889912E+001 -1.6748322655E+002 -3.8221283845E+001 +1.4949935222E+002
5875000000.000 -1.1469610716E+001 -9.9801989930E+001 -4.4447595554E+001 +5.3266873400E+001 -8.4891099848E+001 -2.3630236246E+001 -3.4062614435E+001 -1.7011186160E+002
6007500000.000 -1.1342184530E+001 -1.0006068980E+002 -4.4694665700E+001 +1.8416407700E+001 -1.0178554292E+002 +3.5710433340E+001 -3.2787669127E+001 +1.7900673763E+002
6140000000.000 -1.1170029269E+001 -1.0055552911E+002 -4.4628235632E+001 -1.5771161564E+001 -1.0393924778E+002 -1.0632781007E+002 -3.6457962019E+001 -1.7228287426E+002
6272500000.000 -1.1033320851E+001 -1.0139726143E+002 -4.4610991472E+001 -4.9137691178E+001 -8.8379152426E+001 +1.7968356025E+002 -3.4253728028E+001 -1.4453673014E+002
6405000000.000 -1.0962632832E+001 -1.0217435907E+002 -4.4617134562E+001 -8.3587421058E+001 -8.2951357349E+001 +8.9073537114E+001 -3.3960017611E+001 -1.6250384649E+002
6537500000.000 -1.0843641684E+001 -1.0230541802E+002 -4.4774785981E+001 -1.1716420919E+002 -9.7829963659E+001 +1.5259194624E+002 -4.0088050691E+001 -1.6399205208E+002
6670000000.000 -1.0656650805E+001 -1.0275681884E+002 -4.4763870899E+001 -1.5071577866E+002 -8.8475753407E+001 -1.0611305810E+001 -3.9865221975E+001 -1.4101796651E+002
6802500000.000 -1.0499233907E+001 -1.0379903639E+002 -4.4825700203E+001 +1.7552405082E+002 -8.5359484699E+001 +1.8484988792E+001 -3.8987663544E+001 +1.7731463091E+002
6935000000.000 -1.0454436430E+001 -1.0451669996E+002 -4.4765369241E+001 +1.4123015043E+002 -8.3632361678E+001 +1.1899334542E+002 -3.8450624423E+001 +1.2402986458E+002
7067500000.000 -1.0326781981E+001 -1.0456121380E+002 -4.4732711688E+001 +1.0790010244E+002 -8.8055208144E+001 -1.6324338998E+002 -3.8397165586E+001 +1.1646752135E+002
7200000000.000 -1.0141911482E+001 -1.0507297600E+002 -4.4833450440E+001 +7.4134147422E+001 -8.5469825622E+001 -3.6948827336E+001 -3.2674160941E+001 +1.3035369964E+002
7332500000.000 -1.0017279639E+001 -1.0606906251E+002 -4.4763433528E+001 +3.9745642406E+001 -9.3723184539E+001 -1.7928241540E+002 -2.9136823072E+001 +1.1908879366E+002
7465000000.000 -9.9354437397E+000 -1.0644296837E+002 -4.5031917216E+001 +5.7147174050E+000 -9.6229634605E+001 +1.6696366550E+002 -2.8601048202E+001 +1.2360072716E+002
7597500000.000 -9.7824379289E+000 -1.0665947272E+002 -4.4933231777E+001 -2.7003822231E+001 -8.4583877887E+001 +4.5057563109E+001 -2.6002177482E+001 +1.3739576717E+002
7730000000.000 -9.6209206704E+000 -1.0721461374E+002 -4.4902519286E+001 -6.0280443791E+001 -7.8095077529E+001 +6.3349859559E+001 -2.3754663148E+001 +1.3752968528E+002
7862500000.000 -9.5208310551E+000 -1.0768287476E+002 -4.4980804816E+001 -9.5070004250E+001 -8.4174389246E+001 -1.7760744642E+002 -2.3305090794E+001 +1.4193023891E+002
7995000000.000 -9.4282466382E+000 -1.0781528038E+002 -4.5012294181E+001 -1.2756710882E+002 -8.8117413049E+001 -5.9642052015E+001 -2.1768731267E+001 +1.5431686891E+002
8127500000.000 -9.2451177734E+000 -1.0795565168E+002 -4.4945225619E+001 -1.6172230158E+002 -8.8376474684E+001 +6.7767111487E+001 -2.0036986963E+001 +1.5618259774E+002
8260000000.000 -9.1451291188E+000 -1.0856330434E+002 -4.4963698013E+001 +1.6385523318E+002 -8.0387102360E+001 -1.7725394480E+002 -1.9887169225E+001 +1.6019292277E+002
8392500000.000 -9.0556059374E+000 -1.0861452933E+002 -4.5000678054E+001 +1.3061868591E+002 -9.5424982240E+001 -1.8406000172E+000 -1.9047624813E+001 +1.7032322173E+002
8525000000.000 -8.9486428284E+000 -1.0867817247E+002 -4.5010412770E+001 +9.7088213067E+001 -8.4420889788E+001 +6.5277311273E+001 -1.8203178213E+001 +1.7273302193E+002
8657500000.000 -8.8352928995E+000 -1.0888145204E+002 -4.5121883355E+001 +6.3142991316E+001 -8.7968061047E+001 +8.0934619609E+001 -1.8561414168E+001 +1.7777327176E+002
8790000000.000 -8.7348391212E+000 -1.0909323141E+002 -4.5073423884E+001 +2.9825101048E+001 -8.9010944300E+001 -1.1074885395E+002 -1.8340607909E+001 -1.7197331260E+002
8922500000.000 -8.6719696607E+000 -1.0934961651E+002 -4.5045072397E+001 -3.6358905259E+000 -8.8147279160E+001 +5.0163358867E+001 -1.8003518940E+001 -1.6623377523E+002
9055000000.000 -8.5830300224E+000 -1.0947325430E+002 -4.5035309187E+001 -3.6798676140E+001 -8.6245904422E+001 +1.0626765249E+002 -1.8442431042E+001 -1.5841672146E+002
9187500000.000 -8.5160070868E+000 -1.0971072948E+002 -4.5052590056E+001 -7.1427484689E+001 -8.6586933024E+001 -1.5380887301E+002 -1.8356071279E+001 -1.4679103574E+002
9320000000.000 -8.4367555044E+000 -1.1023900141E+002 -4.5042817849E+001 -1.0625590819E+002 -8.6615954582E+001 -5.7390306508E+001 -1.8241368274E+001 -1.3998575990E+002
9452500000.000 -8.3706392817E+000 -1.1054075590E+002 -4.4995729524E+001 -1.3910164083E+002 -8.3463617631E+001 +1.2893720195E+002 -1.8826083142E+001 -1.3052114742E+002
9585000000.000 -8.2982139835E+000 -1.1077284090E+002 -4.4942030077E+001 -1.7385913234E+002 -8.4948004726E+001 -1.6551261799E+002 -1.8736432304E+001 -1.1874091775E+002
9717500000.000 -8.1878622843E+000 -1.1128176153E+002 -4.5159139801E+001 +1.5242248757E+002 -9.9219010312E+001 +6.9518734403E+001 -1.8849053499E+001 -1.1162579351E+002
9850000000.000 -8.1373428481E+000 -1.1198245718E+002 -4.5066130990E+001 +1.1861690631E+002 -8.6280727495E+001 +8.6395130096E+001 -1.9638527662E+001 -1.0047399228E+002
9982500000.000 -8.0776217493E+000 -1.1209642569E+002 -4.4972260770E+001 +8.4606730975E+001 -8.5357703325E+001 +1.6259571861E+002 -1.9607748315E+001 -8.6929565694E+001
10115000000.000 -7.9783727629E+000 -1.1241647655E+002 -4.5045022490E+001 +5.0964179529E+001 -8.6326333568E+001 -1.0635872254E+002 -1.9934681967E+001 -7.9765197237E+001
10247500000.000 -7.8916277986E+000 -1.1303227853E+002 -4.5130667032E+001 +1.7007725011E+001 -7.9044413301E+001 +5.7672963779E+001 -2.1140679988E+001 -6.6019543462E+001
10380000000.000 -7.8369203592E+000 -1.1345611444E+002 -4.5141271707E+001 -1.6820090792E+001 -8.9776635755E+001 +1.6283826606E+002 -2.0943904055E+001 -5.0374747933E+001
10512500000.000 -7.7570913508E+000 -1.1382979133E+002 -4.5192652286E+001 -4.9861796508E+001 -9.0679279968E+001 -1.2479186121E+002 -2.1469866733E+001 -4.2888998128E+001
10645000000.000 -7.6923116414E+000 -1.1427046304E+002 -4.5130522729E+001 -8.4333819524E+001 -8.2173212111E+001 +2.9033570309E+001 -2.2825534101E+001 -2.4051280510E+001
10777500000.000 -7.6138369769E+000 -1.1456842673E+002 -4.4959521412E+001 -1.1845878536E+002 -9.4359739291E+001 +1.6777928154E+002 -2.2081632010E+001 -6.3374311687E+000
10910000000.000 -7.5216545778E+000 -1.1497357539E+002 -4.5116256416E+001 -1.5321694868E+002 -8.3809259910E+001 -1.2969095426E+002 -2.2734925889E+001 +3.0138892281E+000
11042500000.000 -7.4247776940E+000 -1.1548128327E+002 -4.5189757101E+001 +1.7433733512E+002 -8.5889136942E+001 +7.1667391010E+000 -2.3466934924E+001 +2.7040750605E+001
11175000000.000 -7.3476020209E+000 -1.1574326425E+002 -4.5147836690E+001 +1.4024188380E+002 -8.6084567246E+001 +1.1340554366E+002 -2.2170754793E+001 +4.2151368393E+001
11307500000.000 -7.2882844746E+000 -1.1596875067E+002 -4.5249410771E+001 +1.0527507146E+002 -8.8775202075E+001 +1.5697498005E+002 -2.2697283714E+001 +5.2090367315E+001
11440000000.000 -7.2059440330E+000 -1.1632573755E+002 -4.5306186258E+001 +7.1565846919E+001 -9.1253786241E+001 +9.3497535384E+001 -2.2597359074E+001 +7.5027951968E+001
11572500000.000 -7.1085349082E+000 -1.1634347374E+002 -4.5211696738E+001 +3.7824772084E+001 -8.9304539889E+001 +4.2268659853E+001 -2.1137497980E+001 +8.6310057679E+001
11705000000.000 -7.0515372939E+000 -1.1665926585E+002 -4.5145894260E+001 +4.7435369015E+000 -8.1945663499E+001 +1.4641213781E+002 -2.1733746227E+001 +9.6235282604E+001
11837500000.000 -6.9743704876E+000 -1.1684170532E+002 -4.5184347828E+001 -3.0041570960E+001 -9.3599750978E+001 -7.1931715900E+001 -2.1104886083E+001 +1.1833252894E+002
11970000000.000 -6.9434803538E+000 -1.1697203882E+002 -4.5366256258E+001 -6.3090466661E+001 -9.1225506760E+001 +2.6524208802E+001 -1.9814566033E+001 +1.2469650667E+002
12102500000.000 -6.8974082040E+000 -1.1701746338E+002 -4.5227195746E+001 -9.7243165201E+001 -8.3948483221E+001 +1.4248307713E+002 -2.0737989176E+001 +1.3496466651E+002
12235000000.000 -6.8298493633E+000 -1.1734958186E+002 -4.5252496487E+001 -1.3287039507E+002 -9.0973589028E+001 -1.2653655156E+002 -1.9702293125E+001 +1.5377970166E+002
12367500000.000 -6.8107266718E+000 -1.1747205294E+002 -4.5408129798E+001 -1.6592423582E+002 -9.7394997638E+001 -1.8089888876E+000 -1.8892517960E+001 +1.5686760004E+002
12500000000.000 -6.7770398209E+000 -1.1794041133E+002 -4.5554874196E+001 +1.5956336501E+002 -8.9937000915E+001 +3.4986942331E+001 -2.0062149331E+001 +1.6786588309E+002
12632500000.000 -6.7137514967E+000 -1.1800921228E+002 -4.5454503489E+001 +1.2595604845E+002 -9.0078915118E+001 -3.2913147970E+001 -1.9045619006E+001 -1.7373095462E+002
12765000000.000 -6.6766096583E+000 -1.1827891635E+002 -4.5483776763E+001 +9.2517777936E+001 -8.3989402234E+001 -1.6053764155E+001 -1.8512589877E+001 -1.7242154288E+002
12897500000.000 -6.6723486704E+000 -1.1866686779E+002 -4.5466444216E+001 +5.9413851991E+001 -8.0257510955E+001 +1.3552549198E+002 -2.0161678472E+001 -1.5965010444E+002
13030000000.000 -6.6345509257E+000 -1.1876187578E+002 -4.5448749464E+001 +2.6208129766E+001 -8.5921241379E+001 -1.1549673103E+002 -1.8705719966E+001 -1.4210866580E+002
13162500000.000 -6.5654182671E+000 -1.1906943182E+002 -4.5656050459E+001 -9.2831550408E+000 -8.8848173704E+001 +3.4463540000E+001 -1.8566076161E+001 -1.4285362662E+002
13295000000.000 -6.5177684814E+000 -1.1934252378E+002 -4.5717731672E+001 -4.2801704045E+001 -8.7072692379E+001 +6.5470704779E+001 -2.0048072408E+001 -1.2828190131E+002
13427500000.000 -6.4958528846E+000 -1.1985163055E+002 -4.5652392298E+001 -7.7260153313E+001 -8.4254425463E+001 -1.3272839020E+002 -1.8706408958E+001 -1.1451299951E+002
13560000000.000 -6.4969792771E+000 -1.1974946340E+002 -4.5529628381E+001 -1.0970957512E+002 -8.1647972281E+001 -2.0048361386E+001 -1.8928679909E+001 -1.1557913775E+002
13692500000.000 -6.4203960417E+000 -1.1988386301E+002 -4.5597848682E+001 -1.4433557054E+002 -8.3431878475E+001 +6.4971238097E+001 -2.0801079300E+001 -1.0193606011E+002
13825000000.000 -6.3617945404E+000 -1.2031783127E+002 -4.5654314685E+001 -1.7796440747E+002 -7.8172959095E+001 +1.5621048539E+002 -1.9615290783E+001 -8.7948322606E+001
13957500000.000 -6.3551252916E+000 -1.2079640318E+002 -4.5760909013E+001 +1.4820766770E+002 -8.6134305682E+001 -2.7334906604E+001 -2.0247460054E+001 -9.0530730354E+001
14090000000.000 -6.3340487273E+000 -1.2083815718E+002 -4.5805613587E+001 +1.1483526751E+002 -8.6664766673E+001 +9.3024653913E+000 -2.2508035773E+001 -7.3335684375E+001
14222500000.000 -6.2723981778E+000 -1.2088133616E+002 -4.5584714666E+001 +7.9506441205E+001 -9.1230412444E+001 -1.7312433322E+002 -2.1203144638E+001 -5.9921011801E+001
14355000000.000 -6.2122217797E+000 -1.2144414040E+002 -4.5486773169E+001 +4.6889724391E+001 -8.5512389554E+001 -8.9939606031E+001 -2.2401102669E+001 -6.3505827506E+001
14487500000.000 -6.1915799247E+000 -1.2164547107E+002 -4.5775313510E+001 +1.2287680799E+001 -8.0599500876E+001 +1.4620873989E+001 -2.5231552978E+001 -4.0534401829E+001
14620000000.000 -6.1471233616E+000 -1.2151114694E+002 -4.5632857386E+001 -2.1407436858E+001 -8.5806486675E+001 -1.4967635837E+001 -2.3197423755E+001 -2.8439688708E+001
14752500000.000 -6.0398938676E+000 -1.2172173294E+002 -4.5777167443E+001 -5.5657850687E+001 -7.6864558609E+001 -9.3235944993E+001 -2.5394832251E+001 -3.6021392459E+001
14885000000.000 -6.0074712221E+000 -1.2208514569E+002 -4.5756405416E+001 -8.9014067071E+001 -8.5639865562E+001 +9.8730701076E+000 -2.8413757149E+001 +2.3211029827E+000
15017500000.000 -5.9854010539E+000 -1.2180122173E+002 -4.5776370399E+001 -1.2400465370E+002 -7.6799605596E+001 +1.1305239944E+002 -2.5293384556E+001 +7.3571382577E+000
15150000000.000 -5.8899692854E+000 -1.2157139343E+002 -4.5718328620E+001 -1.5769880250E+002 -8.3287122294E+001 +1.6660923456E+002 -2.9273467995E+001 -1.6944026733E+000
15282500000.000 -5.8194627774E+000 -1.2169189582E+002 -4.5828358157E+001 +1.6919895165E+002 -8.5018435746E+001 +2.5880358378E+001 -3.0418770964E+001 +5.8052278512E+001
