!Agilent Technologies,N5247A,US51170167,A.09.90.10
!Agilent N5247A: A.09.90.10
!Date: Tuesday, November 22, 2016 15:31:36
!Correction: S22(Full 1 Port(2)) 
!S1P File: Measurement: S22:
# Hz S  RI   R 50
10000000 0.13279864 -0.041540708
109975000 0.12294026 -0.023871997
209950000 0.11871941 -0.035233896
309925000 0.10988732 -0.048851311
409900000 0.10353111 -0.056062303
509875000 0.10193206 -0.063127473
609850000 0.092559263 -0.074588344
709825000 0.087374739 -0.080554329
809800000 0.080632418 -0.087587543
909775000 0.077446476 -0.095101774
1009750000 0.074750356 -0.10130183
1109725000 0.0689281 -0.10715427
1209700000 0.066245615 -0.11270565
1309675000 0.063112937 -0.11990469
1409650000 0.061279047 -0.12771547
1509625000 0.056437474 -0.13204317
1609600000 0.050661907 -0.13873491
1709575000 0.047346473 -0.14395802
1809550000 0.044160571 -0.14951138
1909525000 0.042936046 -0.15376219
2009500000 0.039052244 -0.15911809
2109475000 0.037776217 -0.1675266
2209450000 0.037996184 -0.17263849
2309425000 0.033487633 -0.18095419
2409400000 0.032026637 -0.18808924
2509375000 0.026951615 -0.19688351
2609350000 0.024638189 -0.20649201
2709325000 0.019353362 -0.21111348
2809300000 0.011342305 -0.22002266
2909275000 0.0071102506 -0.22729486
3009250000 -0.001626057 -0.23485841
3109225000 -0.0057230773 -0.24015819
3209200000 -0.015930085 -0.24121751
3309175000 -0.024484184 -0.24912678
3409150000 -0.028777232 -0.25281638
3509125000 -0.035104614 -0.25513178
3609100000 -0.041495044 -0.25506753
3709075000 -0.052093823 -0.25887653
3809050000 -0.054316264 -0.26578999
3909025000 -0.056168068 -0.26297954
4009000000 -0.064566158 -0.26413822
4108975000 -0.069365233 -0.26632091
4208950000 -0.073668167 -0.27029261
4308925000 -0.073153153 -0.27124071
4408900000 -0.081362799 -0.26910105
4508875000 -0.085795671 -0.27528277
4608850000 -0.086437732 -0.27497822
4708825000 -0.092157669 -0.2761628
4808800000 -0.09354239 -0.27835774
4908775000 -0.099018209 -0.27781639
5008750000 -0.10129261 -0.28280869
5108725000 -0.10391397 -0.28067806
5208700000 -0.11020569 -0.28372794
5308675000 -0.11000858 -0.28612834
5408650000 -0.11551143 -0.28595892
5508625000 -0.11927843 -0.29015791
5608600000 -0.12043009 -0.28933787
5708575000 -0.12551115 -0.29071507
5808550000 -0.12918614 -0.29285142
5908525000 -0.13252389 -0.29520547
6008500000 -0.13419485 -0.29837644
6108475000 -0.13505261 -0.29653692
6208450000 -0.14255014 -0.29701889
6308425000 -0.14586221 -0.30252728
6408400000 -0.14553627 -0.30463803
6508375000 -0.14713316 -0.30356798
6608350000 -0.15175329 -0.30301946
6708325000 -0.15976466 -0.30656654
6808300000 -0.15688436 -0.31474569
6908275000 -0.15397283 -0.30819386
7008250000 -0.16631073 -0.30793017
7108225000 -0.16948566 -0.31605944
7208200000 -0.16716205 -0.31890586
7308175000 -0.16533044 -0.31739789
7408150000 -0.17505081 -0.31082252
7508125000 -0.18384606 -0.32367322
7608100000 -0.1733685 -0.32766777
7708075000 -0.17853817 -0.3166666
7808050000 -0.18748337 -0.32073742
7908025000 -0.19044711 -0.32565418
8008000000 -0.19018117 -0.33103344
8107975000 -0.1876913 -0.32639599
8207950000 -0.19792815 -0.3243354
8307925000 -0.1999356 -0.33144969
8407900000 -0.20161657 -0.3305032
8507875000 -0.20407322 -0.33380488
8607850000 -0.20413233 -0.33167359
8707825000 -0.21065752 -0.33213055
8807800000 -0.21337418 -0.3330538
8907775000 -0.21968429 -0.3369258
9007750000 -0.21381554 -0.34236431
9107725000 -0.21752672 -0.33249652
9207700000 -0.22768135 -0.33769318
9307675000 -0.2260592 -0.34151262
9407650000 -0.2291545 -0.34547383
9507625000 -0.22361179 -0.34566486
9607600000 -0.2333072 -0.33786392
9707575000 -0.23872942 -0.34999403
9807550000 -0.23158191 -0.34711248
9907525000 -0.24156676 -0.34679878
10007500000 -0.2386291 -0.35019717
10107475000 -0.24438599 -0.3461763
10207450000 -0.24784845 -0.35547093
10307425000 -0.24379978 -0.35302863
10407400000 -0.25249195 -0.35285017
10507375000 -0.24927586 -0.35659057
10607350000 -0.25589207 -0.35244998
10707325000 -0.25734824 -0.35985005
10807300000 -0.25482833 -0.35557309
10907275000 -0.26473027 -0.35564014
11007250000 -0.26378435 -0.36104271
11107225000 -0.26514083 -0.359236
11207200000 -0.26785859 -0.36090088
11307175000 -0.27084714 -0.35856375
11407150000 -0.27732977 -0.36191449
11507125000 -0.2740359 -0.36676946
11607100000 -0.27646598 -0.36216608
11707075000 -0.28289217 -0.36431202
11807050000 -0.28349334 -0.36640057
11907025000 -0.28626898 -0.36784768
12007000000 -0.2854718 -0.36851779
12106975000 -0.29158318 -0.36484662
12206950000 -0.2963599 -0.37083027
12306925000 -0.29245365 -0.37195376
12406900000 -0.29727218 -0.368494
12506875000 -0.30304706 -0.37161669
12606850000 -0.30307943 -0.37573493
12706825000 -0.29932758 -0.37714756
12806800000 -0.30401343 -0.36910352
12906775000 -0.31501082 -0.37559268
13006750000 -0.3081983 -0.38269621
13106725000 -0.30970612 -0.37612471
13206700000 -0.31307092 -0.3772108
13306675000 -0.31898022 -0.37422189
13406650000 -0.3250953 -0.38349742
13506625000 -0.31453359 -0.38313347
13606600000 -0.32479295 -0.37422469
13706575000 -0.3281675 -0.38257471
13806550000 -0.3294096 -0.3794505
13906525000 -0.33208382 -0.38682342
14006500000 -0.3248342 -0.38050562
14106475000 -0.34079152 -0.37575585
14206450000 -0.33968937 -0.38782555
14306425000 -0.33709493 -0.37967053
14406400000 -0.3421225 -0.38250011
14506375000 -0.34186673 -0.37641072
14606350000 -0.35680756 -0.37926924
14706325000 -0.34613022 -0.39269251
14806300000 -0.34349218 -0.3795563
14906275000 -0.35426629 -0.3789351
15006250000 -0.35659373 -0.37833378
15106225000 -0.36614463 -0.38608122
15206200000 -0.35107049 -0.39614797
15306175000 -0.3511588 -0.37584719
15406150000 -0.36991256 -0.37475806
15506125000 -0.36771724 -0.38751468
15606100000 -0.36488 -0.3901256
15706075000 -0.35965359 -0.38672781
15806050000 -0.36475039 -0.37562999
15906025000 -0.37686411 -0.38280392
16006000000 -0.37047559 -0.39466101
16105975000 -0.3669017 -0.3860372
16205950000 -0.37174127 -0.38470843
16305925000 -0.37092543 -0.38660464
16405900000 -0.37741065 -0.38491765
16505875000 -0.38080871 -0.3908332
16605850000 -0.37664014 -0.38953385
16705825000 -0.378894 -0.38981062
16805800000 -0.38100326 -0.38687277
16905775000 -0.39027184 -0.38735294
17005750000 -0.38650313 -0.39424711
17105725000 -0.38502976 -0.38917288
17205700000 -0.39029434 -0.39042363
17305675000 -0.3952345 -0.38633424
17405650000 -0.40095088 -0.39524451
17505625000 -0.3872121 -0.39710435
17605600000 -0.39598072 -0.3827447
17705575000 -0.40796268 -0.39080432
17805550000 -0.4048031 -0.39430967
17905525000 -0.39901313 -0.40143928
18005500000 -0.39597824 -0.3824136
18105475000 -0.42577311 -0.38397917
18205450000 -0.40655178 -0.41529724
18305425000 -0.39441538 -0.38716987
18405400000 -0.42040241 -0.38894144
18505375000 -0.41456899 -0.39338183
18605350000 -0.42403054 -0.40141103
18705325000 -0.39625597 -0.40653056
18805300000 -0.42334938 -0.36334723
18905275000 -0.44437671 -0.41983223
19005250000 -0.38555172 -0.41416356
19105225000 -0.4325093 -0.36492065
19205200000 -0.43654078 -0.41507494
19305175000 -0.4113608 -0.39650729
19405150000 -0.43384871 -0.39471981
19505125000 -0.41968372 -0.39260927
19605100000 -0.45206621 -0.38419139
19705075000 -0.42489761 -0.42479745
19805050000 -0.41381463 -0.37255636
19905025000 -0.46773446 -0.38510266
20005000000 -0.42332274 -0.4167881
20104975000 -0.43451405 -0.37160921
20204950000 -0.45797443 -0.3973636
20304925000 -0.43441236 -0.39768758
20404900000 -0.44972116 -0.39110106
20504875000 -0.43868759 -0.39687234
20604850000 -0.45291647 -0.38047904
20704825000 -0.45362437 -0.40667731
20804800000 -0.43769151 -0.38903701
20904775000 -0.46511504 -0.3854841
21004750000 -0.45001352 -0.4082922
21104725000 -0.44539979 -0.38592431
21204700000 -0.46202257 -0.38990527
21304675000 -0.45749781 -0.39626506
21404650000 -0.45604852 -0.39742917
21504625000 -0.45295751 -0.38832006
21604600000 -0.47060055 -0.3866449
21704575000 -0.46087161 -0.40536514
21804550000 -0.454779 -0.39084134
21904525000 -0.46829221 -0.39060214
22004500000 -0.46307141 -0.39359665
22104475000 -0.46887824 -0.39272895
22204450000 -0.45967746 -0.39524829
22304425000 -0.47538522 -0.38069189
22404400000 -0.47803316 -0.40471217
22504375000 -0.45505163 -0.39636406
22604350000 -0.47726154 -0.38171497
22704325000 -0.47263619 -0.39591387
22804300000 -0.47531298 -0.38506821
22904275000 -0.4784615 -0.400383
23004250000 -0.4664138 -0.38659918
23104225000 -0.49156561 -0.38208422
23204200000 -0.47505826 -0.40250069
23304175000 -0.4753668 -0.38302451
23404150000 -0.48688543 -0.39207792
23504125000 -0.4777528 -0.38802838
23604100000 -0.48946807 -0.38816714
23704075000 -0.47544909 -0.39583391
23804050000 -0.48433629 -0.37627557
23904025000 -0.49831074 -0.39515004
24004000000 -0.47789198 -0.39770564
24103975000 -0.48576072 -0.3836652
24203950000 -0.48826504 -0.38905409
24303925000 -0.4917562 -0.38474765
24403900000 -0.49304324 -0.39468297
24503875000 -0.48648635 -0.38524979
24603850000 -0.49986932 -0.38588497
24703825000 -0.48789257 -0.39789394
24803800000 -0.48706177 -0.3786357
24903775000 -0.50399119 -0.38682261
25003750000 -0.49195182 -0.3936789
25103725000 -0.49522713 -0.38466024
25203700000 -0.49618405 -0.38755566
25303675000 -0.50104696 -0.38296533
25403650000 -0.50335091 -0.39811623
25503625000 -0.48682573 -0.3900525
25603600000 -0.50745732 -0.37847713
25703575000 -0.5004195 -0.39972636
25803550000 -0.4932448 -0.37972191
25903525000 -0.51404661 -0.38486996
26003500000 -0.50294346 -0.39333159
26103475000 -0.50580311 -0.38866308
26203450000 -0.50000882 -0.39534983
26303425000 -0.5031786 -0.38136274
26403400000 -0.51228487 -0.39176482
26503375000 -0.5009504 -0.38579693
26603350000 -0.51624519 -0.38915861
26703325000 -0.50284612 -0.40076005
26803300000 -0.50485718 -0.38480657
26903275000 -0.51446784 -0.39453855
27003250000 -0.50726712 -0.38676921
27103225000 -0.51888806 -0.39391088
27203200000 -0.50409234 -0.39396054
27303175000 -0.52227783 -0.37837785
27403150000 -0.51509541 -0.40110421
27503125000 -0.50785875 -0.37977266
27603100000 -0.5325442 -0.38799268
27703075000 -0.50796598 -0.40018883
27803050000 -0.51995581 -0.38060528
27903025000 -0.51439983 -0.39268771
28003000000 -0.52255684 -0.36928064
28102975000 -0.54373562 -0.40051454
28202950000 -0.49769387 -0.40704045
28302925000 -0.52130562 -0.36903054
28402900000 -0.53336543 -0.40022478
28502875000 -0.51731759 -0.390742
28602850000 -0.53455108 -0.39034554
28702825000 -0.5235877 -0.39191028
28802800000 -0.53602612 -0.38528588
28902775000 -0.52593124 -0.40677175
29002750000 -0.51484561 -0.38154718
29102725000 -0.54833096 -0.38148621
29202700000 -0.53081101 -0.40359208
29302675000 -0.5192948 -0.38647139
29402650000 -0.53500211 -0.38010827
29502625000 -0.54169416 -0.39077559
29602600000 -0.53604007 -0.4011066
29702575000 -0.52625722 -0.38892788
29802550000 -0.54140824 -0.38408306
29902525000 -0.53472459 -0.39803177
30002500000 -0.52056456 -0.38371658
30102475000 -0.54633188 -0.3731325
30202450000 -0.54592305 -0.39392629
30302425000 -0.53906029 -0.39656654
30402400000 -0.52628404 -0.38773865
30502375000 -0.53870481 -0.37401226
30602350000 -0.5541535 -0.38830814
30702325000 -0.53553933 -0.40073895
30802300000 -0.53548336 -0.3692123
30902275000 -0.55223244 -0.3814179
31002250000 -0.53945136 -0.39538431
31102225000 -0.53507465 -0.38385329
31202200000 -0.54860765 -0.36962754
31302175000 -0.55996192 -0.3878687
31402150000 -0.53609741 -0.40244415
31502125000 -0.52888572 -0.37516364
31602100000 -0.55576199 -0.37468821
31702075000 -0.5582034 -0.39257619
31802050000 -0.54065007 -0.40282506
31902025000 -0.52929801 -0.38867167
32002000000 -0.55430543 -0.37599915
32101975000 -0.55500424 -0.40889516
32201950000 -0.53959823 -0.38841119
32301925000 -0.55795956 -0.38761118
32401900000 -0.54031789 -0.39677697
32501875000 -0.55342048 -0.38373801
32601850000 -0.55779725 -0.40937236
32701825000 -0.5352754 -0.38929701
32801800000 -0.56011307 -0.38239953
32901775000 -0.54672343 -0.39732942
33001750000 -0.55064636 -0.38423863
33101725000 -0.55865943 -0.39921945
33201700000 -0.5496304 -0.39046329
33301675000 -0.55867267 -0.38397747
33401650000 -0.5497607 -0.39585534
33501625000 -0.56313407 -0.37691349
33601600000 -0.57359058 -0.39837265
33701575000 -0.54856533 -0.38863513
33801550000 -0.56901616 -0.37722418
33901525000 -0.56696969 -0.40334359
34001500000 -0.55373377 -0.393507
34101475000 -0.57283711 -0.38901332
34201450000 -0.5621677 -0.38551882
34301425000 -0.5756979 -0.3845081
34401400000 -0.56577492 -0.39967927
34501375000 -0.56126475 -0.38324571
34601350000 -0.57679558 -0.40285766
34701325000 -0.5464009 -0.3937324
34801300000 -0.57420486 -0.36631325
34901275000 -0.5771507 -0.39865422
35001250000 -0.55948573 -0.39978719
35101225000 -0.56580132 -0.39764044
35201200000 -0.55893624 -0.37880296
35301175000 -0.5917362 -0.38224894
35401150000 -0.56816012 -0.42124054
35501125000 -0.55796289 -0.38297614
35601100000 -0.57956266 -0.38489804
35701075000 -0.56414127 -0.3878729
35801050000 -0.57825142 -0.37514174
35901025000 -0.57017624 -0.38912675
36001000000 -0.56982189 -0.37454954
36100975000 -0.57403159 -0.39070398
36200950000 -0.55056816 -0.37388957
36300925000 -0.58091062 -0.35015666
36400900000 -0.59490734 -0.37971878
36500875000 -0.56063038 -0.39196748
36600850000 -0.56524491 -0.3743296
36700825000 -0.5776217 -0.36983377
36800800000 -0.58140713 -0.37672436
36900775000 -0.57338732 -0.40219158
37000750000 -0.55603302 -0.38024274
37100725000 -0.58105016 -0.36542228
37200700000 -0.59257841 -0.38382831
37300675000 -0.56478542 -0.39211926
37400650000 -0.56912291 -0.39049599
37500625000 -0.56732327 -0.40203381
37600600000 -0.55395627 -0.39047077
37700575000 -0.58009291 -0.38312599
37800550000 -0.57000262 -0.40737909
37900525000 -0.56267047 -0.3943564
38000500000 -0.5703845 -0.38617113
38100475000 -0.59339708 -0.39725521
38200450000 -0.56932938 -0.41198915
38300425000 -0.5595988 -0.38812205
38400400000 -0.57788163 -0.39601627
38500375000 -0.57278383 -0.39700401
38600350000 -0.58783913 -0.3913756
38700325000 -0.57123441 -0.40267751
38800300000 -0.57006574 -0.37872007
38900275000 -0.59734011 -0.39924613
39000250000 -0.5540238 -0.39790785
39100225000 -0.58100337 -0.36978531
39200200000 -0.57413459 -0.39832589
39300175000 -0.57939768 -0.37460464
39400150000 -0.59621018 -0.41101199
39500125000 -0.56358403 -0.38515833
39600100000 -0.60721987 -0.38860661
39700075000 -0.58354783 -0.4203898
39800050000 -0.58331692 -0.38846669
39900025000 -0.59401107 -0.39812976
40000000000 -0.61328655 -0.39011064
