!Agilent Technologies,N5247A,US51170167,A.09.90.10
!Agilent N5247A: A.09.90.10
!Date: Tuesday, November 22, 2016 15:30:58
!Correction: S22(Full 1 Port(2)) 
!S1P File: Measurement: S22:
# Hz S  RI   R 50
10000000 0.22492744 -0.045696687
109975000 0.22857639 -0.040515758
209950000 0.21754453 -0.065170452
309925000 0.20277131 -0.089280955
409900000 0.18986559 -0.10509658
509875000 0.18009304 -0.11801004
609850000 0.16325486 -0.13417128
709825000 0.15130025 -0.14226159
809800000 0.13870123 -0.15340917
909775000 0.12741879 -0.16298132
1009750000 0.11903252 -0.16749111
1109725000 0.10937306 -0.1722302
1209700000 0.10319398 -0.17898214
1309675000 0.095189847 -0.18770973
1409650000 0.08825504 -0.19438022
1509625000 0.077346005 -0.20059559
1609600000 0.065020725 -0.20804551
1709575000 0.053454917 -0.21278036
1809550000 0.04389286 -0.21562181
1909525000 0.036724582 -0.21604975
2009500000 0.027005073 -0.21690367
2109475000 0.021110967 -0.22109327
2209450000 0.016800204 -0.22048429
2309425000 0.010139055 -0.22252679
2409400000 0.0064008166 -0.22299007
2509375000 -0.00035332792 -0.22550453
2609350000 -0.0029856556 -0.22915149
2709325000 -0.0068161683 -0.22806844
2809300000 -0.013299298 -0.23139937
2909275000 -0.015461916 -0.23370981
3009250000 -0.02117146 -0.23647036
3109225000 -0.021732299 -0.23866938
3209200000 -0.028004963 -0.2376962
3309175000 -0.033021752 -0.24356912
3409150000 -0.034154434 -0.24605444
3509125000 -0.037258934 -0.24727389
3609100000 -0.040609211 -0.24714951
3709075000 -0.048328787 -0.25070962
3809050000 -0.048578799 -0.25790358
3909025000 -0.048944511 -0.25586691
4009000000 -0.055583984 -0.25749305
4108975000 -0.059179332 -0.26083839
4208950000 -0.06281434 -0.26548824
4308925000 -0.061468534 -0.2667987
4408900000 -0.06852255 -0.26549178
4508875000 -0.072407454 -0.27279493
4608850000 -0.072312698 -0.27274194
4708825000 -0.078105256 -0.27483752
4808800000 -0.078877017 -0.27763915
4908775000 -0.084099077 -0.27784082
5008750000 -0.085939988 -0.28335869
5108725000 -0.088189229 -0.28170863
5208700000 -0.094471 -0.28556579
5308675000 -0.093632348 -0.28851998
5408650000 -0.099300444 -0.28862634
5508625000 -0.10297088 -0.29335496
5608600000 -0.10419926 -0.29319301
5708575000 -0.1092149 -0.29501525
5808550000 -0.11255499 -0.29753909
5908525000 -0.11633241 -0.30029714
6008500000 -0.11806298 -0.30425954
6108475000 -0.11868431 -0.30304414
6208450000 -0.12627873 -0.30357432
6308425000 -0.12989594 -0.30943784
6408400000 -0.12992851 -0.3123619
6508375000 -0.13174045 -0.31142938
6608350000 -0.1362558 -0.31129336
6708325000 -0.14428426 -0.31510758
6808300000 -0.14152759 -0.32395083
6908275000 -0.1389502 -0.31731194
7008250000 -0.15163533 -0.31711394
7108225000 -0.15437739 -0.32588428
7208200000 -0.15266797 -0.3287853
7308175000 -0.15075649 -0.32750463
7408150000 -0.16085999 -0.32099289
7508125000 -0.16978922 -0.33406436
7608100000 -0.15897591 -0.33831659
7708075000 -0.16476704 -0.32781383
7808050000 -0.17425312 -0.33150929
7908025000 -0.17717537 -0.33674556
8008000000 -0.17682457 -0.34219936
8107975000 -0.17447266 -0.33773029
8207950000 -0.18480515 -0.33604863
8307925000 -0.18757911 -0.34314904
8407900000 -0.18922538 -0.34239715
8507875000 -0.19151638 -0.3456817
8607850000 -0.1919796 -0.34389383
8707825000 -0.19861129 -0.34472254
8807800000 -0.20179142 -0.3452245
8907775000 -0.20804749 -0.34933147
9007750000 -0.20215955 -0.35473034
9107725000 -0.20600635 -0.34510171
9207700000 -0.21651021 -0.3502236
9307675000 -0.21521547 -0.35405365
9407650000 -0.21814971 -0.3580434
9507625000 -0.21312524 -0.35796696
9607600000 -0.22260472 -0.3507106
9707575000 -0.22821505 -0.36271054
9807550000 -0.22158308 -0.36045372
9907525000 -0.23151243 -0.3598198
10007500000 -0.22838114 -0.36336479
10107475000 -0.23450881 -0.35922241
10207450000 -0.23843901 -0.36814019
10307425000 -0.23460323 -0.36568207
10407400000 -0.24289182 -0.36613411
10507375000 -0.23985246 -0.3694551
10607350000 -0.24707936 -0.36602494
10707325000 -0.24861978 -0.37309912
10807300000 -0.24590582 -0.36877766
10907275000 -0.2563062 -0.36867127
11007250000 -0.25530314 -0.37423843
11107225000 -0.25653103 -0.37224177
11207200000 -0.25953817 -0.37421954
11307175000 -0.26235172 -0.37180415
11407150000 -0.26928121 -0.37515306
11507125000 -0.26628399 -0.37986997
11607100000 -0.26876912 -0.37564951
11707075000 -0.27513728 -0.37749222
11807050000 -0.275729 -0.37958178
11907025000 -0.27882382 -0.38090101
12007000000 -0.27809361 -0.38151625
12106975000 -0.2843858 -0.37846133
12206950000 -0.28930524 -0.38377449
12306925000 -0.2856549 -0.38509613
12406900000 -0.29021886 -0.38160321
12506875000 -0.29598114 -0.38466126
12606850000 -0.29667804 -0.38866165
12706825000 -0.29317001 -0.39011702
12806800000 -0.29730225 -0.38254637
12906775000 -0.30869329 -0.3889066
13006750000 -0.30208981 -0.39566755
13106725000 -0.30363002 -0.3893193
13206700000 -0.30702427 -0.39041209
13306675000 -0.31324142 -0.38723072
13406650000 -0.31905481 -0.39699095
13506625000 -0.30888218 -0.39604813
13606600000 -0.31937566 -0.38707209
13706575000 -0.32231832 -0.39579335
13806550000 -0.32413077 -0.39234337
13906525000 -0.32649603 -0.399753
14006500000 -0.31951031 -0.39370626
14106475000 -0.33570901 -0.38879073
14206450000 -0.33443645 -0.4005222
14306425000 -0.33204791 -0.39281261
14406400000 -0.33743498 -0.39482066
14506375000 -0.33722433 -0.38942093
14606350000 -0.35217577 -0.39188176
14706325000 -0.34192097 -0.40535107
14806300000 -0.339212 -0.39232355
14906275000 -0.35041133 -0.39167273
15006250000 -0.3523494 -0.39081466
15106225000 -0.3617985 -0.39853483
15206200000 -0.34682596 -0.40835038
15306175000 -0.34713215 -0.38804325
15406150000 -0.36572415 -0.38702062
15506125000 -0.36377838 -0.39956781
15606100000 -0.36135441 -0.40275258
15706075000 -0.3558473 -0.39953047
15806050000 -0.36099988 -0.38793105
15906025000 -0.37355891 -0.39519602
16006000000 -0.36702612 -0.40642303
16105975000 -0.36376962 -0.39806598
16205950000 -0.36877161 -0.39676404
16305925000 -0.36757153 -0.3985649
16405900000 -0.37396926 -0.39691195
16505875000 -0.3772862 -0.40281248
16605850000 -0.37385124 -0.40139481
16705825000 -0.37548128 -0.40154111
16805800000 -0.37826714 -0.39892864
16905775000 -0.38716239 -0.39939448
17005750000 -0.38398045 -0.40581605
17105725000 -0.38257498 -0.40096638
17205700000 -0.38703647 -0.402439
17305675000 -0.39256397 -0.39848724
17405650000 -0.39869168 -0.40710115
17505625000 -0.38482028 -0.40886998
17605600000 -0.39399195 -0.39420936
17705575000 -0.40507701 -0.40231541
17805550000 -0.40278351 -0.40577117
17905525000 -0.39736682 -0.41326708
18005500000 -0.39360183 -0.39384741
18105475000 -0.42385191 -0.39573327
18205450000 -0.4045538 -0.42692989
18305425000 -0.3924458 -0.39881623
18405400000 -0.41828185 -0.39977893
18505375000 -0.41290256 -0.40484166
18605350000 -0.42142388 -0.41256535
18705325000 -0.39456695 -0.41772997
18805300000 -0.42163536 -0.37483105
18905275000 -0.4428179 -0.43061176
19005250000 -0.38371608 -0.42542875
19105225000 -0.43092313 -0.37630224
19205200000 -0.434892 -0.42578042
19305175000 -0.40993071 -0.40721962
19405150000 -0.43255955 -0.40592432
19505125000 -0.41782185 -0.40330765
19605100000 -0.45102364 -0.39494976
19705075000 -0.42352405 -0.43566743
19805050000 -0.4126654 -0.38345847
19905025000 -0.46664783 -0.39577806
20005000000 -0.42214292 -0.42769051
20104975000 -0.4331426 -0.38200161
20204950000 -0.45684549 -0.40801978
20304925000 -0.43345413 -0.40835169
20404900000 -0.44857886 -0.40191966
20504875000 -0.43757981 -0.40718114
20604850000 -0.45265511 -0.39120588
20704825000 -0.45305249 -0.41710296
20804800000 -0.43684301 -0.39964423
20904775000 -0.46399894 -0.39573455
21004750000 -0.4487783 -0.4186613
21104725000 -0.44508246 -0.39612833
21204700000 -0.46210316 -0.40016779
21304675000 -0.45700482 -0.40682438
21404650000 -0.4554621 -0.40757933
21504625000 -0.45243901 -0.39845806
21604600000 -0.47016189 -0.396209
21704575000 -0.46085384 -0.41532105
21804550000 -0.45457011 -0.40069142
21904525000 -0.46833074 -0.40095413
22004500000 -0.46267036 -0.4035984
22104475000 -0.46876949 -0.40262413
22204450000 -0.459777 -0.40502247
22304425000 -0.47524589 -0.39049304
22404400000 -0.47796679 -0.41453367
22504375000 -0.45471749 -0.40611747
22604350000 -0.47724682 -0.3921102
22704325000 -0.47217241 -0.40487763
22804300000 -0.4754037 -0.39422247
22904275000 -0.47881415 -0.41041082
23004250000 -0.46595493 -0.39619562
23104225000 -0.49149325 -0.39185017
23204200000 -0.47552413 -0.41181004
23304175000 -0.47562867 -0.39258707
23404150000 -0.48657089 -0.40135571
23504125000 -0.47743067 -0.39772841
23604100000 -0.48941782 -0.39768165
23704075000 -0.47514623 -0.40527844
23804050000 -0.48514521 -0.38570687
23904025000 -0.49860543 -0.40407726
24004000000 -0.47832099 -0.4070062
24103975000 -0.48621655 -0.39268565
24203950000 -0.48846075 -0.39755696
24303925000 -0.49255043 -0.39398551
24403900000 -0.49361181 -0.40338224
24503875000 -0.48676535 -0.39428547
24603850000 -0.49982715 -0.39416203
24703825000 -0.48847282 -0.40658477
24803800000 -0.48811483 -0.3874428
24903775000 -0.50457346 -0.39560863
25003750000 -0.49286225 -0.40262866
25103725000 -0.4956218 -0.39331746
25203700000 -0.49647167 -0.39661083
25303675000 -0.50155383 -0.39187607
25403650000 -0.50362176 -0.40625092
25503625000 -0.48813763 -0.3977538
25603600000 -0.50823981 -0.38685131
25703575000 -0.50157577 -0.40743953
25803550000 -0.49367729 -0.38790724
25903525000 -0.51470542 -0.3926734
26003500000 -0.50335801 -0.40181318
26103475000 -0.50635219 -0.39711925
26203450000 -0.50137937 -0.40356982
26303425000 -0.50408483 -0.38943982
26403400000 -0.51293045 -0.39985248
26503375000 -0.50285381 -0.39353427
26603350000 -0.51731956 -0.39668837
26703325000 -0.50407082 -0.40842906
26803300000 -0.50512463 -0.39192757
26903275000 -0.51443076 -0.40409115
27003250000 -0.51009929 -0.39531615
27103225000 -0.52011406 -0.40170166
27203200000 -0.50537127 -0.40065116
27303175000 -0.52162862 -0.38466457
27403150000 -0.51669997 -0.40801221
27503125000 -0.508362 -0.38803327
27603100000 -0.53453898 -0.39673394
27703075000 -0.51004052 -0.40727443
27803050000 -0.52088672 -0.38984746
27903025000 -0.51626068 -0.40048969
28003000000 -0.5263716 -0.37646803
28102975000 -0.54425383 -0.40801913
28202950000 -0.49902898 -0.41556543
28302925000 -0.52417433 -0.37691063
28402900000 -0.53382754 -0.40778729
28502875000 -0.52066731 -0.39894679
28602850000 -0.5363391 -0.39697182
28702825000 -0.52343774 -0.39784858
28802800000 -0.53710806 -0.39096147
28902775000 -0.52663702 -0.41519856
29002750000 -0.51929629 -0.38920227
29102725000 -0.54906744 -0.38808775
29202700000 -0.53480059 -0.41013452
29302675000 -0.51818651 -0.393392
29402650000 -0.53564095 -0.38649642
29502625000 -0.54389668 -0.39702052
29602600000 -0.53635567 -0.40807268
29702575000 -0.52627385 -0.39712614
29802550000 -0.54360986 -0.39016822
29902525000 -0.53675967 -0.40567577
30002500000 -0.52564621 -0.39070943
30102475000 -0.54579866 -0.38346845
30202450000 -0.54790437 -0.39942712
30302425000 -0.53978848 -0.40219212
30402400000 -0.52705586 -0.39514336
30502375000 -0.53993672 -0.3789694
30602350000 -0.55550766 -0.39652756
30702325000 -0.53708142 -0.40764439
30802300000 -0.5392229 -0.37635198
30902275000 -0.55430913 -0.38874456
31002250000 -0.53959763 -0.40231332
31102225000 -0.53869998 -0.39037129
31202200000 -0.5485816 -0.37659365
31302175000 -0.55801642 -0.39263156
31402150000 -0.53565145 -0.40884075
31502125000 -0.53251213 -0.38206157
31602100000 -0.56070292 -0.38440314
31702075000 -0.56130677 -0.40293616
31802050000 -0.54208046 -0.41043669
31902025000 -0.53230822 -0.39435607
32002000000 -0.55881292 -0.38176519
32101975000 -0.55849636 -0.41900104
32201950000 -0.53992629 -0.39647597
32301925000 -0.55883694 -0.39479381
32401900000 -0.5414328 -0.40270108
32501875000 -0.55363244 -0.39142501
32601850000 -0.55720097 -0.41709509
32701825000 -0.53500092 -0.39457989
32801800000 -0.56018072 -0.38982004
32901775000 -0.55162841 -0.40565386
33001750000 -0.55130744 -0.38892511
33101725000 -0.5584594 -0.40404269
33201700000 -0.55201817 -0.39465359
33301675000 -0.56036901 -0.39244655
33401650000 -0.54854167 -0.40634418
33501625000 -0.563712 -0.38594499
33601600000 -0.57711464 -0.40471488
33701575000 -0.54996598 -0.39614171
33801550000 -0.57075137 -0.38391426
33901525000 -0.56776309 -0.40975037
34001500000 -0.55547214 -0.40210414
34101475000 -0.5698272 -0.39659855
34201450000 -0.56401062 -0.39177454
34301425000 -0.57702982 -0.39266792
34401400000 -0.56846547 -0.40688428
34501375000 -0.56342483 -0.38748154
34601350000 -0.5787105 -0.40796697
34701325000 -0.54702187 -0.40015632
34801300000 -0.57847345 -0.37081
34901275000 -0.57899737 -0.40320984
35001250000 -0.56110609 -0.40300331
35101225000 -0.56560719 -0.40145111
35201200000 -0.55946559 -0.38657415
35301175000 -0.59218729 -0.38958561
35401150000 -0.57101589 -0.42533663
35501125000 -0.56093121 -0.38604993
35601100000 -0.57956433 -0.39291802
35701075000 -0.56546605 -0.39338979
35801050000 -0.57945627 -0.38166916
35901025000 -0.57244772 -0.39534205
36001000000 -0.57214296 -0.38074669
36100975000 -0.57499117 -0.3957141
36200950000 -0.55252767 -0.38160884
36300925000 -0.58076346 -0.35912681
36400900000 -0.59397143 -0.38741326
36500875000 -0.56096005 -0.39600465
36600850000 -0.56530762 -0.37601376
36700825000 -0.58045691 -0.37045196
36800800000 -0.5840143 -0.37914899
36900775000 -0.57264924 -0.40799013
37000750000 -0.55566251 -0.38267216
37100725000 -0.58002186 -0.3683269
37200700000 -0.59262747 -0.39114299
37300675000 -0.57063973 -0.39861593
37400650000 -0.57079941 -0.39392242
37500625000 -0.57314187 -0.40778956
37600600000 -0.56019914 -0.40072769
37700575000 -0.5799408 -0.38584995
37800550000 -0.57344973 -0.41387114
37900525000 -0.56420946 -0.40139598
38000500000 -0.56523585 -0.39164537
38100475000 -0.58787537 -0.40458468
38200450000 -0.57114071 -0.41712523
38300425000 -0.56169677 -0.39697006
38400400000 -0.57836503 -0.4030613
38500375000 -0.57037163 -0.40382442
38600350000 -0.58701932 -0.40429908
38700325000 -0.57384098 -0.40653405
38800300000 -0.56803471 -0.37977323
38900275000 -0.59424239 -0.40890968
39000250000 -0.55699807 -0.40493423
39100225000 -0.58514583 -0.37580222
39200200000 -0.57610637 -0.40335649
39300175000 -0.58218616 -0.38293758
39400150000 -0.58949316 -0.40798932
39500125000 -0.56149441 -0.38940459
39600100000 -0.60932487 -0.39359981
39700075000 -0.58879751 -0.42783889
39800050000 -0.58487147 -0.39711246
39900025000 -0.59508169 -0.40157241
40000000000 -0.62081176 -0.39700678
