!Agilent Technologies,N5247A,US51170167,A.09.90.10
!Agilent N5247A: A.09.90.10
!Date: Tuesday, November 22, 2016 15:22:29
!Correction: S22(Full 1 Port(2)) 
!S1P File: Measurement: S22:
# Hz S  RI   R 50
10000000 0.99443477 -0.015196935
109975000 0.99464273 -0.0291615
209950000 0.99202943 -0.048214357
309925000 0.98846716 -0.067722969
409900000 0.98550433 -0.088350996
509875000 0.9836719 -0.1079985
609850000 0.98107469 -0.12875
709825000 0.97667879 -0.14796838
809800000 0.97179908 -0.16795284
909775000 0.96838933 -0.1886711
1009750000 0.96460342 -0.20694706
1109725000 0.9587388 -0.22681503
1209700000 0.95250946 -0.24442054
1309675000 0.9467274 -0.26474535
1409650000 0.94214743 -0.28363797
1509625000 0.93516266 -0.30046284
1609600000 0.92709935 -0.31967789
1709575000 0.92103088 -0.3364844
1809550000 0.91453451 -0.35556546
1909525000 0.90704721 -0.37146932
2009500000 0.89748168 -0.38911346
2109475000 0.89011425 -0.40711856
2209450000 0.88369733 -0.42173329
2309425000 0.87273878 -0.44055206
2409400000 0.86384422 -0.45460543
2509375000 0.85376382 -0.47189185
2609350000 0.84633517 -0.48842007
2709325000 0.83703172 -0.50180185
2809300000 0.82395786 -0.51968628
2909275000 0.81564146 -0.53197259
3009250000 0.80455297 -0.54922336
3109225000 0.79585874 -0.56338698
3209200000 0.78244221 -0.57525885
3309175000 0.76982188 -0.59173179
3409150000 0.76171434 -0.60480917
3509125000 0.75027782 -0.61766398
3609100000 0.73808622 -0.62862134
3709075000 0.7222411 -0.64287412
3809050000 0.71439993 -0.65850306
3909025000 0.70563143 -0.66641396
4009000000 0.6890952 -0.67881906
4108975000 0.67615008 -0.6902613
4208950000 0.66441423 -0.70325744
4308925000 0.65792763 -0.71247387
4408900000 0.63989007 -0.72152668
4508875000 0.62585759 -0.73491478
4608850000 0.61713421 -0.74196011
4708825000 0.60277623 -0.75230974
4808800000 0.59158069 -0.76200867
4908775000 0.57617235 -0.76797855
5008750000 0.56629211 -0.77880293
5108725000 0.55461854 -0.78563291
5208700000 0.53841728 -0.79603684
5308675000 0.52682215 -0.80239451
5408650000 0.51534343 -0.80930126
5508625000 0.50173038 -0.82037109
5608600000 0.48909098 -0.82506543
5708575000 0.47423756 -0.83224714
5808550000 0.46081364 -0.83799034
5908525000 0.44930407 -0.84683692
6008500000 0.43562508 -0.85512066
6108475000 0.42417762 -0.85476422
6208450000 0.40898556 -0.86126471
6308425000 0.3953498 -0.87064898
6408400000 0.38589299 -0.87709206
6508375000 0.37206689 -0.87745523
6608350000 0.36119774 -0.88018012
6708325000 0.34136957 -0.88897431
6808300000 0.33410671 -0.89849895
6908275000 0.32859477 -0.89284384
7008250000 0.30637088 -0.89603406
7108225000 0.29499099 -0.90689868
7208200000 0.28685898 -0.91198182
7308175000 0.28031394 -0.90974528
7408150000 0.26080459 -0.90661234
7508125000 0.24257286 -0.92105001
7608100000 0.24655171 -0.92527384
7708075000 0.22999305 -0.91664928
7808050000 0.21199073 -0.92039835
7908025000 0.20068625 -0.92666125
8008000000 0.19269949 -0.93342084
8107975000 0.18530056 -0.92911184
8207950000 0.16626623 -0.92601144
8307925000 0.15686855 -0.93312728
8407900000 0.14520186 -0.9344812
8507875000 0.13306446 -0.9376657
8607850000 0.12537171 -0.93259835
8707825000 0.1114254 -0.93327606
8807800000 0.098686285 -0.93536311
8907775000 0.081324942 -0.93721122
9007750000 0.083768629 -0.93994719
9107725000 0.072098285 -0.93037188
9207700000 0.050066736 -0.93459791
9307675000 0.045509446 -0.93649429
9407650000 0.03640097 -0.93780988
9507625000 0.035694107 -0.93651772
9607600000 0.017824359 -0.92846513
9707575000 0.0038117762 -0.93683493
9807550000 0.0068290224 -0.93322235
9907525000 -0.011455132 -0.93305945
10007500000 -0.01533301 -0.93222505
10107475000 -0.027265074 -0.9274978
10207450000 -0.038150772 -0.93453014
10307425000 -0.038359813 -0.92990106
10407400000 -0.054984402 -0.92943233
10507375000 -0.056161478 -0.92855442
10607350000 -0.070094772 -0.92453647
10707325000 -0.078312285 -0.92842782
10807300000 -0.078491732 -0.92232829
10907275000 -0.097714528 -0.92086387
11007250000 -0.10167377 -0.92283791
11107225000 -0.1070765 -0.9191457
11207200000 -0.11750427 -0.91785312
11307175000 -0.12529157 -0.91466796
11407150000 -0.13941312 -0.91490906
11507125000 -0.13944334 -0.91524136
11607100000 -0.1477357 -0.91063559
11707075000 -0.16043045 -0.90926361
11807050000 -0.16518657 -0.90829992
11907025000 -0.17420636 -0.90708667
12007000000 -0.17566247 -0.90569472
12106975000 -0.19026813 -0.89969116
12206950000 -0.20070004 -0.90173924
12306925000 -0.19977021 -0.90005785
12406900000 -0.20957942 -0.89416188
12506875000 -0.21882024 -0.8949995
12606850000 -0.22520383 -0.89420718
12706825000 -0.22278455 -0.89434063
12806800000 -0.2313199 -0.88402361
12906775000 -0.24957186 -0.88776582
13006750000 -0.24344863 -0.89342254
13106725000 -0.25058791 -0.88156319
13206700000 -0.25729415 -0.88060689
13306675000 -0.26719666 -0.87605894
13406650000 -0.27802315 -0.88159657
13506625000 -0.2702066 -0.87845111
13606600000 -0.28616935 -0.8667708
13706575000 -0.2906152 -0.87178344
13806550000 -0.29873613 -0.86655676
13906525000 -0.30421743 -0.87189221
14006500000 -0.29668799 -0.86210358
14106475000 -0.32019219 -0.85451525
14206450000 -0.32234636 -0.86311954
14306425000 -0.32472822 -0.85081285
14406400000 -0.33233523 -0.85152566
14506375000 -0.33383131 -0.84334147
14606350000 -0.35636717 -0.84059078
14706325000 -0.34674817 -0.85059249
14806300000 -0.34665263 -0.83572203
14906275000 -0.36137238 -0.83253896
15006250000 -0.3656545 -0.82666105
15106225000 -0.37981528 -0.83002758
15206200000 -0.3638216 -0.83800471
15306175000 -0.36907828 -0.81832886
15406150000 -0.39074367 -0.80998445
15506125000 -0.38986039 -0.81601733
15606100000 -0.39086914 -0.82157391
15706075000 -0.3852106 -0.81464815
15806050000 -0.3955369 -0.79828882
15906025000 -0.40705729 -0.80237091
16006000000 -0.40194646 -0.81070334
16105975000 -0.40503886 -0.80255473
16205950000 -0.40755394 -0.79621142
16305925000 -0.40720496 -0.79347795
16405900000 -0.41659212 -0.79162467
16505875000 -0.42379266 -0.79560626
16605850000 -0.42192721 -0.78892881
16705825000 -0.42263561 -0.78729707
16805800000 -0.42740038 -0.78358853
16905775000 -0.44042102 -0.78061819
17005750000 -0.43938994 -0.78318232
17105725000 -0.43642753 -0.7751857
17205700000 -0.44381177 -0.77468961
17305675000 -0.45425138 -0.7703504
17405650000 -0.45920575 -0.77240753
17505625000 -0.44780207 -0.77258396
17605600000 -0.45861956 -0.75855666
17705575000 -0.47093457 -0.76128483
17805550000 -0.47136638 -0.75926393
17905525000 -0.46590242 -0.7673133
18005500000 -0.4642224 -0.74793845
18105475000 -0.49762183 -0.74137896
18205450000 -0.47648564 -0.77182919
18305425000 -0.46442392 -0.74482185
18405400000 -0.49529767 -0.74118495
18505375000 -0.48937827 -0.74568534
18605350000 -0.49882999 -0.74499696
18705325000 -0.47424257 -0.75455606
18805300000 -0.5025388 -0.71049362
18905275000 -0.52218062 -0.75416875
19005250000 -0.46214342 -0.75994343
19105225000 -0.51427048 -0.70453185
19205200000 -0.5183962 -0.74377805
19305175000 -0.49388289 -0.73202354
19405150000 -0.51804179 -0.72379023
19505125000 -0.5078125 -0.72006762
19605100000 -0.54319924 -0.70981419
19705075000 -0.5084241 -0.74561948
19805050000 -0.50395447 -0.69398022
19905025000 -0.56339854 -0.70005375
20005000000 -0.510809 -0.73044622
20104975000 -0.53033847 -0.6836468
20204950000 -0.55377996 -0.70652539
20304925000 -0.52746433 -0.70520639
20404900000 -0.54694772 -0.69562286
20504875000 -0.533494 -0.70002019
20604850000 -0.55231744 -0.67903817
20704825000 -0.55141985 -0.70533484
20804800000 -0.53469539 -0.68509454
20904775000 -0.5673964 -0.67657524
21004750000 -0.5477578 -0.70144314
21104725000 -0.54509062 -0.6740272
21204700000 -0.56502301 -0.67709851
21304675000 -0.55792898 -0.68107432
21404650000 -0.55811942 -0.68000138
21504625000 -0.55534244 -0.67119175
21604600000 -0.5756948 -0.66360408
21704575000 -0.56416696 -0.68343616
21804550000 -0.55719036 -0.66718423
21904525000 -0.57563657 -0.6647191
22004500000 -0.56702113 -0.66645259
22104475000 -0.57450718 -0.6604923
22204450000 -0.56615829 -0.66437095
22304425000 -0.58227617 -0.64685178
22404400000 -0.58542556 -0.66652185
22504375000 -0.56031805 -0.65907562
22604350000 -0.58644897 -0.64064258
22704325000 -0.57993907 -0.6536293
22804300000 -0.58265346 -0.63918847
22904275000 -0.58848017 -0.65293634
23004250000 -0.57486814 -0.63971615
23104225000 -0.60210502 -0.62937486
23204200000 -0.58467346 -0.64816058
23304175000 -0.58541173 -0.6296345
23404150000 -0.5973143 -0.63617301
23504125000 -0.58756024 -0.63015527
23604100000 -0.60139668 -0.62568492
23704075000 -0.58649498 -0.63279724
23804050000 -0.59692031 -0.61369371
23904025000 -0.60912746 -0.62869054
24004000000 -0.58859551 -0.62957317
24103975000 -0.59979922 -0.61502433
24203950000 -0.59920263 -0.61850542
24303925000 -0.60428184 -0.6115346
24403900000 -0.60654026 -0.62096912
24503875000 -0.59893435 -0.61042118
24603850000 -0.61232084 -0.60795224
24703825000 -0.59896898 -0.61922967
24803800000 -0.60101718 -0.59780902
24903775000 -0.61758059 -0.6058507
25003750000 -0.60373706 -0.61160558
25103725000 -0.60787368 -0.59970886
25203700000 -0.60892642 -0.6002599
25303675000 -0.61630225 -0.59628373
25403650000 -0.61326832 -0.61180878
25503625000 -0.59800261 -0.599397
25603600000 -0.62149668 -0.58553177
25703575000 -0.61222553 -0.60452032
25803550000 -0.60807037 -0.58391547
25903525000 -0.6260013 -0.58820879
26003500000 -0.61360478 -0.59348935
26103475000 -0.61930686 -0.5897249
26203450000 -0.610259 -0.59443164
26303425000 -0.61647999 -0.57725042
26403400000 -0.62484199 -0.58987278
26503375000 -0.61056793 -0.58005077
26603350000 -0.62740934 -0.58179742
26703325000 -0.6132738 -0.59415376
26803300000 -0.61400241 -0.57453269
26903275000 -0.62614185 -0.58738226
27003250000 -0.61984819 -0.57598877
27103225000 -0.63148594 -0.58133042
27203200000 -0.61534333 -0.58260775
27303175000 -0.63163084 -0.5621053
27403150000 -0.62743741 -0.58359116
27503125000 -0.62170917 -0.56308877
27603100000 -0.64677155 -0.57198977
27703075000 -0.62115091 -0.58228689
27803050000 -0.63196391 -0.55853462
27903025000 -0.62872344 -0.57306343
28003000000 -0.63587064 -0.54650402
28102975000 -0.65642959 -0.57406014
28202950000 -0.60490417 -0.58653355
28302925000 -0.63734192 -0.54215926
28402900000 -0.64456844 -0.57354748
28502875000 -0.62727553 -0.56193066
28602850000 -0.65175742 -0.5621205
28702825000 -0.63154078 -0.56462568
28802800000 -0.64764452 -0.54970425
28902775000 -0.6384604 -0.58060938
29002750000 -0.62488353 -0.55042881
29102725000 -0.66222793 -0.54422122
29202700000 -0.64232492 -0.56961679
29302675000 -0.62701076 -0.5495975
29402650000 -0.64515239 -0.54485989
29502625000 -0.64742845 -0.55067086
29602600000 -0.64873248 -0.5635398
29702575000 -0.63243705 -0.5516994
29802550000 -0.65358818 -0.53780156
29902525000 -0.64666551 -0.55880368
30002500000 -0.62861675 -0.5395143
30102475000 -0.65970534 -0.52806872
30202450000 -0.65561986 -0.54984218
30302425000 -0.64884305 -0.54633671
30402400000 -0.63678539 -0.54510754
30502375000 -0.64592552 -0.52348578
30602350000 -0.66549897 -0.53583127
30702325000 -0.64303297 -0.5497579
30802300000 -0.64974493 -0.50890887
30902275000 -0.66344672 -0.52970326
31002250000 -0.64526653 -0.53691614
31102225000 -0.64684856 -0.5298304
31202200000 -0.65357518 -0.5177685
31302175000 -0.66439766 -0.52513462
31402150000 -0.64317137 -0.54520911
31502125000 -0.63852 -0.5105775
31602100000 -0.67256051 -0.51608348
31702075000 -0.66472602 -0.53836823
31802050000 -0.64800966 -0.53788304
31902025000 -0.63674408 -0.52797174
32002000000 -0.66160095 -0.51221305
32101975000 -0.66557771 -0.55105895
32201950000 -0.64070272 -0.52697772
32301925000 -0.66530013 -0.5198465
32401900000 -0.64382017 -0.53409308
32501875000 -0.65717429 -0.51675159
32601850000 -0.66049725 -0.54724276
32701825000 -0.63699841 -0.52479106
32801800000 -0.66549718 -0.51273662
32901775000 -0.65215182 -0.53021711
33001750000 -0.65520668 -0.51113498
33101725000 -0.65961236 -0.53579342
33201700000 -0.65070403 -0.5187633
33301675000 -0.66753495 -0.50862837
33401650000 -0.64894313 -0.52784801
33501625000 -0.66773379 -0.50335264
33601600000 -0.67833012 -0.52616191
33701575000 -0.64718562 -0.51710135
33801550000 -0.67261249 -0.50186288
33901525000 -0.66806 -0.52915227
34001500000 -0.65842783 -0.51672477
34101475000 -0.67544663 -0.51271874
34201450000 -0.6606136 -0.50465667
34301425000 -0.6792441 -0.50079727
34401400000 -0.67315072 -0.52695483
34501375000 -0.66509974 -0.50497955
34601350000 -0.67947066 -0.52279526
34701325000 -0.6494019 -0.51110256
34801300000 -0.68089908 -0.48453778
34901275000 -0.6802122 -0.5200724
35001250000 -0.6594947 -0.51546866
35101225000 -0.6690172 -0.51290232
35201200000 -0.66344488 -0.49763179
35301175000 -0.69416738 -0.4961465
35401150000 -0.66675419 -0.5375675
35501125000 -0.65876639 -0.49686292
35601100000 -0.68107849 -0.50084734
35701075000 -0.66697717 -0.49943018
35801050000 -0.67943442 -0.48952037
35901025000 -0.67087674 -0.5056318
36001000000 -0.66966683 -0.48660061
36100975000 -0.67592269 -0.49848893
36200950000 -0.65236598 -0.48721915
36300925000 -0.67974186 -0.45683393
36400900000 -0.69946021 -0.48704359
36500875000 -0.6587429 -0.49438328
36600850000 -0.66702801 -0.47815749
36700825000 -0.68562472 -0.4710429
36800800000 -0.68117523 -0.48393822
36900775000 -0.67163444 -0.50292224
37000750000 -0.65147096 -0.48207286
37100725000 -0.6788106 -0.46090606
37200700000 -0.69900656 -0.48890713
37300675000 -0.66721398 -0.49367288
37400650000 -0.66600251 -0.48594284
37500625000 -0.66805106 -0.49800614
37600600000 -0.65845776 -0.48858616
37700575000 -0.676799 -0.48626959
37800550000 -0.66768527 -0.50321823
37900525000 -0.66170812 -0.49353093
38000500000 -0.66559553 -0.4797087
38100475000 -0.69764 -0.49751979
38200450000 -0.67005044 -0.5152933
38300425000 -0.64446718 -0.48561504
38400400000 -0.67901891 -0.48706514
38500375000 -0.66728544 -0.50258631
38600350000 -0.67835021 -0.49297351
38700325000 -0.67586362 -0.49771288
38800300000 -0.65891773 -0.4745594
38900275000 -0.68717045 -0.48942217
39000250000 -0.65115315 -0.49818367
39100225000 -0.67241603 -0.46966705
39200200000 -0.67326963 -0.48944899
39300175000 -0.66974443 -0.46775144
39400150000 -0.68156731 -0.49443698
39500125000 -0.6581701 -0.47995409
39600100000 -0.6960544 -0.47766861
39700075000 -0.67763388 -0.5156976
39800050000 -0.67737824 -0.48188043
39900025000 -0.68381816 -0.47906819
40000000000 -0.71539021 -0.47671968
