!Agilent Technologies,N5247A,US51170167,A.09.90.10
!Agilent N5247A: A.09.90.10
!Date: Tuesday, November 22, 2016 15:32:03
!Correction: S22(Full 1 Port(2)) 
!S1P File: Measurement: S22:
# Hz S  RI   R 50
10000000 0.018085593 -0.052088458
109975000 0.037234969 -0.0097786598
209950000 0.035379238 -0.014003688
309925000 0.032088816 -0.019394504
409900000 0.029829593 -0.02385737
509875000 0.031426914 -0.028633289
609850000 0.027600531 -0.034896359
709825000 0.026577391 -0.038902946
809800000 0.023998883 -0.04436446
909775000 0.023473715 -0.050412703
1009750000 0.024486542 -0.054813806
1109725000 0.022752009 -0.06084995
1209700000 0.02165322 -0.065723427
1309675000 0.020097727 -0.072366536
1409650000 0.022064859 -0.078856878
1509625000 0.02040609 -0.082730882
1609600000 0.018326594 -0.089967214
1709575000 0.017765686 -0.096369147
1809550000 0.016830022 -0.10236248
1909525000 0.017164225 -0.10732366
2009500000 0.014164872 -0.11255708
2109475000 0.013364923 -0.12135598
2209450000 0.013657143 -0.12539859
2309425000 0.010082225 -0.13272569
2409400000 0.0092050266 -0.13815628
2509375000 0.0038687743 -0.14404663
2609350000 0.002730709 -0.15043697
2709325000 0.00015643839 -0.15213017
2809300000 -0.0048266603 -0.15820226
2909275000 -0.0060158698 -0.16220371
3009250000 -0.0099716149 -0.16682898
3109225000 -0.0088652456 -0.17153262
3209200000 -0.013269803 -0.17301071
3309175000 -0.015775949 -0.18202794
3409150000 -0.014588274 -0.18713948
3509125000 -0.015110655 -0.19193718
3609100000 -0.015786987 -0.19660577
3709075000 -0.021149311 -0.20415121
3809050000 -0.019477319 -0.21516421
3909025000 -0.01818704 -0.21945526
4009000000 -0.023822142 -0.22498469
4108975000 -0.027652485 -0.23462243
4208950000 -0.031885795 -0.24521095
4308925000 -0.030899381 -0.25019667
4408900000 -0.039559346 -0.25325471
4508875000 -0.047054291 -0.26668575
4608850000 -0.047797855 -0.26951563
4708825000 -0.056050844 -0.27470192
4808800000 -0.059696957 -0.27961612
4908775000 -0.067580968 -0.28237274
5008750000 -0.072913751 -0.29017007
5108725000 -0.077367276 -0.28949323
5208700000 -0.086193241 -0.29456264
5308675000 -0.087798454 -0.29777384
5408650000 -0.096063323 -0.298428
5508625000 -0.10156097 -0.30342969
5608600000 -0.10581084 -0.30271265
5708575000 -0.11358076 -0.30452088
5808550000 -0.1182479 -0.30648398
5908525000 -0.12389784 -0.30862978
6008500000 -0.12784649 -0.31186917
6108475000 -0.13044216 -0.30924654
6208450000 -0.13893077 -0.30940014
6308425000 -0.14339411 -0.31452343
6408400000 -0.144292 -0.31590098
6508375000 -0.14722534 -0.31403792
6608350000 -0.153065 -0.31274614
6708325000 -0.16163149 -0.31579921
6808300000 -0.15973163 -0.3233082
6908275000 -0.15776648 -0.31579897
7008250000 -0.17043823 -0.31472901
7108225000 -0.17414272 -0.32209626
7208200000 -0.17239769 -0.32418388
7308175000 -0.17081058 -0.32233161
7408150000 -0.18096793 -0.31464669
7508125000 -0.18992819 -0.32662696
7608100000 -0.17951377 -0.33018756
7708075000 -0.1849075 -0.31889188
7808050000 -0.19442733 -0.32228431
7908025000 -0.19726482 -0.32659715
8008000000 -0.19672914 -0.33163419
8107975000 -0.19415163 -0.32601321
8207950000 -0.2045715 -0.32384649
8307925000 -0.2066492 -0.33075541
8407900000 -0.20831679 -0.32929114
8507875000 -0.21093175 -0.33214763
8607850000 -0.21073157 -0.32963613
8707825000 -0.21712813 -0.33001566
8807800000 -0.21982989 -0.33045375
8907775000 -0.22608535 -0.33422589
9007750000 -0.21983363 -0.33924145
9107725000 -0.22373228 -0.32936031
9207700000 -0.23380041 -0.33419946
9307675000 -0.23200284 -0.33789515
9407650000 -0.2351823 -0.34123918
9507625000 -0.22958043 -0.34129992
9607600000 -0.23904945 -0.333419
9707575000 -0.24418956 -0.34555075
9807550000 -0.23724388 -0.34271497
9907525000 -0.24698061 -0.34205455
10007500000 -0.24392144 -0.34569806
10107475000 -0.24971129 -0.34110469
10207450000 -0.25276253 -0.35017356
10307425000 -0.24886018 -0.34756675
10407400000 -0.2571803 -0.34785819
10507375000 -0.25397748 -0.35095531
10607350000 -0.26087418 -0.3470656
10707325000 -0.26211879 -0.35420516
10807300000 -0.25960192 -0.35010016
10907275000 -0.26918036 -0.35006189
11007250000 -0.26790842 -0.3551482
11107225000 -0.26942524 -0.35310119
11207200000 -0.27202883 -0.355095
11307175000 -0.27493536 -0.35274979
11407150000 -0.28126249 -0.35597375
11507125000 -0.27815148 -0.3605904
11607100000 -0.28022206 -0.35592031
11707075000 -0.2864733 -0.35833874
11807050000 -0.28711587 -0.3602494
11907025000 -0.28938273 -0.36139759
12007000000 -0.28882405 -0.36218855
12106975000 -0.29499772 -0.35847321
12206950000 -0.29970238 -0.36444026
12306925000 -0.29581404 -0.36577421
12406900000 -0.30052453 -0.36175579
12506875000 -0.3059172 -0.36504057
12606850000 -0.30644897 -0.36902529
12706825000 -0.30250153 -0.37071201
12806800000 -0.30661312 -0.36276931
12906775000 -0.31779194 -0.36917573
13006750000 -0.31074724 -0.37588692
13106725000 -0.31263173 -0.36975646
13206700000 -0.31564602 -0.37083146
13306675000 -0.32148874 -0.3674534
13406650000 -0.32713464 -0.37706834
13506625000 -0.31702578 -0.3761571
13606600000 -0.32732102 -0.3673819
13706575000 -0.33029795 -0.37601161
13806550000 -0.33160332 -0.37284529
13906525000 -0.33417338 -0.38040346
14006500000 -0.32722881 -0.3739619
14106475000 -0.34300104 -0.36909503
14206450000 -0.34166488 -0.3813211
14306425000 -0.33888996 -0.37347865
14406400000 -0.34398201 -0.37587398
14506375000 -0.34382868 -0.36999351
14606350000 -0.3587397 -0.373034
14706325000 -0.34809157 -0.38627762
14806300000 -0.34512401 -0.37273827
14906275000 -0.35590857 -0.37297899
15006250000 -0.35809648 -0.371885
15106225000 -0.36710709 -0.38010955
15206200000 -0.35233942 -0.38958153
15306175000 -0.35229266 -0.3692472
15406150000 -0.37125525 -0.36861643
15506125000 -0.36897489 -0.38119832
15606100000 -0.36596262 -0.38370848
15706075000 -0.36060154 -0.38069412
15806050000 -0.36570859 -0.36967528
15906025000 -0.37780041 -0.37691265
16006000000 -0.37121773 -0.38824007
16105975000 -0.36789617 -0.3799867
16205950000 -0.37275013 -0.37843615
16305925000 -0.37170452 -0.38035893
16405900000 -0.37816229 -0.37866271
16505875000 -0.3814151 -0.38477534
16605850000 -0.37748379 -0.38326061
16705825000 -0.37963396 -0.3838506
16805800000 -0.38173687 -0.380707
16905775000 -0.39066026 -0.38189384
17005750000 -0.38699913 -0.38836148
17105725000 -0.38550812 -0.38319594
17205700000 -0.39044482 -0.38451052
17305675000 -0.39588341 -0.38086483
17405650000 -0.40127698 -0.38923988
17505625000 -0.387638 -0.39115879
17605600000 -0.39647633 -0.37646061
17705575000 -0.4077915 -0.38443032
17805550000 -0.40508524 -0.3887887
17905525000 -0.39937711 -0.39571503
18005500000 -0.39610672 -0.37637466
18105475000 -0.42589268 -0.37838131
18205450000 -0.40686923 -0.40975285
18305425000 -0.39461833 -0.38208878
18405400000 -0.4207181 -0.38285172
18505375000 -0.41494125 -0.38782144
18605350000 -0.42392603 -0.39594248
18705325000 -0.39672399 -0.40090773
18805300000 -0.42317635 -0.35794741
18905275000 -0.44464809 -0.41391155
19005250000 -0.38547468 -0.40860772
19105225000 -0.43235651 -0.35945937
19205200000 -0.43603402 -0.40974262
19305175000 -0.41137901 -0.3902815
19405150000 -0.43360338 -0.3897714
19505125000 -0.41937065 -0.38706908
19605100000 -0.45226949 -0.37879735
19705075000 -0.42456326 -0.41947535
19805050000 -0.41373295 -0.36710411
19905025000 -0.46737334 -0.37939706
20005000000 -0.42292345 -0.41159385
20104975000 -0.43404442 -0.36657813
20204950000 -0.45755872 -0.39214781
20304925000 -0.43458477 -0.39233261
20404900000 -0.44876355 -0.38585597
20504875000 -0.43770584 -0.39131105
20604850000 -0.45257521 -0.37557337
20704825000 -0.45303962 -0.40141144
20804800000 -0.43708178 -0.38403115
20904775000 -0.46406287 -0.38009089
21004750000 -0.44912493 -0.40348458
21104725000 -0.44501078 -0.38106316
21204700000 -0.46180317 -0.38490012
21304675000 -0.45669216 -0.39156982
21404650000 -0.45537308 -0.39215189
21504625000 -0.45237833 -0.38350713
21604600000 -0.46949795 -0.38112879
21704575000 -0.4606989 -0.40045586
21804550000 -0.45410135 -0.38574851
21904525000 -0.46811226 -0.38627258
22004500000 -0.46214944 -0.38883018
22104475000 -0.4680461 -0.3879458
22204450000 -0.4592981 -0.39019227
22304425000 -0.47406185 -0.37612984
22404400000 -0.47710174 -0.39999792
22504375000 -0.45415351 -0.3915388
22604350000 -0.47610611 -0.37745094
22704325000 -0.47154167 -0.39118272
22804300000 -0.47462234 -0.38004577
22904275000 -0.47755644 -0.39574012
23004250000 -0.46518227 -0.38157728
23104225000 -0.49043965 -0.37754956
23204200000 -0.47389919 -0.39739239
23304175000 -0.47469351 -0.37847966
23404150000 -0.48554045 -0.3877922
23504125000 -0.47628868 -0.38424858
23604100000 -0.48829612 -0.3838717
23704075000 -0.47406688 -0.39130563
23804050000 -0.48329172 -0.37201807
23904025000 -0.49711743 -0.39016843
24004000000 -0.47686523 -0.39381722
24103975000 -0.4847413 -0.37933421
24203950000 -0.48699602 -0.38449335
24303925000 -0.49117178 -0.38049331
24403900000 -0.49180236 -0.39059156
24503875000 -0.48534 -0.38122654
24603850000 -0.49827078 -0.38157353
24703825000 -0.48659945 -0.3937788
24803800000 -0.48606309 -0.37447694
24903775000 -0.50252163 -0.38289785
25003750000 -0.49087402 -0.38979483
25103725000 -0.49429512 -0.37999579
25203700000 -0.49448302 -0.38385627
25303675000 -0.49996734 -0.37873822
25403650000 -0.50208968 -0.39353028
25503625000 -0.48591295 -0.38565397
25603600000 -0.50627327 -0.37429631
25703575000 -0.49913529 -0.39543679
25803550000 -0.4916434 -0.37525779
25903525000 -0.51293755 -0.38045785
26003500000 -0.50184029 -0.3902913
26103475000 -0.50474775 -0.38455114
26203450000 -0.49947926 -0.39138198
26303425000 -0.50214112 -0.3774859
26403400000 -0.51048422 -0.38773522
26503375000 -0.50064814 -0.38209414
26603350000 -0.51467931 -0.38507226
26703325000 -0.50252664 -0.39569914
26803300000 -0.50339264 -0.37956685
26903275000 -0.51169479 -0.3911922
27003250000 -0.50570852 -0.38268867
27103225000 -0.51731026 -0.39121413
27203200000 -0.50309628 -0.39013088
27303175000 -0.51984656 -0.37377897
27403150000 -0.51417094 -0.39805481
27503125000 -0.50675255 -0.37516221
27603100000 -0.53184038 -0.38443783
27703075000 -0.50760162 -0.39635447
27803050000 -0.51877946 -0.37720737
27903025000 -0.51340413 -0.39005789
28003000000 -0.52210563 -0.3645536
28102975000 -0.54173696 -0.39864242
28202950000 -0.49605846 -0.40354827
28302925000 -0.51964331 -0.36616048
28402900000 -0.53066546 -0.39577729
28502875000 -0.51539731 -0.38666382
28602850000 -0.53294772 -0.38704845
28702825000 -0.52043325 -0.38739046
28802800000 -0.53338277 -0.38024208
28902775000 -0.52458137 -0.40362936
29002750000 -0.51618946 -0.37728751
29102725000 -0.5475471 -0.37889987
29202700000 -0.53127259 -0.40067014
29302675000 -0.51717341 -0.38300902
29402650000 -0.53315443 -0.37767133
29502625000 -0.54031098 -0.3864767
29602600000 -0.53600508 -0.39721742
29702575000 -0.5252316 -0.38604769
29802550000 -0.5386923 -0.37950513
29902525000 -0.53383452 -0.39408433
30002500000 -0.52208412 -0.37960622
30102475000 -0.54407316 -0.37245905
30202450000 -0.54577291 -0.3903358
30302425000 -0.53690851 -0.39331144
30402400000 -0.52495766 -0.38642362
30502375000 -0.53619057 -0.36808497
30602350000 -0.55275792 -0.3845008
30702325000 -0.53405011 -0.39512801
30802300000 -0.53691268 -0.36568996
30902275000 -0.55161995 -0.37714881
31002250000 -0.53799742 -0.39053962
31102225000 -0.53315109 -0.38039175
31202200000 -0.54603142 -0.36859581
31302175000 -0.55548024 -0.38458213
31402150000 -0.53218436 -0.39867124
31502125000 -0.52828735 -0.37072274
31602100000 -0.55742884 -0.37311527
31702075000 -0.55681157 -0.39192688
31802050000 -0.53995806 -0.40146759
31902025000 -0.52819204 -0.38369429
32002000000 -0.55354863 -0.37439278
32101975000 -0.55576575 -0.4079555
32201950000 -0.5353083 -0.3856805
32301925000 -0.55588323 -0.3853499
32401900000 -0.53718156 -0.39357969
32501875000 -0.55290163 -0.38350064
32601850000 -0.55537492 -0.40392277
32701825000 -0.53320491 -0.38679993
32801800000 -0.55830699 -0.37995565
32901775000 -0.54713207 -0.3969515
33001750000 -0.54868764 -0.37937281
33101725000 -0.55560464 -0.39574423
33201700000 -0.54903877 -0.38576201
33301675000 -0.55882418 -0.38173893
33401650000 -0.54560578 -0.39491898
33501625000 -0.56138831 -0.37614369
33601600000 -0.57091808 -0.39564887
33701575000 -0.54491454 -0.38762337
33801550000 -0.56798744 -0.37589592
33901525000 -0.56531811 -0.40134236
34001500000 -0.55155283 -0.39334363
34101475000 -0.56903487 -0.39017203
34201450000 -0.55885309 -0.38358113
34301425000 -0.57393008 -0.38524714
34401400000 -0.56475443 -0.39767575
34501375000 -0.56261146 -0.38095579
34601350000 -0.5758208 -0.4000892
34701325000 -0.54341245 -0.39087504
34801300000 -0.57504427 -0.3622283
34901275000 -0.57089245 -0.39768693
35001250000 -0.55906343 -0.39481267
35101225000 -0.56338298 -0.39199585
35201200000 -0.55527383 -0.37547511
35301175000 -0.58959466 -0.37652454
35401150000 -0.56707692 -0.41697434
35501125000 -0.55404729 -0.3808561
35601100000 -0.57620782 -0.38439539
35701075000 -0.56226391 -0.38365424
35801050000 -0.57503158 -0.37113652
35901025000 -0.5694766 -0.3872388
36001000000 -0.56834692 -0.37030229
36100975000 -0.57265472 -0.38646147
36200950000 -0.54858935 -0.36984384
36300925000 -0.57539433 -0.34620059
36400900000 -0.590859 -0.38105294
36500875000 -0.55841738 -0.38941661
36600850000 -0.56230146 -0.37415391
36700825000 -0.57670736 -0.36109743
36800800000 -0.58382291 -0.37556928
36900775000 -0.56885451 -0.39714441
37000750000 -0.55352235 -0.37683624
37100725000 -0.57580888 -0.36205873
37200700000 -0.59080249 -0.38191152
37300675000 -0.56514978 -0.38839591
37400650000 -0.56965989 -0.38529891
37500625000 -0.56824934 -0.39966974
37600600000 -0.55291134 -0.38821089
37700575000 -0.57912976 -0.37797818
37800550000 -0.56956583 -0.40718648
37900525000 -0.55991715 -0.39135832
38000500000 -0.56400168 -0.38217229
38100475000 -0.58979934 -0.39546767
38200450000 -0.5681448 -0.40848666
38300425000 -0.55545634 -0.38686204
38400400000 -0.57628119 -0.38956046
38500375000 -0.57046759 -0.39293635
38600350000 -0.58393323 -0.39206231
38700325000 -0.57077658 -0.40158543
38800300000 -0.56654531 -0.37279496
38900275000 -0.59546298 -0.4006021
39000250000 -0.55350918 -0.39756498
39100225000 -0.58292943 -0.37296635
39200200000 -0.57364607 -0.39681405
39300175000 -0.57717925 -0.3716642
39400150000 -0.58927566 -0.40981156
39500125000 -0.56040174 -0.38193345
39600100000 -0.60296983 -0.38524505
39700075000 -0.58201069 -0.42054531
39800050000 -0.57722706 -0.38784969
39900025000 -0.59577537 -0.39494887
40000000000 -0.61218899 -0.3871094
