!Agilent Technologies,N5247A,US51170167,A.09.90.10
!Agilent N5247A: A.09.90.10
!Date: Tuesday, November 22, 2016 15:29:28
!Correction: S22(Full 1 Port(2)) 
!S1P File: Measurement: S22:
# Hz S  RI   R 50
10000000 0.99712878 0.015829289
109975000 0.964086 -0.03959576
209950000 0.96093017 -0.066338196
309925000 0.95326889 -0.09527453
409900000 0.94626099 -0.1225837
509875000 0.93974292 -0.14670746
609850000 0.93212694 -0.17467803
709825000 0.92005408 -0.19913821
809800000 0.91076511 -0.22190234
909775000 0.90118182 -0.24551235
1009750000 0.89093405 -0.26638731
1109725000 0.87743515 -0.28756809
1209700000 0.86674285 -0.30583659
1309675000 0.85451359 -0.32590657
1409650000 0.84233576 -0.34492806
1509625000 0.82872635 -0.36094469
1609600000 0.8165198 -0.37824926
1709575000 0.8069486 -0.39330515
1809550000 0.79439414 -0.4107959
1909525000 0.78086042 -0.42462531
2009500000 0.76709145 -0.43879431
2109475000 0.75671464 -0.45484409
2209450000 0.74751067 -0.46634737
2309425000 0.73145491 -0.48127615
2409400000 0.71792305 -0.49150288
2509375000 0.70518607 -0.50585693
2609350000 0.6956802 -0.51886928
2709325000 0.68389457 -0.52835071
2809300000 0.66787165 -0.54101205
2909275000 0.65776521 -0.55034018
3009250000 0.64499992 -0.56323552
3109225000 0.63592279 -0.57324725
3209200000 0.62003589 -0.58049929
3309175000 0.60663331 -0.59313565
3409150000 0.59753174 -0.60245979
3509125000 0.58564067 -0.61094147
3609100000 0.57285613 -0.6171971
3709075000 0.55646127 -0.62756842
3809050000 0.54930484 -0.64016408
3909025000 0.54102516 -0.64414966
4009000000 0.52562988 -0.65186381
4108975000 0.51236624 -0.66018319
4208950000 0.50085372 -0.66943741
4308925000 0.49542272 -0.67585504
4408900000 0.4785302 -0.68084598
4508875000 0.46553767 -0.69075084
4608850000 0.4580777 -0.69455719
4708825000 0.44537219 -0.70219702
4808800000 0.43519148 -0.70869392
4908775000 0.42162594 -0.71210581
5008750000 0.41236961 -0.72015554
5108725000 0.40279776 -0.72392327
5208700000 0.38795397 -0.73133367
5308675000 0.37902364 -0.73553604
5408650000 0.36856776 -0.74020511
5508625000 0.35643062 -0.74891466
5608600000 0.34603429 -0.75043499
5708575000 0.33300096 -0.75531882
5808550000 0.32149339 -0.75896198
5908525000 0.31140113 -0.76567477
6008500000 0.300942 -0.77205801
6108475000 0.29164445 -0.76996416
6208450000 0.2777127 -0.77429509
6308425000 0.26663223 -0.78287631
6408400000 0.25899181 -0.78711432
6508375000 0.2482841 -0.78561777
6608350000 0.23871993 -0.78671825
6708325000 0.22135797 -0.79353136
6808300000 0.2163202 -0.802315
6908275000 0.21308514 -0.79565853
7008250000 0.19308673 -0.79751414
7108225000 0.18371658 -0.80753601
7208200000 0.17796725 -0.81092882
7308175000 0.17323616 -0.80821407
7408150000 0.15564257 -0.80389553
7508125000 0.13967618 -0.8166672
7608100000 0.14563332 -0.82154775
7708075000 0.13143426 -0.81131333
7808050000 0.11519323 -0.8146528
7908025000 0.1065186 -0.82072812
8008000000 0.10028445 -0.8264848
8107975000 0.095624611 -0.82204181
8207950000 0.078663878 -0.8183167
8307925000 0.07051456 -0.82542038
8407900000 0.061079033 -0.82629675
8507875000 0.051480651 -0.82821363
8607850000 0.045923796 -0.82402676
8707825000 0.033847172 -0.82488877
8807800000 0.022877946 -0.82602847
8907775000 0.008520253 -0.82780886
9007750000 0.011782012 -0.83124167
9107725000 0.0018130578 -0.82114041
9207700000 -0.017320519 -0.8251279
9307675000 -0.020773759 -0.82744694
9407650000 -0.028036581 -0.82925761
9507625000 -0.026917888 -0.82780689
9607600000 -0.043467745 -0.81981421
9707575000 -0.054888874 -0.8285929
9807550000 -0.051061448 -0.82548326
9907525000 -0.068061411 -0.82494998
10007500000 -0.070215166 -0.82505679
10107475000 -0.080418877 -0.82003433
10207450000 -0.089577131 -0.82743835
10307425000 -0.089180909 -0.82372355
10407400000 -0.10363065 -0.82237363
10507375000 -0.1040754 -0.82241303
10607350000 -0.11624341 -0.81838197
10707325000 -0.12301213 -0.82291609
10807300000 -0.12322085 -0.81701481
10907275000 -0.13960934 -0.81609941
11007250000 -0.14272167 -0.81853461
11107225000 -0.1475414 -0.81538922
11207200000 -0.15520281 -0.81447613
11307175000 -0.16233176 -0.81143653
11407150000 -0.17460279 -0.81229365
11507125000 -0.17384875 -0.81397897
11607100000 -0.1804256 -0.80945784
11707075000 -0.19176616 -0.8079831
11807050000 -0.19595926 -0.80791193
11907025000 -0.20278403 -0.80729306
12007000000 -0.204445 -0.80609977
12106975000 -0.21691281 -0.80126637
12206950000 -0.22593349 -0.80294836
12306925000 -0.22458245 -0.80259085
12406900000 -0.23289429 -0.7970084
12506875000 -0.24241334 -0.79834312
12606850000 -0.24648653 -0.79917341
12706825000 -0.24435042 -0.79891342
12806800000 -0.25204659 -0.7895636
12906775000 -0.26825169 -0.7934444
13006750000 -0.26364917 -0.79895794
13106725000 -0.26820603 -0.78960747
13206700000 -0.27449283 -0.78813612
13306675000 -0.28410619 -0.78430116
13406650000 -0.2933566 -0.79021788
13506625000 -0.28574222 -0.78778934
13606600000 -0.29942292 -0.77672887
13706575000 -0.30487266 -0.78234214
13806550000 -0.31073844 -0.77789682
13906525000 -0.31593961 -0.7825976
14006500000 -0.30966321 -0.77459252
14106475000 -0.32957149 -0.76771289
14206450000 -0.33257848 -0.77639776
14306425000 -0.33265269 -0.76602471
14406400000 -0.33976519 -0.76560682
14506375000 -0.34251657 -0.75881755
14606350000 -0.36137739 -0.7574544
14706325000 -0.3525995 -0.76736426
14806300000 -0.3516126 -0.75351954
14906275000 -0.36556628 -0.74997699
15006250000 -0.37057784 -0.74567831
15106225000 -0.38247588 -0.74986881
15206200000 -0.36719388 -0.75796115
15306175000 -0.3710146 -0.73825067
15406150000 -0.39300695 -0.7310788
15506125000 -0.39152822 -0.73957938
15606100000 -0.39124551 -0.743478
15706075000 -0.38728228 -0.73733151
15806050000 -0.3951987 -0.72264516
15906025000 -0.40790236 -0.7258848
16006000000 -0.40222427 -0.73673743
16105975000 -0.4026629 -0.72695684
16205950000 -0.40832967 -0.72145462
16305925000 -0.40647787 -0.72108275
16405900000 -0.41541111 -0.71790868
16505875000 -0.42264205 -0.72300071
16605850000 -0.41922343 -0.71713215
16705825000 -0.42101225 -0.71573454
16805800000 -0.42501208 -0.71253788
16905775000 -0.43742654 -0.70989984
17005750000 -0.43587175 -0.71400565
17105725000 -0.43284395 -0.70649195
17205700000 -0.439749 -0.70691568
17305675000 -0.44838536 -0.7019574
17405650000 -0.45439205 -0.70526057
17505625000 -0.44134733 -0.70669705
17605600000 -0.45255035 -0.69077796
17705575000 -0.46614972 -0.69577014
17805550000 -0.46381173 -0.6956355
17905525000 -0.45862085 -0.70238221
18005500000 -0.45791486 -0.68301445
18105475000 -0.48948875 -0.67848158
18205450000 -0.46875396 -0.70867175
18305425000 -0.45787913 -0.68176073
18405400000 -0.48700804 -0.67869985
18505375000 -0.48202431 -0.68209261
18605350000 -0.49072605 -0.68555468
18705325000 -0.46490788 -0.69285977
18805300000 -0.49524978 -0.64861631
18905275000 -0.51320136 -0.696006
19005250000 -0.45424846 -0.69722307
19105225000 -0.50707865 -0.64415896
19205200000 -0.50856429 -0.686324
19305175000 -0.48543307 -0.67116457
19405150000 -0.51004589 -0.66657203
19505125000 -0.49722558 -0.66257954
19605100000 -0.5343492 -0.65165669
19705075000 -0.49962804 -0.68918413
19805050000 -0.4936488 -0.63800454
19905025000 -0.55176204 -0.64409786
20005000000 -0.50261229 -0.67548275
20104975000 -0.51884085 -0.63033319
20204950000 -0.54239631 -0.65154111
20304925000 -0.51788628 -0.65142441
20404900000 -0.53496027 -0.64288294
20504875000 -0.52312362 -0.64633399
20604850000 -0.54036319 -0.62786227
20704825000 -0.53932071 -0.65269339
20804800000 -0.52395266 -0.63349539
20904775000 -0.55370569 -0.62672478
21004750000 -0.53631717 -0.64926374
21104725000 -0.53397083 -0.62508786
21204700000 -0.55225641 -0.6265195
21304675000 -0.54689348 -0.63140893
21404650000 -0.54568225 -0.63067079
21504625000 -0.54352856 -0.62085521
21604600000 -0.5632211 -0.61520535
21704575000 -0.55188584 -0.63358778
21804550000 -0.54593146 -0.61903924
21904525000 -0.56282872 -0.61640269
22004500000 -0.55569988 -0.6173622
22104475000 -0.56287593 -0.61454135
22204450000 -0.55345619 -0.61636406
22304425000 -0.57137835 -0.59990329
22404400000 -0.57275695 -0.62119794
22504375000 -0.54910487 -0.6119622
22604350000 -0.57418692 -0.5953387
22704325000 -0.56846011 -0.60754544
22804300000 -0.57167614 -0.59535831
22904275000 -0.57464695 -0.60928017
23004250000 -0.56313902 -0.59466475
23104225000 -0.59007788 -0.58681774
23204200000 -0.57166743 -0.60518914
23304175000 -0.57327282 -0.58640343
23404150000 -0.58442253 -0.59388667
23504125000 -0.57546538 -0.58810115
23604100000 -0.58817405 -0.58493459
23704075000 -0.57377863 -0.59172946
23804050000 -0.58432245 -0.57219833
23904025000 -0.59702414 -0.58780211
24004000000 -0.57581168 -0.58992672
24103975000 -0.58563149 -0.57437271
24203950000 -0.58704007 -0.57809377
24303925000 -0.59142828 -0.57234961
24403900000 -0.59237128 -0.58137351
24503875000 -0.58620334 -0.57090741
24603850000 -0.59898871 -0.56790555
24703825000 -0.58781171 -0.57942116
24803800000 -0.58781946 -0.55951506
24903775000 -0.60390574 -0.56739175
25003750000 -0.59134859 -0.57260096
25103725000 -0.59489942 -0.56133461
25203700000 -0.5961259 -0.56277752
25303675000 -0.602669 -0.55717039
25403650000 -0.60229081 -0.5718621
25503625000 -0.58635747 -0.56233764
25603600000 -0.60784495 -0.54808688
25703575000 -0.59976518 -0.5675649
25803550000 -0.59383148 -0.5475893
25903525000 -0.61412323 -0.55050963
26003500000 -0.601843 -0.55895013
26103475000 -0.60589755 -0.55351436
26203450000 -0.59912884 -0.55849046
26303425000 -0.60333133 -0.54339933
26403400000 -0.61214155 -0.55346209
26503375000 -0.59948295 -0.54665613
26603350000 -0.6155616 -0.54719299
26703325000 -0.6012696 -0.55977064
26803300000 -0.6012187 -0.54213262
26903275000 -0.61219889 -0.55182761
27003250000 -0.60714251 -0.54289174
27103225000 -0.61756885 -0.54910052
27203200000 -0.60208517 -0.54666895
27303175000 -0.62053019 -0.53013879
27403150000 -0.61582321 -0.55176741
27503125000 -0.60971427 -0.52999008
27603100000 -0.63280535 -0.53775507
27703075000 -0.6074813 -0.5474636
27803050000 -0.61898142 -0.52873099
27903025000 -0.61308217 -0.53928912
28003000000 -0.62483054 -0.51347655
28102975000 -0.64197791 -0.54522395
28202950000 -0.59422815 -0.54992878
28302925000 -0.62503123 -0.50948858
28402900000 -0.63018805 -0.54152256
28502875000 -0.61549991 -0.53143519
28602850000 -0.63579738 -0.53129107
28702825000 -0.62141675 -0.53138244
28802800000 -0.63479078 -0.52034616
28902775000 -0.62563694 -0.54406285
29002750000 -0.6144532 -0.51831681
29102725000 -0.64936256 -0.5160948
29202700000 -0.63082409 -0.53842026
29302675000 -0.61666781 -0.5204525
29402650000 -0.63100487 -0.5115785
29502625000 -0.64024407 -0.51954418
29602600000 -0.63716447 -0.53247356
29702575000 -0.62407094 -0.52176994
29802550000 -0.64020908 -0.51071477
29902525000 -0.63430911 -0.52759552
30002500000 -0.62101233 -0.51160002
30102475000 -0.64623517 -0.50122917
30202450000 -0.64657128 -0.51779997
30302425000 -0.63630742 -0.52050829
30402400000 -0.62438095 -0.51191473
30502375000 -0.63792157 -0.49610913
30602350000 -0.65292221 -0.50852388
30702325000 -0.6335994 -0.5197618
30802300000 -0.63733619 -0.48846906
30902275000 -0.64999896 -0.49766764
31002250000 -0.63496327 -0.51096499
31102225000 -0.63248962 -0.50181758
31202200000 -0.64694309 -0.4839403
31302175000 -0.65287173 -0.503043
31402150000 -0.62912291 -0.51459944
31502125000 -0.62884545 -0.48807609
31602100000 -0.65658736 -0.49183106
31702075000 -0.65327221 -0.50623
31802050000 -0.63533276 -0.51497835
31902025000 -0.62593478 -0.49932158
32002000000 -0.64959019 -0.48522705
32101975000 -0.65115929 -0.52081585
32201950000 -0.63369608 -0.49770394
32301925000 -0.65190864 -0.49622187
32401900000 -0.63295716 -0.50359046
32501875000 -0.64520353 -0.49486798
32601850000 -0.64791024 -0.5162273
32701825000 -0.62718189 -0.49595684
32801800000 -0.6519196 -0.4890655
32901775000 -0.64047664 -0.5025894
33001750000 -0.64217371 -0.48649544
33101725000 -0.64673805 -0.50338829
33201700000 -0.64307284 -0.49296418
33301675000 -0.65307933 -0.48645595
33401650000 -0.6420458 -0.49888599
33501625000 -0.65384954 -0.48023733
33601600000 -0.66364527 -0.49938965
33701575000 -0.64018905 -0.49118999
33801550000 -0.66006595 -0.47661769
33901525000 -0.65732497 -0.50061029
34001500000 -0.65116024 -0.49502081
34101475000 -0.66243142 -0.48535582
34201450000 -0.65224743 -0.48099545
34301425000 -0.66545892 -0.48104817
34401400000 -0.66007328 -0.49904794
34501375000 -0.65251082 -0.47606176
34601350000 -0.66938764 -0.49546218
34701325000 -0.63837248 -0.48954532
34801300000 -0.66710943 -0.45842361
34901275000 -0.66590977 -0.49459916
35001250000 -0.64948958 -0.49220544
35101225000 -0.65635228 -0.48868674
35201200000 -0.65118486 -0.47271574
35301175000 -0.68091989 -0.46972674
35401150000 -0.65985936 -0.51303047
35501125000 -0.64736938 -0.47175628
35601100000 -0.67043412 -0.47556096
35701075000 -0.65448648 -0.47705105
35801050000 -0.66815716 -0.46250063
35901025000 -0.6616106 -0.47449395
36001000000 -0.66116202 -0.46086293
36100975000 -0.66434014 -0.47441941
36200950000 -0.63963735 -0.46256649
36300925000 -0.66802108 -0.43392202
36400900000 -0.68479317 -0.46715206
36500875000 -0.64716029 -0.4727692
36600850000 -0.65457726 -0.45618665
36700825000 -0.67022175 -0.44811556
36800800000 -0.66908926 -0.45323628
36900775000 -0.65966922 -0.48558941
37000750000 -0.63895392 -0.45767596
37100725000 -0.66986519 -0.44304672
37200700000 -0.67783237 -0.46400505
37300675000 -0.65254486 -0.46892962
37400650000 -0.65827125 -0.46614039
37500625000 -0.65506124 -0.47825789
37600600000 -0.64470017 -0.47379485
37700575000 -0.66561264 -0.46165472
37800550000 -0.65453893 -0.47843105
37900525000 -0.64608425 -0.47294089
38000500000 -0.65269846 -0.45794347
38100475000 -0.67896736 -0.47579032
38200450000 -0.65265352 -0.48651856
38300425000 -0.64234257 -0.46549743
38400400000 -0.6652959 -0.46979403
38500375000 -0.65048838 -0.47325674
38600350000 -0.6752792 -0.47169608
38700325000 -0.65349257 -0.47836158
38800300000 -0.65263402 -0.44920704
38900275000 -0.67702127 -0.47618103
39000250000 -0.63339883 -0.46844983
39100225000 -0.66866976 -0.44406873
39200200000 -0.65924048 -0.46820989
39300175000 -0.6607874 -0.44116363
39400150000 -0.67365646 -0.47814751
39500125000 -0.64174497 -0.45607272
39600100000 -0.6874184 -0.45708787
39700075000 -0.66813529 -0.49438941
39800050000 -0.66755319 -0.46161491
39900025000 -0.67427945 -0.46564937
40000000000 -0.69838333 -0.45473742
