!Agilent Technologies,N5247A,US51170167,A.09.90.10
!Agilent N5247A: A.09.90.10
!Date: Tuesday, November 22, 2016 15:32:28
!Correction: S22(Full 1 Port(2)) 
!S1P File: Measurement: S22:
# Hz S  RI   R 50
10000000 0.004878419 -0.037751559
109975000 -0.0058963024 -0.0064666015
209950000 -0.0034937202 -0.0086768484
309925000 -0.005010325 -0.012515417
409900000 -0.0051596919 -0.017873963
509875000 -0.0040838867 -0.022127111
609850000 -0.0041164025 -0.02803722
709825000 -0.0040781721 -0.032309856
809800000 -0.0058886707 -0.037635766
909775000 -0.005302194 -0.043912612
1009750000 -0.0047979779 -0.048173681
1109725000 -0.0058297031 -0.053811483
1209700000 -0.0066982843 -0.058732413
1309675000 -0.0078410851 -0.065011464
1409650000 -0.0067711659 -0.070216306
1509625000 -0.008099406 -0.073612884
1609600000 -0.010275917 -0.080391578
1709575000 -0.010551527 -0.086045548
1809550000 -0.011579975 -0.091671377
1909525000 -0.011542136 -0.095364846
2009500000 -0.015414437 -0.09982153
2109475000 -0.016263124 -0.10750367
2209450000 -0.016409982 -0.11003409
2309425000 -0.019281251 -0.1150872
2409400000 -0.019511495 -0.11919361
2509375000 -0.023605656 -0.12465978
2609350000 -0.023273291 -0.13053674
2709325000 -0.023966508 -0.1320031
2809300000 -0.028154833 -0.13821146
2909275000 -0.028238153 -0.14241752
3009250000 -0.031838082 -0.14814061
3109225000 -0.030269947 -0.15301913
3209200000 -0.035097566 -0.15383725
3309175000 -0.038678281 -0.16289891
3409150000 -0.038612284 -0.1672869
3509125000 -0.040603895 -0.17052904
3609100000 -0.042662073 -0.17241243
3709075000 -0.049229361 -0.17742233
3809050000 -0.048995733 -0.18602443
3909025000 -0.048080456 -0.18548106
4009000000 -0.053351253 -0.18839538
4108975000 -0.055801142 -0.19301254
4208950000 -0.057646904 -0.19910228
4308925000 -0.055211622 -0.20172924
4408900000 -0.06101618 -0.2019086
4508875000 -0.062645957 -0.21084277
4608850000 -0.061131433 -0.21230049
4708825000 -0.064915061 -0.21633853
4808800000 -0.064215362 -0.2212633
4908775000 -0.067881644 -0.22381088
5008750000 -0.068129137 -0.23216574
5108725000 -0.068745829 -0.23298052
5208700000 -0.073921137 -0.23953353
5308675000 -0.072252393 -0.24488121
5408650000 -0.076634802 -0.24849476
5508625000 -0.079631843 -0.25559372
5608600000 -0.080155529 -0.2601797
5708575000 -0.085372545 -0.2653842
5808550000 -0.088932045 -0.27121797
5908525000 -0.092644334 -0.27726716
6008500000 -0.095460087 -0.28598776
6108475000 -0.098672971 -0.28812388
6208450000 -0.10734998 -0.29140779
6308425000 -0.11181971 -0.29927805
6408400000 -0.11378705 -0.30422166
6508375000 -0.11882612 -0.30592626
6608350000 -0.12550074 -0.30725095
6708325000 -0.1356001 -0.31252113
6808300000 -0.13609438 -0.3227421
6908275000 -0.13549155 -0.31659621
7008250000 -0.14998338 -0.31718433
7108225000 -0.15517637 -0.32608399
7208200000 -0.15580279 -0.32932469
7308175000 -0.15529417 -0.32753021
7408150000 -0.16789469 -0.32116097
7508125000 -0.17835639 -0.33356261
7608100000 -0.16936065 -0.33720589
7708075000 -0.17617382 -0.32563573
7808050000 -0.18669704 -0.32910427
7908025000 -0.19097078 -0.33329114
8008000000 -0.19175071 -0.33794475
8107975000 -0.19037481 -0.33234429
8207950000 -0.20125529 -0.32962289
8307925000 -0.20466468 -0.33630222
8407900000 -0.20715679 -0.33434945
8507875000 -0.20992045 -0.33679676
8607850000 -0.21053745 -0.33384192
8707825000 -0.21759564 -0.3336364
8807800000 -0.22077511 -0.33397773
8907775000 -0.22663312 -0.33683956
9007750000 -0.22128202 -0.34172666
9107725000 -0.2252201 -0.3312166
9207700000 -0.23596203 -0.33554742
9307675000 -0.23396079 -0.3389706
9407650000 -0.23726743 -0.34210792
9507625000 -0.23149312 -0.34163249
9607600000 -0.24129331 -0.33367193
9707575000 -0.2468081 -0.34536585
9807550000 -0.23947181 -0.34243473
9907525000 -0.24957192 -0.34123328
10007500000 -0.24659233 -0.34470704
10107475000 -0.25235161 -0.33992696
10207450000 -0.2560055 -0.34877941
10307425000 -0.25158241 -0.34593573
10407400000 -0.25981957 -0.34584269
10507375000 -0.25719583 -0.34886941
10607350000 -0.26373899 -0.34479916
10707325000 -0.26484269 -0.35187951
10807300000 -0.2622368 -0.34721223
10907275000 -0.27173734 -0.34683028
11007250000 -0.27085945 -0.35225701
11107225000 -0.27180669 -0.35026276
11207200000 -0.27466407 -0.35171351
11307175000 -0.27736014 -0.34928608
11407150000 -0.28361297 -0.35273364
11507125000 -0.28054345 -0.35739768
11607100000 -0.28282723 -0.3524535
11707075000 -0.28904888 -0.35432124
11807050000 -0.28930676 -0.35644606
11907025000 -0.29178211 -0.35779366
12007000000 -0.2909348 -0.35834149
12106975000 -0.29711443 -0.35504785
12206950000 -0.30166095 -0.36027047
12306925000 -0.29780865 -0.36149716
12406900000 -0.30245435 -0.35786742
12506875000 -0.30781063 -0.36098537
12606850000 -0.30830026 -0.36467224
12706825000 -0.30435044 -0.36651683
12806800000 -0.30851966 -0.35826093
12906775000 -0.3192738 -0.36510804
13006750000 -0.31235611 -0.37190789
13106725000 -0.31397012 -0.36546469
13206700000 -0.31733188 -0.36655778
13306675000 -0.32261679 -0.36315614
13406650000 -0.32844594 -0.37253949
13506625000 -0.31801409 -0.37180674
13606600000 -0.3286815 -0.36304933
13706575000 -0.33137029 -0.37136364
13806550000 -0.33233359 -0.36835289
13906525000 -0.33556899 -0.37569314
14006500000 -0.3280592 -0.36948854
14106475000 -0.34386438 -0.36457124
14206450000 -0.34235454 -0.37664622
14306425000 -0.33968565 -0.36871538
14406400000 -0.34463987 -0.37127075
14506375000 -0.34456158 -0.36542818
14606350000 -0.35924637 -0.368159
14706325000 -0.34895962 -0.38164434
14806300000 -0.3459166 -0.36846414
14906275000 -0.35648513 -0.36792076
15006250000 -0.35867521 -0.3668679
15106225000 -0.36787921 -0.3754842
15206200000 -0.3526805 -0.38506842
15306175000 -0.35286826 -0.36450851
15406150000 -0.37121287 -0.36396974
15506125000 -0.3691625 -0.37647459
15606100000 -0.36665291 -0.379226
15706075000 -0.36093956 -0.37609139
15806050000 -0.36588067 -0.36522025
15906025000 -0.37831447 -0.37248018
16006000000 -0.3716431 -0.38382027
16105975000 -0.36777985 -0.3752937
16205950000 -0.3728607 -0.37399596
16305925000 -0.37192217 -0.37611187
16405900000 -0.37830415 -0.37426656
16505875000 -0.38153741 -0.38007179
16605850000 -0.37732029 -0.37839282
16705825000 -0.37925208 -0.37922058
16805800000 -0.38170344 -0.37612376
16905775000 -0.3906208 -0.37739047
17005750000 -0.38705385 -0.38339126
17105725000 -0.38548505 -0.37889203
17205700000 -0.39042354 -0.38021481
17305675000 -0.39535964 -0.37674624
17405650000 -0.40118685 -0.38515672
17505625000 -0.38737163 -0.38685918
17605600000 -0.39636815 -0.37220433
17705575000 -0.40754202 -0.38076732
17805550000 -0.40467104 -0.38417369
17905525000 -0.39921635 -0.39148816
18005500000 -0.39541405 -0.37203434
18105475000 -0.42539272 -0.37415785
18205450000 -0.40625808 -0.40566236
18305425000 -0.39424604 -0.37731126
18405400000 -0.41980922 -0.37842563
18505375000 -0.41443098 -0.38340777
18605350000 -0.42346057 -0.39181381
18705325000 -0.39579326 -0.3966094
18805300000 -0.4225257 -0.35404161
18905275000 -0.44356567 -0.41010511
19005250000 -0.38483307 -0.40429527
19105225000 -0.43159467 -0.3556881
19205200000 -0.43549848 -0.40567127
19305175000 -0.41056719 -0.38620213
19405150000 -0.43314999 -0.38584164
19505125000 -0.41864762 -0.3832854
19605100000 -0.45154601 -0.37461793
19705075000 -0.42403734 -0.41535556
19805050000 -0.41227689 -0.36338222
19905025000 -0.46635586 -0.37585422
20005000000 -0.42233059 -0.40753487
20104975000 -0.43312618 -0.36220548
20204950000 -0.45609108 -0.38797608
20304925000 -0.43325657 -0.38841185
20404900000 -0.44821712 -0.38220853
20504875000 -0.43673462 -0.38780642
20604850000 -0.45154011 -0.37162212
20704825000 -0.45213506 -0.39775372
20804800000 -0.4359988 -0.38063511
20904775000 -0.46294934 -0.37682965
21004750000 -0.44791487 -0.39975014
21104725000 -0.44380897 -0.37727118
21204700000 -0.46061507 -0.38161442
21304675000 -0.45564178 -0.38818899
21404650000 -0.45418596 -0.38865101
21504625000 -0.4509711 -0.37989584
21604600000 -0.46830368 -0.37790734
21704575000 -0.4593392 -0.39698434
21804550000 -0.45297202 -0.38214016
21904525000 -0.46652934 -0.38248795
22004500000 -0.46123612 -0.38547871
22104475000 -0.46672103 -0.3843725
22204450000 -0.45792305 -0.38682696
22304425000 -0.4729344 -0.37256077
22404400000 -0.47645628 -0.39657769
22504375000 -0.45282605 -0.38778028
22604350000 -0.47526705 -0.37382701
22704325000 -0.46992472 -0.38791141
22804300000 -0.47307509 -0.37684792
22904275000 -0.47640777 -0.3927848
23004250000 -0.46398476 -0.37883496
23104225000 -0.48892775 -0.37413287
23204200000 -0.47250476 -0.39447841
23304175000 -0.47327203 -0.37531757
23404150000 -0.48421919 -0.3841801
23504125000 -0.47545356 -0.38114712
23604100000 -0.48718655 -0.38090608
23704075000 -0.47284627 -0.38833049
23804050000 -0.48207706 -0.36871773
23904025000 -0.49599791 -0.38769707
24004000000 -0.47527975 -0.39064315
24103975000 -0.48315522 -0.37615219
24203950000 -0.48571071 -0.38128355
24303925000 -0.48961085 -0.37737402
24403900000 -0.49092767 -0.38711378
24503875000 -0.48399058 -0.37811109
24603850000 -0.49684009 -0.37813145
24703825000 -0.48511517 -0.39041167
24803800000 -0.48448271 -0.37116745
24903775000 -0.50134885 -0.38018313
25003750000 -0.48953614 -0.38650534
25103725000 -0.49267027 -0.37795651
25203700000 -0.49303344 -0.38057816
25303675000 -0.49824333 -0.37605926
25403650000 -0.50099653 -0.39078501
25503625000 -0.48465338 -0.38269016
25603600000 -0.5046773 -0.37094244
25703575000 -0.49757931 -0.39231807
25803550000 -0.49003962 -0.3728219
25903525000 -0.51147777 -0.37799534
26003500000 -0.5001241 -0.38744864
26103475000 -0.5028379 -0.38200906
26203450000 -0.4973149 -0.38878956
26303425000 -0.5002746 -0.3750093
26403400000 -0.50908017 -0.38515392
26503375000 -0.49960232 -0.3796427
26603350000 -0.51437265 -0.3814998
26703325000 -0.50057125 -0.39400482
26803300000 -0.50015086 -0.37825689
26903275000 -0.51043969 -0.38963893
27003250000 -0.50464255 -0.38099819
27103225000 -0.51582479 -0.38783476
27203200000 -0.50159705 -0.38727754
27303175000 -0.51802957 -0.37208456
27403150000 -0.51299036 -0.39533049
27503125000 -0.50576633 -0.37277645
27603100000 -0.53073388 -0.38176933
27703075000 -0.50575846 -0.39449728
27803050000 -0.51689249 -0.37531903
27903025000 -0.51276863 -0.38651472
28003000000 -0.52112436 -0.36181492
28102975000 -0.54042172 -0.39406097
28202950000 -0.49346581 -0.40154433
28302925000 -0.52094686 -0.36301956
28402900000 -0.52829474 -0.3926883
28502875000 -0.51413989 -0.38332629
28602850000 -0.53076589 -0.38355371
28702825000 -0.5192458 -0.38734663
28802800000 -0.53272754 -0.37714264
28902775000 -0.52417952 -0.40153831
29002750000 -0.513542 -0.37512329
29102725000 -0.5448029 -0.3753399
29202700000 -0.52926302 -0.399508
29302675000 -0.51484871 -0.38145408
29402650000 -0.53050625 -0.37511984
29502625000 -0.53825784 -0.38260651
29602600000 -0.53454977 -0.39383975
29702575000 -0.52281374 -0.38441262
29802550000 -0.53659648 -0.37787545
29902525000 -0.53158534 -0.39360058
30002500000 -0.51831824 -0.37770766
30102475000 -0.54289162 -0.36971837
30202450000 -0.54482287 -0.38636509
30302425000 -0.53745985 -0.38996884
30402400000 -0.52433604 -0.38409144
30502375000 -0.53612083 -0.36840001
30602350000 -0.55090874 -0.3829774
30702325000 -0.53173369 -0.3921822
30802300000 -0.53491974 -0.36394197
30902275000 -0.55048746 -0.37450576
31002250000 -0.53684705 -0.38713583
31102225000 -0.5332045 -0.3806408
31202200000 -0.54316562 -0.3645173
31302175000 -0.55263072 -0.38325098
31402150000 -0.5311799 -0.39739528
31502125000 -0.52679795 -0.3700147
31602100000 -0.55461121 -0.37294129
31702075000 -0.55328751 -0.39030761
31802050000 -0.53830963 -0.39945135
31902025000 -0.52513325 -0.38328817
32002000000 -0.55213588 -0.37066609
32101975000 -0.55571091 -0.40535432
32201950000 -0.53458136 -0.38526991
32301925000 -0.55535328 -0.38481826
32401900000 -0.53736722 -0.39223152
32501875000 -0.54936397 -0.38042262
32601850000 -0.55041277 -0.40392786
32701825000 -0.53193164 -0.3851766
32801800000 -0.55789727 -0.37866321
32901775000 -0.5453124 -0.39513364
33001750000 -0.54670686 -0.37687644
33101725000 -0.5528565 -0.39425841
33201700000 -0.54703254 -0.38222325
33301675000 -0.55521345 -0.37958476
33401650000 -0.54614866 -0.39273691
33501625000 -0.56050014 -0.37400752
33601600000 -0.56859827 -0.39453059
33701575000 -0.54395264 -0.38588506
33801550000 -0.56451732 -0.3734003
33901525000 -0.5642823 -0.40132162
34001500000 -0.55264729 -0.39275935
34101475000 -0.57107681 -0.3853769
34201450000 -0.55728644 -0.38097131
34301425000 -0.57340872 -0.38293606
34401400000 -0.56599158 -0.39622667
34501375000 -0.55986136 -0.37792635
34601350000 -0.57658613 -0.3984074
34701325000 -0.54121464 -0.39023998
34801300000 -0.5717696 -0.36378855
34901275000 -0.57302946 -0.3954277
35001250000 -0.55692399 -0.39521322
35101225000 -0.56288749 -0.39274657
35201200000 -0.55358249 -0.37494406
35301175000 -0.5861792 -0.3748557
35401150000 -0.56211537 -0.41455168
35501125000 -0.55208319 -0.37608677
35601100000 -0.57443798 -0.38457513
35701075000 -0.56018734 -0.38124117
35801050000 -0.57493556 -0.37230316
35901025000 -0.56788653 -0.38369092
36001000000 -0.5663119 -0.37103131
36100975000 -0.5726316 -0.38510525
36200950000 -0.54963124 -0.36958024
36300925000 -0.57563561 -0.34596562
36400900000 -0.58958906 -0.37558165
36500875000 -0.55767083 -0.38915917
36600850000 -0.56016022 -0.37246472
36700825000 -0.57472074 -0.36201188
36800800000 -0.57880837 -0.37131375
36900775000 -0.56983823 -0.39781496
37000750000 -0.55387509 -0.3756229
37100725000 -0.57405078 -0.36380839
37200700000 -0.58793426 -0.37953702
37300675000 -0.5627349 -0.38704422
37400650000 -0.56500369 -0.38312313
37500625000 -0.56725454 -0.39903602
37600600000 -0.54935575 -0.38694152
37700575000 -0.57457453 -0.37970871
37800550000 -0.5684759 -0.40223545
37900525000 -0.55990165 -0.39196369
38000500000 -0.565548 -0.37802702
38100475000 -0.59157592 -0.39538452
38200450000 -0.565494 -0.4073737
38300425000 -0.55521488 -0.38915595
38400400000 -0.57348263 -0.39276713
38500375000 -0.56421864 -0.39490104
38600350000 -0.59046781 -0.38999602
38700325000 -0.56947547 -0.40250149
38800300000 -0.56066811 -0.37316483
38900275000 -0.59090769 -0.39678186
39000250000 -0.54657781 -0.3932544
39100225000 -0.57781929 -0.36705154
39200200000 -0.5669589 -0.39345059
39300175000 -0.57630229 -0.36980882
39400150000 -0.5919928 -0.40180191
39500125000 -0.55415493 -0.3816393
39600100000 -0.60029304 -0.38656878
39700075000 -0.58442408 -0.42201596
39800050000 -0.5810653 -0.38490686
39900025000 -0.59234619 -0.39714384
40000000000 -0.61089569 -0.38725731
