!Agilent Technologies,N5247A,US51170167,A.09.90.10
!Agilent N5247A: A.09.90.10
!Date: Tuesday, November 22, 2016 15:30:36
!Correction: S22(Full 1 Port(2)) 
!S1P File: Measurement: S22:
# Hz S  RI   R 50
10000000 0.6774351 -0.040660936
109975000 0.62746525 -0.090993643
209950000 0.59548134 -0.15404017
309925000 0.55602992 -0.20282204
409900000 0.51078624 -0.23476838
509875000 0.46460792 -0.25139922
609850000 0.43300191 -0.26893312
709825000 0.39897177 -0.27446744
809800000 0.36728236 -0.27894041
909775000 0.34364113 -0.28248426
1009750000 0.32450083 -0.2825782
1109725000 0.30739319 -0.28423887
1209700000 0.28999442 -0.28424835
1309675000 0.27697811 -0.28624475
1409650000 0.26609638 -0.28742376
1509625000 0.25529534 -0.2869992
1609600000 0.24385329 -0.28948677
1709575000 0.23526768 -0.29150462
1809550000 0.22717573 -0.29446039
1909525000 0.21986713 -0.29521871
2009500000 0.20953122 -0.29678506
2109475000 0.20400091 -0.30272612
2209450000 0.1977661 -0.30311278
2309425000 0.18955936 -0.30653182
2409400000 0.1839079 -0.30838236
2509375000 0.17608011 -0.31275526
2609350000 0.17169268 -0.3170656
2709325000 0.16602238 -0.31726193
2809300000 0.15746202 -0.32216597
2909275000 0.15327989 -0.32525125
3009250000 0.14581668 -0.32941961
3109225000 0.14328721 -0.33277819
3209200000 0.13404278 -0.33236033
3309175000 0.12809911 -0.33982724
3409150000 0.12473934 -0.34285581
3509125000 0.11985977 -0.34534758
3609100000 0.11438283 -0.34634736
3709075000 0.10502794 -0.35076174
3809050000 0.10312771 -0.35896108
3909025000 0.10089248 -0.35799745
4009000000 0.091641046 -0.36009586
4108975000 0.086830303 -0.36439714
4208950000 0.081430189 -0.36951998
4308925000 0.081275374 -0.37218851
4408900000 0.071946107 -0.37157264
4508875000 0.066132858 -0.37924775
4608850000 0.064557523 -0.37968859
4708825000 0.057265099 -0.38264781
4808800000 0.054401189 -0.38600683
4908775000 0.047606789 -0.38669884
5008750000 0.044061594 -0.3927542
5108725000 0.039944913 -0.3921926
5208700000 0.032273456 -0.39653167
5308675000 0.030926172 -0.39994204
5408650000 0.024023997 -0.40103099
5508625000 0.018466972 -0.40620393
5608600000 0.015222884 -0.40600827
5708575000 0.0087654684 -0.40867922
5808550000 0.0033392136 -0.4114041
5908525000 -0.001622737 -0.41478637
6008500000 -0.005053963 -0.41928321
6108475000 -0.0076631494 -0.41727287
6208450000 -0.016461205 -0.41898233
6308425000 -0.021842116 -0.424813
6408400000 -0.023293667 -0.42787707
6508375000 -0.026975051 -0.42734706
6608350000 -0.032620806 -0.42731404
6708325000 -0.042456366 -0.4317328
6808300000 -0.041449111 -0.44042993
6908275000 -0.040185131 -0.43370891
7008250000 -0.054161333 -0.43393946
7108225000 -0.058860272 -0.44279915
7208200000 -0.058414631 -0.44612497
7308175000 -0.057701044 -0.44459894
7408150000 -0.069504008 -0.43854493
7508125000 -0.079701021 -0.45147014
7608100000 -0.070177905 -0.45551297
7708075000 -0.077305496 -0.44547713
7808050000 -0.088146813 -0.44922024
7908025000 -0.09274511 -0.45460057
8008000000 -0.093536645 -0.46034813
8107975000 -0.092821643 -0.4557569
8207950000 -0.1043072 -0.45374423
8307925000 -0.10793637 -0.46090379
8407900000 -0.11154536 -0.46069935
8507875000 -0.11558698 -0.46377927
8607850000 -0.11700825 -0.46137914
8707825000 -0.12507313 -0.46193406
8807800000 -0.12974375 -0.46320763
8907775000 -0.13787387 -0.4664923
9007750000 -0.13251777 -0.4716225
9107725000 -0.13801059 -0.46248385
9207700000 -0.15013173 -0.46712199
9307675000 -0.14954741 -0.47056955
9407650000 -0.15369844 -0.47402272
9507625000 -0.14954564 -0.47407752
9607600000 -0.16058575 -0.46664876
9707575000 -0.16766874 -0.47813708
9807550000 -0.16147831 -0.47568369
9907525000 -0.1729369 -0.47474143
10007500000 -0.17110768 -0.47814003
10107475000 -0.17791374 -0.47383472
10207450000 -0.18312778 -0.48262724
10307425000 -0.18012396 -0.47976068
10407400000 -0.18987016 -0.47990853
10507375000 -0.18750101 -0.48294231
10607350000 -0.19591548 -0.47904062
10707325000 -0.19861634 -0.48568681
10807300000 -0.19654505 -0.4813025
10907275000 -0.2081096 -0.48120204
11007250000 -0.20808466 -0.48640782
11107225000 -0.21041708 -0.48383114
11207200000 -0.21402709 -0.48513228
11307175000 -0.21811919 -0.4830676
11407150000 -0.22610341 -0.48604861
11507125000 -0.22381803 -0.48997155
11607100000 -0.22681007 -0.48556718
11707075000 -0.23455514 -0.48711246
11807050000 -0.23597059 -0.48896119
11907025000 -0.23986325 -0.48997557
12007000000 -0.24010335 -0.4901005
12106975000 -0.24748391 -0.48648354
12206950000 -0.25356203 -0.49141333
12306925000 -0.25053033 -0.49280834
12406900000 -0.25608116 -0.48871541
12506875000 -0.26253423 -0.49166307
12606850000 -0.26416337 -0.49517435
12706825000 -0.26091579 -0.49612868
12806800000 -0.26609126 -0.48818347
12906775000 -0.27861798 -0.49413538
13006750000 -0.27230906 -0.50099593
13106725000 -0.27489895 -0.49402317
13206700000 -0.27881429 -0.49458843
13306675000 -0.28552848 -0.49104023
13406650000 -0.29192805 -0.5002833
13506625000 -0.282729 -0.49935246
13606600000 -0.29407775 -0.48989508
13706575000 -0.29811439 -0.49775761
13806550000 -0.30045661 -0.49465558
13906525000 -0.30405375 -0.50145531
14006500000 -0.29695836 -0.49490952
14106475000 -0.31431252 -0.48981535
14206450000 -0.31430331 -0.50115371
14306425000 -0.31258625 -0.49280366
14406400000 -0.3178755 -0.49497578
14506375000 -0.31856123 -0.48882473
14606350000 -0.33486336 -0.49095452
14706325000 -0.32504079 -0.50330561
14806300000 -0.32281658 -0.48975021
14906275000 -0.33440536 -0.4892723
15006250000 -0.33699557 -0.48758158
15106225000 -0.34778795 -0.49491227
15206200000 -0.33252892 -0.50432867
15306175000 -0.33389771 -0.48430365
15406150000 -0.35362723 -0.48187605
15506125000 -0.35204893 -0.49348062
15606100000 -0.3498551 -0.49645829
15706075000 -0.3447178 -0.49296576
15806050000 -0.35077676 -0.4807384
15906025000 -0.36317092 -0.48735544
16006000000 -0.35706368 -0.49840713
16105975000 -0.35477105 -0.4899613
16205950000 -0.35990891 -0.48733711
16305925000 -0.35876682 -0.48895812
16405900000 -0.36615282 -0.48701224
16505875000 -0.37019518 -0.49275145
16605850000 -0.36713073 -0.49040255
16705825000 -0.36877874 -0.49081415
16805800000 -0.37123659 -0.48743603
16905775000 -0.38137046 -0.48756009
17005750000 -0.3786813 -0.49367955
17105725000 -0.37711057 -0.48802036
17205700000 -0.38246834 -0.48908374
17305675000 -0.38869175 -0.48548001
17405650000 -0.39458498 -0.49292192
17505625000 -0.38147798 -0.49423113
17605600000 -0.39105213 -0.47963738
17705575000 -0.40285474 -0.48731396
17805550000 -0.40089616 -0.49006781
17905525000 -0.39522678 -0.49714226
18005500000 -0.39230633 -0.47788697
18105475000 -0.4233267 -0.47850895
18205450000 -0.40379295 -0.50908166
18305425000 -0.39204082 -0.48142451
18405400000 -0.41859093 -0.48186871
18505375000 -0.41335252 -0.48643842
18605350000 -0.42257774 -0.4932436
18705325000 -0.39589801 -0.49859005
18805300000 -0.42390957 -0.45589548
18905275000 -0.44431555 -0.509287
19005250000 -0.38499093 -0.50565165
19105225000 -0.43350464 -0.45569459
19205200000 -0.43755123 -0.50404668
19305175000 -0.41294861 -0.48616785
19405150000 -0.43610084 -0.48414081
19505125000 -0.42241931 -0.48123303
19605100000 -0.45564857 -0.47293064
19705075000 -0.42707974 -0.51181817
19805050000 -0.41735992 -0.46052149
19905025000 -0.47252673 -0.47155431
20005000000 -0.427342 -0.5029521
20104975000 -0.43977359 -0.45775917
20204950000 -0.46348786 -0.48255879
20304925000 -0.44013569 -0.48300937
20404900000 -0.45560509 -0.47609216
20504875000 -0.44461924 -0.48082364
20604850000 -0.45988786 -0.46444303
20704825000 -0.46014178 -0.49023938
20804800000 -0.44419307 -0.47234225
20904775000 -0.47225296 -0.46777779
21004750000 -0.45712274 -0.49020407
21104725000 -0.45334566 -0.4674648
21204700000 -0.47059476 -0.47101802
21304675000 -0.46614403 -0.47724363
21404650000 -0.46447828 -0.47759199
21504625000 -0.46191511 -0.46874219
21604600000 -0.48017383 -0.46535003
21704575000 -0.4704172 -0.48456708
21804550000 -0.46432921 -0.46955961
21904525000 -0.47869131 -0.46967679
22004500000 -0.47316265 -0.47162071
22104475000 -0.47957826 -0.47032329
22204450000 -0.47084376 -0.47247654
22304425000 -0.48643741 -0.45722586
22404400000 -0.48916516 -0.48117316
22504375000 -0.46626315 -0.47190037
22604350000 -0.48926294 -0.45733517
22704325000 -0.48450115 -0.47036287
22804300000 -0.4871555 -0.4594017
22904275000 -0.49101877 -0.47457182
23004250000 -0.47846752 -0.46042863
23104225000 -0.50488269 -0.45524395
23204200000 -0.48756415 -0.47492594
23304175000 -0.48801047 -0.45630234
23404150000 -0.49978396 -0.46499255
23504125000 -0.49083692 -0.46083066
23604100000 -0.50320327 -0.45973125
23704075000 -0.48925963 -0.46679729
23804050000 -0.49910933 -0.44771031
23904025000 -0.51252496 -0.46536785
24004000000 -0.49157715 -0.46779266
24103975000 -0.50053322 -0.4534601
24203950000 -0.50264567 -0.45760983
24303925000 -0.5070318 -0.45352307
24403900000 -0.50778657 -0.4630003
24503875000 -0.50182909 -0.45366487
24603850000 -0.51490366 -0.45331958
24703825000 -0.50259471 -0.46465847
24803800000 -0.50287086 -0.44541466
24903775000 -0.52024937 -0.45387724
25003750000 -0.50748849 -0.46011114
25103725000 -0.51130825 -0.45036647
25203700000 -0.51178336 -0.45374316
25303675000 -0.51764995 -0.4479934
25403650000 -0.51907796 -0.46229815
25503625000 -0.50256795 -0.45441946
25603600000 -0.5243395 -0.44199985
25703575000 -0.51736927 -0.4631725
25803550000 -0.51007843 -0.44266739
25903525000 -0.53066701 -0.44721407
26003500000 -0.51920426 -0.45614845
26103475000 -0.52237254 -0.45107257
26203450000 -0.51734471 -0.45722058
26303425000 -0.52029139 -0.44303674
26403400000 -0.52920991 -0.45343691
26503375000 -0.51775128 -0.44685489
26603350000 -0.53292012 -0.44861323
26703325000 -0.52013206 -0.462293
26803300000 -0.5204652 -0.44534451
26903275000 -0.53040403 -0.45558259
27003250000 -0.52589446 -0.4468812
27103225000 -0.53660071 -0.45405126
27203200000 -0.52130026 -0.45377213
27303175000 -0.53902978 -0.43642747
27403150000 -0.53352511 -0.46025938
27503125000 -0.52749503 -0.43821329
27603100000 -0.55187625 -0.44770721
27703075000 -0.5273 -0.4581562
27803050000 -0.53861439 -0.43811035
27903025000 -0.53341341 -0.44922951
28003000000 -0.54259133 -0.42708987
28102975000 -0.56165695 -0.45747253
28202950000 -0.51530325 -0.46351641
28302925000 -0.54230666 -0.42463565
28402900000 -0.55066168 -0.4543612
28502875000 -0.5361473 -0.44656488
28602850000 -0.55267793 -0.446403
28702825000 -0.54045784 -0.44976664
28802800000 -0.55384994 -0.43865475
28902775000 -0.54474467 -0.46367943
29002750000 -0.53557175 -0.43573245
29102725000 -0.56630087 -0.43344375
29202700000 -0.55231142 -0.45658195
29302675000 -0.53763312 -0.44071639
29402650000 -0.55251223 -0.43401125
29502625000 -0.56121415 -0.44128969
29602600000 -0.55464607 -0.45324871
29702575000 -0.54590428 -0.4421241
29802550000 -0.56140333 -0.43596199
29902525000 -0.5533303 -0.45025843
30002500000 -0.54405731 -0.43645641
30102475000 -0.56612676 -0.42596066
30202450000 -0.56700498 -0.44156194
30302425000 -0.55833131 -0.44637552
30402400000 -0.54775935 -0.44033405
30502375000 -0.55833739 -0.42414749
30602350000 -0.57364213 -0.43830934
30702325000 -0.55680782 -0.44910952
30802300000 -0.55696064 -0.41764656
30902275000 -0.57343388 -0.43058786
31002250000 -0.55910105 -0.4428277
31102225000 -0.55629373 -0.43315569
31202200000 -0.56875885 -0.41993159
31302175000 -0.57714772 -0.43629143
31402150000 -0.55539882 -0.4493778
31502125000 -0.55077457 -0.42404649
31602100000 -0.58091241 -0.42559063
31702075000 -0.57839829 -0.439311
31802050000 -0.56064636 -0.44988745
31902025000 -0.55000281 -0.43434501
32002000000 -0.57408226 -0.42308056
32101975000 -0.57890511 -0.45839474
32201950000 -0.55652028 -0.43628925
32301925000 -0.57990408 -0.43505412
32401900000 -0.55953497 -0.44231924
32501875000 -0.57198107 -0.43240395
32601850000 -0.57736897 -0.45396578
32701825000 -0.5564425 -0.43464243
32801800000 -0.58057171 -0.42705503
32901775000 -0.56964374 -0.44379896
33001750000 -0.57197016 -0.42677793
33101725000 -0.57520473 -0.44310322
33201700000 -0.57038718 -0.4331626
33301675000 -0.58184665 -0.42920512
33401650000 -0.57079577 -0.44137523
33501625000 -0.58322644 -0.42681858
33601600000 -0.59370112 -0.44092974
33701575000 -0.56666428 -0.4347893
33801550000 -0.59098768 -0.42060632
33901525000 -0.58781141 -0.44511962
34001500000 -0.5765003 -0.43582317
34101475000 -0.59443378 -0.4319725
34201450000 -0.58080375 -0.42938206
34301425000 -0.59623241 -0.42665207
34401400000 -0.58749312 -0.44207701
34501375000 -0.58486128 -0.42559162
34601350000 -0.5976814 -0.44355944
34701325000 -0.56562066 -0.43796638
34801300000 -0.59522843 -0.40874466
34901275000 -0.59677362 -0.44025275
35001250000 -0.57920605 -0.43842569
35101225000 -0.58444202 -0.43575794
35201200000 -0.58118558 -0.42135796
35301175000 -0.61039984 -0.41867375
35401150000 -0.5873211 -0.45893219
35501125000 -0.57829177 -0.42166841
35601100000 -0.60071415 -0.42547971
35701075000 -0.58656275 -0.42890671
35801050000 -0.59707338 -0.41708148
35901025000 -0.59384757 -0.42917603
36001000000 -0.5911628 -0.41672024
36100975000 -0.59503925 -0.42657408
36200950000 -0.57180119 -0.41358098
36300925000 -0.60144949 -0.38948652
36400900000 -0.614595 -0.41988161
36500875000 -0.57958257 -0.42702302
36600850000 -0.58808464 -0.41527644
36700825000 -0.59904808 -0.40379009
36800800000 -0.60572606 -0.41191173
36900775000 -0.59283936 -0.43424255
37000750000 -0.57449919 -0.41569889
37100725000 -0.6031692 -0.4002105
37200700000 -0.61258739 -0.42245421
37300675000 -0.58802491 -0.4266482
37400650000 -0.58833462 -0.42454648
37500625000 -0.59148729 -0.43744764
37600600000 -0.57655382 -0.42818981
37700575000 -0.6030153 -0.4184128
37800550000 -0.59068096 -0.43911344
37900525000 -0.5810923 -0.43263525
38000500000 -0.5867632 -0.41941458
38100475000 -0.609366 -0.43538132
38200450000 -0.59278214 -0.45199633
38300425000 -0.5775879 -0.42717338
38400400000 -0.59712166 -0.43073043
38500375000 -0.59324187 -0.43645746
38600350000 -0.61049485 -0.42866838
38700325000 -0.59220475 -0.43901399
38800300000 -0.59189945 -0.41082633
38900275000 -0.61747831 -0.43618616
39000250000 -0.57073402 -0.42846856
39100225000 -0.60704511 -0.4075067
39200200000 -0.59418488 -0.43439195
39300175000 -0.60169441 -0.40148672
39400150000 -0.61763918 -0.44125926
39500125000 -0.58030403 -0.41843912
39600100000 -0.6232388 -0.42179364
39700075000 -0.60489511 -0.45865569
39800050000 -0.60467148 -0.42295685
39900025000 -0.61563259 -0.43519494
40000000000 -0.63659108 -0.42087561
