!Agilent Technologies,N5247A,US51170167,A.09.90.10
!Agilent N5247A: A.09.90.10
!Date: Tuesday, November 22, 2016 15:28:24
!Correction: S22(Full 1 Port(2)) 
!S1P File: Measurement: S22:
# Hz S  RI   R 50
10000000 0.97958124 -0.012805483
109975000 0.99415284 -0.030838156
209950000 0.99103504 -0.050332181
309925000 0.98688334 -0.069814302
409900000 0.98414445 -0.091037653
509875000 0.9820016 -0.11128227
609850000 0.97931075 -0.13283709
709825000 0.97416896 -0.15270457
809800000 0.96917576 -0.17320718
909775000 0.96536565 -0.19405243
1009750000 0.96159166 -0.21315591
1109725000 0.95493257 -0.23307148
1209700000 0.94863099 -0.2513057
1309675000 0.94217831 -0.27158099
1409650000 0.93740994 -0.29137865
1509625000 0.93004709 -0.30836141
1609600000 0.92148507 -0.32802361
1709575000 0.91520399 -0.3450284
1809550000 0.90815073 -0.36474288
1909525000 0.900065 -0.38085422
2009500000 0.89012599 -0.39851409
2109475000 0.88170022 -0.41708627
2209450000 0.87505466 -0.43170622
2309425000 0.86379856 -0.450692
2409400000 0.85419303 -0.46504274
2509375000 0.84367007 -0.48234129
2609350000 0.83595592 -0.49915186
2709325000 0.82594895 -0.51270324
2809300000 0.81230891 -0.53036523
2909275000 0.8035838 -0.54286522
3009250000 0.79185325 -0.56008399
3109225000 0.7829327 -0.57383245
3209200000 0.76884049 -0.58603257
3309175000 0.75587773 -0.60248506
3409150000 0.74697423 -0.61535805
3509125000 0.73556817 -0.62815064
3609100000 0.72268456 -0.63892907
3709075000 0.70639193 -0.65282393
3809050000 0.69823438 -0.66856879
3909025000 0.688676 -0.67619896
4009000000 0.67244691 -0.6879245
4108975000 0.65828502 -0.6996904
4208950000 0.64632165 -0.7123853
4308925000 0.6396001 -0.72149104
4408900000 0.62059772 -0.73031235
4508875000 0.60679537 -0.74335998
4608850000 0.59789407 -0.7503823
4708825000 0.58306891 -0.76050293
4808800000 0.57122612 -0.76995671
4908775000 0.55566353 -0.77581084
5008750000 0.54506785 -0.78630483
5108725000 0.533741 -0.79229707
5208700000 0.51663852 -0.802984
5308675000 0.50502968 -0.8086139
5408650000 0.49311018 -0.81571263
5508625000 0.47904897 -0.82673478
5608600000 0.46595427 -0.83024371
5708575000 0.45154479 -0.8370018
5808550000 0.43768117 -0.84253645
5908525000 0.42585865 -0.85111791
6008500000 0.41248158 -0.85900629
6108475000 0.40078974 -0.85806358
6208450000 0.38554674 -0.86435395
6308425000 0.37161678 -0.87364846
6408400000 0.36192057 -0.87959391
6508375000 0.34826186 -0.8793382
6608350000 0.33713892 -0.8814348
6708325000 0.31780604 -0.89012712
6808300000 0.30997801 -0.89948052
6908275000 0.30446771 -0.89332169
7008250000 0.2821494 -0.89605558
7108225000 0.2702933 -0.90684527
7208200000 0.26246983 -0.91148025
7308175000 0.25601557 -0.90894318
7408150000 0.23635462 -0.9052617
7508125000 0.21794903 -0.91908872
7608100000 0.22140069 -0.92376816
7708075000 0.20561942 -0.91456282
7808050000 0.18702284 -0.91763318
7908025000 0.17586119 -0.92417771
8008000000 0.16759795 -0.93050426
8107975000 0.16075522 -0.92605323
8207950000 0.14203124 -0.92207474
8307925000 0.13206236 -0.92935079
8407900000 0.12049311 -0.93030453
8507875000 0.10863285 -0.93257749
8607850000 0.10075699 -0.92761773
8707825000 0.086954065 -0.92771453
8807800000 0.074452989 -0.92990732
8907775000 0.057636794 -0.93105465
9007750000 0.059880242 -0.9334591
9107725000 0.048104201 -0.92373961
9207700000 0.026900169 -0.92743874
9307675000 0.021920966 -0.92910933
9407650000 0.013116404 -0.93002939
9507625000 0.012922 -0.92870015
9607600000 -0.0053488654 -0.92041731
9707575000 -0.018778758 -0.92861611
9807550000 -0.015745368 -0.92492676
9907525000 -0.034380659 -0.92454743
10007500000 -0.037806116 -0.92350912
10107475000 -0.049617939 -0.91833216
10207450000 -0.059967481 -0.92510498
10307425000 -0.061086781 -0.92007339
10407400000 -0.076605268 -0.91934925
10507375000 -0.078170769 -0.91856265
10607350000 -0.091762066 -0.9141078
10707325000 -0.099784434 -0.91782057
10807300000 -0.10087957 -0.9114309
10907275000 -0.11893108 -0.9100908
11007250000 -0.12258704 -0.91209322
11107225000 -0.1286456 -0.90808839
11207200000 -0.1376956 -0.90636915
11307175000 -0.14595093 -0.90296865
11407150000 -0.15957133 -0.9032402
11507125000 -0.15964438 -0.90414625
11607100000 -0.16720274 -0.89892477
11707075000 -0.17971128 -0.89674443
11807050000 -0.18468195 -0.8959896
11907025000 -0.19293597 -0.89459956
12007000000 -0.19509427 -0.89310783
12106975000 -0.20858711 -0.88736856
12206950000 -0.21880031 -0.88839644
12306925000 -0.21793108 -0.88732153
12406900000 -0.22722116 -0.88077474
12506875000 -0.23748736 -0.88175315
12606850000 -0.24216856 -0.88139123
12706825000 -0.24036732 -0.88081491
12806800000 -0.24927825 -0.87094057
12906775000 -0.2663157 -0.87427801
13006750000 -0.2617175 -0.87926745
13106725000 -0.26738939 -0.86841691
13206700000 -0.27404752 -0.86640096
13306675000 -0.28438663 -0.86221772
13406650000 -0.2947785 -0.86727184
13506625000 -0.28715771 -0.86478323
13606600000 -0.30177465 -0.85292834
13706575000 -0.30775332 -0.8573693
13806550000 -0.31429142 -0.85291678
13906525000 -0.3201901 -0.85700041
14006500000 -0.31380376 -0.847893
14106475000 -0.33498451 -0.84032196
14206450000 -0.33859757 -0.8484984
14306425000 -0.33916149 -0.83695608
14406400000 -0.34677413 -0.83625084
14506375000 -0.34933561 -0.82895648
14606350000 -0.36957482 -0.8263728
14706325000 -0.36113113 -0.83564895
14806300000 -0.36032736 -0.82158679
14906275000 -0.37492681 -0.81726247
15006250000 -0.38010442 -0.81230819
15106225000 -0.3924104 -0.81514287
15206200000 -0.3777236 -0.82307839
15306175000 -0.38172337 -0.80309957
15406150000 -0.40436921 -0.79416776
15506125000 -0.40293449 -0.80213726
15606100000 -0.40298766 -0.8053273
15706075000 -0.39934716 -0.79977524
15806050000 -0.40686062 -0.78365391
15906025000 -0.42036489 -0.78597742
16006000000 -0.41459328 -0.79679203
16105975000 -0.41650009 -0.78631663
16205950000 -0.42130154 -0.78004855
16305925000 -0.41898972 -0.77885419
16405900000 -0.42909932 -0.77544647
16505875000 -0.43622026 -0.78097028
16605850000 -0.43328959 -0.77335072
16705825000 -0.43472499 -0.77185512
16805800000 -0.43825781 -0.76827008
16905775000 -0.45211047 -0.76478231
17005750000 -0.45022568 -0.76862729
17105725000 -0.44726419 -0.75982016
17205700000 -0.45437181 -0.76074761
17305675000 -0.46349207 -0.75475365
17405650000 -0.4703781 -0.75729573
17505625000 -0.45675579 -0.75866205
17605600000 -0.46799156 -0.74251342
17705575000 -0.48190078 -0.74671942
17805550000 -0.47945863 -0.7458958
17905525000 -0.47535342 -0.7519666
18005500000 -0.47410882 -0.73319459
18105475000 -0.50613487 -0.7264967
18205450000 -0.48576987 -0.75713295
18305425000 -0.4737854 -0.73040444
18405400000 -0.50377411 -0.7257182
18505375000 -0.49864659 -0.72986561
18605350000 -0.50742084 -0.73087442
18705325000 -0.48227522 -0.73982519
18805300000 -0.51211166 -0.69474018
18905275000 -0.53086334 -0.74081218
19005250000 -0.47049144 -0.74376488
19105225000 -0.52443278 -0.68871939
19205200000 -0.52595615 -0.73024106
19305175000 -0.50252038 -0.71555156
19405150000 -0.52744299 -0.70953679
19505125000 -0.51487875 -0.70513028
19605100000 -0.55222392 -0.69429529
19705075000 -0.5171091 -0.73148036
19805050000 -0.51186037 -0.68030727
19905025000 -0.57077026 -0.68532449
20005000000 -0.51968545 -0.71574444
20104975000 -0.5373953 -0.67045987
20204950000 -0.56049031 -0.69205749
20304925000 -0.53618586 -0.69091749
20404900000 -0.55371368 -0.68224412
20504875000 -0.54113239 -0.68512952
20604850000 -0.55977112 -0.66628987
20704825000 -0.55721349 -0.69129324
20804800000 -0.54235864 -0.67132038
20904775000 -0.57236564 -0.66423815
21004750000 -0.55421829 -0.68654191
21104725000 -0.55290967 -0.66102952
21204700000 -0.57018977 -0.66283369
21304675000 -0.56508267 -0.66732055
21404650000 -0.56360626 -0.66673493
21504625000 -0.56168926 -0.65606922
21604600000 -0.58170426 -0.65031755
21704575000 -0.56973851 -0.66820741
21804550000 -0.5643338 -0.65347189
21904525000 -0.58059359 -0.65118313
22004500000 -0.57467061 -0.65092713
22104475000 -0.58150703 -0.64809871
22204450000 -0.57155782 -0.64945984
22304425000 -0.58952689 -0.63269681
22404400000 -0.59037441 -0.65422332
22504375000 -0.56683666 -0.64393926
22604350000 -0.5927611 -0.62693799
22704325000 -0.58619601 -0.63923532
22804300000 -0.58949322 -0.62616593
22904275000 -0.59315014 -0.64030474
23004250000 -0.58117712 -0.62571764
23104225000 -0.6081484 -0.61647189
23204200000 -0.58963233 -0.63515413
23304175000 -0.5917322 -0.61669487
23404150000 -0.60230011 -0.62388009
23504125000 -0.59256136 -0.61711532
23604100000 -0.60635209 -0.61401409
23704075000 -0.59053636 -0.620426
23804050000 -0.60255104 -0.60108393
23904025000 -0.61372423 -0.61647737
24004000000 -0.59349173 -0.61728424
24103975000 -0.60388368 -0.6027838
24203950000 -0.60383785 -0.60549283
24303925000 -0.60954762 -0.59941274
24403900000 -0.61017871 -0.60841495
24503875000 -0.60370016 -0.59742314
24603850000 -0.61671674 -0.59552562
24703825000 -0.60384524 -0.60567111
24803800000 -0.60536313 -0.58584613
24903775000 -0.62124062 -0.59373403
25003750000 -0.60809416 -0.59876508
25103725000 -0.61119395 -0.58747602
25203700000 -0.61364245 -0.58761621
25303675000 -0.61966383 -0.58330977
25403650000 -0.61867613 -0.59777808
25503625000 -0.60316318 -0.58699775
25603600000 -0.62545204 -0.57306516
25703575000 -0.61670941 -0.59174794
25803550000 -0.6117847 -0.57156688
25903525000 -0.62999612 -0.57440943
26003500000 -0.61837941 -0.58231908
26103475000 -0.62230301 -0.57776195
26203450000 -0.61543274 -0.58106971
26303425000 -0.62094098 -0.56622714
26403400000 -0.62881041 -0.57671714
26503375000 -0.61680973 -0.56838697
26603350000 -0.63153356 -0.57063049
26703325000 -0.61892062 -0.58217531
26803300000 -0.61880368 -0.56466413
26903275000 -0.62814432 -0.574229
27003250000 -0.62535447 -0.56513029
27103225000 -0.63221914 -0.57071805
27203200000 -0.61921799 -0.5693661
27303175000 -0.63641137 -0.55181307
27403150000 -0.63043141 -0.57200688
27503125000 -0.62513483 -0.55293477
27603100000 -0.64849007 -0.55957425
27703075000 -0.62216032 -0.56857413
27803050000 -0.6354143 -0.5496766
27903025000 -0.62848914 -0.55910867
28003000000 -0.63895833 -0.53368998
28102975000 -0.65839839 -0.56515515
28202950000 -0.60910815 -0.57274777
28302925000 -0.63895625 -0.53232604
28402900000 -0.64572281 -0.5619927
28502875000 -0.63102663 -0.55019277
28602850000 -0.64994717 -0.54962134
28702825000 -0.63630676 -0.55070311
28802800000 -0.64836562 -0.54060543
28902775000 -0.64126104 -0.56341469
29002750000 -0.63124233 -0.53582519
29102725000 -0.66317511 -0.53627872
29202700000 -0.64643043 -0.55640006
29302675000 -0.63426054 -0.53987801
29402650000 -0.64912671 -0.52936018
29502625000 -0.65635741 -0.53942245
29602600000 -0.65092409 -0.5519352
29702575000 -0.63915801 -0.53701717
29802550000 -0.65598035 -0.53030944
29902525000 -0.64729327 -0.54357982
30002500000 -0.63524842 -0.52936119
30102475000 -0.65974957 -0.51917607
30202450000 -0.65969801 -0.53500426
30302425000 -0.65129828 -0.53757375
30402400000 -0.63850898 -0.52941889
30502375000 -0.65272534 -0.51475102
30602350000 -0.66807032 -0.52696282
30702325000 -0.64994818 -0.53777665
30802300000 -0.64944166 -0.50603914
30902275000 -0.66459894 -0.51414263
31002250000 -0.65174264 -0.52698916
31102225000 -0.6462664 -0.51642936
31202200000 -0.66239083 -0.50245905
31302175000 -0.66912436 -0.52003562
31402150000 -0.64423662 -0.53137839
31502125000 -0.64317447 -0.50171459
31602100000 -0.66943401 -0.50577337
31702075000 -0.67054397 -0.5235188
31802050000 -0.65039617 -0.53132963
31902025000 -0.63737112 -0.51448512
32002000000 -0.66452563 -0.50467646
32101975000 -0.66655129 -0.53559619
32201950000 -0.6470663 -0.51723099
32301925000 -0.66566098 -0.51143503
32401900000 -0.64746004 -0.51961803
32501875000 -0.66095978 -0.50759804
32601850000 -0.66327608 -0.53314853
32701825000 -0.64436197 -0.51195997
32801800000 -0.66483247 -0.50368202
32901775000 -0.65569335 -0.51640719
33001750000 -0.65363151 -0.50373185
33101725000 -0.66543353 -0.51724929
33201700000 -0.65836847 -0.50647068
33301675000 -0.66414177 -0.49966002
33401650000 -0.65576839 -0.51104528
33501625000 -0.66876864 -0.49492583
33601600000 -0.68003011 -0.51238781
33701575000 -0.6548726 -0.50710803
33801550000 -0.67353249 -0.48866275
33901525000 -0.67276824 -0.51477677
34001500000 -0.6613887 -0.51192945
34101475000 -0.67623699 -0.50217277
34201450000 -0.66587907 -0.49320951
34301425000 -0.67905778 -0.49352923
34401400000 -0.67210293 -0.51395655
34501375000 -0.66788024 -0.49308941
34601350000 -0.68224096 -0.51097161
34701325000 -0.64903188 -0.5000869
34801300000 -0.68257982 -0.47346914
34901275000 -0.68165874 -0.50493306
35001250000 -0.66120493 -0.50561428
35101225000 -0.66792452 -0.50019634
35201200000 -0.66564918 -0.48518798
35301175000 -0.69090801 -0.48451343
35401150000 -0.67008293 -0.52637774
35501125000 -0.6597271 -0.48511118
35601100000 -0.68259144 -0.48939914
35701075000 -0.66822976 -0.49496233
35801050000 -0.67988956 -0.47747609
35901025000 -0.6774562 -0.48814732
36001000000 -0.67431301 -0.47687742
36100975000 -0.6756382 -0.48699227
36200950000 -0.65397859 -0.47518951
36300925000 -0.68335694 -0.44819403
36400900000 -0.69627655 -0.47732165
36500875000 -0.661192 -0.48434708
36600850000 -0.66616493 -0.46841416
36700825000 -0.68086058 -0.45857072
36800800000 -0.68402416 -0.47139418
36900775000 -0.66769618 -0.49538073
37000750000 -0.6548112 -0.46896663
37100725000 -0.68019265 -0.45658958
37200700000 -0.6909861 -0.4746556
37300675000 -0.66868711 -0.47750309
37400650000 -0.66625911 -0.47809774
37500625000 -0.66537541 -0.48591399
37600600000 -0.65205812 -0.47917902
37700575000 -0.67734563 -0.46824056
37800550000 -0.66505295 -0.49024081
37900525000 -0.6580447 -0.48137558
38000500000 -0.66411197 -0.46851882
38100475000 -0.68814623 -0.48474315
38200450000 -0.66793728 -0.50048018
38300425000 -0.65066797 -0.47805822
38400400000 -0.67517745 -0.47837794
38500375000 -0.66771066 -0.48801759
38600350000 -0.68367565 -0.48092827
38700325000 -0.67135173 -0.48648459
38800300000 -0.6619029 -0.46246853
38900275000 -0.69234926 -0.48039618
39000250000 -0.64726418 -0.48601741
39100225000 -0.67545789 -0.45490924
39200200000 -0.66934043 -0.47854593
39300175000 -0.67262363 -0.45342466
39400150000 -0.68788332 -0.4812997
39500125000 -0.65781939 -0.46901062
39600100000 -0.6977185 -0.46868706
39700075000 -0.68484896 -0.50049764
39800050000 -0.67034447 -0.47542813
39900025000 -0.6861425 -0.47308126
40000000000 -0.71558636 -0.46839133
