!Agilent Technologies,N5247A,US51170167,A.09.90.10
!Agilent N5247A: A.09.90.10
!Date: Tuesday, November 22, 2016 15:28:56
!Correction: S22(Full 1 Port(2)) 
!S1P File: Measurement: S22:
# Hz S  RI   R 50
10000000 0.99903709 0.0081548421
109975000 0.99238116 -0.033493742
209950000 0.98866642 -0.053366542
309925000 0.98426241 -0.074631646
409900000 0.98046303 -0.096412845
509875000 0.9775914 -0.11742878
609850000 0.97436887 -0.13964839
709825000 0.96892422 -0.16076206
809800000 0.96264154 -0.18140754
909775000 0.95828462 -0.20327501
1009750000 0.95350921 -0.22315535
1109725000 0.94644868 -0.24365184
1209700000 0.93935758 -0.26248589
1309675000 0.93191344 -0.28305656
1409650000 0.92580169 -0.30275258
1509625000 0.91783571 -0.32034859
1609600000 0.9083885 -0.339885
1709575000 0.90093029 -0.35721192
1809550000 0.89311117 -0.37677559
1909525000 0.88397586 -0.39325875
2009500000 0.87343657 -0.41051611
2109475000 0.86463559 -0.42909721
2209450000 0.85730606 -0.44381684
2309425000 0.84485495 -0.4623062
2409400000 0.83419245 -0.4761464
2509375000 0.82353133 -0.49367708
2609350000 0.81476933 -0.51052928
2709325000 0.80378687 -0.52347237
2809300000 0.78942543 -0.54000199
2909275000 0.78062767 -0.55240422
3009250000 0.76804817 -0.56930935
3109225000 0.75853497 -0.58274388
3209200000 0.74388224 -0.59412581
3309175000 0.73045701 -0.61015064
3409150000 0.72112918 -0.62280333
3509125000 0.70896298 -0.63498288
3609100000 0.69612014 -0.64514315
3709075000 0.67955017 -0.65843767
3809050000 0.67063761 -0.67366719
3909025000 0.66129011 -0.68055427
4009000000 0.64420772 -0.69191074
4108975000 0.63011259 -0.70312613
4208950000 0.61806679 -0.71519107
4308925000 0.61084557 -0.72369391
4408900000 0.59194571 -0.73195618
4508875000 0.57776338 -0.7443186
4608850000 0.56859034 -0.75062114
4708825000 0.55423963 -0.76057148
4808800000 0.54219401 -0.76921767
4908775000 0.52633035 -0.77407533
5008750000 0.5160439 -0.78461659
5108725000 0.50431955 -0.79011536
5208700000 0.48746085 -0.80016428
5308675000 0.47595289 -0.80510974
5408650000 0.46413809 -0.81144643
5508625000 0.45028713 -0.82181221
5608600000 0.43696547 -0.8253566
5708575000 0.42252308 -0.83148718
5808550000 0.40883893 -0.83646214
5908525000 0.39703467 -0.84456599
6008500000 0.38395455 -0.85202581
6108475000 0.37261385 -0.8503412
6208450000 0.3573685 -0.85608691
6308425000 0.34373483 -0.86503446
6408400000 0.33421478 -0.87086713
6508375000 0.32097384 -0.8699885
6608350000 0.30961531 -0.87207651
6708325000 0.29031077 -0.87982363
6808300000 0.28292823 -0.88897353
6908275000 0.27788937 -0.88264215
7008250000 0.25563717 -0.884803
7108225000 0.24412894 -0.89558989
7208200000 0.23628274 -0.89932632
7308175000 0.23018368 -0.89662606
7408150000 0.21072982 -0.89303225
7508125000 0.19243017 -0.90609288
7608100000 0.19657643 -0.91084039
7708075000 0.1808795 -0.90083778
7808050000 0.16262431 -0.90407097
7908025000 0.15185523 -0.90992814
8008000000 0.14397891 -0.91615111
8107975000 0.13716388 -0.91110259
8207950000 0.11864388 -0.90738225
8307925000 0.109301 -0.91409707
8407900000 0.098023169 -0.91522342
8507875000 0.086422928 -0.9171164
8607850000 0.079019532 -0.91195261
8707825000 0.06556268 -0.9120304
8807800000 0.053114325 -0.91386688
8907775000 0.036744993 -0.91455758
9007750000 0.039375052 -0.91740918
9107725000 0.027717903 -0.90728337
9207700000 0.0069978186 -0.91078937
9307675000 0.0023251756 -0.91184348
9407650000 -0.0062099355 -0.91316342
9507625000 -0.006229375 -0.91179967
9607600000 -0.024442414 -0.90342259
9707575000 -0.037308685 -0.91165715
9807550000 -0.034146309 -0.90774399
9907525000 -0.052309498 -0.90707302
10007500000 -0.055682622 -0.90581036
10107475000 -0.066923015 -0.90101111
10207450000 -0.077254817 -0.90754813
10307425000 -0.078174368 -0.90262645
10407400000 -0.093555652 -0.90177077
10507375000 -0.094853774 -0.90075558
10607350000 -0.10799964 -0.89628541
10707325000 -0.11553689 -0.89986473
10807300000 -0.116721 -0.89376527
10907275000 -0.13420463 -0.89204401
11007250000 -0.13808274 -0.8940177
11107225000 -0.1436342 -0.88990593
11207200000 -0.15225418 -0.88838142
11307175000 -0.16037317 -0.88495851
11407150000 -0.17386298 -0.88503975
11507125000 -0.17352693 -0.8856678
11607100000 -0.18063135 -0.88085788
11707075000 -0.19326013 -0.87878424
11807050000 -0.1979382 -0.87806118
11907025000 -0.20573482 -0.87650913
12007000000 -0.20785969 -0.87465
12106975000 -0.22082606 -0.86908281
12206950000 -0.23112924 -0.87024415
12306925000 -0.22980367 -0.86946219
12406900000 -0.23876269 -0.86291599
12506875000 -0.24901018 -0.86350948
12606850000 -0.25373131 -0.86352366
12706825000 -0.25215089 -0.86291748
12806800000 -0.26050687 -0.85285628
12906775000 -0.27700254 -0.85610473
13006750000 -0.27259007 -0.8609395
13106725000 -0.2782096 -0.85086483
13206700000 -0.28414133 -0.84881246
13306675000 -0.2946617 -0.8440159
13406650000 -0.30429643 -0.84933639
13506625000 -0.29729414 -0.84712183
13606600000 -0.31139168 -0.83519101
13706575000 -0.31732899 -0.83960944
13806550000 -0.32370895 -0.83509541
13906525000 -0.32931036 -0.83874303
14006500000 -0.32285845 -0.83083385
14106475000 -0.34358904 -0.82291251
14206450000 -0.34685463 -0.83056432
14306425000 -0.34732562 -0.8194657
14406400000 -0.35490978 -0.81865686
14506375000 -0.35761881 -0.81175429
14606350000 -0.37712705 -0.8090961
14706325000 -0.36843181 -0.81793088
14806300000 -0.36808544 -0.80483204
14906275000 -0.38214299 -0.80035096
15006250000 -0.38738245 -0.79539859
15106225000 -0.39965081 -0.79858947
15206200000 -0.38419315 -0.80664933
15306175000 -0.38866517 -0.78670627
15406150000 -0.41048256 -0.77772361
15506125000 -0.40942848 -0.78582054
15606100000 -0.4089224 -0.78937477
15706075000 -0.40536815 -0.78292495
15806050000 -0.41317841 -0.76758283
15906025000 -0.42589882 -0.76998264
16006000000 -0.42042387 -0.78053933
16105975000 -0.42176592 -0.77019531
16205950000 -0.42686599 -0.76418567
16305925000 -0.42469066 -0.76320767
16405900000 -0.43409923 -0.7600674
16505875000 -0.44156465 -0.76447988
16605850000 -0.43820351 -0.75789624
16705825000 -0.43960479 -0.75632262
16805800000 -0.44368386 -0.75266927
16905775000 -0.45675206 -0.74934769
17005750000 -0.4551833 -0.7529031
17105725000 -0.45176417 -0.74507111
17205700000 -0.45898598 -0.74513543
17305675000 -0.4679836 -0.7393409
17405650000 -0.47439247 -0.74268627
17505625000 -0.46096531 -0.74362177
17605600000 -0.47218281 -0.72754109
17705575000 -0.48570722 -0.73138994
17805550000 -0.4837741 -0.73063058
17905525000 -0.47882789 -0.73680013
18005500000 -0.47757897 -0.7180025
18105475000 -0.51004702 -0.71201748
18205450000 -0.48894125 -0.74240679
18305425000 -0.47751707 -0.71566194
18405400000 -0.50683218 -0.71161801
18505375000 -0.50239289 -0.71505374
18605350000 -0.51091063 -0.71734846
18705325000 -0.48480147 -0.72472781
18805300000 -0.51596981 -0.68023348
18905275000 -0.53330618 -0.72680306
19005250000 -0.47388989 -0.72895384
19105225000 -0.52776742 -0.67479998
19205200000 -0.528229 -0.71618623
19305175000 -0.50597465 -0.70109314
19405150000 -0.52979034 -0.69581735
19505125000 -0.51740885 -0.69143963
19605100000 -0.55490321 -0.68065226
19705075000 -0.51948112 -0.71801454
19805050000 -0.51434183 -0.66648918
19905025000 -0.57295996 -0.67167139
20005000000 -0.52191204 -0.70238519
20104975000 -0.53894669 -0.65742153
20204950000 -0.56216449 -0.67813087
20304925000 -0.538104 -0.67792732
20404900000 -0.55487329 -0.66884953
20504875000 -0.5428654 -0.67202973
20604850000 -0.56081772 -0.65334505
20704825000 -0.55884427 -0.67760026
20804800000 -0.54402816 -0.65882242
20904775000 -0.57371253 -0.65159714
21004750000 -0.55618119 -0.67354828
21104725000 -0.55385798 -0.6490351
21204700000 -0.571657 -0.64997363
21304675000 -0.56641889 -0.65472376
21404650000 -0.56502736 -0.65441728
21504625000 -0.56347245 -0.6435436
21604600000 -0.58292854 -0.63817447
21704575000 -0.57077199 -0.65603852
21804550000 -0.56554836 -0.64071125
21904525000 -0.58188593 -0.63884085
22004500000 -0.57562417 -0.63929665
22104475000 -0.58190143 -0.63601655
22204450000 -0.57272571 -0.6374132
22304425000 -0.59084034 -0.62071925
22404400000 -0.59132802 -0.64202338
22504375000 -0.56784672 -0.63281894
22604350000 -0.59352404 -0.61549449
22704325000 -0.58783454 -0.62758219
22804300000 -0.59002346 -0.61501116
22904275000 -0.59364897 -0.6288017
23004250000 -0.58200777 -0.61413002
23104225000 -0.60895079 -0.60507286
23204200000 -0.59044522 -0.62400496
23304175000 -0.59202689 -0.60501683
23404150000 -0.60330403 -0.61182666
23504125000 -0.59401947 -0.60634327
23604100000 -0.60629296 -0.60262692
23704075000 -0.59132558 -0.60926121
23804050000 -0.60295916 -0.5893001
23904025000 -0.61464602 -0.60518539
24004000000 -0.59385514 -0.60711843
24103975000 -0.60390824 -0.59113443
24203950000 -0.60483086 -0.59474361
24303925000 -0.60945094 -0.58871371
24403900000 -0.61039555 -0.59791619
24503875000 -0.6038335 -0.58671576
24603850000 -0.61692339 -0.5843662
24703825000 -0.60442787 -0.59556544
24803800000 -0.60518366 -0.57527357
24903775000 -0.62142378 -0.58283097
25003750000 -0.60863739 -0.58761787
25103725000 -0.61194587 -0.57648778
25203700000 -0.61332738 -0.57775533
25303675000 -0.61979008 -0.57237351
25403650000 -0.61889136 -0.58635443
25503625000 -0.60326296 -0.57688153
25603600000 -0.62531656 -0.56299311
25703575000 -0.61626452 -0.58171499
25803550000 -0.61090457 -0.56101692
25903525000 -0.63092929 -0.56511664
26003500000 -0.61797297 -0.57305789
26103475000 -0.6219852 -0.56697363
26203450000 -0.61577785 -0.57174432
26303425000 -0.61923999 -0.55650514
26403400000 -0.62859857 -0.56712466
26503375000 -0.61595333 -0.55881524
26603350000 -0.63114405 -0.56054366
26703325000 -0.61709458 -0.57367349
26803300000 -0.61821747 -0.55546761
26903275000 -0.62890351 -0.56464314
27003250000 -0.62347406 -0.55517507
27103225000 -0.63249004 -0.56193018
27203200000 -0.61899012 -0.55914891
27303175000 -0.63635093 -0.54112399
27403150000 -0.63084227 -0.56380689
27503125000 -0.62665087 -0.54312497
27603100000 -0.649068 -0.55016971
27703075000 -0.62292057 -0.55868214
27803050000 -0.63468719 -0.54040164
27903025000 -0.62945145 -0.55106288
28003000000 -0.63984805 -0.52312267
28102975000 -0.65685087 -0.5571748
28202950000 -0.60965943 -0.56340349
28302925000 -0.63889384 -0.52308995
28402900000 -0.64594263 -0.55167782
28502875000 -0.63257945 -0.54163754
28602850000 -0.64894402 -0.54283917
28702825000 -0.63571924 -0.5422954
28802800000 -0.64927673 -0.53170389
28902775000 -0.63947606 -0.55565548
29002750000 -0.63056695 -0.52857912
29102725000 -0.66142809 -0.52725571
29202700000 -0.64544642 -0.5475418
29302675000 -0.63326341 -0.53106797
29402650000 -0.64610159 -0.52147567
29502625000 -0.65509081 -0.52957445
29602600000 -0.64975727 -0.54091948
29702575000 -0.63928151 -0.52796507
29802550000 -0.65479982 -0.52242708
29902525000 -0.64653504 -0.53680873
30002500000 -0.63339794 -0.52073914
30102475000 -0.65998775 -0.50992513
30202450000 -0.65994889 -0.52678329
30302425000 -0.65067059 -0.53188515
30402400000 -0.63949257 -0.5219714
30502375000 -0.65138978 -0.50690126
30602350000 -0.66537017 -0.51844555
30702325000 -0.64688873 -0.52761638
30802300000 -0.64818889 -0.49721757
30902275000 -0.66395974 -0.50737363
31002250000 -0.64750767 -0.51794749
31102225000 -0.64642876 -0.50990659
31202200000 -0.65728682 -0.49463233
31302175000 -0.66637534 -0.51177466
31402150000 -0.6406073 -0.52474296
31502125000 -0.64120239 -0.49312556
31602100000 -0.66902369 -0.49919766
31702075000 -0.6680401 -0.51436704
31802050000 -0.64855367 -0.52342498
31902025000 -0.63667858 -0.50617313
32002000000 -0.66515559 -0.49762192
32101975000 -0.66353178 -0.52911347
32201950000 -0.64593107 -0.50728917
32301925000 -0.66481709 -0.50380558
32401900000 -0.64638788 -0.5115692
32501875000 -0.66082627 -0.50063401
32601850000 -0.66047859 -0.52409464
32701825000 -0.64351153 -0.50398755
32801800000 -0.66495985 -0.4952434
32901775000 -0.65174359 -0.50895977
33001750000 -0.65571123 -0.49406135
33101725000 -0.65961379 -0.50979614
33201700000 -0.65816277 -0.49909624
33301675000 -0.66701812 -0.49375692
33401650000 -0.65256047 -0.50293857
33501625000 -0.66673172 -0.48612869
33601600000 -0.67723191 -0.50302792
33701575000 -0.65234429 -0.49803582
33801550000 -0.67236078 -0.48240331
33901525000 -0.67022341 -0.5092417
34001500000 -0.65743405 -0.50222743
34101475000 -0.67446816 -0.49486554
34201450000 -0.6625073 -0.49006525
34301425000 -0.67712867 -0.48866251
34401400000 -0.67100865 -0.50509274
34501375000 -0.66543704 -0.48456079
34601350000 -0.67996645 -0.5038929
34701325000 -0.64920074 -0.49627477
34801300000 -0.67871529 -0.46507138
34901275000 -0.67795914 -0.49785069
35001250000 -0.66022259 -0.49767697
35101225000 -0.66620344 -0.49267399
35201200000 -0.66342634 -0.4798494
35301175000 -0.69148868 -0.47354457
35401150000 -0.66919243 -0.51750267
35501125000 -0.65850461 -0.47578827
35601100000 -0.68292058 -0.48124748
35701075000 -0.66263193 -0.48327622
35801050000 -0.67501807 -0.47062019
35901025000 -0.67155528 -0.48265314
36001000000 -0.67034167 -0.46794233
36100975000 -0.67395353 -0.48027828
36200950000 -0.64974129 -0.46714896
36300925000 -0.68121868 -0.44124487
36400900000 -0.69630951 -0.4739643
36500875000 -0.65515363 -0.47834074
36600850000 -0.66765326 -0.46104705
36700825000 -0.67580795 -0.45148018
36800800000 -0.67965901 -0.45815608
36900775000 -0.67375159 -0.48802137
37000750000 -0.649813 -0.46349815
37100725000 -0.68032092 -0.4476915
37200700000 -0.68968147 -0.47135201
37300675000 -0.66007853 -0.47154924
37400650000 -0.66413134 -0.47248828
37500625000 -0.66369575 -0.48500708
37600600000 -0.6533255 -0.47767329
37700575000 -0.67087966 -0.46565327
37800550000 -0.66721094 -0.48180151
37900525000 -0.65793711 -0.4760288
38000500000 -0.66031706 -0.46047699
38100475000 -0.68896043 -0.47970116
38200450000 -0.66234654 -0.4905197
38300425000 -0.65231717 -0.46801031
38400400000 -0.67200255 -0.48024228
38500375000 -0.66186345 -0.47117344
38600350000 -0.68194765 -0.47018206
38700325000 -0.66715401 -0.48375911
38800300000 -0.66146988 -0.45326498
38900275000 -0.68686706 -0.48052657
39000250000 -0.6444968 -0.47599334
39100225000 -0.67826366 -0.44757661
39200200000 -0.66630983 -0.47764081
39300175000 -0.66927111 -0.44625932
39400150000 -0.68367898 -0.48489782
39500125000 -0.64998007 -0.45997486
39600100000 -0.69406176 -0.46215752
39700075000 -0.67791694 -0.50089264
39800050000 -0.67744291 -0.46665478
39900025000 -0.68828297 -0.47629562
40000000000 -0.70891875 -0.46166545
