!Agilent Technologies,N5247A,US51170167,A.09.90.10
!Agilent N5247A: A.09.90.10
!Date: Tuesday, November 22, 2016 15:32:58
!Correction: S22(Full 1 Port(2)) 
!S1P File: Measurement: S22:
# Hz S  RI   R 50
10000000 -0.026292527 -0.054856107
109975000 -0.032737333 -0.0059035029
209950000 -0.030873872 -0.008493172
309925000 -0.032039948 -0.012529121
409900000 -0.031806711 -0.017922048
509875000 -0.031014912 -0.022725267
609850000 -0.031279165 -0.027782083
709825000 -0.031304568 -0.031789474
809800000 -0.033546168 -0.036982737
909775000 -0.032703087 -0.043454234
1009750000 -0.032311372 -0.04702156
1109725000 -0.033765446 -0.0518125
1209700000 -0.034861282 -0.056547731
1309675000 -0.036197376 -0.062022995
1409650000 -0.035207152 -0.067006007
1509625000 -0.036510084 -0.07000266
1609600000 -0.038606599 -0.075959004
1709575000 -0.038684893 -0.080912627
1809550000 -0.039826289 -0.08615756
1909525000 -0.039922692 -0.089310788
2009500000 -0.043368865 -0.09308961
2109475000 -0.043991048 -0.10036974
2209450000 -0.043800268 -0.10276238
2309425000 -0.046840642 -0.10759524
2409400000 -0.047201909 -0.11103157
2509375000 -0.050343037 -0.11586979
2609350000 -0.050294437 -0.12205979
2709325000 -0.051415935 -0.1234229
2809300000 -0.055342525 -0.12932669
2909275000 -0.05590643 -0.13370579
3009250000 -0.059444156 -0.13847236
3109225000 -0.058086362 -0.14263247
3209200000 -0.062695689 -0.14326908
3309175000 -0.06602709 -0.15109971
3409150000 -0.065603822 -0.1553224
3509125000 -0.067144498 -0.15818727
3609100000 -0.069178961 -0.15976247
3709075000 -0.075452983 -0.16444351
3809050000 -0.074423857 -0.17329851
3909025000 -0.07310649 -0.17253527
4009000000 -0.078958899 -0.17549933
4108975000 -0.081195697 -0.18004829
4208950000 -0.083706819 -0.18584879
4308925000 -0.081363343 -0.18849495
4408900000 -0.087361522 -0.18847647
4508875000 -0.090264365 -0.19687037
4608850000 -0.089372545 -0.19741301
4708825000 -0.093283728 -0.20048721
4808800000 -0.093518704 -0.20442365
4908775000 -0.097768366 -0.20589268
5008750000 -0.099037178 -0.2125316
5108725000 -0.1002275 -0.2115072
5208700000 -0.10539893 -0.21622699
5308675000 -0.10428599 -0.21992242
5408650000 -0.1089761 -0.22136614
5508625000 -0.11129683 -0.22677356
5608600000 -0.11160118 -0.22776143
5708575000 -0.11563805 -0.23059453
5808550000 -0.11848612 -0.23374355
5908525000 -0.12106223 -0.23721261
6008500000 -0.12149434 -0.24263594
6108475000 -0.1215477 -0.24233592
6208450000 -0.12804508 -0.24397126
6308425000 -0.13054116 -0.25068724
6408400000 -0.12967075 -0.25460717
6508375000 -0.13095766 -0.25485387
6608350000 -0.1345551 -0.25592417
6708325000 -0.14160269 -0.26104409
6808300000 -0.13839537 -0.27086705
6908275000 -0.13531309 -0.26574835
7008250000 -0.14659175 -0.26671466
7108225000 -0.14916529 -0.27669704
7208200000 -0.14668858 -0.28106767
7308175000 -0.14456566 -0.28093985
7408150000 -0.15418436 -0.27624398
7508125000 -0.16267897 -0.29055035
7608100000 -0.15165222 -0.29617742
7708075000 -0.15687609 -0.28747657
7808050000 -0.16625668 -0.29293227
7908025000 -0.16897987 -0.29935995
8008000000 -0.16894153 -0.30686781
8107975000 -0.16657996 -0.30353364
8207950000 -0.1770476 -0.30326897
8307925000 -0.1800029 -0.3119123
8407900000 -0.18227783 -0.31257057
8507875000 -0.18556491 -0.31739473
8607850000 -0.18645725 -0.31661785
8707825000 -0.19394074 -0.31834492
8807800000 -0.1978692 -0.32089016
8907775000 -0.20501696 -0.32554662
9007750000 -0.2002213 -0.33156914
9107725000 -0.20509237 -0.32303262
9207700000 -0.21665135 -0.32889944
9307675000 -0.215837 -0.33359045
9407650000 -0.2201435 -0.3374877
9507625000 -0.21580184 -0.3379043
9607600000 -0.22666319 -0.33068225
9707575000 -0.23314524 -0.3431313
9807550000 -0.22710624 -0.34072095
9907525000 -0.23782264 -0.34030968
10007500000 -0.23609571 -0.34392393
10107475000 -0.24265999 -0.33954042
10207450000 -0.24735472 -0.34841156
10307425000 -0.24411875 -0.34555721
10407400000 -0.25327963 -0.34560576
10507375000 -0.25079301 -0.34850252
10607350000 -0.2578412 -0.34474403
10707325000 -0.26005188 -0.35138425
10807300000 -0.25785255 -0.3467606
10907275000 -0.26826313 -0.34643701
11007250000 -0.26791736 -0.35133567
11107225000 -0.26944765 -0.34896123
11207200000 -0.2726734 -0.35024723
11307175000 -0.27561706 -0.3476246
11407150000 -0.28239048 -0.35081375
11507125000 -0.27945116 -0.35512963
11607100000 -0.28211111 -0.35018682
11707075000 -0.28830296 -0.35191217
11807050000 -0.28896582 -0.35374454
11907025000 -0.2921465 -0.35482869
12007000000 -0.29133239 -0.35512367
12106975000 -0.29753086 -0.35161307
12206950000 -0.3022618 -0.3567889
12306925000 -0.29864249 -0.35793644
12406900000 -0.30327448 -0.3539117
12506875000 -0.30862707 -0.35670516
12606850000 -0.30900499 -0.36052242
12706825000 -0.30529517 -0.36183953
12806800000 -0.30935127 -0.3535699
12906775000 -0.32046488 -0.35984853
13006750000 -0.31357399 -0.36672598
13106725000 -0.31509927 -0.35994002
13206700000 -0.31812885 -0.36137548
13306675000 -0.32362518 -0.35785028
13406650000 -0.32925361 -0.36707154
13506625000 -0.3190833 -0.36614373
13606600000 -0.32953775 -0.35736427
13706575000 -0.33237475 -0.36574623
13806550000 -0.33408323 -0.36209819
13906525000 -0.33635837 -0.36940068
14006500000 -0.32908881 -0.36306518
14106475000 -0.34448975 -0.35841921
14206450000 -0.34313703 -0.37030911
14306425000 -0.34055597 -0.36212373
14406400000 -0.34563276 -0.36509216
14506375000 -0.34548339 -0.35898343
14606350000 -0.35983655 -0.36178476
14706325000 -0.34929752 -0.37528214
14806300000 -0.3463206 -0.36159551
14906275000 -0.35680458 -0.36099204
15006250000 -0.35859835 -0.36050069
15106225000 -0.36831272 -0.36825711
15206200000 -0.35279465 -0.37806079
15306175000 -0.35298982 -0.35797885
15406150000 -0.37171814 -0.35711047
15506125000 -0.36971575 -0.36967331
15606100000 -0.36629218 -0.37255612
15706075000 -0.3605426 -0.36913601
15806050000 -0.3656868 -0.35807249
15906025000 -0.37796876 -0.36530945
16006000000 -0.37156379 -0.37707126
16105975000 -0.36764035 -0.36829609
16205950000 -0.37255856 -0.36696842
16305925000 -0.37162617 -0.36917952
16405900000 -0.37791538 -0.36731657
16505875000 -0.38095757 -0.3733243
16605850000 -0.37703192 -0.37150803
16705825000 -0.37912691 -0.37258211
16805800000 -0.3811627 -0.36963803
16905775000 -0.39017856 -0.37055022
17005750000 -0.3860518 -0.37707976
17105725000 -0.3845278 -0.37204048
17205700000 -0.38976377 -0.37328944
17305675000 -0.39472696 -0.3695066
17405650000 -0.40030101 -0.37834474
17505625000 -0.38659596 -0.38004702
17605600000 -0.39514628 -0.36540094
17705575000 -0.40631565 -0.37388206
17805550000 -0.40401307 -0.37767926
17905525000 -0.3981193 -0.38505661
18005500000 -0.39437267 -0.36547473
18105475000 -0.4243696 -0.36786214
18205450000 -0.40500808 -0.398996
18305425000 -0.39320034 -0.37066808
18405400000 -0.41828701 -0.37180993
18505375000 -0.41283172 -0.37697273
18605350000 -0.42169785 -0.3851032
18705325000 -0.39391366 -0.38981441
18805300000 -0.42101806 -0.34686956
18905275000 -0.4424544 -0.40343559
19005250000 -0.38336599 -0.39798731
19105225000 -0.43029621 -0.34880218
19205200000 -0.43404758 -0.39894134
19305175000 -0.40885302 -0.38030341
19405150000 -0.43125102 -0.37918112
19505125000 -0.41677129 -0.37695754
19605100000 -0.44953975 -0.36849737
19705075000 -0.42223617 -0.40886435
19805050000 -0.41090298 -0.35722771
19905025000 -0.46438962 -0.36949575
20005000000 -0.42051375 -0.4015595
20104975000 -0.43132079 -0.35620001
20204950000 -0.45436624 -0.38180971
20304925000 -0.43143609 -0.38280264
20404900000 -0.44640839 -0.37594271
20504875000 -0.43486136 -0.38163379
20604850000 -0.44927591 -0.36557448
20704825000 -0.45016256 -0.39153782
20804800000 -0.43382519 -0.37404129
20904775000 -0.4608674 -0.37009129
21004750000 -0.44603226 -0.39374837
21104725000 -0.4417254 -0.37108779
21204700000 -0.45837027 -0.37538746
21304675000 -0.45339668 -0.3821876
21404650000 -0.45193452 -0.38306183
21504625000 -0.44872037 -0.37410781
21604600000 -0.46601626 -0.37213492
21704575000 -0.4570567 -0.39072153
21804550000 -0.45045841 -0.37609699
21904525000 -0.46405998 -0.37698421
22004500000 -0.45858085 -0.37968421
22104475000 -0.46462342 -0.37891072
22204450000 -0.45517811 -0.3815631
22304425000 -0.47015157 -0.36670226
22404400000 -0.47365761 -0.39114237
22504375000 -0.45062083 -0.38218886
22604350000 -0.47226393 -0.36860242
22704325000 -0.46777311 -0.38234973
22804300000 -0.47046623 -0.3716175
22904275000 -0.4741402 -0.38729823
23004250000 -0.46129969 -0.37314582
23104225000 -0.48617929 -0.36908683
23204200000 -0.47002226 -0.38924009
23304175000 -0.47011554 -0.36998406
23404150000 -0.48192883 -0.37952265
23504125000 -0.47289759 -0.37550083
23604100000 -0.48442483 -0.37598681
23704075000 -0.47053972 -0.38355607
23804050000 -0.47905812 -0.36391461
23904025000 -0.49234283 -0.38258776
24004000000 -0.47248513 -0.38533145
24103975000 -0.4803097 -0.37146541
24203950000 -0.4827303 -0.37633273
24303925000 -0.48696461 -0.37262839
24403900000 -0.48743516 -0.38278484
24503875000 -0.4810434 -0.37359509
24603850000 -0.49420464 -0.37372091
24703825000 -0.48265436 -0.3862665
24803800000 -0.48184049 -0.36709091
24903775000 -0.49824461 -0.37497437
25003750000 -0.48669425 -0.38174117
25103725000 -0.4898299 -0.37273666
25203700000 -0.4904618 -0.37633237
25303675000 -0.49527195 -0.37081516
25403650000 -0.49749297 -0.38607338
25503625000 -0.48102236 -0.37841824
25603600000 -0.50230402 -0.36732364
25703575000 -0.49432155 -0.38837877
25803550000 -0.48713058 -0.36827999
25903525000 -0.50842941 -0.37327763
26003500000 -0.49654478 -0.38279894
26103475000 -0.50009876 -0.37778673
26203450000 -0.49483001 -0.38410547
26303425000 -0.49710959 -0.36979792
26403400000 -0.50645477 -0.38072816
26503375000 -0.49592316 -0.37549087
26603350000 -0.51082212 -0.37830028
26703325000 -0.49738565 -0.39080697
26803300000 -0.49825412 -0.37325323
26903275000 -0.50706023 -0.38467428
27003250000 -0.50216925 -0.37687537
27103225000 -0.51210785 -0.38478944
27203200000 -0.49692187 -0.38414565
27303175000 -0.51486981 -0.36804116
27403150000 -0.51037371 -0.39094025
27503125000 -0.50203747 -0.36886594
27603100000 -0.52673501 -0.37822527
27703075000 -0.50280905 -0.39076525
27803050000 -0.51460552 -0.3722533
27903025000 -0.50798124 -0.38287285
28003000000 -0.51774061 -0.35938039
28102975000 -0.5378449 -0.39092055
28202950000 -0.49135628 -0.39672306
28302925000 -0.51702958 -0.35941243
28402900000 -0.52586508 -0.38907787
28502875000 -0.51121145 -0.37884375
28602850000 -0.52726799 -0.38161597
28702825000 -0.51663029 -0.38094813
28802800000 -0.52951378 -0.37223858
28902775000 -0.51998478 -0.39658916
29002750000 -0.51030123 -0.37271476
29102725000 -0.54261464 -0.37125662
29202700000 -0.5256747 -0.39422834
29302675000 -0.51235741 -0.37917885
29402650000 -0.52922004 -0.37079677
29502625000 -0.53529757 -0.37984881
29602600000 -0.52962339 -0.39085621
29702575000 -0.51862937 -0.38047606
29802550000 -0.5354538 -0.37562472
29902525000 -0.52829695 -0.39017409
30002500000 -0.51667339 -0.37538356
30102475000 -0.53823203 -0.36639529
30202450000 -0.53995132 -0.38211149
30302425000 -0.53259188 -0.38780031
30402400000 -0.52130502 -0.38011509
30502375000 -0.53182745 -0.36440215
30602350000 -0.54655695 -0.37917703
30702325000 -0.52849102 -0.39076617
30802300000 -0.5313552 -0.3632212
30902275000 -0.54545343 -0.374392
31002250000 -0.53231865 -0.38679543
31102225000 -0.52989417 -0.37592188
31202200000 -0.54068601 -0.36450765
31302175000 -0.54894298 -0.38025403
31402150000 -0.52941209 -0.39431417
31502125000 -0.52234799 -0.36494881
31602100000 -0.55173039 -0.36783272
31702075000 -0.55030596 -0.38653475
31802050000 -0.53427154 -0.39490306
31902025000 -0.52210122 -0.38095027
32002000000 -0.54908395 -0.36674657
32101975000 -0.54933006 -0.40188259
32201950000 -0.53081232 -0.38289663
32301925000 -0.54996336 -0.38081419
32401900000 -0.5326646 -0.38877577
32501875000 -0.54764289 -0.37614739
32601850000 -0.55005246 -0.39910465
32701825000 -0.52752048 -0.38088953
32801800000 -0.55287141 -0.37502778
32901775000 -0.54142261 -0.39179662
33001750000 -0.54348344 -0.3754572
33101725000 -0.54744649 -0.3927069
33201700000 -0.54153877 -0.38018066
33301675000 -0.55364162 -0.37594968
33401650000 -0.54426986 -0.38853791
33501625000 -0.55803633 -0.37415886
33601600000 -0.56712157 -0.38985056
33701575000 -0.53956115 -0.38140911
33801550000 -0.5640766 -0.36951309
33901525000 -0.56053656 -0.39496511
34001500000 -0.55059427 -0.39006177
34101475000 -0.56400895 -0.38216877
34201450000 -0.55520797 -0.37776136
34301425000 -0.5679177 -0.37878773
34401400000 -0.55972975 -0.39398471
34501375000 -0.5592705 -0.37662539
34601350000 -0.57096666 -0.39714456
34701325000 -0.53868484 -0.38615128
34801300000 -0.56799877 -0.35775402
34901275000 -0.5684405 -0.39373142
35001250000 -0.55239469 -0.39371035
35101225000 -0.55843925 -0.38763759
35201200000 -0.55288041 -0.37305957
35301175000 -0.5839501 -0.37434283
35401150000 -0.56181866 -0.41072112
35501125000 -0.5514558 -0.37525862
35601100000 -0.5700748 -0.38028646
35701075000 -0.55874163 -0.3798129
35801050000 -0.57215577 -0.36810321
35901025000 -0.56324208 -0.3833926
36001000000 -0.56458217 -0.36824837
36100975000 -0.56758398 -0.38397095
36200950000 -0.54389173 -0.36593419
36300925000 -0.57057458 -0.34386238
36400900000 -0.58819139 -0.37737662
36500875000 -0.55332619 -0.38420415
36600850000 -0.55759406 -0.36801705
36700825000 -0.57453865 -0.36216965
36800800000 -0.57833576 -0.37364337
36900775000 -0.56409931 -0.39204952
37000750000 -0.55150831 -0.37526619
37100725000 -0.57214028 -0.35751379
37200700000 -0.58649266 -0.37474194
37300675000 -0.55794364 -0.38256782
37400650000 -0.5623796 -0.38368595
37500625000 -0.56129688 -0.39410311
37600600000 -0.54864591 -0.38636899
37700575000 -0.57426709 -0.37500679
37800550000 -0.56497097 -0.40311995
37900525000 -0.55420637 -0.39085731
38000500000 -0.56011134 -0.38119197
38100475000 -0.58314484 -0.39375696
38200450000 -0.56604773 -0.4066003
38300425000 -0.55151224 -0.38619146
38400400000 -0.57331818 -0.3883301
38500375000 -0.5606069 -0.39223889
38600350000 -0.58379865 -0.38509247
38700325000 -0.56922168 -0.39597175
38800300000 -0.56356645 -0.37168896
38900275000 -0.5864771 -0.39859971
39000250000 -0.54742652 -0.39512515
39100225000 -0.57627165 -0.36023632
39200200000 -0.56617403 -0.39478996
39300175000 -0.57204968 -0.36942187
39400150000 -0.5862385 -0.40339518
39500125000 -0.55585957 -0.37857074
39600100000 -0.60050625 -0.3821027
39700075000 -0.58119756 -0.4158012
39800050000 -0.57393825 -0.38768086
39900025000 -0.58851427 -0.39382291
40000000000 -0.6068508 -0.38663843
