!Agilent Technologies,N5247A,US51170167,A.09.90.10
!Agilent N5247A: A.09.90.10
!Date: Tuesday, November 22, 2016 15:33:46
!Correction: S22(Full 1 Port(2)) 
!S1P File: Measurement: S22:
# Hz S  RI   R 50
10000000 -0.12555167 -0.041428085
109975000 -0.11829168 -0.0044997446
209950000 -0.11642465 -0.0060230317
309925000 -0.11767139 -0.0088473661
409900000 -0.116891 -0.013462577
509875000 -0.11603465 -0.017049622
609850000 -0.11581992 -0.020665744
709825000 -0.11592522 -0.023366954
809800000 -0.11774738 -0.027753055
909775000 -0.11667579 -0.032811638
1009750000 -0.11626749 -0.03522782
1109725000 -0.11728188 -0.039384309
1209700000 -0.11773191 -0.042720255
1309675000 -0.11907387 -0.047259036
1409650000 -0.11774143 -0.051274847
1509625000 -0.11863085 -0.052928168
1609600000 -0.12050416 -0.058609884
1709575000 -0.12032072 -0.062133461
1809550000 -0.12110899 -0.066264726
1909525000 -0.12046476 -0.068560421
2009500000 -0.12363441 -0.071534373
2109475000 -0.12368339 -0.077541769
2209450000 -0.12370073 -0.079239346
2309425000 -0.12593746 -0.08302626
2409400000 -0.12567668 -0.085887782
2509375000 -0.12870286 -0.089571796
2609350000 -0.12816466 -0.094798632
2709325000 -0.12866406 -0.095197506
2809300000 -0.13228497 -0.099999443
2909275000 -0.13145895 -0.10358867
3009250000 -0.13467842 -0.10747699
3109225000 -0.13237336 -0.11117828
3209200000 -0.13673629 -0.1107104
3309175000 -0.13947707 -0.11793732
3409150000 -0.13823181 -0.12100644
3509125000 -0.13926744 -0.12346672
3609100000 -0.14030951 -0.12448071
3709075000 -0.14609957 -0.12820564
3809050000 -0.14440757 -0.13664067
3909025000 -0.1426333 -0.13496736
4009000000 -0.14765312 -0.1375756
4108975000 -0.14944525 -0.14161564
4208950000 -0.15102983 -0.14690565
4308925000 -0.14820559 -0.1488546
4408900000 -0.15337242 -0.14838067
4508875000 -0.15575968 -0.15615311
4608850000 -0.15427923 -0.15662073
4708825000 -0.15800558 -0.15928848
4808800000 -0.15744697 -0.16292562
4908775000 -0.16129021 -0.16364011
5008750000 -0.16177455 -0.16995575
5108725000 -0.16256487 -0.16881624
5208700000 -0.16706109 -0.17300877
5308675000 -0.16548245 -0.17646624
5408650000 -0.16943265 -0.17697272
5508625000 -0.17157578 -0.18212983
5608600000 -0.17148499 -0.18258238
5708575000 -0.17530988 -0.18504523
5808550000 -0.17751649 -0.18766266
5908525000 -0.17976171 -0.19094643
6008500000 -0.17992814 -0.19534943
6108475000 -0.18015008 -0.1948974
6208450000 -0.18604277 -0.19599019
6308425000 -0.18864189 -0.20187737
6408400000 -0.18698449 -0.20510018
6508375000 -0.18795955 -0.20510146
6608350000 -0.19177812 -0.20515396
6708325000 -0.19818313 -0.20948476
6808300000 -0.19449513 -0.21885824
6908275000 -0.19081466 -0.21263842
7008250000 -0.20209651 -0.21276212
7108225000 -0.20424405 -0.22187001
7208200000 -0.20134579 -0.22544031
7308175000 -0.19871762 -0.22460701
7408150000 -0.20790187 -0.21832761
7508125000 -0.21530902 -0.2315366
7608100000 -0.20428231 -0.23601744
7708075000 -0.20851348 -0.22620609
7808050000 -0.21689199 -0.23051897
7908025000 -0.21892641 -0.23615342
8008000000 -0.21771741 -0.24236357
8107975000 -0.21408747 -0.23786598
8207950000 -0.22387117 -0.23635755
8307925000 -0.22537619 -0.24407631
8407900000 -0.22595185 -0.24344262
8507875000 -0.22766283 -0.24772909
8607850000 -0.22696652 -0.24600993
8707825000 -0.23312168 -0.24721521
8807800000 -0.23501681 -0.24852154
8907775000 -0.23999546 -0.25318974
9007750000 -0.23383725 -0.25879782
9107725000 -0.23683268 -0.24980386
9207700000 -0.24645422 -0.25554115
9307675000 -0.24399553 -0.26013497
9407650000 -0.24663286 -0.2640425
9507625000 -0.24076124 -0.26456919
9607600000 -0.24953273 -0.2575573
9707575000 -0.25460938 -0.2703321
9807550000 -0.24682736 -0.26820645
9907525000 -0.2562837 -0.26740089
10007500000 -0.25251257 -0.27217507
10107475000 -0.25784606 -0.26842916
10207450000 -0.26101616 -0.2782774
10307425000 -0.25626755 -0.27603033
10407400000 -0.26432005 -0.27679414
10507375000 -0.26073647 -0.28069016
10607350000 -0.26717734 -0.27725914
10707325000 -0.2680285 -0.28511041
10807300000 -0.2649245 -0.28085852
10907275000 -0.27370206 -0.28162786
11007250000 -0.27290913 -0.28725344
11107225000 -0.27368495 -0.28577024
11207200000 -0.27614751 -0.28811157
11307175000 -0.27843308 -0.28632072
11407150000 -0.28416932 -0.29033267
11507125000 -0.28114107 -0.29557684
11607100000 -0.28271407 -0.29130214
11707075000 -0.28844571 -0.29378793
11807050000 -0.28883386 -0.29653829
11907025000 -0.29089403 -0.29832989
12007000000 -0.29049873 -0.29920325
12106975000 -0.29558209 -0.29640642
12206950000 -0.30003098 -0.30245543
12306925000 -0.29616067 -0.30447271
12406900000 -0.30019322 -0.30094233
12506875000 -0.30541414 -0.30458757
12606850000 -0.30538449 -0.30910796
12706825000 -0.30157641 -0.310877
12806800000 -0.30525079 -0.30338362
12906775000 -0.31652373 -0.31044245
13006750000 -0.30909896 -0.31798881
13106725000 -0.31051651 -0.31157568
13206700000 -0.31366146 -0.31330487
13306675000 -0.31867233 -0.31013793
13406650000 -0.32417631 -0.32045308
13506625000 -0.31373155 -0.31977886
13606600000 -0.32407981 -0.311461
13706575000 -0.32677737 -0.32060766
13806550000 -0.3276563 -0.31750005
13906525000 -0.32998568 -0.32574299
14006500000 -0.32328597 -0.31948894
14106475000 -0.33807564 -0.31475714
14206450000 -0.33682248 -0.32773897
14306425000 -0.33364227 -0.32023272
14406400000 -0.33874896 -0.32319769
14506375000 -0.33839533 -0.31752631
14606350000 -0.35272655 -0.32061416
14706325000 -0.34230343 -0.33514768
14806300000 -0.33939958 -0.32152432
14906275000 -0.34979963 -0.32173258
15006250000 -0.35158378 -0.32091823
15106225000 -0.36094254 -0.32996646
15206200000 -0.34580576 -0.33940369
15306175000 -0.34568557 -0.31959674
15406150000 -0.36401412 -0.319536
15506125000 -0.36227107 -0.33274937
15606100000 -0.35902685 -0.33549464
15706075000 -0.35359484 -0.33247799
15806050000 -0.35822096 -0.32163322
15906025000 -0.37080148 -0.32955322
16006000000 -0.36418954 -0.34111837
16105975000 -0.36020252 -0.33308545
16205950000 -0.365246 -0.33224535
16305925000 -0.36440507 -0.33431673
16405900000 -0.37045079 -0.33296442
16505875000 -0.37362209 -0.33904475
16605850000 -0.36955857 -0.33784106
16705825000 -0.37196982 -0.33882052
16805800000 -0.37381801 -0.3359668
16905775000 -0.38245675 -0.33700189
17005750000 -0.37893105 -0.34404856
17105725000 -0.37771899 -0.33921602
17205700000 -0.3824968 -0.34015858
17305675000 -0.38727933 -0.33728483
17405650000 -0.39288324 -0.34636334
17505625000 -0.37926957 -0.34816563
17605600000 -0.38791823 -0.33313492
17705575000 -0.39879748 -0.34208491
17805550000 -0.39629096 -0.34592283
17905525000 -0.39045623 -0.35338017
18005500000 -0.38675225 -0.33411723
18105475000 -0.41678911 -0.33685923
18205450000 -0.39784297 -0.36821464
18305425000 -0.38557008 -0.34017643
18405400000 -0.41113433 -0.34186497
18505375000 -0.40509897 -0.34660739
18605350000 -0.41460189 -0.35545278
18705325000 -0.38674882 -0.35994577
18805300000 -0.41373843 -0.31682718
18905275000 -0.43510395 -0.37379655
19005250000 -0.37571982 -0.36754653
19105225000 -0.42279562 -0.31924519
19205200000 -0.42643744 -0.37009108
19305175000 -0.40116194 -0.35067827
19405150000 -0.42364714 -0.35005826
19505125000 -0.40930906 -0.34743816
19605100000 -0.44180083 -0.33958748
19705075000 -0.41481966 -0.38039714
19805050000 -0.40296385 -0.32796144
19905025000 -0.45617232 -0.34117395
20005000000 -0.41291541 -0.37264141
20104975000 -0.42306507 -0.32767904
20204950000 -0.44584155 -0.35389379
20304925000 -0.42327175 -0.35438851
20404900000 -0.4380793 -0.34809187
20504875000 -0.42670143 -0.35361931
20604850000 -0.44113737 -0.33836511
20704825000 -0.44164786 -0.36441496
20804800000 -0.42532331 -0.3467029
20904775000 -0.4523069 -0.34300637
21004750000 -0.43800536 -0.3663533
21104725000 -0.43295109 -0.34427783
21204700000 -0.44970998 -0.34852564
21304675000 -0.44515315 -0.35532686
21404650000 -0.44347772 -0.35582516
21504625000 -0.43994582 -0.34778562
21604600000 -0.45735478 -0.34551129
21704575000 -0.44843605 -0.36414534
21804550000 -0.44178489 -0.34973842
21904525000 -0.45506093 -0.3509399
22004500000 -0.44949403 -0.35355917
22104475000 -0.45542929 -0.353172
22204450000 -0.44634855 -0.35547376
22304425000 -0.4609434 -0.3407588
22404400000 -0.46451634 -0.36537096
22504375000 -0.44148555 -0.35641062
22604350000 -0.46288025 -0.34272873
22704325000 -0.45799282 -0.35741881
22804300000 -0.46112528 -0.34625727
22904275000 -0.46496984 -0.36219984
23004250000 -0.45154727 -0.34810743
23104225000 -0.47690621 -0.3442705
23204200000 -0.46053597 -0.36498612
23304175000 -0.46026617 -0.34504554
23404150000 -0.47210738 -0.35487705
23504125000 -0.46265271 -0.35122842
23604100000 -0.47436994 -0.35160321
23704075000 -0.46035847 -0.35892302
23804050000 -0.46909341 -0.33994043
23904025000 -0.48319533 -0.35854104
24004000000 -0.46257246 -0.36203244
24103975000 -0.47035226 -0.3478573
24203950000 -0.4727546 -0.35273924
24303925000 -0.47652736 -0.34915429
24403900000 -0.47751251 -0.3589558
24503875000 -0.47075367 -0.35012168
24603850000 -0.48388523 -0.35044631
24703825000 -0.47213772 -0.36281696
24803800000 -0.47166452 -0.34367779
24903775000 -0.48806086 -0.35210177
25003750000 -0.47620675 -0.35923958
25103725000 -0.47950351 -0.34998119
25203700000 -0.47976547 -0.35378715
25303675000 -0.48458663 -0.34906328
25403650000 -0.48682263 -0.36341253
25503625000 -0.47131416 -0.35591981
25603600000 -0.49103415 -0.34495115
25703575000 -0.48389697 -0.36597979
25803550000 -0.4757123 -0.34663332
25903525000 -0.49714747 -0.35111275
26003500000 -0.48604268 -0.361045
26103475000 -0.48888642 -0.35634223
26203450000 -0.48413202 -0.36243984
26303425000 -0.4858388 -0.34879822
26403400000 -0.49530479 -0.35959059
26503375000 -0.48579857 -0.35363764
26603350000 -0.49875811 -0.35681018
26703325000 -0.48653138 -0.36962402
26803300000 -0.48633555 -0.35293025
26903275000 -0.49685091 -0.36538783
27003250000 -0.48951197 -0.35573408
27103225000 -0.50337917 -0.36211777
27203200000 -0.48584053 -0.36317304
27303175000 -0.50445998 -0.34708753
27403150000 -0.49920559 -0.37160188
27503125000 -0.48932913 -0.3500866
27603100000 -0.51664513 -0.35699111
27703075000 -0.4923313 -0.36978072
27803050000 -0.50166255 -0.3530753
27903025000 -0.49664158 -0.36165553
28003000000 -0.50643104 -0.33759332
28102975000 -0.52680802 -0.37198344
28202950000 -0.47911075 -0.37723306
28302925000 -0.50517899 -0.34089389
28402900000 -0.51435596 -0.37043944
28502875000 -0.49857739 -0.36035597
28602850000 -0.51529783 -0.3608723
28702825000 -0.50349963 -0.36378276
28802800000 -0.51699269 -0.35458767
28902775000 -0.50835931 -0.379913
29002750000 -0.49843892 -0.35403484
29102725000 -0.52942747 -0.35348326
29202700000 -0.51412374 -0.37661275
29302675000 -0.50072765 -0.35951194
29402650000 -0.51581419 -0.35355848
29502625000 -0.52266872 -0.36233583
29602600000 -0.51814294 -0.3724291
29702575000 -0.50690937 -0.36152926
29802550000 -0.52226788 -0.35716677
29902525000 -0.51759541 -0.37073842
30002500000 -0.50399619 -0.35884714
30102475000 -0.52698863 -0.34872231
30202450000 -0.52683133 -0.36489648
30302425000 -0.51889271 -0.37050676
30402400000 -0.50682181 -0.36276507
30502375000 -0.51851845 -0.34725401
30602350000 -0.53531569 -0.36246106
30702325000 -0.51628137 -0.37432995
30802300000 -0.51850539 -0.3432759
30902275000 -0.53431284 -0.35730284
31002250000 -0.51782018 -0.36915067
31102225000 -0.51652426 -0.35845226
31202200000 -0.52759087 -0.34660089
31302175000 -0.53764379 -0.36301583
31402150000 -0.51661569 -0.37857145
31502125000 -0.51110435 -0.34876484
31602100000 -0.53954923 -0.3526206
31702075000 -0.53857517 -0.3696135
31802050000 -0.52191961 -0.37938815
31902025000 -0.51111078 -0.36378792
32002000000 -0.53458506 -0.35088012
32101975000 -0.53853601 -0.38495472
32201950000 -0.51646829 -0.36483198
32301925000 -0.53762448 -0.36327004
32401900000 -0.52158266 -0.37291336
32501875000 -0.53391367 -0.35872746
32601850000 -0.53552413 -0.38567552
32701825000 -0.51334262 -0.36645985
32801800000 -0.53980744 -0.35846272
32901775000 -0.52814531 -0.37433788
33001750000 -0.53124422 -0.3586129
33101725000 -0.53816801 -0.37494501
33201700000 -0.53180438 -0.36310217
33301675000 -0.54164189 -0.36309505
33401650000 -0.5319072 -0.37570047
33501625000 -0.54229552 -0.35743579
33601600000 -0.55398494 -0.37699875
33701575000 -0.52672982 -0.36681756
33801550000 -0.55113631 -0.35602003
33901525000 -0.54593694 -0.38204348
34001500000 -0.53323179 -0.37365782
34101475000 -0.54985029 -0.36700609
34201450000 -0.54178256 -0.36363351
34301425000 -0.55770892 -0.36478543
34401400000 -0.54613823 -0.38081315
34501375000 -0.54184765 -0.35860795
34601350000 -0.55905545 -0.38215256
34701325000 -0.52682066 -0.37326154
34801300000 -0.55664289 -0.34706777
34901275000 -0.5561226 -0.3812131
35001250000 -0.53906554 -0.37812337
35101225000 -0.54546177 -0.37658408
35201200000 -0.53722137 -0.36040777
35301175000 -0.57103014 -0.35953638
35401150000 -0.54857546 -0.39860231
35501125000 -0.53556299 -0.36094987
35601100000 -0.55730999 -0.36613697
35701075000 -0.54471946 -0.36832166
35801050000 -0.55704659 -0.35424986
35901025000 -0.55190146 -0.36952284
36001000000 -0.5516268 -0.35394704
36100975000 -0.5564059 -0.3724353
36200950000 -0.52870685 -0.35791805
36300925000 -0.55948859 -0.33117774
36400900000 -0.57324272 -0.36393157
36500875000 -0.53743684 -0.37142459
36600850000 -0.54044652 -0.35638741
36700825000 -0.55720776 -0.34864539
36800800000 -0.56644088 -0.35950789
36900775000 -0.54927796 -0.38206196
37000750000 -0.5379476 -0.36339176
37100725000 -0.55581033 -0.34637886
37200700000 -0.57314509 -0.36696473
37300675000 -0.55125231 -0.37205309
37400650000 -0.55233842 -0.36953738
37500625000 -0.55163532 -0.38272282
37600600000 -0.53546983 -0.37806609
37700575000 -0.5603615 -0.36591062
37800550000 -0.55158675 -0.39101461
37900525000 -0.54037201 -0.37558499
38000500000 -0.54863191 -0.36814985
38100475000 -0.571477 -0.38510376
38200450000 -0.55105406 -0.39006472
38300425000 -0.53956372 -0.37444896
38400400000 -0.55704159 -0.37840402
38500375000 -0.54922748 -0.38197967
38600350000 -0.56906796 -0.38055629
38700325000 -0.55365169 -0.38916379
38800300000 -0.54731947 -0.36152041
38900275000 -0.57569963 -0.38737434
39000250000 -0.53014821 -0.37982193
39100225000 -0.55814087 -0.35614145
39200200000 -0.55705184 -0.38397741
39300175000 -0.56181842 -0.35814095
39400150000 -0.57373637 -0.38845557
39500125000 -0.54300493 -0.36765075
39600100000 -0.58378494 -0.37111706
39700075000 -0.56506038 -0.40655053
39800050000 -0.56221014 -0.37548259
39900025000 -0.57792825 -0.38248563
40000000000 -0.60085744 -0.37693062
