!Agilent Technologies,N5247A,US51170167,A.09.90.10
!Agilent N5247A: A.09.90.10
!Date: Tuesday, November 22, 2016 15:33:20
!Correction: S22(Full 1 Port(2)) 
!S1P File: Measurement: S22:
# Hz S  RI   R 50
10000000 -0.067246877 -0.030780334
109975000 -0.077912152 -0.005555965
209950000 -0.077052578 -0.006863737
309925000 -0.077963531 -0.01078653
409900000 -0.077716656 -0.015524349
509875000 -0.077093385 -0.019866375
609850000 -0.076788343 -0.024038538
709825000 -0.0769215 -0.027622731
809800000 -0.079013214 -0.032076295
909775000 -0.078111552 -0.037668381
1009750000 -0.077463642 -0.040859587
1109725000 -0.078953639 -0.045263875
1209700000 -0.079690136 -0.049101371
1309675000 -0.081212722 -0.054234494
1409650000 -0.079844646 -0.058867015
1509625000 -0.081126735 -0.06088252
1609600000 -0.082782887 -0.066717111
1709575000 -0.08308623 -0.071039513
1809550000 -0.084137551 -0.075381875
1909525000 -0.083682805 -0.07842724
2009500000 -0.087335184 -0.081546955
2109475000 -0.087518498 -0.088186465
2209450000 -0.087428309 -0.090055309
2309425000 -0.090148956 -0.094158813
2409400000 -0.090205014 -0.097381428
2509375000 -0.093332365 -0.10174005
2609350000 -0.092992499 -0.10748726
2709325000 -0.093857646 -0.10765149
2809300000 -0.097507142 -0.11311112
2909275000 -0.097216912 -0.11690789
3009250000 -0.10076509 -0.12116153
3109225000 -0.098928034 -0.12494726
3209200000 -0.1031421 -0.12520249
3309175000 -0.10623716 -0.1327654
3409150000 -0.10537877 -0.13621286
3509125000 -0.10633117 -0.13899411
3609100000 -0.10790478 -0.13992633
3709075000 -0.11404677 -0.14451446
3809050000 -0.11264126 -0.15286286
3909025000 -0.11125744 -0.15210016
4009000000 -0.11616483 -0.15463158
4108975000 -0.11839186 -0.15884022
4208950000 -0.12048889 -0.16402678
4308925000 -0.11780348 -0.16665128
4408900000 -0.12352495 -0.16602154
4508875000 -0.12599598 -0.17454588
4608850000 -0.12444952 -0.17491439
4708825000 -0.12880421 -0.17799386
4808800000 -0.1284027 -0.18139891
4908775000 -0.13253772 -0.18286493
5008750000 -0.13361597 -0.18914886
5108725000 -0.13425224 -0.18838048
5208700000 -0.13965568 -0.19252254
5308675000 -0.13785195 -0.19599949
5408650000 -0.14218552 -0.19694754
5508625000 -0.14479783 -0.20260108
5608600000 -0.14463165 -0.20289648
5708575000 -0.14915793 -0.20520237
5808550000 -0.15168907 -0.20861998
5908525000 -0.15429823 -0.21197131
6008500000 -0.15470664 -0.21638647
6108475000 -0.1547921 -0.21573865
6208450000 -0.16136557 -0.21713206
6308425000 -0.16400757 -0.22348757
6408400000 -0.16297089 -0.2269302
6508375000 -0.1641106 -0.22681333
6608350000 -0.16796486 -0.22699024
6708325000 -0.1748959 -0.23142481
6808300000 -0.17140774 -0.24074203
6908275000 -0.16796298 -0.23475936
7008250000 -0.17983675 -0.2351155
7108225000 -0.18186589 -0.24390061
7208200000 -0.17936295 -0.2476269
7308175000 -0.17661399 -0.24685764
7408150000 -0.18575437 -0.24084434
7508125000 -0.19407526 -0.25431797
7608100000 -0.18279871 -0.25922343
7708075000 -0.18732585 -0.24900442
7808050000 -0.19589236 -0.25362033
7908025000 -0.19864263 -0.2595039
8008000000 -0.19732012 -0.26536551
8107975000 -0.19431576 -0.26129341
8207950000 -0.20385116 -0.26001552
8307925000 -0.20575699 -0.26805323
8407900000 -0.20672399 -0.26769307
8507875000 -0.20873027 -0.27158588
8607850000 -0.20826803 -0.27019501
8707825000 -0.21458675 -0.27125016
8807800000 -0.21673834 -0.27255747
8907775000 -0.22233567 -0.27755746
9007750000 -0.21602848 -0.28324929
9107725000 -0.21947324 -0.27450651
9207700000 -0.22943184 -0.2799862
9307675000 -0.22698854 -0.28405219
9407650000 -0.23005275 -0.28849208
9507625000 -0.22410987 -0.289428
9607600000 -0.23343621 -0.28248125
9707575000 -0.23851079 -0.29569241
9807550000 -0.23135765 -0.29334503
9907525000 -0.24049355 -0.29308391
10007500000 -0.23760645 -0.29746932
10107475000 -0.24302764 -0.29379025
10207450000 -0.24670319 -0.30326968
10307425000 -0.24187665 -0.30118629
10407400000 -0.24997681 -0.30240688
10507375000 -0.24688551 -0.3062996
10607350000 -0.2532596 -0.30310762
10707325000 -0.25466588 -0.31078097
10807300000 -0.25165272 -0.30680174
10907275000 -0.2611939 -0.30732024
11007250000 -0.2603772 -0.31356952
11107225000 -0.2614986 -0.31210646
11207200000 -0.2638424 -0.31424835
11307175000 -0.26662385 -0.31250852
11407150000 -0.27278155 -0.3169359
11507125000 -0.26981828 -0.32197079
11607100000 -0.27193943 -0.31762642
11707075000 -0.27809766 -0.32037735
11807050000 -0.27838263 -0.32326519
11907025000 -0.28122512 -0.32503748
12007000000 -0.28059176 -0.32607254
12106975000 -0.28665206 -0.322873
12206950000 -0.29138193 -0.32932723
12306925000 -0.28707731 -0.33131418
12406900000 -0.29236186 -0.3277472
12506875000 -0.29757386 -0.3313922
12606850000 -0.29761764 -0.33592629
12706825000 -0.2943162 -0.33781716
12806800000 -0.29887414 -0.3304038
12906775000 -0.30985159 -0.33728769
13006750000 -0.30326873 -0.34447992
13106725000 -0.30438864 -0.33845666
13206700000 -0.30781972 -0.33970559
13306675000 -0.31365892 -0.33690965
13406650000 -0.31951162 -0.34701633
13506625000 -0.30948475 -0.34628838
13606600000 -0.32001767 -0.33783406
13706575000 -0.32309374 -0.34681812
13806550000 -0.32434198 -0.34392813
13906525000 -0.327234 -0.35146284
14006500000 -0.32029268 -0.3453432
14106475000 -0.33636847 -0.34073159
14206450000 -0.33499148 -0.3531484
14306425000 -0.33202809 -0.34531847
14406400000 -0.33742735 -0.34813008
14506375000 -0.33729169 -0.34270027
14606350000 -0.35234115 -0.34572855
14706325000 -0.34157932 -0.35979304
14806300000 -0.33913207 -0.34571445
14906275000 -0.34970382 -0.3461515
15006250000 -0.35231367 -0.3453359
15106225000 -0.36144251 -0.35327429
15206200000 -0.34667143 -0.36288247
15306175000 -0.34658563 -0.34297025
15406150000 -0.36558488 -0.34243113
15506125000 -0.36395088 -0.35525903
15606100000 -0.36113754 -0.35796577
15706075000 -0.35495022 -0.3549636
15806050000 -0.36029953 -0.34381634
15906025000 -0.37316725 -0.35126826
16006000000 -0.36623842 -0.36250445
16105975000 -0.36281472 -0.3541517
16205950000 -0.36773148 -0.35280955
16305925000 -0.36683246 -0.35509923
16405900000 -0.37350684 -0.35315439
16505875000 -0.3761178 -0.3592917
16605850000 -0.3725262 -0.35793361
16705825000 -0.37472668 -0.35847265
16805800000 -0.37685633 -0.35569611
16905775000 -0.38557786 -0.3562701
17005750000 -0.38225061 -0.36300242
17105725000 -0.38074109 -0.35804075
17205700000 -0.38591653 -0.35886693
17305675000 -0.39050823 -0.35534307
17405650000 -0.39597958 -0.36433595
17505625000 -0.38259733 -0.36638403
17605600000 -0.39128426 -0.35121977
17705575000 -0.40233013 -0.3600218
17805550000 -0.39972806 -0.3635816
17905525000 -0.39416975 -0.37049988
18005500000 -0.39050519 -0.35155988
18105475000 -0.42049545 -0.35382584
18205450000 -0.40119758 -0.38520065
18305425000 -0.38915312 -0.35658297
18405400000 -0.41458687 -0.35797828
18505375000 -0.4089196 -0.36283505
18605350000 -0.41819194 -0.37114903
18705325000 -0.39080581 -0.37589782
18805300000 -0.41735354 -0.33341658
18905275000 -0.43890411 -0.38994119
19005250000 -0.37908921 -0.38383153
19105225000 -0.42624804 -0.33507898
19205200000 -0.43040413 -0.38539952
19305175000 -0.40501705 -0.36604422
19405150000 -0.427268 -0.36544237
19505125000 -0.41295582 -0.36247081
19605100000 -0.44506338 -0.3544102
19705075000 -0.41795725 -0.39541396
19805050000 -0.40694043 -0.34296927
19905025000 -0.45981988 -0.35582668
20005000000 -0.41622123 -0.38772047
20104975000 -0.42653084 -0.34233549
20204950000 -0.44994599 -0.3684909
20304925000 -0.42683429 -0.36899391
20404900000 -0.44186059 -0.36276057
20504875000 -0.43049225 -0.36811101
20604850000 -0.44495782 -0.35213813
20704825000 -0.44558942 -0.37839273
20804800000 -0.42914921 -0.36109611
20904775000 -0.45598796 -0.35742846
21004750000 -0.44115037 -0.38030374
21104725000 -0.43694186 -0.35817641
21204700000 -0.453058 -0.36251548
21304675000 -0.44875318 -0.36914745
21404650000 -0.44714698 -0.36974686
21504625000 -0.44380268 -0.36138999
21604600000 -0.46075574 -0.35901776
21704575000 -0.45199025 -0.37796634
21804550000 -0.44549316 -0.36354494
21904525000 -0.45902413 -0.36402768
22004500000 -0.45340624 -0.36663088
22104475000 -0.45907763 -0.36629954
22204450000 -0.45035028 -0.36868829
22304425000 -0.46538228 -0.35441294
22404400000 -0.46808589 -0.37828407
22504375000 -0.44512224 -0.36995181
22604350000 -0.46679059 -0.35582322
22704325000 -0.4623847 -0.36984915
22804300000 -0.46588197 -0.35935065
22904275000 -0.4683165 -0.37523991
23004250000 -0.45538816 -0.36137784
23104225000 -0.4805949 -0.35677293
23204200000 -0.46435085 -0.3770434
23304175000 -0.46424761 -0.35785341
23404150000 -0.47579876 -0.36701214
23504125000 -0.4665767 -0.36378682
23604100000 -0.47848037 -0.36375502
23704075000 -0.46404189 -0.3715314
23804050000 -0.47321162 -0.35196957
23904025000 -0.4869411 -0.37114459
24004000000 -0.46656856 -0.3739911
24103975000 -0.47444591 -0.35945752
24203950000 -0.47673634 -0.36465782
24303925000 -0.48094544 -0.36113799
24403900000 -0.48187259 -0.37111583
24503875000 -0.47502086 -0.36188549
24603850000 -0.4876712 -0.36247575
24703825000 -0.47644556 -0.37446988
24803800000 -0.47560808 -0.35559905
24903775000 -0.49215007 -0.36454791
25003750000 -0.48025358 -0.37074554
25103725000 -0.48348281 -0.36208141
25203700000 -0.48374549 -0.36553794
25303675000 -0.48895589 -0.36055571
25403650000 -0.4912312 -0.37523267
25503625000 -0.47516486 -0.36743435
25603600000 -0.49534237 -0.35617122
25703575000 -0.4887141 -0.37730181
25803550000 -0.48075044 -0.35762459
25903525000 -0.50161213 -0.36216083
26003500000 -0.49027336 -0.37224865
26103475000 -0.49325866 -0.3670952
26203450000 -0.48833779 -0.37381655
26303425000 -0.49076429 -0.36039731
26403400000 -0.49987137 -0.37042689
26503375000 -0.48896769 -0.36499536
26603350000 -0.50227785 -0.36788163
26703325000 -0.49009192 -0.38045493
26803300000 -0.49145582 -0.36200976
26903275000 -0.50024915 -0.37538728
27003250000 -0.4957951 -0.36582336
27103225000 -0.50606292 -0.37343723
27203200000 -0.49065602 -0.3739602
27303175000 -0.50797617 -0.35837048
27403150000 -0.50399721 -0.38233617
27503125000 -0.49460563 -0.36034036
27603100000 -0.52042979 -0.36853573
27703075000 -0.49395192 -0.37866443
27803050000 -0.50637054 -0.36204901
27903025000 -0.50145215 -0.37238327
28003000000 -0.51113206 -0.3494404
28102975000 -0.52996749 -0.38045782
28202950000 -0.48309481 -0.38768899
28302925000 -0.50822216 -0.35005465
28402900000 -0.51879692 -0.38080487
28502875000 -0.50324476 -0.3702938
28602850000 -0.52170783 -0.37200832
28702825000 -0.50910902 -0.37312561
28802800000 -0.52419108 -0.36502376
28902775000 -0.51362067 -0.38862336
29002750000 -0.50280839 -0.36564407
29102725000 -0.53453612 -0.36333439
29202700000 -0.52002043 -0.38552091
29302675000 -0.50406021 -0.37133685
29402650000 -0.52168185 -0.36123869
29502625000 -0.52734649 -0.37319624
29602600000 -0.52344429 -0.38053399
29702575000 -0.51201433 -0.37212944
29802550000 -0.52820027 -0.36639407
29902525000 -0.52164108 -0.38074183
30002500000 -0.50720471 -0.36668223
30102475000 -0.52978992 -0.35687044
30202450000 -0.53170341 -0.37539375
30302425000 -0.52433497 -0.3805227
30402400000 -0.51257789 -0.37118149
30502375000 -0.52456188 -0.35546085
30602350000 -0.53960764 -0.37211537
30702325000 -0.5217883 -0.38384786
30802300000 -0.5253967 -0.35532653
30902275000 -0.54050064 -0.36554748
31002250000 -0.52532595 -0.37754494
31102225000 -0.52186143 -0.36676395
31202200000 -0.53500956 -0.35373962
31302175000 -0.54357159 -0.37227482
31402150000 -0.52297735 -0.3855277
31502125000 -0.51627731 -0.35756102
31602100000 -0.54433632 -0.36082834
31702075000 -0.54397064 -0.37742072
31802050000 -0.5268333 -0.38802803
31902025000 -0.51520538 -0.37370053
32002000000 -0.54119468 -0.35895911
32101975000 -0.54209369 -0.39529261
32201950000 -0.52459753 -0.37450048
32301925000 -0.54435515 -0.37316477
32401900000 -0.52473915 -0.38057739
32501875000 -0.53922969 -0.3689993
32601850000 -0.54017287 -0.39432094
32701825000 -0.51947099 -0.37576663
32801800000 -0.5453276 -0.36720532
32901775000 -0.53293651 -0.3852126
33001750000 -0.53621775 -0.36877581
33101725000 -0.54250479 -0.38357604
33201700000 -0.53738606 -0.37438399
33301675000 -0.54554671 -0.37004831
33401650000 -0.53626072 -0.38285992
33501625000 -0.54888946 -0.36594829
33601600000 -0.55631459 -0.38350153
33701575000 -0.53344929 -0.37633139
33801550000 -0.55633175 -0.36395177
33901525000 -0.55578035 -0.39169472
34001500000 -0.53955907 -0.38200873
34101475000 -0.55648237 -0.37746078
34201450000 -0.54907364 -0.36973587
34301425000 -0.56471747 -0.37042728
34401400000 -0.55221063 -0.38727164
34501375000 -0.55298316 -0.36788121
34601350000 -0.56579578 -0.38910353
34701325000 -0.53131992 -0.38111365
34801300000 -0.56103623 -0.35215202
34901275000 -0.56096345 -0.38572112
35001250000 -0.54640406 -0.38635302
35101225000 -0.54863185 -0.38269451
35201200000 -0.54453081 -0.36820161
35301175000 -0.57555032 -0.36674201
35401150000 -0.55326331 -0.40668073
35501125000 -0.54100114 -0.36849532
35601100000 -0.56306404 -0.37338233
35701075000 -0.5498417 -0.37500024
35801050000 -0.56275016 -0.36232015
35901025000 -0.55785954 -0.37601122
36001000000 -0.55386508 -0.36173648
36100975000 -0.55969328 -0.37930864
36200950000 -0.53924006 -0.36117971
36300925000 -0.56465781 -0.33851358
36400900000 -0.57958418 -0.37108797
36500875000 -0.54407936 -0.37859964
36600850000 -0.54850513 -0.36247882
36700825000 -0.56253117 -0.35346073
36800800000 -0.57156861 -0.36625054
36900775000 -0.55702132 -0.39107329
37000750000 -0.54203016 -0.36964226
37100725000 -0.56538439 -0.35445321
37200700000 -0.5764057 -0.37117225
37300675000 -0.55350691 -0.37888685
37400650000 -0.55514884 -0.37545627
37500625000 -0.55824172 -0.38963655
37600600000 -0.54298419 -0.37953436
37700575000 -0.56930578 -0.37273356
37800550000 -0.55572957 -0.39431596
37900525000 -0.54732561 -0.38404047
38000500000 -0.55449229 -0.37337729
38100475000 -0.57901484 -0.3900404
38200450000 -0.55634731 -0.39987209
38300425000 -0.54456633 -0.384197
38400400000 -0.56375051 -0.38624525
38500375000 -0.5546369 -0.38930246
38600350000 -0.57370234 -0.3806344
38700325000 -0.55395019 -0.39471373
38800300000 -0.55298924 -0.3639074
38900275000 -0.58472067 -0.39352676
39000250000 -0.53491861 -0.38816163
39100225000 -0.57200748 -0.36310709
39200200000 -0.56207806 -0.38919264
39300175000 -0.56659228 -0.36666542
39400150000 -0.57941586 -0.39883354
39500125000 -0.54933012 -0.37832445
39600100000 -0.59239608 -0.37469968
39700075000 -0.57193542 -0.41352567
39800050000 -0.56940258 -0.3847883
39900025000 -0.58287483 -0.38777679
40000000000 -0.60515058 -0.37904239
