!Agilent Technologies,N5247A,US51170167,A.09.90.10
!Agilent N5247A: A.09.90.10
!Date: Tuesday, November 22, 2016 15:34:26
!Correction: S22(Full 1 Port(2)) 
!S1P File: Measurement: S22:
# Hz S  RI   R 50
10000000 -0.14752561 -0.036929604
109975000 -0.13438581 -0.0044580363
209950000 -0.13288662 -0.005819933
309925000 -0.13419132 -0.0082080793
409900000 -0.13352466 -0.012088195
509875000 -0.13299324 -0.016115496
609850000 -0.13252808 -0.019334709
709825000 -0.1326569 -0.022036279
809800000 -0.13441192 -0.025945086
909775000 -0.13309416 -0.030768694
1009750000 -0.13254328 -0.033372648
1109725000 -0.13352554 -0.036587372
1209700000 -0.13390034 -0.039975747
1309675000 -0.13507088 -0.04443818
1409650000 -0.13398455 -0.048300553
1509625000 -0.13480796 -0.049817245
1609600000 -0.13620931 -0.05507905
1709575000 -0.13619204 -0.05874189
1809550000 -0.13716999 -0.06266012
1909525000 -0.13622287 -0.064951688
2009500000 -0.13971308 -0.067856312
2109475000 -0.13942082 -0.07360211
2209450000 -0.13908871 -0.074800201
2309425000 -0.14123002 -0.078590453
2409400000 -0.14094591 -0.080974571
2509375000 -0.14392728 -0.084946647
2609350000 -0.14311589 -0.089904279
2709325000 -0.14415278 -0.08998362
2809300000 -0.14696012 -0.095056355
2909275000 -0.14625564 -0.098084643
3009250000 -0.14948924 -0.10206687
3109225000 -0.14707506 -0.10525903
3209200000 -0.15118834 -0.10497738
3309175000 -0.15378198 -0.11207125
3409150000 -0.15245116 -0.11484456
3509125000 -0.15343076 -0.11741049
3609100000 -0.15424356 -0.11787994
3709075000 -0.15977041 -0.12190077
3809050000 -0.15832087 -0.13003308
3909025000 -0.15648733 -0.12863749
4009000000 -0.16114122 -0.13085212
4108975000 -0.16281241 -0.13496567
4208950000 -0.16453105 -0.1399415
4308925000 -0.16152708 -0.14175603
4408900000 -0.16668735 -0.14096169
4508875000 -0.1686309 -0.14908427
4608850000 -0.1671325 -0.14942984
4708825000 -0.17096135 -0.15178199
4808800000 -0.16983414 -0.15489306
4908775000 -0.1739857 -0.15581545
5008750000 -0.17432812 -0.16182479
5108725000 -0.17487611 -0.1606542
5208700000 -0.17915376 -0.16505606
5308675000 -0.17776273 -0.16817299
5408650000 -0.18163806 -0.16898085
5508625000 -0.18320429 -0.17391852
5608600000 -0.18281247 -0.17443138
5708575000 -0.187162 -0.17667656
5808550000 -0.18901539 -0.17957285
5908525000 -0.19124666 -0.18252316
6008500000 -0.19139965 -0.18699525
6108475000 -0.19074465 -0.18628785
6208450000 -0.19737042 -0.18720946
6308425000 -0.19943424 -0.19357331
6408400000 -0.1977708 -0.19648157
6508375000 -0.19842774 -0.19638066
6608350000 -0.20226568 -0.19611627
6708325000 -0.20846409 -0.20036571
6808300000 -0.20487659 -0.20975685
6908275000 -0.20137255 -0.20344876
7008250000 -0.21218017 -0.2036467
7108225000 -0.21429825 -0.21253729
7208200000 -0.21111251 -0.21583146
7308175000 -0.20857096 -0.21499801
7408150000 -0.2170926 -0.20903735
7508125000 -0.22488277 -0.22226784
7608100000 -0.21354139 -0.2267067
7708075000 -0.21754797 -0.21668023
7808050000 -0.22643986 -0.22133204
7908025000 -0.2277333 -0.22658348
8008000000 -0.22669691 -0.23246005
8107975000 -0.22313248 -0.22827131
8207950000 -0.23249358 -0.22667564
8307925000 -0.23395413 -0.23483604
8407900000 -0.23449041 -0.2340879
8507875000 -0.23603247 -0.23775961
8607850000 -0.23528697 -0.2362476
8707825000 -0.24108067 -0.23728172
8807800000 -0.24331419 -0.23875698
8907775000 -0.24820511 -0.24342354
9007750000 -0.24152207 -0.24900857
9107725000 -0.2447376 -0.23994887
9207700000 -0.25401306 -0.24573711
9307675000 -0.25168833 -0.25040743
9407650000 -0.25396845 -0.25392559
9507625000 -0.24779744 -0.2543495
9607600000 -0.25666142 -0.24784444
9707575000 -0.26127294 -0.26054156
9807550000 -0.25454202 -0.25825572
9907525000 -0.26293153 -0.25829783
10007500000 -0.2596066 -0.26260433
10107475000 -0.26468059 -0.25831199
10207450000 -0.26781559 -0.2681509
10307425000 -0.26301709 -0.26615086
10407400000 -0.27105892 -0.26676568
10507375000 -0.2672433 -0.27046132
10607350000 -0.2734175 -0.26703885
10707325000 -0.27420655 -0.27482313
10807300000 -0.27108046 -0.27101776
10907275000 -0.28014356 -0.27157995
11007250000 -0.27881917 -0.27767527
11107225000 -0.27965322 -0.27592489
11207200000 -0.28152969 -0.27814612
11307175000 -0.28399068 -0.27601874
11407150000 -0.28979248 -0.28046194
11507125000 -0.28652599 -0.2853775
11607100000 -0.28821465 -0.28099138
11707075000 -0.29387978 -0.28385311
11807050000 -0.29386964 -0.28636268
11907025000 -0.29626918 -0.28805238
12007000000 -0.29525715 -0.28917676
12106975000 -0.30035502 -0.2861535
12206950000 -0.30499381 -0.2927258
12306925000 -0.30091974 -0.29405013
12406900000 -0.30491787 -0.29079571
12506875000 -0.3096765 -0.29437551
12606850000 -0.30969214 -0.29898271
12706825000 -0.30594379 -0.3009142
12806800000 -0.30947748 -0.29325685
12906775000 -0.32050562 -0.30026972
13006750000 -0.31311351 -0.30776346
13106725000 -0.31444982 -0.30132532
13206700000 -0.31734297 -0.30301252
13306675000 -0.32265586 -0.30024886
13406650000 -0.32786453 -0.31022897
13506625000 -0.31750879 -0.30987588
13606600000 -0.32744458 -0.30133483
13706575000 -0.33018059 -0.31063643
13806550000 -0.33099964 -0.30755755
13906525000 -0.33354044 -0.31511369
14006500000 -0.32591623 -0.30955383
14106475000 -0.34146515 -0.30484536
14206450000 -0.33994654 -0.31792772
14306425000 -0.33693549 -0.30996177
14406400000 -0.34164962 -0.31283021
14506375000 -0.3409121 -0.30770823
14606350000 -0.35565156 -0.31079486
14706325000 -0.34460771 -0.32492614
14806300000 -0.34144557 -0.31135643
14906275000 -0.35200623 -0.31171688
15006250000 -0.3539274 -0.31156853
15106225000 -0.36327741 -0.3199974
15206200000 -0.34819734 -0.32975265
15306175000 -0.34769481 -0.30977443
15406150000 -0.36600825 -0.31012285
15506125000 -0.36420774 -0.32317528
15606100000 -0.36080188 -0.3260861
15706075000 -0.35497782 -0.32307637
15806050000 -0.36019528 -0.31274632
15906025000 -0.37203819 -0.32021633
16006000000 -0.36575362 -0.33176911
16105975000 -0.36131877 -0.3236582
16205950000 -0.36645743 -0.32265329
16305925000 -0.36563572 -0.32540336
16405900000 -0.37181774 -0.32374573
16505875000 -0.37448862 -0.32969075
16605850000 -0.37057003 -0.32885158
16705825000 -0.37290722 -0.32946414
16805800000 -0.37473282 -0.32683524
16905775000 -0.38347208 -0.32821274
17005750000 -0.37963149 -0.33543456
17105725000 -0.37816405 -0.33029011
17205700000 -0.38312152 -0.33184546
17305675000 -0.38782156 -0.32825145
17405650000 -0.39340869 -0.33720863
17505625000 -0.37989351 -0.33928129
17605600000 -0.3883993 -0.3247923
17705575000 -0.3994019 -0.33349627
17805550000 -0.39655948 -0.33748904
17905525000 -0.39076564 -0.34450904
18005500000 -0.38668635 -0.32520354
18105475000 -0.4172433 -0.3284044
18205450000 -0.39776325 -0.36000705
18305425000 -0.38577339 -0.33160347
18405400000 -0.4111025 -0.33332512
18505375000 -0.40524501 -0.33829403
18605350000 -0.41482314 -0.34702155
18705325000 -0.38669851 -0.35194415
18805300000 -0.41370404 -0.30888453
18905275000 -0.43527251 -0.36608011
19005250000 -0.37545142 -0.35967651
19105225000 -0.42224738 -0.31093499
19205200000 -0.42625892 -0.36226484
19305175000 -0.40105501 -0.34274727
19405150000 -0.42332581 -0.34230465
19505125000 -0.40850842 -0.33963183
19605100000 -0.44111711 -0.33201775
19705075000 -0.41450399 -0.37277362
19805050000 -0.402365 -0.32028359
19905025000 -0.45562607 -0.33379003
20005000000 -0.41217604 -0.36577624
20104975000 -0.42256659 -0.32006145
20204950000 -0.44555905 -0.34649962
20304925000 -0.42257813 -0.34710723
20404900000 -0.43742543 -0.34083691
20504875000 -0.42605764 -0.34667191
20604850000 -0.44018564 -0.3308107
20704825000 -0.44106528 -0.3565661
20804800000 -0.42474473 -0.33984843
20904775000 -0.45137402 -0.3361032
21004750000 -0.43679535 -0.35950875
21104725000 -0.43249547 -0.33723491
21204700000 -0.44875935 -0.34162208
21304675000 -0.44415525 -0.34832489
21404650000 -0.44259161 -0.34946114
21504625000 -0.43894291 -0.34062511
21604600000 -0.45594063 -0.33897671
21704575000 -0.4471077 -0.35766166
21804550000 -0.44078451 -0.34290296
21904525000 -0.45418859 -0.34356892
22004500000 -0.44858462 -0.34647647
22104475000 -0.45426843 -0.34627226
22204450000 -0.44559017 -0.34884834
22304425000 -0.46013099 -0.33453494
22404400000 -0.4635165 -0.35916662
22504375000 -0.44054452 -0.35085091
22604350000 -0.46176791 -0.33663303
22704325000 -0.45723778 -0.35079595
22804300000 -0.46035933 -0.33974531
22904275000 -0.46286628 -0.35575369
23004250000 -0.45049456 -0.34139901
23104225000 -0.47554731 -0.33752364
23204200000 -0.4596101 -0.35839814
23304175000 -0.45911771 -0.33893168
23404150000 -0.47014043 -0.34850463
23504125000 -0.46153384 -0.34474161
23604100000 -0.47284696 -0.34548298
23704075000 -0.45909473 -0.35290056
23804050000 -0.46762893 -0.33354476
23904025000 -0.48149997 -0.35224482
24004000000 -0.46120191 -0.35559815
24103975000 -0.46944681 -0.34172142
24203950000 -0.47115082 -0.34653538
24303925000 -0.47485146 -0.34295484
24403900000 -0.47635624 -0.35315612
24503875000 -0.46961948 -0.34391969
24603850000 -0.48244447 -0.34394833
24703825000 -0.47055909 -0.35721445
24803800000 -0.46983671 -0.3375718
24903775000 -0.48657882 -0.34641743
25003750000 -0.47455296 -0.35286289
25103725000 -0.47798946 -0.34484819
25203700000 -0.4783549 -0.34802476
25303675000 -0.4830853 -0.34290883
25403650000 -0.48577949 -0.35785788
25503625000 -0.46936449 -0.35040355
25603600000 -0.48959652 -0.33912224
25703575000 -0.48267049 -0.36049581
25803550000 -0.47486401 -0.34060457
25903525000 -0.49567282 -0.34566385
26003500000 -0.48445711 -0.35512459
26103475000 -0.48758343 -0.35075226
26203450000 -0.48245388 -0.35704964
26303425000 -0.48448834 -0.34341386
26403400000 -0.49401921 -0.35415417
26503375000 -0.48260072 -0.34887868
26603350000 -0.49779043 -0.35201439
26703325000 -0.48357216 -0.36274362
26803300000 -0.48495725 -0.34580484
26903275000 -0.49484053 -0.35831448
27003250000 -0.48819873 -0.34944245
27103225000 -0.50112581 -0.35733816
27203200000 -0.48454788 -0.3569797
27303175000 -0.5027951 -0.34287077
27403150000 -0.49660987 -0.36592492
27503125000 -0.48917261 -0.3422904
27603100000 -0.51425964 -0.35440287
27703075000 -0.48829463 -0.36450797
27803050000 -0.49968919 -0.34722131
27903025000 -0.49476054 -0.35709885
28003000000 -0.50391436 -0.3332918
28102975000 -0.52444798 -0.3650015
28202950000 -0.47963679 -0.36943561
28302925000 -0.5024907 -0.33392939
28402900000 -0.51275241 -0.36396876
28502875000 -0.49526682 -0.35396653
28602850000 -0.51364321 -0.35759267
28702825000 -0.50211453 -0.35728207
28802800000 -0.51595306 -0.35027564
28902775000 -0.50621456 -0.37417924
29002750000 -0.49669176 -0.34686896
29102725000 -0.52867168 -0.34915081
29202700000 -0.51124734 -0.37061733
29302675000 -0.49869457 -0.35482663
29402650000 -0.51217574 -0.3486332
29502625000 -0.52018934 -0.35753796
29602600000 -0.51617056 -0.36784676
29702575000 -0.5059545 -0.35624611
29802550000 -0.51951295 -0.35214713
29902525000 -0.51492375 -0.36481297
30002500000 -0.50192845 -0.35063326
30102475000 -0.52403724 -0.3428517
30202450000 -0.5260672 -0.36152828
30302425000 -0.51826125 -0.36616531
30402400000 -0.50613087 -0.3561489
30502375000 -0.51799899 -0.34285328
30602350000 -0.53387797 -0.35655263
30702325000 -0.51359522 -0.36890358
30802300000 -0.51556689 -0.33902577
30902275000 -0.53200471 -0.35022494
31002250000 -0.51778543 -0.36501861
31102225000 -0.5165993 -0.35302666
31202200000 -0.52415264 -0.33904505
31302175000 -0.53430682 -0.35969985
31402150000 -0.51273495 -0.37048772
31502125000 -0.51033813 -0.34674725
31602100000 -0.53766203 -0.34669149
31702075000 -0.53876096 -0.36395893
31802050000 -0.51971728 -0.37393567
31902025000 -0.50755596 -0.35823876
32002000000 -0.53445494 -0.34701028
32101975000 -0.53692818 -0.38249114
32201950000 -0.51824081 -0.36019832
32301925000 -0.53574735 -0.36024007
32401900000 -0.52027357 -0.36839291
32501875000 -0.53258228 -0.35536823
32601850000 -0.53721184 -0.38156247
32701825000 -0.51243526 -0.36138973
32801800000 -0.53784728 -0.3543157
32901775000 -0.52723891 -0.37080556
33001750000 -0.52696115 -0.35382327
33101725000 -0.53311354 -0.36951381
33201700000 -0.52786875 -0.3625192
33301675000 -0.53990233 -0.35746741
33401650000 -0.52778977 -0.37161207
33501625000 -0.53840977 -0.35259539
33601600000 -0.55206245 -0.37216359
33701575000 -0.52350473 -0.36519498
33801550000 -0.54644382 -0.35184324
33901525000 -0.54635942 -0.37746885
34001500000 -0.53410494 -0.37106684
34101475000 -0.54812735 -0.36558685
34201450000 -0.53728193 -0.36057362
34301425000 -0.55559504 -0.36016393
34401400000 -0.54564792 -0.37799761
34501375000 -0.54210722 -0.35348493
34601350000 -0.55558372 -0.3772037
34701325000 -0.52340037 -0.36919862
34801300000 -0.5569576 -0.3421621
34901275000 -0.55303919 -0.3746441
35001250000 -0.53725362 -0.37429747
35101225000 -0.54236418 -0.37122998
35201200000 -0.53786045 -0.35416067
35301175000 -0.56875145 -0.3538262
35401150000 -0.54718751 -0.39543149
35501125000 -0.53258455 -0.35921168
35601100000 -0.55378467 -0.36146092
35701075000 -0.54400581 -0.36503315
35801050000 -0.55566907 -0.34826744
35901025000 -0.54654998 -0.3660596
36001000000 -0.54574239 -0.35054618
36100975000 -0.55357546 -0.3666862
36200950000 -0.52729952 -0.35255003
36300925000 -0.55736178 -0.32949486
36400900000 -0.57094836 -0.35875684
36500875000 -0.53868771 -0.37025943
36600850000 -0.53824067 -0.35065421
36700825000 -0.55566132 -0.34219471
36800800000 -0.56509715 -0.35458791
36900775000 -0.55040425 -0.37601683
37000750000 -0.53300112 -0.35873243
37100725000 -0.55615014 -0.34580809
37200700000 -0.57263011 -0.36268714
37300675000 -0.54513866 -0.36994046
37400650000 -0.54669213 -0.36460096
37500625000 -0.54885083 -0.37859398
37600600000 -0.5316717 -0.37006104
37700575000 -0.55743372 -0.36180156
37800550000 -0.54795688 -0.38591179
37900525000 -0.54113632 -0.37601766
38000500000 -0.54378653 -0.36727116
38100475000 -0.56607223 -0.37882337
38200450000 -0.55072498 -0.39060336
38300425000 -0.53756291 -0.37231794
38400400000 -0.55493259 -0.37635028
38500375000 -0.54679513 -0.37626252
38600350000 -0.56543958 -0.37435418
38700325000 -0.55232966 -0.38207862
38800300000 -0.54627395 -0.35735622
38900275000 -0.57536602 -0.37956625
39000250000 -0.53278244 -0.38081732
39100225000 -0.56080431 -0.35297143
39200200000 -0.55180728 -0.3806915
39300175000 -0.55950731 -0.35196626
39400150000 -0.56816912 -0.39367935
39500125000 -0.54163933 -0.36948505
39600100000 -0.58688611 -0.36862293
39700075000 -0.56293058 -0.40277052
39800050000 -0.56170058 -0.37509596
39900025000 -0.57554662 -0.37686402
40000000000 -0.59479392 -0.37493166
