!  2-Port S-parameters saved by WinCal
! VAR MeasName=S-Parameters (CALIBRATED_DATA) read from VNA (C)
! VAR MeasDate=9/29/2015 4:35:10 PM
! VAR NAME=M6082_19_17_2_2_20C_1.8mA_-17.5dBm
! VAR FILENAME=M6082_19_17_2_2_20C_1.8mA_-17.5dBm.S2P
! VAR DATE=9/29/2015 4:35:10 PM
! VAR PHYS_PORTS=2,1
! VAR ObjTypeName=DATASET
! VAR IndexType=Frequency
!
# Hz S RI R 50
45000000.000 +1.2779235840E-001 -9.3688964844E-003 -6.8590044975E-004 +7.1436166763E-005 +5.1909685135E-004 -5.4562091827E-004 +2.7639389038E-002 +4.4097900391E-003
177500000.000 +1.3465118408E-001 -1.8302917480E-002 +4.6414136887E-004 +1.2919902802E-003 -3.0621886253E-004 +2.1649897099E-004 +1.6206741333E-002 +1.6604423523E-002
310000000.000 +1.3362884521E-001 -3.2997131348E-002 +1.1569261551E-003 +9.5081329346E-004 -1.5351921320E-004 -8.5376203060E-005 +2.9590606689E-002 +6.1389923096E-002
442500000.000 +1.2750244141E-001 -4.0267944336E-002 +1.4687180519E-003 -5.9604644775E-005 +4.1371211410E-005 +1.8861144781E-005 +7.2597503662E-002 +2.1926879883E-002
575000000.000 +1.2182998657E-001 -4.8656463623E-002 +1.0042190552E-003 -9.2011690140E-004 -4.4988468289E-005 -1.3751909137E-005 +2.7176856995E-002 +1.1128425598E-002
707500000.000 +1.1883163452E-001 -5.8303833008E-002 +3.1870603561E-004 -1.2564063072E-003 -1.6988255084E-005 -1.7140991986E-005 +2.1018981934E-003 +1.8340110779E-002
840000000.000 +1.1449050903E-001 -6.5746307373E-002 -5.3000450134E-004 -1.2730956078E-003 +5.7395547628E-005 -1.0726973414E-005 -2.0195960999E-002 +2.5974273682E-002
972500000.000 +1.1349105835E-001 -7.5748443604E-002 -1.1983513832E-003 -6.6018104553E-004 -6.5136700869E-006 +4.0775164962E-005 -3.5680770874E-002 +3.5684585571E-002
1105000000.000 +1.1013793945E-001 -8.4514617920E-002 -1.3518333435E-003 +1.2028217316E-004 -6.3922256231E-005 -2.9835850000E-005 -4.6764373779E-002 +3.8003921509E-002
1237500000.000 +1.0795211792E-001 -9.3463897705E-002 -1.0704994202E-003 +8.1849098206E-004 -6.9392845035E-006 +3.0015595257E-005 -5.8599472046E-002 +3.3740997314E-002
1370000000.000 +1.0510635376E-001 -1.0298919678E-001 -2.9653310776E-004 +1.2339353561E-003 -1.0272487998E-005 +3.8791447878E-005 -7.4081420898E-002 +2.7107238770E-002
1502500000.000 +1.0134506226E-001 -1.0827636719E-001 +3.9762258530E-004 +1.3114213943E-003 +3.7286430597E-005 -2.1392479539E-005 -8.7944030762E-002 +2.1526336670E-002
1635000000.000 +9.9830627441E-002 -1.1906433105E-001 +1.1475086212E-003 +7.1609020233E-004 +4.1510909796E-005 +4.7914683819E-005 -9.9132537842E-002 +1.1753082275E-002
1767500000.000 +9.6282958984E-002 -1.2740325928E-001 +1.2922286987E-003 -6.7234039307E-005 +2.3012049496E-005 -4.2784959078E-006 -1.1204528809E-001 +3.1433105469E-003
1900000000.000 +9.2735290527E-002 -1.2959289551E-001 +1.1939406395E-003 -8.2254409790E-004 -4.9663707614E-005 +6.8787485361E-006 -1.1377716064E-001 -3.2768249512E-003
2032500000.000 +8.9851379395E-002 -1.3591766357E-001 +4.9495697021E-004 -1.3492107391E-003 +5.4890289903E-005 +8.5681676865E-006 -1.1391448975E-001 -2.4173736572E-002
2165000000.000 +8.8157653809E-002 -1.4312744141E-001 -3.9756298065E-004 -1.3906359673E-003 -2.2497028112E-005 +3.8262456656E-005 -1.2257003784E-001 -4.1793823242E-002
2297500000.000 +8.3663940430E-002 -1.4744567871E-001 -1.1719465256E-003 -8.3458423615E-004 -1.0718405247E-004 +4.5184046030E-005 -1.2650299072E-001 -5.3245544434E-002
2430000000.000 +8.0307006836E-002 -1.5293121338E-001 -1.3787150383E-003 -1.9752979279E-004 -1.0838359594E-004 +6.6690146923E-005 -1.2723541260E-001 -6.4559936523E-002
2562500000.000 +7.7667236328E-002 -1.6160583496E-001 -1.3810396194E-003 +6.6173076630E-004 -3.9022415876E-006 +1.4103949070E-005 -1.2572479248E-001 -7.0228576660E-002
2695000000.000 +7.1640014648E-002 -1.6677093506E-001 -7.6776742935E-004 +1.1830329895E-003 -6.1474740505E-005 +4.9829483032E-005 -1.1355590820E-001 -7.2788238525E-002
2827500000.000 +6.6955566406E-002 -1.7147064209E-001 +1.6713142395E-004 +1.5805959702E-003 +2.8163194656E-006 +7.0394016802E-006 -9.8892211914E-002 -8.2000732422E-002
2960000000.000 +6.4414978027E-002 -1.7932128906E-001 +1.0651946068E-003 +1.1046528816E-003 +3.8173049688E-005 +8.9898705482E-005 -8.9279174805E-002 -8.6460113525E-002
3092500000.000 +5.9967041016E-002 -1.8657684326E-001 +1.6474723816E-003 +4.4596195221E-004 -3.9381906390E-005 +4.6703964472E-005 -7.0621490479E-002 -8.5079193115E-002
3225000000.000 +5.4283142090E-002 -1.9241333008E-001 +1.5588998795E-003 -5.4550170898E-004 -5.5436044931E-005 +5.8356672525E-006 -5.1906585693E-002 -9.1209411621E-002
3357500000.000 +5.1673889160E-002 -1.9780731201E-001 +9.6487998962E-004 -1.1202096939E-003 -2.3644417524E-005 -9.6831470728E-005 -4.2285919189E-002 -9.2075347900E-002
3490000000.000 +4.8873901367E-002 -2.0580291748E-001 +1.4507770538E-004 -1.6556978226E-003 -3.7271529436E-006 +3.1962990761E-005 -2.8717041016E-002 -8.2912445068E-002
3622500000.000 +4.5280456543E-002 -2.1384429932E-001 -1.1986494064E-003 -1.3375878334E-003 -9.9468976259E-005 -3.1486153603E-005 -1.1459350586E-002 -7.8929901123E-002
3755000000.000 +4.2259216309E-002 -2.2364044189E-001 -1.6946792603E-003 -5.6332349777E-004 -1.5258789063E-005 -1.2394785881E-004 -6.4086914063E-003 -7.3684692383E-002
3887500000.000 +4.0145874023E-002 -2.3563385010E-001 -1.5779733658E-003 +7.6770782471E-004 +6.6451728344E-005 +6.7271292210E-005 +1.1062622070E-003 -5.6093215942E-002
4020000000.000 +3.7200927734E-002 -2.4501800537E-001 -7.0273876190E-004 +1.6970634460E-003 -4.8171728849E-005 -7.2721391916E-005 +1.3031005859E-002 -4.4202804565E-002
4152500000.000 +3.2943725586E-002 -2.5857543945E-001 +4.9459934235E-004 +1.7300844193E-003 -6.7401677370E-005 +4.6081840992E-006 +1.5457153320E-002 -3.3077239990E-002
4285000000.000 +2.4810791016E-002 -2.7195739746E-001 +1.4783740044E-003 +7.0911645889E-004 +8.9988112450E-005 +1.8823891878E-005 +1.6456604004E-002 -1.3673782349E-002
4417500000.000 +1.6235351563E-002 -2.8112792969E-001 +1.5435814857E-003 -3.6615133286E-004 -1.8831342459E-005 +8.7019056082E-005 +2.5291442871E-002 +3.4027099609E-003
4550000000.000 +9.8114013672E-003 -2.8869628906E-001 +9.3448162079E-004 -1.4083385468E-003 -8.0104917288E-005 -5.6624412537E-005 +2.9068946838E-002 +9.0694427490E-003
4682500000.000 -1.2207031250E-004 -2.9736328125E-001 -1.2111663818E-004 -1.4976859093E-003 +2.2019259632E-005 +1.6950070858E-006 +2.5621414185E-002 +1.9883155823E-002
4815000000.000 -9.8419189453E-003 -3.0349731445E-001 -9.9617242813E-004 -1.0937452316E-003 +6.5311789513E-005 +6.1918050051E-005 +3.1284332275E-002 +2.6775360107E-002
4947500000.000 -1.5945434570E-002 -3.0798339844E-001 -1.4175772667E-003 -2.0277500153E-004 -1.7208047211E-005 -2.2995285690E-005 +2.7743339539E-002 +1.9273757935E-002
5080000000.000 -2.2827148438E-002 -3.1275939941E-001 -1.1829733849E-003 +6.1565637589E-004 +6.4607709646E-005 +1.5649944544E-005 +1.3393402100E-002 +2.0038604736E-002
5212500000.000 -3.0822753906E-002 -3.1736755371E-001 -5.3668022156E-004 +1.1337995529E-003 -2.6379711926E-005 +1.9789673388E-005 +9.5338821411E-003 +2.4322509766E-002
5345000000.000 -3.6575317383E-002 -3.2031250000E-001 +3.0791759491E-004 +1.3375878334E-003 -2.6183202863E-005 -3.5623088479E-006 +6.0005187988E-003 +1.5625953674E-002
5477500000.000 -4.1473388672E-002 -3.2284545898E-001 +9.2115998268E-004 +8.8420510292E-004 +2.9146671295E-005 -3.6438927054E-005 -9.0031623840E-003 +9.8509788513E-003
5610000000.000 -4.7241210938E-002 -3.2641601563E-001 +1.2304782867E-003 +7.0393085480E-005 +1.2762844563E-005 +6.5453350544E-005 -1.4581680298E-002 +1.4503955841E-002
5742500000.000 -5.3207397461E-002 -3.2908630371E-001 +9.7668170929E-004 -5.9765577316E-004 +9.0375542641E-006 -2.6909634471E-005 -1.0858535767E-002 +5.7663917542E-003
5875000000.000 -5.8074951172E-002 -3.3050537109E-001 +5.2410364151E-004 -1.0627508163E-003 -7.0240348577E-006 -3.0787661672E-005 -1.9807815552E-002 -3.8356781006E-003
6007500000.000 -6.2835693359E-002 -3.3149719238E-001 -2.2590160370E-004 -1.0718703270E-003 -4.0188431740E-005 -2.1930783987E-005 -2.3058891296E-002 +1.2016296387E-004
6140000000.000 -6.7626953125E-002 -3.3471679688E-001 -7.9211592674E-004 -7.4520707130E-004 -6.2845647335E-005 +1.6212463379E-005 -1.4916419983E-002 -2.5362968445E-003
6272500000.000 -7.4310302734E-002 -3.3773803711E-001 -1.1553764343E-003 -2.5039911270E-004 +1.3846438378E-005 -1.2405682355E-005 -1.5856742859E-002 -1.1827468872E-002
6405000000.000 -8.0825805664E-002 -3.3694458008E-001 -9.3495845795E-004 +5.2642822266E-004 -7.6526775956E-006 -2.0650215447E-005 -1.9140243530E-002 -6.4535140991E-003
6537500000.000 -8.4167480469E-002 -3.3825683594E-001 -5.1596760750E-004 +9.2375278473E-004 -1.2336298823E-005 -2.1887943149E-005 -9.3603134155E-003 -2.9726028442E-003
6670000000.000 -8.9172363281E-002 -3.4268188477E-001 +6.6757202148E-005 +1.0700225830E-003 -1.3954471797E-005 -7.8137964010E-007 -7.6010227203E-003 -6.7329406738E-003
6802500000.000 -9.7244262695E-002 -3.4471130371E-001 +6.9060921669E-004 +7.3912739754E-004 +7.8324228525E-007 +1.6010366380E-005 -1.0815143585E-002 +2.4271011353E-004
6935000000.000 -1.0298156738E-001 -3.4223937988E-001 +9.1579556465E-004 +2.1433830261E-004 +3.6372803152E-006 -1.2545380741E-005 -6.6332817078E-003 +9.7708702087E-003
7067500000.000 -1.0511779785E-001 -3.4524536133E-001 +8.4751844406E-004 -3.1632184982E-004 -5.7797878981E-006 -5.4987147450E-005 -5.1116943359E-003 +1.0916709900E-002
7200000000.000 -1.1026000977E-001 -3.5009765625E-001 +5.6824088097E-004 -8.4987282753E-004 -2.3830682039E-005 -2.7695670724E-005 -1.4725685120E-002 +1.7557144165E-002
7332500000.000 -1.1819458008E-001 -3.5040283203E-001 -2.4259090424E-005 -9.2229247093E-004 -2.3814849555E-005 +2.9330141842E-005 -1.6877174377E-002 +3.0325889587E-002
7465000000.000 -1.2205505371E-001 -3.5069274902E-001 -6.2558054924E-004 -7.4368715286E-004 +5.1479786634E-005 -3.2812356949E-005 -2.0562171936E-002 +3.1245231628E-002
7597500000.000 -1.2519836426E-001 -3.5444641113E-001 -8.2483887672E-004 -3.0767917633E-004 +5.1191076636E-005 +4.6957284212E-006 -3.6449432373E-002 +3.4130096436E-002
7730000000.000 -1.3069152832E-001 -3.5755920410E-001 -8.7133049965E-004 +2.6121735573E-004 +8.4117054939E-006 +3.7837773561E-005 -4.7855377197E-002 +4.3592453003E-002
7862500000.000 -1.3562011719E-001 -3.5815429688E-001 -5.3080916405E-004 +6.4459443092E-004 -9.0547837317E-006 -1.4466699213E-005 -5.4126739502E-002 +4.2148590088E-002
7995000000.000 -1.3819885254E-001 -3.5977172852E-001 -1.4865398407E-004 +8.5029006004E-004 -1.9515864551E-005 -2.5045126677E-005 -7.3417663574E-002 +3.5648345947E-002
8127500000.000 -1.4132690430E-001 -3.6483764648E-001 +3.6278367043E-004 +6.7886710167E-004 +2.7518719435E-005 +4.1220337152E-005 -9.1152191162E-002 +3.9928436279E-002
8260000000.000 -1.4706420898E-001 -3.6514282227E-001 +6.5132975578E-004 +3.5086274147E-004 +1.0199844837E-005 +3.8970261812E-005 -9.5806121826E-002 +3.3950805664E-002
8392500000.000 -1.4906311035E-001 -3.6706542969E-001 +7.2342157364E-004 -6.3776969910E-005 +1.8835067749E-005 +2.6896595955E-006 -1.1001968384E-001 +1.8672943115E-002
8525000000.000 -1.5080261230E-001 -3.6976623535E-001 +5.0777196884E-004 -5.1340460777E-004 +3.6014243960E-005 -2.5436282158E-005 -1.2166976929E-001 +1.5022277832E-002
8657500000.000 -1.5444946289E-001 -3.7222290039E-001 +1.2680888176E-004 -6.1422586441E-004 -4.5046210289E-005 +3.6047771573E-005 -1.1796188354E-001 +3.8795471191E-003
8790000000.000 -1.5795898438E-001 -3.7409973145E-001 -1.9633769989E-004 -6.0081481934E-004 +7.6591968536E-006 +1.9470229745E-005 -1.1972808838E-001 -1.7166137695E-002
8922500000.000 -1.6040039063E-001 -3.7417602539E-001 -4.9427151680E-004 -3.6332011223E-004 +7.1921385825E-006 -5.3977128118E-006 -1.2178802490E-001 -3.0536651611E-002
9055000000.000 -1.6184997559E-001 -3.7657165527E-001 -6.4182281494E-004 -8.1598758698E-005 -2.6434659958E-005 +2.4020671844E-005 -1.1124038696E-001 -4.4723510742E-002
9187500000.000 -1.6526794434E-001 -3.7771606445E-001 -4.5822560787E-004 +2.3454427719E-004 -3.4151598811E-005 -2.9029324651E-005 -1.0079956055E-001 -6.6360473633E-002
9320000000.000 -1.7079162598E-001 -3.7796020508E-001 -2.9006600380E-004 +5.0732493401E-004 +2.1369196475E-005 +1.7261132598E-005 -9.2983245850E-002 -7.9322814941E-002
9452500000.000 -1.7309570313E-001 -3.7792968750E-001 -2.0861625671E-007 +5.3507089615E-004 -5.7406723499E-006 +3.7455931306E-005 -7.3909759521E-002 -8.7570190430E-002
9585000000.000 -1.7559814453E-001 -3.7944030762E-001 +3.5789608955E-004 +3.9605796337E-004 +3.5773962736E-005 +6.7781656981E-006 -5.5198669434E-002 -1.0120773315E-001
9717500000.000 -1.8092346191E-001 -3.8172912598E-001 +4.9081444740E-004 +2.1347403526E-004 +7.1655958891E-006 +1.8719583750E-006 -4.0874481201E-002 -1.0608291626E-001
9850000000.000 -1.8710327148E-001 -3.7989807129E-001 +4.3731927872E-004 -1.2417137623E-004 +4.0730461478E-005 +5.1327049732E-005 -1.8241882324E-002 -1.0287857056E-001
9982500000.000 -1.8827819824E-001 -3.8084411621E-001 +2.9206275940E-004 -4.3004751205E-004 -7.7970325947E-006 +7.4215233326E-005 +5.7106018066E-003 -1.0402679443E-001
10115000000.000 -1.9171142578E-001 -3.8352966309E-001 -9.0897083282E-006 -4.0785968304E-004 +2.4066306651E-005 -1.8569640815E-005 +1.8829345703E-002 -9.8342895508E-002
10247500000.000 -1.9830322266E-001 -3.8450622559E-001 -2.7213990688E-004 -4.6917796135E-004 +3.3471733332E-005 +4.0443614125E-005 +3.6666870117E-002 -7.9723358154E-002
10380000000.000 -2.0257568359E-001 -3.8313293457E-001 -4.2469799519E-004 -1.6427040100E-004 -5.3476542234E-005 +3.6567449570E-005 +5.7159423828E-002 -6.8321228027E-002
10512500000.000 -2.0501708984E-001 -3.8397216797E-001 -4.2571127415E-004 +1.4771521091E-004 +1.4621764421E-007 -2.7929432690E-005 +6.1922073364E-002 -5.5805206299E-002
10645000000.000 -2.0840454102E-001 -3.8632202148E-001 -2.8562545776E-004 +3.2839179039E-004 +6.2864273787E-005 +1.2740492821E-006 +6.6390991211E-002 -2.8560638428E-002
10777500000.000 -2.1398925781E-001 -3.8734436035E-001 -7.6338648796E-005 +3.7753582001E-004 -5.0168484449E-005 +2.7813017368E-005 +7.7754974365E-002 -8.2550048828E-003
10910000000.000 -2.1879577637E-001 -3.8757324219E-001 +1.3589859009E-004 +2.7811527252E-004 -1.3355165720E-005 -6.2040984631E-005 +7.2078704834E-002 +5.3482055664E-003
11042500000.000 -2.2210693359E-001 -3.8853454590E-001 +3.4357607365E-004 +1.3828277588E-004 -1.4224555343E-005 -1.1272262782E-005 +5.9425354004E-002 +3.1816482544E-002
11175000000.000 -2.2538757324E-001 -3.9134216309E-001 +3.3831596375E-004 +1.1220574379E-005 +7.4021518230E-006 +3.1139701605E-005 +5.6772232056E-002 +5.2522659302E-002
11307500000.000 -2.2880554199E-001 -3.9237976074E-001 +2.5130808353E-004 -2.2903084755E-004 -1.0294839740E-005 -5.7576224208E-005 +4.3407440186E-002 +5.8425903320E-002
11440000000.000 -2.3373413086E-001 -3.9283752441E-001 +5.0395727158E-005 -3.2721459866E-004 +6.2763690948E-005 -1.8030405045E-005 +1.8138885498E-002 +7.2334289551E-002
11572500000.000 -2.3541259766E-001 -3.9620971680E-001 -5.4612755775E-005 -3.1785666943E-004 +1.4199875295E-005 +3.0388124287E-005 +4.6539306641E-003 +8.7215423584E-002
11705000000.000 -2.3831176758E-001 -3.9710998535E-001 -2.2422522306E-004 -1.9896775484E-004 -1.1878088117E-005 +1.6890466213E-005 -1.0631561279E-002 +8.0860137939E-002
11837500000.000 -2.4176025391E-001 -3.9906311035E-001 -2.6097893715E-004 -5.2750110626E-005 +7.7141448855E-006 -2.3630447686E-005 -4.3083190918E-002 +7.7236175537E-002
11970000000.000 -2.4304199219E-001 -3.9909362793E-001 -2.8231739998E-004 +8.7276101112E-005 +5.7034194469E-006 +4.7830864787E-005 -5.8761596680E-002 +8.2828521729E-002
12102500000.000 -2.4424743652E-001 -4.0000915527E-001 -2.2433698177E-004 +1.9804388285E-004 -7.6983124018E-005 +6.0670077801E-005 -6.6078186035E-002 +6.3636779785E-002
12235000000.000 -2.4786376953E-001 -4.0185546875E-001 -6.9111585617E-005 +2.7586519718E-004 +6.4522027969E-006 -4.7408044338E-005 -9.3387603760E-002 +4.4921875000E-002
12367500000.000 -2.4949645996E-001 -4.0095520020E-001 +1.3944506645E-004 +2.2904574871E-004 +5.3877010942E-005 +2.4028122425E-006 -1.0443115234E-001 +4.3113708496E-002
12500000000.000 -2.5315856934E-001 -3.9945983887E-001 +2.3542344570E-004 +1.7929822206E-004 +1.5426427126E-005 -1.5459023416E-005 -9.7305297852E-002 +1.8932342529E-002
12632500000.000 -2.5453186035E-001 -4.0115356445E-001 +2.5928020477E-004 -4.0024518967E-005 +3.9897859097E-006 -5.2785500884E-005 -1.1060714722E-001 -1.3134002686E-002
12765000000.000 -2.5718688965E-001 -4.0199279785E-001 +2.7658045292E-004 -2.0653009415E-004 +8.4150582552E-005 +2.4430453777E-005 -1.1648941040E-001 -1.6826629639E-002
12897500000.000 -2.6008605957E-001 -3.9979553223E-001 +8.0332159996E-005 -2.5184452534E-004 +1.4549121261E-005 +5.9584155679E-005 -9.1312408447E-002 -3.5644531250E-002
13030000000.000 -2.6199340820E-001 -3.9949035645E-001 -6.9752335548E-005 -2.4074316025E-004 -2.9757618904E-005 -5.7442113757E-005 -9.0602874756E-002 -7.1842193604E-002
13162500000.000 -2.6498413086E-001 -4.0036010742E-001 -1.9550323486E-004 -2.1172314882E-004 +4.3787062168E-005 -1.3852491975E-005 -9.1735839844E-002 -7.1445465088E-002
13295000000.000 -2.6771545410E-001 -4.0092468262E-001 -2.5339424610E-004 -3.9204955101E-005 -1.1240597814E-005 -3.3224932849E-006 -5.9814453125E-002 -7.8880310059E-002
13427500000.000 -2.7146911621E-001 -3.9949035645E-001 -1.7749518156E-004 +1.2337416410E-004 -1.1833850294E-005 +7.4552372098E-006 -4.7145843506E-002 -1.0524368286E-001
13560000000.000 -2.7067565918E-001 -3.9935302734E-001 -4.7191977501E-005 +2.2216886282E-004 -4.4932588935E-005 -6.7297369242E-006 -4.7042846680E-002 -1.0107040405E-001
13692500000.000 -2.7423095703E-001 -4.0087890625E-001 +8.3185732365E-005 +1.1402368546E-004 -1.4961697161E-005 +2.9148533940E-005 -1.7120361328E-002 -8.8970184326E-002
13825000000.000 -2.7815246582E-001 -4.0106201172E-001 +2.2383034229E-004 +1.1330842972E-004 +1.7117708921E-006 -2.0755454898E-005 +4.3601989746E-003 -1.0342025757E-001
13957500000.000 -2.8108215332E-001 -3.9849853516E-001 +1.7969310284E-004 +3.2670795918E-005 +1.0795891285E-005 +3.6314129829E-005 -2.6702880859E-004 -9.5478057861E-002
14090000000.000 -2.8144836426E-001 -3.9916992188E-001 +1.5223771334E-004 -8.2984566689E-005 +7.9087913036E-005 +1.3508647680E-004 +2.2403717041E-002 -7.0495605469E-002
14222500000.000 -2.8329467773E-001 -4.0115356445E-001 +1.7512589693E-004 -2.0812451839E-004 -1.3619661331E-004 +8.9704990387E-006 +4.3640136719E-002 -7.4512481689E-002
14355000000.000 -2.8909301758E-001 -4.0147399902E-001 +6.2063336372E-006 -1.3961642981E-004 +1.8917024136E-005 -1.0650232434E-004 +3.3477783203E-002 -6.6459655762E-002
14487500000.000 -2.9112243652E-001 -4.0100097656E-001 -8.6955726147E-005 -1.0181963444E-004 +2.4745240808E-005 -2.7295202017E-005 +4.1160583496E-002 -3.4553527832E-002
14620000000.000 -2.9081726074E-001 -4.0220642090E-001 -9.9904835224E-005 -6.5822154284E-005 -1.4898180962E-004 -2.5257468224E-006 +6.0297012329E-002 -3.2342910767E-002
14752500000.000 -2.9388427734E-001 -4.0597534180E-001 -2.4439394474E-004 -7.2523951530E-005 +2.5384128094E-005 -1.4241039753E-004 +4.2850494385E-002 -3.1112670898E-002
14885000000.000 -2.9745483398E-001 -4.0652465820E-001 -1.8275529146E-004 +7.5504183769E-005 +4.4541433454E-005 -1.1531636119E-005 +3.7084579468E-002 +1.7490386963E-003
15017500000.000 -2.9745483398E-001 -4.0873718262E-001 -7.1041285992E-006 +3.7336722016E-005 +3.4213066101E-005 +1.1056289077E-004 +5.3169250488E-002 +7.1487426758E-003
15150000000.000 -2.9858398438E-001 -4.1163635254E-001 +1.5944242477E-006 +1.8945336342E-004 -2.0083039999E-005 -2.7009285986E-005 +3.3784866333E-002 -1.1501312256E-003
15282500000.000 -2.9972839355E-001 -4.1355895996E-001 +1.3872981071E-004 +1.6597658396E-004 +1.0593608022E-004 -3.2875686884E-005 +1.5606880188E-002 +2.4719238281E-002
