!  2-Port S-parameters saved by WinCal
! VAR MeasName=S-Parameters (CALIBRATED_DATA) read from VNA (C)
! VAR MeasDate=9/29/2015 4:37:43 PM
! VAR NAME=M6082_19_17_2_2_20C_3.4mA_-17.5dBm
! VAR FILENAME=M6082_19_17_2_2_20C_3.4mA_-17.5dBm.S2P
! VAR DATE=9/29/2015 4:37:43 PM
! VAR PHYS_PORTS=2,1
! VAR ObjTypeName=DATASET
! VAR IndexType=Frequency
!
# Hz S RI R 50
45000000.000 +3.2510757446E-002 -1.6326904297E-003 -6.9200992584E-004 +2.4040937424E-003 +5.0115585327E-004 -1.0673403740E-003 +2.6277542114E-002 +2.6082992554E-003
177500000.000 +3.3496856689E-002 -9.0999603271E-003 +7.2205066681E-004 +1.7639398575E-003 +3.8653612137E-005 +1.5822052956E-004 +1.6211509705E-002 +1.6636848450E-002
310000000.000 +3.3441543579E-002 -1.6695022583E-002 +1.3322830200E-003 +9.0736150742E-004 -4.0568411350E-006 +3.4071505070E-005 +2.9634475708E-002 +6.1452865601E-002
442500000.000 +3.2735824585E-002 -2.4244308472E-002 +1.9231438637E-003 -1.3118982315E-004 +1.0565295815E-004 -1.4275312424E-005 +7.2547912598E-002 +2.2071838379E-002
575000000.000 +3.1982421875E-002 -3.2337188721E-002 +1.4560222626E-003 -1.0534524918E-003 +6.1336904764E-005 +4.7191977501E-005 +2.7349472046E-002 +1.1104583740E-002
707500000.000 +3.0601501465E-002 -3.9283752441E-002 +5.6207180023E-004 -1.6996860504E-003 -3.9992853999E-005 +3.4254044294E-006 +2.0790100098E-003 +1.8411636353E-002
840000000.000 +2.9674530029E-002 -4.6955108643E-002 -4.7552585602E-004 -1.6900897026E-003 +2.4177134037E-005 +3.4123659134E-005 -2.0191192627E-002 +2.5907516479E-002
972500000.000 +2.9003143311E-002 -5.4136276245E-002 -1.2602210045E-003 -1.0531544685E-003 +5.0958245993E-005 +3.1160190701E-005 -3.5747528076E-002 +3.5722732544E-002
1105000000.000 +2.7309417725E-002 -6.1687469482E-002 -1.7051696777E-003 -1.5020370483E-004 -2.0118430257E-005 -7.2997063398E-006 -4.6741485596E-002 +3.8074493408E-002
1237500000.000 +2.5760650635E-002 -6.8389892578E-002 -1.4946460724E-003 +8.1288814545E-004 -2.8142705560E-005 -6.0172751546E-005 -5.8654785156E-002 +3.3714294434E-002
1370000000.000 +2.4074554443E-002 -7.5557708740E-002 -7.2771310806E-004 +1.4483928680E-003 -3.6092475057E-005 +5.6665390730E-005 -7.4089050293E-002 +2.7236938477E-002
1502500000.000 +2.2632598877E-002 -8.2168579102E-002 +1.8513202667E-004 +1.6692280769E-003 +5.7718716562E-007 +5.1259994507E-006 -8.7985992432E-002 +2.1495819092E-002
1635000000.000 +2.1362304688E-002 -8.9351654053E-002 +1.0423064232E-003 +1.2258291245E-003 -3.2892450690E-005 -4.2760744691E-005 -9.9113464355E-002 +1.1760711670E-002
1767500000.000 +1.9317626953E-002 -9.6668243408E-002 +1.5630722046E-003 +4.0298700333E-004 -1.1996366084E-005 -2.4362467229E-005 -1.1197280884E-001 +3.1661987305E-003
1900000000.000 +1.7665863037E-002 -1.0242080688E-001 +1.5594363213E-003 -4.8136711121E-004 +2.7898699045E-005 -9.9102035165E-006 -1.1394882202E-001 -3.1929016113E-003
2032500000.000 +1.5796661377E-002 -1.0875701904E-001 +8.9192390442E-004 -1.2589097023E-003 +3.7889927626E-005 -1.0060518980E-004 -1.1399841309E-001 -2.4238586426E-002
2165000000.000 +1.4545440674E-002 -1.1592864990E-001 +6.9737434387E-006 -1.5788078308E-003 +9.5851719379E-005 +1.3855844736E-004 -1.2269973755E-001 -4.1751861572E-002
2297500000.000 +1.2020111084E-002 -1.2168884277E-001 -8.6057186127E-004 -1.3054013252E-003 -8.5189938545E-005 +4.7910958529E-005 -1.2670898438E-001 -5.3222656250E-002
2430000000.000 +1.0482788086E-002 -1.2730407715E-001 -1.4427304268E-003 -5.3483247757E-004 -3.7986785173E-005 -5.2541494370E-005 -1.2718200684E-001 -6.4636230469E-002
2562500000.000 +8.5754394531E-003 -1.3395690918E-001 -1.3636946678E-003 +3.8784742355E-004 +2.9802322388E-005 +4.9613416195E-005 -1.2598419189E-001 -7.0144653320E-002
2695000000.000 +4.7760009766E-003 -1.3952636719E-001 -1.1425018311E-003 +1.0855793953E-003 -1.1963024735E-004 -5.2496790886E-005 -1.1365127563E-001 -7.2700500488E-002
2827500000.000 +1.6098022461E-003 -1.4337158203E-001 -3.7151575089E-004 +1.4268755913E-003 -9.3691051006E-005 -2.0347535610E-005 -9.9056243896E-002 -8.1825256348E-002
2960000000.000 +1.9073486328E-004 -1.4942169189E-001 +5.9723854065E-004 +1.4754533768E-003 -2.2288411856E-005 +9.9260360003E-005 -8.9191436768E-002 -8.6395263672E-002
3092500000.000 -3.0364990234E-003 -1.5622711182E-001 +1.3559460640E-003 +8.8918209076E-004 -1.5441328287E-006 +4.2546540499E-005 -7.0732116699E-002 -8.5201263428E-002
3225000000.000 -7.8201293945E-003 -1.6138458252E-001 +1.4973282814E-003 +1.0633468628E-004 -6.5051019192E-005 -2.6032328606E-005 -5.1902770996E-002 -9.1300964355E-002
3357500000.000 -1.0292053223E-002 -1.6530609131E-001 +1.3104081154E-003 -9.2786550522E-004 +6.0481950641E-005 +1.7745420337E-005 -4.2331695557E-002 -9.1953277588E-002
3490000000.000 -1.3099670410E-002 -1.7174530029E-001 +5.9473514557E-004 -1.3817548752E-003 +1.3527274132E-004 +1.3433396816E-005 -2.8804779053E-002 -8.2923889160E-002
3622500000.000 -1.6815185547E-002 -1.7841339111E-001 -3.9702653885E-004 -1.5104413033E-003 -1.0222196579E-004 +2.5819987059E-005 -1.1333465576E-002 -7.9036712646E-002
3755000000.000 -2.0957946777E-002 -1.8428802490E-001 -1.0671019554E-003 -1.0880231857E-003 +8.8851898909E-005 -4.4357031584E-005 -6.3056945801E-003 -7.3642730713E-002
3887500000.000 -2.4131774902E-002 -1.8957519531E-001 -1.5945434570E-003 -2.5051832199E-004 -1.2576580048E-005 +9.0532004833E-005 +1.0185241699E-003 -5.6051254272E-002
4020000000.000 -2.7023315430E-002 -1.9431304932E-001 -1.5112161636E-003 +7.3546171188E-004 -9.9942088127E-005 -4.8246234655E-005 +1.2884140015E-002 -4.4254302979E-002
4152500000.000 -2.9708862305E-002 -2.0079040527E-001 -8.4263086319E-004 +1.3962388039E-003 -1.9768252969E-005 +8.4908679128E-006 +1.5235900879E-002 -3.3157348633E-002
4285000000.000 -3.3218383789E-002 -2.0725250244E-001 +1.8119812012E-004 +1.6733407974E-003 +5.6378543377E-005 +1.3116002083E-004 +1.6446113586E-002 -1.3570785522E-002
4417500000.000 -3.7666320801E-002 -2.1131134033E-001 +9.5546245575E-004 +1.3615489006E-003 -6.6768378019E-005 +7.7962875366E-005 +2.5177955627E-002 +3.2758712769E-003
4550000000.000 -3.9558410645E-002 -2.1609497070E-001 +1.4770627022E-003 +4.8083066940E-004 +1.9054859877E-005 -5.0196424127E-005 +2.8921127319E-002 +9.1018676758E-003
4682500000.000 -4.2213439941E-002 -2.2230529785E-001 +1.5112161636E-003 -4.4065713882E-004 -4.7590583563E-006 +1.5243422240E-005 +2.5656700134E-002 +1.9889831543E-002
4815000000.000 -4.6730041504E-002 -2.2782135010E-001 +1.0102391243E-003 -1.2596845627E-003 -7.7756121755E-006 -1.0056886822E-005 +3.1198501587E-002 +2.6826858521E-002
4947500000.000 -4.9278259277E-002 -2.3174285889E-001 +2.0712614059E-004 -1.6332268715E-003 -6.6028442234E-006 +3.4903641790E-006 +2.7813911438E-002 +1.9226074219E-002
5080000000.000 -5.1078796387E-002 -2.3706817627E-001 -7.5072050095E-004 -1.4843344688E-003 +6.3154846430E-005 +4.0177255869E-005 +1.3489723206E-002 +1.9996643066E-002
5212500000.000 -5.4725646973E-002 -2.4276733398E-001 -1.5307664871E-003 -8.6247920990E-004 +3.5762786865E-007 +4.1445717216E-005 +9.6960067749E-003 +2.4358749390E-002
5345000000.000 -5.8174133301E-002 -2.4634552002E-001 -1.6198158264E-003 +2.0068883896E-004 -1.6555190086E-005 +4.0942803025E-005 +6.0491561890E-003 +1.5702247620E-002
5477500000.000 -5.9631347656E-002 -2.5016784668E-001 -1.3772249222E-003 +1.1128783226E-003 +3.8919970393E-005 -1.7793849111E-005 -8.9192390442E-003 +9.7455978394E-003
5610000000.000 -6.1950683594E-002 -2.5546264648E-001 -4.9209594727E-004 +1.6750693321E-003 +3.9350241423E-005 +1.7683953047E-005 -1.4552116394E-002 +1.4430999756E-002
5742500000.000 -6.5933227539E-002 -2.5921630859E-001 +6.1041116714E-004 +1.6207098961E-003 +7.7672302723E-007 -1.2252945453E-005 -1.0833263397E-002 +5.7702064514E-003
5875000000.000 -6.9000244141E-002 -2.6168823242E-001 +1.4059543610E-003 +1.0826587677E-003 +2.3104250431E-005 +4.2198225856E-006 -1.9786834717E-002 -3.7107467651E-003
6007500000.000 -7.1151733398E-002 -2.6463317871E-001 +1.7483234406E-003 +7.0154666901E-005 -8.5011124611E-006 +4.1399151087E-005 -2.2986412048E-002 +1.6689300537E-004
6140000000.000 -7.3974609375E-002 -2.6947021484E-001 +1.4835000038E-003 -9.4938278198E-004 -5.7032331824E-005 -1.9077211618E-005 -1.4877319336E-002 -2.4204254150E-003
6272500000.000 -7.9025268555E-002 -2.7314758301E-001 +7.0685148239E-004 -1.6493201256E-003 +4.8987567425E-007 -1.1541415006E-005 -1.5803337097E-002 -1.1588096619E-002
6405000000.000 -8.3679199219E-002 -2.7423095703E-001 -3.9529800415E-004 -1.8044710159E-003 +6.5136700869E-005 +7.4990093708E-006 -1.9149780273E-002 -6.3648223877E-003
6537500000.000 -8.5144042969E-002 -2.7786254883E-001 -1.2560486794E-003 -1.2419819832E-003 -3.3600255847E-005 +7.3947012424E-006 -9.3407630920E-003 -2.9206275940E-003
6670000000.000 -8.8897705078E-002 -2.8317260742E-001 -1.7659068108E-003 -2.7161836624E-004 -2.4812296033E-005 -3.7221238017E-005 -7.5809955597E-003 -6.6554546356E-003
6802500000.000 -9.5596313477E-002 -2.8718566895E-001 -1.6323328018E-003 +8.5240602493E-004 +2.0164996386E-005 +4.4371932745E-005 -1.0912895203E-002 +2.8371810913E-004
6935000000.000 -9.9639892578E-002 -2.8773498535E-001 -8.4602832794E-004 +1.5872120857E-003 +1.1162832379E-005 +4.0613114834E-005 -6.5188407898E-003 +9.7723007202E-003
7067500000.000 -1.0104370117E-001 -2.9179382324E-001 +2.3442506790E-004 +1.7760396004E-003 -1.2254342437E-005 -3.3162534237E-005 -5.2299499512E-003 +1.0956764221E-002
7200000000.000 -1.0539245605E-001 -2.9743957520E-001 +1.1792778969E-003 +1.4157295227E-003 +1.0799616575E-005 +6.9044530392E-005 -1.4711380005E-002 +1.7639160156E-002
7332500000.000 -1.1206054688E-001 -3.0012512207E-001 +1.7990469933E-003 +4.5049190521E-004 +1.5649013221E-005 +2.3799948394E-005 -1.6986846924E-002 +3.0363082886E-002
7465000000.000 -1.1509704590E-001 -3.0233764648E-001 +1.6670823097E-003 -6.7383050919E-004 +4.9479305744E-005 -1.3532117009E-005 -2.0725250244E-002 +3.1253814697E-002
7597500000.000 -1.1744689941E-001 -3.0677795410E-001 +1.0215640068E-003 -1.4374852180E-003 +4.4438987970E-005 +7.3760747910E-007 -3.6567687988E-002 +3.4196853638E-002
7730000000.000 -1.2240600586E-001 -3.1216430664E-001 -1.4185905457E-005 -1.8361806870E-003 -7.6796859503E-005 +5.6512653828E-005 -4.7822952271E-002 +4.3636322021E-002
7862500000.000 -1.2673950195E-001 -3.1532287598E-001 -1.0372400284E-003 -1.4812350273E-003 -3.7197023630E-005 -4.6044588089E-006 -5.4285049438E-002 +4.2192459106E-002
7995000000.000 -1.2890625000E-001 -3.1781005859E-001 -1.7495751381E-003 -6.7359209061E-004 +2.6470050216E-005 -4.6115368605E-005 -7.3333740234E-002 +3.5713195801E-002
8127500000.000 -1.3150024414E-001 -3.2440185547E-001 -1.7854571342E-003 +4.5138597488E-004 +3.4984201193E-005 -6.5658241510E-006 -9.1049194336E-002 +3.9901733398E-002
8260000000.000 -1.3703918457E-001 -3.2730102539E-001 -1.1458992958E-003 +1.3967156410E-003 -2.2949650884E-005 +4.6845525503E-005 -9.5848083496E-002 +3.4065246582E-002
8392500000.000 -1.3876342773E-001 -3.3036804199E-001 -2.4068355560E-004 +1.9588470459E-003 -2.9201619327E-005 -6.1802566051E-006 -1.1006546021E-001 +1.8791198730E-002
8525000000.000 -1.4027404785E-001 -3.3450317383E-001 +8.7875127792E-004 +1.7396211624E-003 +2.0172446966E-005 +2.5892630219E-005 -1.2176132202E-001 +1.5125274658E-002
8657500000.000 -1.4405822754E-001 -3.3911132813E-001 +1.7119646072E-003 +8.6331367493E-004 +8.6426734924E-006 +4.0732324123E-005 -1.1798095703E-001 +4.0245056152E-003
8790000000.000 -1.4744567871E-001 -3.4260559082E-001 +1.9959211349E-003 -2.9826164246E-004 -5.6512653828E-006 -4.6439468861E-005 -1.1975860596E-001 -1.7070770264E-002
8922500000.000 -1.4987182617E-001 -3.4381103516E-001 +1.4787316322E-003 -1.3171434402E-003 +8.5268169641E-005 +1.4420598745E-005 -1.2183380127E-001 -3.0338287354E-002
9055000000.000 -1.5151977539E-001 -3.4802246094E-001 +2.8884410858E-004 -1.9713640213E-003 -1.8719583750E-007 +2.8367154300E-005 -1.1124801636E-001 -4.4551849365E-002
9187500000.000 -1.5504455566E-001 -3.5075378418E-001 -8.7207555771E-004 -1.8424987793E-003 -3.0465424061E-005 -6.6649168730E-005 -1.0076904297E-001 -6.6276550293E-002
9320000000.000 -1.6075134277E-001 -3.5223388672E-001 -1.8550753593E-003 -9.7042322159E-004 +1.1952593923E-005 -2.8760172427E-005 -9.2979431152E-002 -7.9219818115E-002
9452500000.000 -1.6342163086E-001 -3.5380554199E-001 -2.0492076874E-003 +2.4151802063E-004 -6.0431659222E-005 +3.3143907785E-005 -7.4054718018E-002 -8.7524414063E-002
9585000000.000 -1.6654968262E-001 -3.5690307617E-001 -1.4926195145E-003 +1.4489293098E-003 -4.9458816648E-005 +3.2279640436E-006 -5.5210113525E-002 -1.0113143921E-001
9717500000.000 -1.7213439941E-001 -3.6024475098E-001 -3.7324428558E-004 +2.0881891251E-003 -2.8979033232E-005 -2.3357570171E-006 -4.1057586670E-002 -1.0604476929E-001
9850000000.000 -1.7881774902E-001 -3.5966491699E-001 +9.2476606369E-004 +1.8071532249E-003 -1.3959594071E-005 -1.8693506718E-005 -1.8333435059E-002 -1.0288238525E-001
9982500000.000 -1.8101501465E-001 -3.6206054688E-001 +1.8227100372E-003 +9.6696615219E-004 -6.1905011535E-006 -1.0979361832E-005 +5.7220458984E-003 -1.0398101807E-001
10115000000.000 -1.8498229980E-001 -3.6552429199E-001 +2.0484924316E-003 -2.6953220367E-004 +6.7409127951E-005 -4.0616840124E-005 +1.8882751465E-002 -9.8564147949E-002
10247500000.000 -1.9223022461E-001 -3.6738586426E-001 +1.4795064926E-003 -1.4049410820E-003 +4.1950494051E-005 +3.7416815758E-005 +3.6659240723E-002 -7.9845428467E-002
10380000000.000 -1.9776916504E-001 -3.6701965332E-001 +3.0183792114E-004 -2.0248889923E-003 -7.3336996138E-006 +1.5170779079E-005 +5.7079315186E-002 -6.8405151367E-002
10512500000.000 -2.0120239258E-001 -3.6843872070E-001 -9.0241432190E-004 -1.7685294151E-003 -1.8194317818E-005 -8.2802027464E-005 +6.1813354492E-002 -5.5946350098E-002
10645000000.000 -2.0426940918E-001 -3.7135314941E-001 -1.7450451851E-003 -9.9021196365E-004 +2.3260712624E-005 +1.1262483895E-005 +6.6345214844E-002 -2.8728485107E-002
10777500000.000 -2.1101379395E-001 -3.7298583984E-001 -1.9598007202E-003 +2.4890899658E-004 +3.0945520848E-006 +4.6968925744E-006 +7.7686309814E-002 -8.4037780762E-003
10910000000.000 -2.1688842773E-001 -3.7371826172E-001 -1.4150142670E-003 +1.1999607086E-003 -1.8414109945E-005 +3.2702460885E-005 +7.2063446045E-002 +5.2375793457E-003
11042500000.000 -2.2050476074E-001 -3.7501525879E-001 -4.5597553253E-004 +1.8035173416E-003 +2.8975307941E-005 -6.9670379162E-005 +5.9450149536E-002 +3.1639099121E-002
11175000000.000 -2.2474670410E-001 -3.7783813477E-001 +7.6562166214E-004 +1.6911029816E-003 +1.4480203390E-005 +2.8433278203E-005 +5.6856155396E-002 +5.2419662476E-002
11307500000.000 -2.2880554199E-001 -3.7944030762E-001 +1.5351176262E-003 +9.8073482513E-004 +1.1567026377E-006 -3.2627955079E-005 +4.3460845947E-002 +5.8242797852E-002
11440000000.000 -2.3396301270E-001 -3.8009643555E-001 +1.7728805542E-003 -1.3476610184E-004 +4.9136579037E-006 -3.8325786591E-005 +1.8268585205E-002 +7.2376251221E-002
11572500000.000 -2.3628234863E-001 -3.8368225098E-001 +1.3924837112E-003 -1.0877847672E-003 +2.0903535187E-005 +2.3855827749E-005 +4.7683715820E-003 +8.7188720703E-002
11705000000.000 -2.3989868164E-001 -3.8455200195E-001 +5.0950050354E-004 -1.6542077065E-003 -4.2492523789E-005 -3.4082680941E-005 -1.0406494141E-002 +8.0795288086E-002
11837500000.000 -2.4377441406E-001 -3.8658142090E-001 -4.8345327377E-004 -1.6277432442E-003 -2.5164335966E-005 -8.0436468124E-005 -4.2976379395E-002 +7.7320098877E-002
11970000000.000 -2.4572753906E-001 -3.8621520996E-001 -1.3468265533E-003 -9.2905759811E-004 +2.2343359888E-005 +1.4027580619E-005 -5.8582305908E-002 +8.2820892334E-002
12102500000.000 -2.4725341797E-001 -3.8758850098E-001 -1.6909837723E-003 -2.6643276215E-005 -2.9321759939E-005 -4.9198046327E-005 -6.5883636475E-002 +6.3701629639E-002
12235000000.000 -2.5131225586E-001 -3.8937377930E-001 -1.3491511345E-003 +8.7189674377E-004 +3.2288953662E-005 -1.8129125237E-005 -9.3399047852E-002 +4.5063018799E-002
12367500000.000 -2.5321960449E-001 -3.8839721680E-001 -6.4802169800E-004 +1.4380812645E-003 +3.0895695090E-005 -1.0915100574E-006 -1.0438156128E-001 +4.3212890625E-002
12500000000.000 -2.5721740723E-001 -3.8674926758E-001 +3.8957595825E-004 +1.5022754669E-003 -4.4003129005E-005 +5.4001808167E-005 -9.7343444824E-002 +1.9256591797E-002
12632500000.000 -2.5889587402E-001 -3.8838195801E-001 +1.1239051819E-003 +1.0135173798E-003 +4.8352405429E-005 -3.4397467971E-005 -1.1068725586E-001 -1.2931823730E-002
12765000000.000 -2.6188659668E-001 -3.8909912109E-001 +1.4768242836E-003 +8.5830688477E-005 +5.4147094488E-006 -9.9129974842E-006 -1.1651992798E-001 -1.6651153564E-002
12897500000.000 -2.6486206055E-001 -3.8693237305E-001 +1.3343691826E-003 -7.6633691788E-004 -3.3739954233E-005 +4.8091635108E-005 -9.1403961182E-002 -3.5682678223E-002
13030000000.000 -2.6705932617E-001 -3.8632202148E-001 +5.8233737946E-004 -1.2664198875E-003 -2.7055852115E-005 -1.8338672817E-005 -9.0839385986E-002 -7.1765899658E-002
13162500000.000 -2.7035522461E-001 -3.8705444336E-001 -2.7883052826E-004 -1.3685226440E-003 +1.5780329704E-005 -8.8606029749E-006 -9.2002868652E-002 -7.1414947510E-002
13295000000.000 -2.7299499512E-001 -3.8746643066E-001 -1.0113716125E-003 -9.8419189453E-004 +1.1492520571E-005 +5.4845586419E-005 -5.9997558594E-002 -7.8914642334E-002
13427500000.000 -2.7680969238E-001 -3.8604736328E-001 -1.2910366058E-003 -1.8471479416E-004 +2.2950582206E-005 -2.1839514375E-006 -4.7412872314E-002 -1.0527038574E-001
13560000000.000 -2.7633666992E-001 -3.8545227051E-001 -1.1593699455E-003 +4.9263238907E-004 +1.0244548321E-004 -7.5493007898E-005 -4.7286987305E-002 -1.0107421875E-001
13692500000.000 -2.7995300293E-001 -3.8702392578E-001 -6.5475702286E-004 +9.9426507950E-004 -6.7111104727E-006 +4.4869259000E-005 -1.7250061035E-002 -8.9061737061E-002
13825000000.000 -2.8378295898E-001 -3.8705444336E-001 +5.9425830841E-005 +1.1657476425E-003 -9.0323388577E-005 -1.0770186782E-004 +4.1656494141E-003 -1.0366821289E-001
13957500000.000 -2.8695678711E-001 -3.8442993164E-001 +6.7612528801E-004 +8.0558657646E-004 +7.8026205301E-006 -4.6001747251E-005 -4.7302246094E-004 -9.5596313477E-002
14090000000.000 -2.8732299805E-001 -3.8478088379E-001 +1.0115504265E-003 +3.0463933945E-004 -3.3341348171E-006 -7.8924000263E-005 +2.2071838379E-002 -7.0602416992E-002
14222500000.000 -2.8898620605E-001 -3.8688659668E-001 +9.8425149918E-004 -2.0855665207E-004 -3.2074749470E-005 +9.8042190075E-005 +4.3647766113E-002 -7.4501037598E-002
14355000000.000 -2.9507446289E-001 -3.8714599609E-001 +6.6292285919E-004 -7.3873996735E-004 -9.7904354334E-005 -5.7537108660E-005 +3.3432006836E-002 -6.6570281982E-002
14487500000.000 -2.9687500000E-001 -3.8645935059E-001 +1.6570091248E-004 -1.0362863541E-003 -4.0030106902E-005 +6.9718807936E-006 +4.1212081909E-002 -3.4658432007E-002
14620000000.000 -2.9663085938E-001 -3.8769531250E-001 -4.5245885849E-004 -9.0289115906E-004 -9.3474984169E-005 +2.3044645786E-005 +6.0300827026E-002 -3.2451629639E-002
14752500000.000 -2.9966735840E-001 -3.9128112793E-001 -8.5735321045E-004 -4.0411949158E-004 +3.6461278796E-005 +3.6058947444E-005 +4.2833328247E-002 -3.1206130981E-002
14885000000.000 -3.0339050293E-001 -3.9175415039E-001 -8.4081292152E-004 +1.5860795975E-004 +1.0125339031E-005 -3.4889206290E-005 +3.7057876587E-002 +1.6059875488E-003
15017500000.000 -3.0317687988E-001 -3.9405822754E-001 -7.0554018021E-004 +6.3273310661E-004 -1.8224120140E-005 +4.3010339141E-005 +5.3146362305E-002 +6.9999694824E-003
15150000000.000 -3.0421447754E-001 -3.9691162109E-001 -1.8954277039E-004 +9.6780061722E-004 -5.1803886890E-005 -4.2514875531E-005 +3.3746719360E-002 -1.1253356934E-003
15282500000.000 -3.0523681641E-001 -3.9872741699E-001 +3.0276179314E-004 +8.4623694420E-004 +1.1488050222E-004 -4.5191496611E-005 +1.5666961670E-002 +2.4775505066E-002
