!  2-Port S-parameters saved by WinCal
! VAR MeasName=S-Parameters (CALIBRATED_DATA) read from VNA (C)
! VAR MeasDate=9/29/2015 4:40:08 PM
! VAR NAME=M6082_19_17_2_2_20C_6.2mA_-17.5dBm
! VAR FILENAME=M6082_19_17_2_2_20C_6.2mA_-17.5dBm.S2P
! VAR DATE=9/29/2015 4:40:08 PM
! VAR PHYS_PORTS=2,1
! VAR ObjTypeName=DATASET
! VAR IndexType=Frequency
!
# Hz S RI R 50
45000000.000 -3.8358688354E-002 +8.9645385742E-005 -4.3380260468E-004 +2.0232200623E-003 -7.1299076080E-004 +1.0997056961E-004 +2.9670715332E-002 +2.7055740356E-003
177500000.000 -3.8980484009E-002 -6.3991546631E-003 +6.0707330704E-004 +1.8442273140E-003 +6.2584877014E-006 -9.8265707493E-005 +1.5953063965E-002 +1.6442298889E-002
310000000.000 -3.8665771484E-002 -1.2407302856E-002 +1.3811588287E-003 +9.8145008087E-004 -1.4504790306E-004 +2.4884939194E-006 +2.9706954956E-002 +6.1328887939E-002
442500000.000 -3.8713455200E-002 -1.8478393555E-002 +1.9121766090E-003 -6.1988830566E-006 -1.4334917068E-005 +4.1337683797E-005 +7.2574615479E-002 +2.1797180176E-002
575000000.000 -3.9016723633E-002 -2.5026321411E-002 +1.5376806259E-003 -1.0072588921E-003 -1.9805505872E-005 +3.8806349039E-005 +2.7191162109E-002 +1.1159896851E-002
707500000.000 -3.9810180664E-002 -3.0391693115E-002 +5.9938430786E-004 -1.7157196999E-003 -2.3866072297E-005 -4.4127926230E-005 +2.0523071289E-003 +1.8328666687E-002
840000000.000 -4.0124893188E-002 -3.6855697632E-002 -4.3565034866E-004 -1.7274618149E-003 +6.2654726207E-006 +1.1537689716E-005 -2.0237922668E-002 +2.6083946228E-002
972500000.000 -4.0199279785E-002 -4.2758941650E-002 -1.3169050217E-003 -1.2533068657E-003 -4.2382627726E-005 +8.0913305283E-005 -3.5812377930E-002 +3.5783767700E-002
1105000000.000 -4.1332244873E-002 -4.8843383789E-002 -1.6702413559E-003 -1.2868642807E-004 +7.4533745646E-006 -2.3242086172E-005 -4.6657562256E-002 +3.8169860840E-002
1237500000.000 -4.2304992676E-002 -5.4355621338E-002 -1.5700459480E-003 +7.9041719437E-004 +3.4211203456E-005 -1.9894912839E-005 -5.8656692505E-002 +3.3657073975E-002
1370000000.000 -4.3352127075E-002 -6.0323715210E-002 -8.9949369431E-004 +1.5431046486E-003 -1.7768703401E-005 +2.1815299988E-005 -7.4111938477E-002 +2.7175903320E-002
1502500000.000 -4.4105529785E-002 -6.5765380859E-002 +8.4102153778E-005 +1.6814470291E-003 -3.1579285860E-005 -5.5572018027E-005 -8.8027954102E-002 +2.1514892578E-002
1635000000.000 -4.4616699219E-002 -7.1971893311E-002 +9.9444389343E-004 +1.4231801033E-003 +2.9454007745E-005 -5.2796676755E-005 -9.9056243896E-002 +1.1772155762E-002
1767500000.000 -4.6058654785E-002 -7.8063964844E-002 +1.5913844109E-003 +5.9932470322E-004 +2.3273751140E-005 +5.3007155657E-005 -1.1197662354E-001 +3.1661987305E-003
1900000000.000 -4.6936035156E-002 -8.2752227783E-002 +1.5953779221E-003 -3.9988756180E-004 +3.1888484955E-006 +4.3969601393E-005 -1.1391067505E-001 -3.2272338867E-003
2032500000.000 -4.7935485840E-002 -8.7837219238E-002 +9.7203254700E-004 -1.3835430145E-003 +4.1324645281E-005 -7.7165663242E-005 -1.1403656006E-001 -2.4173736572E-002
2165000000.000 -4.8366546631E-002 -9.4120025635E-002 -1.2159347534E-005 -1.7246007919E-003 +1.2724101543E-004 +7.9475343227E-005 -1.2263107300E-001 -4.1873931885E-002
2297500000.000 -5.0025939941E-002 -9.9071502686E-002 -8.9341402054E-004 -1.3642311096E-003 +6.5583735704E-005 +2.8543174267E-005 -1.2655639648E-001 -5.3314208984E-002
2430000000.000 -5.0933837891E-002 -1.0379409790E-001 -1.3656616211E-003 -4.7904253006E-004 +1.5926547348E-005 -2.9196031392E-005 -1.2710571289E-001 -6.4735412598E-002
2562500000.000 -5.2112579346E-002 -1.0980606079E-001 -1.4463067055E-003 +4.1288137436E-004 +1.1103972793E-004 +9.1314315796E-005 -1.2590789795E-001 -7.0213317871E-002
2695000000.000 -5.5068969727E-002 -1.1429977417E-001 -1.0647177696E-003 +1.2124180794E-003 -8.2924962044E-005 +4.0441751480E-005 -1.1365509033E-001 -7.2765350342E-002
2827500000.000 -5.7403564453E-002 -1.1754608154E-001 -2.3776292801E-004 +1.6136765480E-003 -5.8189034462E-006 -1.5601515770E-005 -9.8682403564E-002 -8.1882476807E-002
2960000000.000 -5.8227539063E-002 -1.2263107300E-001 +7.5334310532E-004 +1.3535022736E-003 +1.4702230692E-004 -3.6224722862E-005 -8.9179992676E-002 -8.6257934570E-002
3092500000.000 -6.0546875000E-002 -1.2863922119E-001 +1.3328194618E-003 +1.0514259338E-003 -9.8776072264E-006 +5.3370371461E-005 -7.0686340332E-002 -8.5201263428E-002
3225000000.000 -6.4514160156E-002 -1.3318634033E-001 +1.6728043556E-003 +4.9352645874E-005 +5.9193000197E-005 +3.3468008041E-005 -5.1998138428E-002 -9.1186523438E-002
3357500000.000 -6.6177368164E-002 -1.3642883301E-001 +1.4064311981E-003 -8.9842081070E-004 -2.7839094400E-005 -5.7511031628E-005 -4.2175292969E-002 -9.2056274414E-002
3490000000.000 -6.8260192871E-002 -1.4220428467E-001 +7.5560808182E-004 -1.5251636505E-003 -2.0561739802E-005 -4.4802203774E-005 -2.8861999512E-002 -8.2763671875E-002
3622500000.000 -7.1128845215E-002 -1.4814758301E-001 -2.2059679031E-004 -1.5698075294E-003 -7.3559582233E-005 +3.6768615246E-006 -1.1421203613E-002 -7.9036712646E-002
3755000000.000 -7.4340820313E-002 -1.5329742432E-001 -1.1596679688E-003 -1.2395381927E-003 +8.9267268777E-006 +2.7313828468E-005 -6.3133239746E-003 -7.3688507080E-002
3887500000.000 -7.6858520508E-002 -1.5796661377E-001 -1.7365813255E-003 -3.7014484406E-004 -1.5792995691E-004 +1.9289553165E-005 +1.0395050049E-003 -5.6097030640E-002
4020000000.000 -7.8887939453E-002 -1.6217803955E-001 -1.5149712563E-003 +5.8859586716E-004 -5.1990151405E-005 -7.5064599514E-005 +1.2954711914E-002 -4.4277191162E-002
4152500000.000 -8.0871582031E-002 -1.6817474365E-001 -9.3317031860E-004 +1.3611316681E-003 -5.8336183429E-005 -2.4214386940E-007 +1.5224456787E-002 -3.3018112183E-002
4285000000.000 -8.3923339844E-002 -1.7365264893E-001 +1.1301040649E-004 +1.6772747040E-003 -5.9867277741E-005 +5.3010880947E-006 +1.6503334045E-002 -1.3640403748E-002
4417500000.000 -8.7074279785E-002 -1.7756652832E-001 +9.6571445465E-004 +1.2472271919E-003 -1.4335848391E-005 +2.8104521334E-005 +2.5299072266E-002 +3.3874511719E-003
4550000000.000 -8.8264465332E-002 -1.8195343018E-001 +1.5055537224E-003 +6.5439939499E-004 -1.7954036593E-005 -5.9995800257E-006 +2.9048919678E-002 +9.0751647949E-003
4682500000.000 -9.0194702148E-002 -1.8757629395E-001 +1.5689730644E-003 -1.9186735153E-004 -1.9009225070E-005 -1.9081868231E-005 +2.5696754456E-002 +1.9872665405E-002
4815000000.000 -9.4085693359E-002 -1.9230651855E-001 +1.1475682259E-003 -1.0778307915E-003 -6.3009560108E-005 +2.9034912586E-005 +3.1286239624E-002 +2.6735305786E-002
4947500000.000 -9.5542907715E-002 -1.9618988037E-001 +3.3694505692E-004 -1.5596747398E-003 +3.1176954508E-005 -9.4290822744E-005 +2.7859687805E-002 +1.9131660461E-002
5080000000.000 -9.6725463867E-002 -2.0104217529E-001 -5.9849023819E-004 -1.4937520027E-003 +6.1877071857E-005 -2.7455389500E-006 +1.3512611389E-002 +1.9935607910E-002
5212500000.000 -9.9563598633E-002 -2.0626068115E-001 -1.3616085052E-003 -1.0027289391E-003 -2.3089349270E-005 +4.8393383622E-005 +9.5758438110E-003 +2.4309158325E-002
5345000000.000 -1.0224914551E-001 -2.0941162109E-001 -1.7180442810E-003 -3.8802623749E-005 +1.6428530216E-006 +2.4481676519E-005 +6.0725212097E-003 +1.5547275543E-002
5477500000.000 -1.0303497314E-001 -2.1291351318E-001 -1.4028549194E-003 +8.8840723038E-004 -1.1496245861E-005 -6.3005834818E-005 -8.9154243469E-003 +9.7784996033E-003
5610000000.000 -1.0453033447E-001 -2.1781921387E-001 -7.0714950562E-004 +1.4985203743E-003 -4.8728659749E-005 +4.8190355301E-005 -1.4487266541E-002 +1.4540672302E-002
5742500000.000 -1.0775756836E-001 -2.2128295898E-001 +3.4528970718E-004 +1.6956329346E-003 -4.8864632845E-005 -1.9367784262E-005 -1.0767459869E-002 +5.8217048645E-003
5875000000.000 -1.1017608643E-001 -2.2334289551E-001 +1.2723207474E-003 +1.2021660805E-003 +1.3954937458E-005 +1.6624107957E-007 -1.9703865051E-002 -3.7317276001E-003
6007500000.000 -1.1154174805E-001 -2.2601318359E-001 +1.7139911652E-003 +2.8222799301E-004 -2.1816231310E-006 +6.3208863139E-006 -2.3031234741E-002 +1.1062622070E-004
6140000000.000 -1.1372375488E-001 -2.3059844971E-001 +1.6049742699E-003 -6.7085027695E-004 -2.2381544113E-005 -6.2081962824E-006 -1.4941215515E-002 -2.4170875549E-003
6272500000.000 -1.1813354492E-001 -2.3394012451E-001 +9.4372034073E-004 -1.5657544136E-003 +4.0652230382E-006 -1.6225501895E-005 -1.5722274780E-002 -1.1591911316E-002
6405000000.000 -1.2182617188E-001 -2.3464965820E-001 -1.1104345322E-004 -1.7308592796E-003 +8.1669539213E-005 +5.3703784943E-005 -1.9177436829E-002 -6.3610076904E-003
6537500000.000 -1.2275695801E-001 -2.3787689209E-001 -1.0409355164E-003 -1.3826489449E-003 -2.1142885089E-005 +3.1633302569E-005 -9.3450546265E-003 -2.8929710388E-003
6670000000.000 -1.2579345703E-001 -2.4306488037E-001 -1.6762614250E-003 -5.6105852127E-004 +2.0200386643E-006 -2.2180378437E-005 -7.5509548187E-003 -6.6750049591E-003
6802500000.000 -1.3166046143E-001 -2.4658966064E-001 -1.6764402390E-003 +4.6086311340E-004 +1.9552186131E-005 -4.4815242290E-006 -1.0869026184E-002 +2.7036666870E-004
6935000000.000 -1.3489532471E-001 -2.4658966064E-001 -1.1309981346E-003 +1.2847781181E-003 -1.7497688532E-005 +2.1104700863E-005 -6.5636634827E-003 +9.7708702087E-003
7067500000.000 -1.3562011719E-001 -2.5061035156E-001 -1.4722347260E-004 +1.7428398132E-003 +1.6842037439E-005 -6.4503401518E-005 -5.1445960999E-003 +1.0903835297E-002
7200000000.000 -1.3931274414E-001 -2.5624084473E-001 +8.3750486374E-004 +1.4973878860E-003 +1.2584030628E-005 +7.8499317169E-005 -1.4569282532E-002 +1.7652511597E-002
7332500000.000 -1.4521789551E-001 -2.5856018066E-001 +1.5568733215E-003 +8.2248449326E-004 -1.2326985598E-005 -2.6524066925E-005 -1.6980171204E-002 +3.0388832092E-002
7465000000.000 -1.4756774902E-001 -2.6037597656E-001 +1.6845464706E-003 -2.1290779114E-004 -1.4593824744E-005 +1.2961216271E-005 -2.0557403564E-002 +3.1288146973E-002
7597500000.000 -1.4945983887E-001 -2.6473999023E-001 +1.3020038605E-003 -1.1792182922E-003 +2.1659769118E-005 +1.9442290068E-005 -3.6426544189E-002 +3.4179687500E-002
7730000000.000 -1.5354919434E-001 -2.6997375488E-001 +4.7099590302E-004 -1.6911625862E-003 +4.0017068386E-005 +7.3939561844E-005 -4.7712326050E-002 +4.3609619141E-002
7862500000.000 -1.5707397461E-001 -2.7256774902E-001 -5.4168701172E-004 -1.5786886215E-003 -6.7790970206E-006 -5.3129624575E-006 -5.4174423218E-002 +4.2339324951E-002
7995000000.000 -1.5866088867E-001 -2.7508544922E-001 -1.3133883476E-003 -1.0144114494E-003 +6.7874789238E-005 +1.3589859009E-005 -7.3379516602E-002 +3.5747528076E-002
8127500000.000 -1.6059875488E-001 -2.8149414063E-001 -1.6593337059E-003 -1.2803077698E-004 +1.4826655388E-006 +5.5620446801E-005 -9.1049194336E-002 +4.0050506592E-002
8260000000.000 -1.6526794434E-001 -2.8369140625E-001 -1.4516115189E-003 +8.2814693451E-004 +4.2889732867E-006 -2.6610214263E-006 -9.5798492432E-002 +3.4172058105E-002
8392500000.000 -1.6619873047E-001 -2.8671264648E-001 -7.0798397064E-004 +1.5676617622E-003 +2.1974556148E-005 -6.3236802816E-006 -1.1008453369E-001 +1.8833160400E-002
8525000000.000 -1.6709899902E-001 -2.9054260254E-001 +3.0076503754E-004 +1.6529560089E-003 +1.9721686840E-005 +7.3341652751E-006 -1.2167739868E-001 +1.5262603760E-002
8657500000.000 -1.6989135742E-001 -2.9467773438E-001 +1.2300610542E-003 +1.1965632439E-003 +3.8411468267E-005 +3.9145350456E-005 -1.1803436279E-001 +4.0779113770E-003
8790000000.000 -1.7266845703E-001 -2.9779052734E-001 +1.6735792160E-003 +3.8695335388E-004 -1.2282282114E-005 -4.3855980039E-005 -1.1973953247E-001 -1.6994476318E-002
8922500000.000 -1.7419433594E-001 -2.9891967773E-001 +1.6738176346E-003 -6.3651800156E-004 +1.2047588825E-005 +6.9653615355E-006 -1.2178039551E-001 -3.0372619629E-002
9055000000.000 -1.7488098145E-001 -3.0264282227E-001 +1.0342001915E-003 -1.4060735703E-003 -7.1190297604E-006 +6.1914324760E-005 -1.1126327515E-001 -4.4620513916E-002
9187500000.000 -1.7767333984E-001 -3.0491638184E-001 -2.6643276215E-005 -1.7669796944E-003 +3.1255185604E-006 -4.5731663704E-005 -1.0087966919E-001 -6.6200256348E-002
9320000000.000 -1.8231201172E-001 -3.0621337891E-001 -9.8752975464E-004 -1.4747381210E-003 +7.1465037763E-006 -1.0076910257E-006 -9.3029022217E-002 -7.9181671143E-002
9452500000.000 -1.8418884277E-001 -3.0735778809E-001 -1.7006397247E-003 -6.5451860428E-004 -3.1208619475E-006 +2.1793879569E-005 -7.4111938477E-002 -8.7463378906E-002
9585000000.000 -1.8600463867E-001 -3.1005859375E-001 -1.7917156219E-003 +4.1633844376E-004 -1.2654811144E-005 -3.1704083085E-005 -5.5160522461E-002 -1.0121917725E-001
9717500000.000 -1.9071960449E-001 -3.1338500977E-001 -1.1667013168E-003 +1.4056563377E-003 +3.2981857657E-005 -2.4102628231E-006 -4.0954589844E-002 -1.0606765747E-001
9850000000.000 -1.9604492188E-001 -3.1250000000E-001 -2.6321411133E-004 +1.6544461250E-003 -1.2140721083E-005 +8.9567154646E-005 -1.8344879150E-002 -1.0286331177E-001
9982500000.000 -1.9676208496E-001 -3.1474304199E-001 +8.0740451813E-004 +1.5546679497E-003 -2.0673498511E-005 +5.0066038966E-005 +5.7487487793E-003 -1.0402297974E-001
10115000000.000 -1.9960021973E-001 -3.1851196289E-001 +1.4590620995E-003 +7.6740980148E-004 +3.2942742109E-005 -3.8916245103E-005 +1.8856048584E-002 -9.8320007324E-002
10247500000.000 -2.0565795898E-001 -3.2046508789E-001 +1.6856789589E-003 -1.8006563187E-004 -1.0491348803E-006 +1.4839228243E-005 +3.6556243896E-002 -7.9811096191E-002
10380000000.000 -2.0951843262E-001 -3.2022094727E-001 +1.2498497963E-003 -1.0749101639E-003 -5.6209042668E-005 +3.0547380447E-006 +5.7006835938E-002 -6.8355560303E-002
10512500000.000 -2.1147155762E-001 -3.2202148438E-001 +5.1295757294E-004 -1.6749501228E-003 +2.8938055038E-005 -6.4130872488E-006 +6.1872482300E-002 -5.5967330933E-002
10645000000.000 -2.1427917480E-001 -3.2537841797E-001 -6.5064430237E-004 -1.6077756882E-003 +2.0476058125E-005 +4.7368928790E-005 +6.6425323486E-002 -2.8724670410E-002
10777500000.000 -2.1952819824E-001 -3.2740783691E-001 -1.3512372971E-003 -1.0588169098E-003 +3.1942501664E-005 +6.0519203544E-005 +7.7651977539E-002 -8.3656311035E-003
10910000000.000 -2.2402954102E-001 -3.2856750488E-001 -1.6371011734E-003 -1.7488002777E-004 -3.3553689718E-005 -1.3494864106E-005 +7.2071075439E-002 +5.1383972168E-003
11042500000.000 -2.2695922852E-001 -3.3050537109E-001 -1.4314055443E-003 +8.0740451813E-004 +1.3920478523E-005 -2.1845102310E-005 +5.9406280518E-002 +3.1564712524E-002
11175000000.000 -2.2984313965E-001 -3.3424377441E-001 -7.2914361954E-004 +1.5033483505E-003 -1.5321187675E-005 +2.0149163902E-005 +5.6859970093E-002 +5.2442550659E-002
11307500000.000 -2.3303222656E-001 -3.3633422852E-001 +1.9073486328E-004 +1.6964673996E-003 -3.2594427466E-005 +2.1114945412E-005 +4.3489456177E-002 +5.8301925659E-002
11440000000.000 -2.3748779297E-001 -3.3758544922E-001 +1.1332035065E-003 +1.2590885162E-003 +6.1180442572E-005 -1.7479062080E-005 +1.8375396729E-002 +7.2185516357E-002
11572500000.000 -2.3896789551E-001 -3.4196472168E-001 +1.6652345657E-003 +3.8117170334E-004 -4.2892992496E-005 +6.7755579948E-005 +4.8370361328E-003 +8.7123870850E-002
11705000000.000 -2.4160766602E-001 -3.4371948242E-001 +1.6253590584E-003 -5.6976079941E-004 +4.5290216804E-006 +4.9406662583E-006 -1.0356903076E-002 +8.0741882324E-002
11837500000.000 -2.4482727051E-001 -3.4660339355E-001 +1.0559558868E-003 -1.4895200729E-003 +5.6900084019E-005 -9.3702226877E-005 -4.3060302734E-002 +7.7232360840E-002
11970000000.000 -2.4617004395E-001 -3.4729003906E-001 +4.3332576752E-005 -1.7798542976E-003 +3.9685517550E-005 +6.1053782701E-005 -5.8551788330E-002 +8.2824707031E-002
12102500000.000 -2.4710083008E-001 -3.4921264648E-001 -9.6935033798E-004 -1.4368295670E-003 -5.0721690059E-005 -2.0638108253E-006 -6.5834045410E-002 +6.3686370850E-002
12235000000.000 -2.5054931641E-001 -3.5182189941E-001 -1.5707612038E-003 -6.4361095428E-004 -9.2070549726E-006 -3.8906931877E-005 -9.3322753906E-002 +4.4979095459E-002
12367500000.000 -2.5207519531E-001 -3.5163879395E-001 -1.7152428627E-003 +4.8834085464E-004 +3.2095238566E-005 +2.3139640689E-005 -1.0428237915E-001 +4.3197631836E-002
12500000000.000 -2.5544738770E-001 -3.5102844238E-001 -1.0926723480E-003 +1.3740658760E-003 -3.1121075153E-005 +9.3024224043E-005 -9.7373962402E-002 +1.9069671631E-002
12632500000.000 -2.5680541992E-001 -3.5351562500E-001 -2.1588802338E-004 +1.8121600151E-003 +1.2781471014E-005 -2.0554289222E-005 -1.1070632935E-001 -1.3038635254E-002
12765000000.000 -2.5939941406E-001 -3.5501098633E-001 +8.2486867905E-004 +1.5328526497E-003 +3.1841918826E-005 +1.8324702978E-005 -1.1663436890E-001 -1.6799926758E-002
12897500000.000 -2.6205444336E-001 -3.5357666016E-001 +1.5437602997E-003 +7.8469514847E-004 +1.8976628780E-005 +7.2952359915E-005 -9.1415405273E-002 -3.5621643066E-002
13030000000.000 -2.6393127441E-001 -3.5403442383E-001 +1.6501545906E-003 -1.6868114471E-004 +1.4973804355E-005 +4.8769637942E-005 -9.0728759766E-002 -7.1708679199E-002
13162500000.000 -2.6701354980E-001 -3.5565185547E-001 +1.3333559036E-003 -1.1631250381E-003 +3.5295262933E-005 -2.6667490602E-005 -9.1865539551E-002 -7.1395874023E-002
13295000000.000 -2.6963806152E-001 -3.5699462891E-001 +3.6889314651E-004 -1.6638040543E-003 -3.6735087633E-005 +6.4264982939E-005 -6.0073852539E-002 -7.8701019287E-002
13427500000.000 -2.7334594727E-001 -3.5618591309E-001 -6.1839818954E-004 -1.6054511070E-003 -3.7198886275E-005 -3.1786039472E-005 -4.7286987305E-002 -1.0508728027E-001
13560000000.000 -2.7261352539E-001 -3.5667419434E-001 -1.3728737831E-003 -9.4872713089E-004 +1.3498589396E-005 -3.3004209399E-005 -4.7260284424E-002 -1.0097885132E-001
13692500000.000 -2.7621459961E-001 -3.5879516602E-001 -1.7272233963E-003 -5.9902667999E-005 +2.3247674108E-005 +3.6979094148E-005 -1.7246246338E-002 -8.9145660400E-002
13825000000.000 -2.8004455566E-001 -3.5961914063E-001 -1.3884902000E-003 +8.5186958313E-004 -2.8820708394E-005 -3.0955299735E-005 +4.2495727539E-003 -1.0364913940E-001
13957500000.000 -2.8318786621E-001 -3.5781860352E-001 -6.1219930649E-004 +1.6952753067E-003 +8.6124986410E-005 -8.4005296230E-006 -3.7765502930E-004 -9.5569610596E-002
14090000000.000 -2.8349304199E-001 -3.5879516602E-001 +4.2450428009E-004 +1.6059875488E-003 +1.9928440452E-005 -3.7809833884E-005 +2.2304534912E-002 -7.0587158203E-002
14222500000.000 -2.8532409668E-001 -3.6146545410E-001 +1.2779831886E-003 +1.2256503105E-003 -9.8526477814E-005 -2.1141022444E-005 +4.3609619141E-002 -7.4501037598E-002
14355000000.000 -2.9150390625E-001 -3.6238098145E-001 +1.5519857407E-003 +2.3418664932E-004 +5.9116631746E-005 -8.0723315477E-005 +3.3428192139E-002 -6.6532135010E-002
14487500000.000 -2.9359436035E-001 -3.6225891113E-001 +1.6325116158E-003 -7.4207782745E-004 +2.9844231904E-005 -1.5269033611E-005 +4.1120529175E-002 -3.4601211548E-002
14620000000.000 -2.9336547852E-001 -3.6407470703E-001 +7.6532363892E-004 -1.4359951019E-003 -4.8844143748E-005 -1.1034309864E-005 +6.0136795044E-002 -3.2440185547E-002
14752500000.000 -2.9669189453E-001 -3.6817932129E-001 -1.6999244690E-004 -1.6402006149E-003 -5.1226466894E-005 -6.4056366682E-005 +4.2572021484E-002 -3.1257629395E-002
14885000000.000 -3.0033874512E-001 -3.6912536621E-001 -1.1022090912E-003 -1.2905597687E-003 +3.6865472794E-005 +3.5669654608E-006 +3.7021636963E-002 +1.7795562744E-003
15017500000.000 -3.0047607422E-001 -3.7191772461E-001 -1.6173124313E-003 -2.7060508728E-004 -6.0588121414E-005 +5.3603202105E-005 +5.3194046021E-002 +7.1220397949E-003
15150000000.000 -3.0180358887E-001 -3.7501525879E-001 -1.6767978668E-003 +5.6803226471E-004 -2.4515204132E-005 -1.6868114471E-005 +3.3769607544E-002 -1.1062622070E-003
15282500000.000 -3.0308532715E-001 -3.7719726563E-001 -8.6623430252E-004 +1.3518333435E-003 -2.1071173251E-005 -1.0540708899E-005 +1.5431404114E-002 +2.4736404419E-002
