!  2-Port S-parameters saved by WinCal
! VAR MeasName=S-Parameters (CALIBRATED_DATA) read from VNA (C)
! VAR MeasDate=9/29/2015 4:42:35 PM
! VAR NAME=M6082_19_17_2_2_20C_10.0mA_-17.5dBm
! VAR FILENAME=M6082_19_17_2_2_20C_10.0mA_-17.5dBm.S2P
! VAR DATE=9/29/2015 4:42:35 PM
! VAR PHYS_PORTS=2,1
! VAR ObjTypeName=DATASET
! VAR IndexType=Frequency
!
# Hz S RI R 50
45000000.000 -9.4978332520E-002 -1.4572143555E-003 -7.9423189163E-004 +1.7349123955E-003 -1.9834935665E-004 +4.5135617256E-004 +3.0094146729E-002 +2.7999877930E-003
177500000.000 -9.3856811523E-002 -4.9629211426E-003 +5.0324201584E-004 +1.4124512672E-003 +1.0223686695E-004 +8.0429017544E-005 +1.5920639038E-002 +1.6653060913E-002
310000000.000 -9.3681335449E-002 -9.7770690918E-003 +1.3641715050E-003 +1.1079907417E-003 -8.7287276983E-005 +6.9268047810E-005 +2.9596328735E-002 +6.1225891113E-002
442500000.000 -9.3162536621E-002 -1.4583587646E-002 +1.7386078835E-003 +7.9631805420E-005 +6.1988830566E-005 -2.1260231733E-005 +7.2662353516E-002 +2.2239685059E-002
575000000.000 -9.3208312988E-002 -2.0130157471E-002 +1.4297366142E-003 -9.8872184753E-004 +1.0382384062E-005 +5.1669776440E-005 +2.7390480042E-002 +1.1193275452E-002
707500000.000 -9.3746185303E-002 -2.4456024170E-002 +5.9527158737E-004 -1.6220211983E-003 -5.2766874433E-005 -2.6747584343E-006 +2.0828247070E-003 +1.8348693848E-002
840000000.000 -9.3669891357E-002 -3.0078887939E-002 -3.0314922333E-004 -1.7619729042E-003 +1.5133991838E-005 -5.3873285651E-005 -2.0150184631E-002 +2.6044845581E-002
972500000.000 -9.3555450439E-002 -3.5034179688E-002 -1.2321472168E-003 -1.2127757072E-003 -2.6538036764E-005 +3.7746503949E-006 -3.5793304443E-002 +3.5797119141E-002
1105000000.000 -9.4154357910E-002 -4.0405273438E-002 -1.6930699348E-003 -1.4770030975E-004 -4.2067840695E-005 -4.4373795390E-005 -4.6653747559E-002 +3.8314819336E-002
1237500000.000 -9.4684600830E-002 -4.5047760010E-002 -1.5199780464E-003 +7.7509880066E-004 +9.1820955276E-005 -5.0857663155E-005 -5.8656692505E-002 +3.3794403076E-002
1370000000.000 -9.5638275146E-002 -5.0083160400E-002 -8.4853172302E-004 +1.4449954033E-003 -6.8359076977E-006 +6.1582773924E-005 -7.4134826660E-002 +2.7118682861E-002
1502500000.000 -9.5970153809E-002 -5.4847717285E-002 +1.4531612396E-004 +1.6580820084E-003 -4.4148415327E-005 -4.0890648961E-005 -8.7955474854E-002 +2.1537780762E-002
1635000000.000 -9.6103668213E-002 -6.0184478760E-002 +8.8185071945E-004 +1.3277530670E-003 -1.6367062926E-005 +3.1709671021E-005 -9.9025726318E-002 +1.1779785156E-002
1767500000.000 -9.7255706787E-002 -6.5319061279E-002 +1.5450119972E-003 +6.2829256058E-004 +2.6036053896E-005 +3.3264979720E-005 -1.1210250854E-001 +3.1738281250E-003
1900000000.000 -9.7637176514E-002 -6.9149017334E-002 +1.5918016434E-003 -3.9100646973E-004 -2.3085623980E-005 +1.9503757358E-005 -1.1400604248E-001 -3.1356811523E-003
2032500000.000 -9.8026275635E-002 -7.3574066162E-002 +9.5552206039E-004 -1.3742446899E-003 +4.1427556425E-006 -4.3283216655E-007 -1.1409759521E-001 -2.4177551270E-002
2165000000.000 -9.8052978516E-002 -7.9044342041E-002 -5.4061412811E-005 -1.3904571533E-003 -6.0472637415E-005 +1.2107193470E-007 -1.2279891968E-001 -4.1816711426E-002
2297500000.000 -9.9269866943E-002 -8.3244323730E-002 -1.0294318199E-003 -1.2683272362E-003 +1.0756775737E-005 +4.6722590923E-005 -1.2679290771E-001 -5.3245544434E-002
2430000000.000 -9.9857330322E-002 -8.7322235107E-002 -1.4788508415E-003 -4.5204162598E-004 +1.0969117284E-004 -1.0424852371E-004 -1.2712860107E-001 -6.4613342285E-002
2562500000.000 -1.0058593750E-001 -9.2628479004E-002 -1.4443993568E-003 +2.8741359711E-004 -6.2216073275E-005 -2.8908252716E-006 -1.2598419189E-001 -7.0266723633E-002
2695000000.000 -1.0308456421E-001 -9.6443176270E-002 -1.1035799980E-003 +1.1451840401E-003 -4.6316534281E-005 -7.9818069935E-005 -1.1343765259E-001 -7.2837829590E-002
2827500000.000 -1.0464859009E-001 -9.9040985107E-002 -2.9909610748E-004 +1.5088915825E-003 +5.4426491261E-005 +1.0427460074E-004 -9.8781585693E-002 -8.1996917725E-002
2960000000.000 -1.0489273071E-001 -1.0354995728E-001 +6.5058469772E-004 +1.4711022377E-003 +2.6188790798E-005 +1.9552558661E-004 -8.9221954346E-002 -8.6364746094E-002
3092500000.000 -1.0694885254E-001 -1.0891723633E-001 +1.2345314026E-003 +6.7824125290E-004 -4.9633905292E-005 +1.1002644897E-005 -7.0678710938E-002 -8.5258483887E-002
3225000000.000 -1.1027908325E-001 -1.1268234253E-001 +1.5726685524E-003 +1.8471479416E-004 +3.8683414459E-005 -9.4447284937E-005 -5.2055358887E-002 -9.1445922852E-002
3357500000.000 -1.1153411865E-001 -1.1542510986E-001 +1.3031959534E-003 -9.4485282898E-004 -5.0310045481E-006 -2.9777176678E-005 -4.2304992676E-002 -9.2292785645E-002
3490000000.000 -1.1300659180E-001 -1.2059020996E-001 +5.8048963547E-004 -1.2645721436E-003 -2.1759420633E-005 +3.3771619201E-005 -2.8934478760E-002 -8.2855224609E-002
3622500000.000 -1.1518859863E-001 -1.2599182129E-001 -3.3521652222E-004 -1.5163421631E-003 -7.0530921221E-005 +3.3337622881E-005 -1.1489868164E-002 -7.8968048096E-002
3755000000.000 -1.1790466309E-001 -1.3060760498E-001 -1.0328888893E-003 -1.1819005013E-003 +6.4071267843E-005 +2.6021152735E-005 -6.2217712402E-003 -7.3638916016E-002
3887500000.000 -1.1988067627E-001 -1.3476562500E-001 -1.5320777893E-003 -3.3062696457E-004 +4.2714178562E-005 +5.5391341448E-005 +1.1386871338E-003 -5.6034088135E-002
4020000000.000 -1.2141418457E-001 -1.3831329346E-001 -1.4694929123E-003 +5.2046775818E-004 +6.2722712755E-005 +1.3843178749E-005 +1.2928009033E-002 -4.4181823730E-002
4152500000.000 -1.2271881104E-001 -1.4386749268E-001 -1.0398626328E-003 +1.3745427132E-003 +3.0029565096E-005 -1.1992640793E-005 +1.5302658081E-002 -3.3086776733E-002
4285000000.000 -1.2523651123E-001 -1.4894104004E-001 +1.3470649719E-005 +1.6862154007E-003 -6.1314553022E-005 +1.3347715139E-005 +1.6451835632E-002 -1.3701438904E-002
4417500000.000 -1.2780761719E-001 -1.5240478516E-001 +8.7034702301E-004 +1.3006925583E-003 -2.0533800125E-005 -1.5188008547E-005 +2.5282859802E-002 +3.3426284790E-003
4550000000.000 -1.2840270996E-001 -1.5632629395E-001 +1.3282299042E-003 +5.9878826141E-004 -1.0259449482E-005 -4.0607526898E-005 +2.8978347778E-002 +9.0713500977E-003
4682500000.000 -1.2967681885E-001 -1.6147613525E-001 +1.5774369240E-003 -2.1618604660E-004 +1.4505349100E-005 -2.9215589166E-005 +2.5711059570E-002 +1.9919395447E-002
4815000000.000 -1.3296508789E-001 -1.6590881348E-001 +1.2428760529E-003 -1.0389685631E-003 +1.7987564206E-005 +4.6698376536E-005 +3.1265258789E-002 +2.6897430420E-002
4947500000.000 -1.3396453857E-001 -1.6929626465E-001 +3.2913684845E-004 -1.4881491661E-003 -1.5765428543E-005 -4.3584033847E-005 +2.7892112732E-002 +1.9273757935E-002
5080000000.000 -1.3448333740E-001 -1.7366027832E-001 -4.7701597214E-004 -1.5275478363E-003 +2.2100284696E-006 +1.1317897588E-006 +1.3525962830E-002 +1.9990921021E-002
5212500000.000 -1.3661956787E-001 -1.7865753174E-001 -1.3049840927E-003 -9.8776817322E-004 -4.4194981456E-005 -1.1002644897E-005 +9.6244812012E-003 +2.4291038513E-002
5345000000.000 -1.3878631592E-001 -1.8151092529E-001 -1.6306638718E-003 -7.7843666077E-005 +1.9129365683E-005 -6.4834952354E-005 +6.0434341431E-003 +1.5597343445E-002
5477500000.000 -1.3899993896E-001 -1.8457794189E-001 -1.4363527298E-003 +8.5210800171E-004 +8.9254230261E-005 +2.9370188713E-005 -8.9402198792E-003 +9.8156929016E-003
5610000000.000 -1.3983154297E-001 -1.8933868408E-001 -7.3474645615E-004 +1.5486478806E-003 +1.5076249838E-005 +3.6250799894E-005 -1.4515876770E-002 +1.4569759369E-002
5742500000.000 -1.4246368408E-001 -1.9239807129E-001 +3.1167268753E-004 +1.6880631447E-003 +6.5993517637E-006 +2.8846785426E-005 -1.0774135590E-002 +5.7821273804E-003
5875000000.000 -1.4430999756E-001 -1.9425201416E-001 +1.1048913002E-003 +1.2477040291E-003 -4.6612694860E-007 -1.0715797544E-005 -1.9746780396E-002 -3.7384033203E-003
6007500000.000 -1.4498138428E-001 -1.9651031494E-001 +1.7391443253E-003 +4.0298700333E-004 +4.2520463467E-005 +3.2000243664E-005 -2.3000717163E-002 +1.0681152344E-004
6140000000.000 -1.4657592773E-001 -2.0092773438E-001 +1.6235113144E-003 -6.2161684036E-004 +1.8498860300E-005 -6.0405582190E-006 -1.4897346497E-002 -2.5086402893E-003
6272500000.000 -1.5039825439E-001 -2.0403289795E-001 +9.1630220413E-004 -1.4880895615E-003 +4.8074871302E-005 -3.8003548980E-005 -1.5795707703E-002 -1.1692047119E-002
6405000000.000 -1.5352630615E-001 -2.0443725586E-001 -2.3305416107E-005 -1.7355680466E-003 -2.9467046261E-006 +4.4330954552E-005 -1.9160270691E-002 -6.3438415527E-003
6537500000.000 -1.5392303467E-001 -2.0744323730E-001 -1.0148286819E-003 -1.4563202858E-003 -3.7793070078E-006 +1.6845762730E-005 -9.3836784363E-003 -2.9468536377E-003
6670000000.000 -1.5631866455E-001 -2.1240997314E-001 -1.6489624977E-003 -6.3467025757E-004 -3.1949952245E-005 +2.0433217287E-006 -7.6301097870E-003 -6.6287517548E-003
6802500000.000 -1.6159820557E-001 -2.1579742432E-001 -1.5957355499E-003 +4.2212009430E-004 -3.8914382458E-005 +3.6016106606E-005 -1.0816574097E-002 +2.2983551025E-004
6935000000.000 -1.6431427002E-001 -2.1560668945E-001 -1.1085867882E-003 +1.2024641037E-003 -2.1636486053E-005 +5.2228569984E-006 -6.5236091614E-003 +9.7336769104E-003
7067500000.000 -1.6445159912E-001 -2.1942901611E-001 -2.7126073837E-004 +1.6725659370E-003 -3.7321820855E-005 +1.7896294594E-005 -5.2042007446E-003 +1.0918140411E-002
7200000000.000 -1.6752624512E-001 -2.2494506836E-001 +8.1056356430E-004 +1.4886260033E-003 +1.3627111912E-005 -4.2395666242E-005 -1.4636039734E-002 +1.7700195313E-002
7332500000.000 -1.7271423340E-001 -2.2711944580E-001 +1.4402866364E-003 +7.6830387115E-004 -1.6959384084E-006 +2.6428140700E-005 -1.6991615295E-002 +3.0314445496E-002
7465000000.000 -1.7451477051E-001 -2.2892761230E-001 +1.6899108887E-003 -1.1575222015E-004 -6.3452869654E-005 -1.3127923012E-005 -2.0664215088E-002 +3.1337738037E-002
7597500000.000 -1.7585754395E-001 -2.3314666748E-001 +1.3503432274E-003 -1.0543465614E-003 +5.5268406868E-005 +1.9351020455E-005 -3.6552429199E-002 +3.4139633179E-002
7730000000.000 -1.7933654785E-001 -2.3823547363E-001 +4.2897462845E-004 -1.5073418617E-003 +2.8425827622E-005 +5.4359436035E-005 -4.7761917114E-002 +4.3634414673E-002
7862500000.000 -1.8231964111E-001 -2.4082183838E-001 -4.7153234482E-004 -1.5183091164E-003 +2.3851171136E-005 -1.5519559383E-005 -5.4183959961E-002 +4.2169570923E-002
7995000000.000 -1.8334960938E-001 -2.4313354492E-001 -1.1906027794E-003 -1.0529756546E-003 -1.4431774616E-005 -8.3982944489E-005 -7.3383331299E-002 +3.5671234131E-002
8127500000.000 -1.8487548828E-001 -2.4951171875E-001 -1.6023516655E-003 -1.4358758926E-004 +3.2752752304E-005 +1.6847625375E-005 -9.1083526611E-002 +4.0061950684E-002
8260000000.000 -1.8890380859E-001 -2.5167846680E-001 -1.3657808304E-003 +6.9856643677E-004 -4.5629218221E-005 +2.5503337383E-005 -9.5760345459E-002 +3.4107208252E-002
8392500000.000 -1.8934631348E-001 -2.5469970703E-001 -7.4839591980E-004 +1.4700293541E-003 +5.5151060224E-005 -4.4880434871E-005 -1.1007308960E-001 +1.8779754639E-002
8525000000.000 -1.8978881836E-001 -2.5851440430E-001 +1.1968612671E-004 +1.5688538551E-003 +3.2596290112E-008 -2.4783425033E-005 -1.2166213989E-001 +1.5163421631E-002
8657500000.000 -1.9213867188E-001 -2.6269531250E-001 +1.0510087013E-003 +1.2847781181E-003 -5.9429556131E-005 -4.7087669373E-006 -1.1797714233E-001 +3.9443969727E-003
8790000000.000 -1.9429016113E-001 -2.6559448242E-001 +1.5653967857E-003 +3.8576126099E-004 -3.5315752029E-006 +1.4361459762E-005 -1.1983108521E-001 -1.7002105713E-002
8922500000.000 -1.9538879395E-001 -2.6666259766E-001 +1.4632344246E-003 -4.5001506805E-004 +4.4262036681E-005 +1.7339363694E-005 -1.2174987793E-001 -3.0437469482E-002
9055000000.000 -1.9555664063E-001 -2.7046203613E-001 +9.9074840546E-004 -1.2267827988E-003 -2.8774142265E-005 +3.2655894756E-005 -1.1130523682E-001 -4.4544219971E-002
9187500000.000 -1.9784545898E-001 -2.7268981934E-001 +1.0514259338E-004 -1.6139745712E-003 -2.3948028684E-005 -3.8081780076E-005 -1.0086441040E-001 -6.6261291504E-002
9320000000.000 -2.0207214355E-001 -2.7384948730E-001 -8.6170434952E-004 -1.3327002525E-003 +7.4896961451E-006 -4.0264800191E-005 -9.3029022217E-002 -7.9105377197E-002
9452500000.000 -2.0332336426E-001 -2.7507019043E-001 -1.4240145683E-003 -7.4380636215E-004 -4.6184286475E-005 -2.7399510145E-005 -7.4054718018E-002 -8.7532043457E-002
9585000000.000 -2.0465087891E-001 -2.7770996094E-001 -1.6014575958E-003 +1.5723705292E-004 -1.6676262021E-005 -5.4387375712E-005 -5.5210113525E-002 -1.0111999512E-001
9717500000.000 -2.0884704590E-001 -2.8105163574E-001 -1.1151432991E-003 +1.0836124420E-003 +7.6629221439E-005 -5.5380165577E-005 -4.1027069092E-002 -1.0603332520E-001
9850000000.000 -2.1363830566E-001 -2.8015136719E-001 -4.3016672134E-004 +1.4815330505E-003 +6.3981860876E-006 +3.2223761082E-005 -1.8390655518E-002 -1.0293960571E-001
9982500000.000 -2.1392822266E-001 -2.8247070313E-001 +4.9686431885E-004 +1.4501214027E-003 -7.0147216320E-005 -6.7092478275E-006 +5.7182312012E-003 -1.0396575928E-001
10115000000.000 -2.1630859375E-001 -2.8608703613E-001 +1.2183189392E-003 +8.5693597794E-004 +3.6828219891E-005 -3.3527612686E-005 +1.8840789795E-002 -9.8312377930E-002
10247500000.000 -2.2174072266E-001 -2.8826904297E-001 +1.4860033989E-003 +4.2855739594E-005 +3.6008656025E-005 -4.8557296395E-005 +3.6605834961E-002 -7.9784393311E-002
10380000000.000 -2.2509765625E-001 -2.8788757324E-001 +1.2434124947E-003 -8.3041191101E-004 -1.0770745575E-005 -1.1795200408E-006 +5.7159423828E-002 -6.8321228027E-002
10512500000.000 -2.2666931152E-001 -2.8976440430E-001 +6.3395500183E-004 -1.4085173607E-003 +1.8151476979E-005 -5.5443495512E-005 +6.1853408813E-002 -5.5892944336E-002
10645000000.000 -2.2886657715E-001 -2.9325866699E-001 -2.4938583374E-004 -1.5408992767E-003 +2.7919188142E-005 +3.1819567084E-005 +6.6444396973E-002 -2.8564453125E-002
10777500000.000 -2.3365783691E-001 -2.9524230957E-001 -9.8645687103E-004 -1.1202096939E-003 +1.8268823624E-005 -2.2586435080E-005 +7.7728271484E-002 -8.2969665527E-003
10910000000.000 -2.3762512207E-001 -2.9661560059E-001 -1.5423893929E-003 -3.7860870361E-004 +2.9997900128E-006 +1.9431114197E-005 +7.2036743164E-002 +5.2490234375E-003
11042500000.000 -2.4008178711E-001 -2.9850769043E-001 -1.4433264732E-003 +5.0717592239E-004 +2.6812776923E-005 -3.8968399167E-005 +5.9364318848E-002 +3.1684875488E-002
11175000000.000 -2.4240112305E-001 -3.0259704590E-001 -9.8210573196E-004 +1.3249516487E-003 +3.8851052523E-005 +6.7006796598E-005 +5.6848526001E-002 +5.2473068237E-002
11307500000.000 -2.4517822266E-001 -3.0473327637E-001 -6.8068504333E-005 +1.5143752098E-003 -1.1594034731E-005 -2.6259571314E-005 +4.3441772461E-002 +5.8254241943E-002
11440000000.000 -2.4923706055E-001 -3.0606079102E-001 +7.9244375229E-004 +1.3201832771E-003 +4.1075050831E-005 -1.3645738363E-005 +1.8234252930E-002 +7.2311401367E-002
11572500000.000 -2.5018310547E-001 -3.1063842773E-001 +1.3900995255E-003 +7.2258710861E-004 -1.6875565052E-006 +4.7145411372E-005 +4.7111511230E-003 +8.7257385254E-002
11705000000.000 -2.5251770020E-001 -3.1251525879E-001 +1.5840530396E-003 -1.7994642258E-004 -8.2213431597E-005 -1.2110918760E-005 -1.0494232178E-002 +8.0818176270E-002
11837500000.000 -2.5524902344E-001 -3.1552124023E-001 +1.1337399483E-003 -1.0200738907E-003 +4.0190294385E-005 -3.9301812649E-005 -4.3041229248E-002 +7.7255249023E-002
11970000000.000 -2.5625610352E-001 -3.1625366211E-001 +4.0644407272E-004 -1.5949010849E-003 +4.3805688620E-005 +1.0259449482E-005 -5.8670043945E-002 +8.2893371582E-002
12102500000.000 -2.5660705566E-001 -3.1825256348E-001 -6.8587064743E-004 -1.4973878860E-003 -3.2993033528E-005 +5.2116811275E-006 -6.6005706787E-002 +6.3713073730E-002
12235000000.000 -2.5976562500E-001 -3.2115173340E-001 -1.3161301613E-003 -8.0275535583E-004 +3.4058466554E-005 -3.9264559746E-005 -9.3456268311E-002 +4.4982910156E-002
12367500000.000 -2.6081848145E-001 -3.2118225098E-001 -1.5566349030E-003 +5.2332878113E-005 +4.3220818043E-005 -4.1298568249E-005 -1.0438537598E-001 +4.3125152588E-002
12500000000.000 -2.6382446289E-001 -3.2048034668E-001 -1.3518929482E-003 +9.1564655304E-004 -4.9842521548E-005 +1.6326084733E-005 -9.7305297852E-002 +1.9031524658E-002
12632500000.000 -2.6457214355E-001 -3.2321166992E-001 -5.2505731583E-004 +1.4759898186E-003 -1.3483222574E-006 +4.2475294322E-006 -1.1064529419E-001 -1.3038635254E-002
12765000000.000 -2.6681518555E-001 -3.2496643066E-001 +3.8337707520E-004 +1.4354586601E-003 +5.1254406571E-005 -2.3540109396E-005 -1.1660003662E-001 -1.6796112061E-002
12897500000.000 -2.6914978027E-001 -3.2359313965E-001 +1.1350512505E-003 +1.0389089584E-003 -1.7585698515E-006 +5.5376440287E-006 -9.1327667236E-002 -3.5717010498E-002
13030000000.000 -2.7056884766E-001 -3.2411193848E-001 +1.5068650246E-003 +1.9186735153E-004 +3.4615397453E-005 +1.3243407011E-006 -9.0713500977E-002 -7.1784973145E-002
13162500000.000 -2.7331542969E-001 -3.2601928711E-001 +1.3836026192E-003 -6.6220760345E-004 +1.6376376152E-005 -7.1441754699E-006 -9.1873168945E-002 -7.1437835693E-002
13295000000.000 -2.7552795410E-001 -3.2756042480E-001 +7.6174736023E-004 -1.3797879219E-003 -3.1929463148E-005 -7.1953982115E-006 -6.0127258301E-002 -7.8941345215E-002
13427500000.000 -2.7890014648E-001 -3.2693481445E-001 -1.1813640594E-004 -1.5553832054E-003 -5.0004571676E-005 -6.8340450525E-005 -4.7264099121E-002 -1.0516357422E-001
13560000000.000 -2.7787780762E-001 -3.2759094238E-001 -9.0295076370E-004 -1.1782646179E-003 +7.7120959759E-005 -8.8047236204E-005 -4.7248840332E-002 -1.0116958618E-001
13692500000.000 -2.8088378906E-001 -3.3004760742E-001 -1.4784932137E-003 -4.6378374100E-004 +1.8126331270E-005 -1.5583820641E-005 -1.7230987549E-002 -8.9084625244E-002
13825000000.000 -2.8439331055E-001 -3.3119201660E-001 -1.3821721077E-003 +4.7326087952E-004 -4.2229890823E-005 +7.9430639744E-005 +4.3296813965E-003 -1.0372543335E-001
13957500000.000 -2.8717041016E-001 -3.2940673828E-001 -9.6601247787E-004 +1.1247992516E-003 -1.4819204807E-005 -1.6636401415E-004 -3.0136108398E-004 -9.5619201660E-002
14090000000.000 -2.8732299805E-001 -3.3087158203E-001 -4.4822692871E-005 +1.5613436699E-003 +6.1579048634E-005 +1.4545768499E-004 +2.2426605225E-002 -7.0613861084E-002
14222500000.000 -2.8861999512E-001 -3.3378601074E-001 +6.9874525070E-004 +1.3832449913E-003 -9.7103416920E-005 +2.3242086172E-005 +4.3701171875E-002 -7.4531555176E-002
14355000000.000 -2.9452514648E-001 -3.3511352539E-001 +1.4250278473E-003 +6.8265199661E-004 +2.3968517780E-005 -7.2415918112E-005 +3.3435821533E-002 -6.6539764404E-002
14487500000.000 -2.9626464844E-001 -3.3517456055E-001 +1.6236305237E-003 -2.4342536926E-004 +6.3303858042E-005 +2.8934329748E-005 +4.1217803955E-002 -3.4553527832E-002
14620000000.000 -2.9562377930E-001 -3.3729553223E-001 +1.1510252953E-003 -1.0623931885E-003 -1.9373372197E-005 +4.5245513320E-005 +6.0344696045E-002 -3.2341003418E-002
14752500000.000 -2.9887390137E-001 -3.4178161621E-001 +4.6133995056E-004 -1.5046596527E-003 -9.2238187790E-006 +2.6887282729E-005 +4.2884826660E-002 -3.1122207642E-002
14885000000.000 -3.0241394043E-001 -3.4274291992E-001 -6.1160326004E-004 -1.4135837555E-003 +1.0550767183E-004 -1.7650425434E-005 +3.7294387817E-002 +1.7032623291E-003
15017500000.000 -3.0206298828E-001 -3.4596252441E-001 -1.3083815575E-003 -8.2117319107E-004 -4.1112303734E-005 +2.0470470190E-006 +5.3262710571E-002 +7.1907043457E-003
15150000000.000 -3.0316162109E-001 -3.4938049316E-001 -1.5757083893E-003 +8.4161758423E-005 -8.9418143034E-005 -7.3898583651E-005 +3.3832550049E-002 -1.0089874268E-003
15282500000.000 -3.0422973633E-001 -3.5176086426E-001 -1.2845396996E-003 +8.7118148804E-004 +7.5027346611E-005 -5.2787363529E-006 +1.5525817871E-002 +2.4753570557E-002
