!  2-Port S-parameters saved by WinCal
! VAR MeasName=S-Parameters (CALIBRATED_DATA) read from VNA (C)
! VAR MeasDate=9/29/2015 4:46:15 PM
! VAR NAME=M6082_19_17_2_2_20C_15.0mA_-17.5dBm
! VAR FILENAME=M6082_19_17_2_2_20C_15.0mA_-17.5dBm.S2P
! VAR DATE=9/29/2015 4:46:15 PM
! VAR PHYS_PORTS=2,1
! VAR ObjTypeName=DATASET
! VAR IndexType=Frequency
!
# Hz S RI R 50
45000000.000 -1.3128662109E-001 -1.8997192383E-003 -1.2463331223E-003 +1.9435286522E-003 +8.9982151985E-004 +9.7170472145E-004 +2.8759002686E-002 +2.8886795044E-003
177500000.000 -1.2964630127E-001 -4.4250488281E-003 +4.9787759781E-004 +1.4725327492E-003 +8.3953142166E-005 +1.9231438637E-004 +1.5989303589E-002 +1.6826629639E-002
310000000.000 -1.2915802002E-001 -7.9116821289E-003 +1.0331869125E-003 +1.0140538216E-003 -7.6536089182E-005 -1.1308491230E-004 +2.9474258423E-002 +6.1418533325E-002
442500000.000 -1.2836456299E-001 -1.1627197266E-002 +1.6796588898E-003 +7.5101852417E-006 -2.4454668164E-005 +4.1531398892E-005 +7.2685241699E-002 +2.1972656250E-002
575000000.000 -1.2826538086E-001 -1.6571044922E-002 +1.2251734734E-003 -7.5680017471E-004 +4.6938657761E-006 +3.5101547837E-005 +2.7231216431E-002 +1.1066436768E-002
707500000.000 -1.2833404541E-001 -2.0164489746E-002 +4.9084424973E-004 -1.3493895531E-003 -1.1204741895E-005 -2.5431625545E-005 +2.0666122437E-003 +1.8335342407E-002
840000000.000 -1.2796783447E-001 -2.5016784668E-002 -2.8592348099E-004 -1.3697147369E-003 -2.0497478545E-005 +1.4076009393E-005 -2.0130157471E-002 +2.6008605957E-002
972500000.000 -1.2750244141E-001 -2.9357910156E-002 -1.0349750519E-003 -9.3019008636E-004 -2.7706846595E-005 -1.1628493667E-005 -3.5846710205E-002 +3.5739898682E-002
1105000000.000 -1.2777709961E-001 -3.4194946289E-002 -1.3772845268E-003 -1.9133090973E-004 +5.3538009524E-005 +3.2862648368E-005 -4.6735763550E-002 +3.8156509399E-002
1237500000.000 -1.2808227539E-001 -3.8230895996E-002 -1.2307763100E-003 +5.6916475296E-004 +4.2686238885E-005 +2.4817883968E-005 -5.8614730835E-002 +3.3733367920E-002
1370000000.000 -1.2863922119E-001 -4.2678833008E-002 -7.0673227310E-004 +1.1113882065E-003 +2.3171305656E-006 +6.1877071857E-005 -7.4058532715E-002 +2.7107238770E-002
1502500000.000 -1.2869262695E-001 -4.6859741211E-002 -2.5987625122E-005 +1.4064311981E-003 +1.1624768376E-005 -3.8878992200E-005 -8.8058471680E-002 +2.1503448486E-002
1635000000.000 -1.2866973877E-001 -5.1704406738E-002 +7.0738792419E-004 +1.1843442917E-003 +5.5009499192E-005 +9.3653798103E-006 -9.9094390869E-002 +1.1779785156E-002
1767500000.000 -1.2938690186E-001 -5.6266784668E-002 +1.2025237083E-003 +5.5003166199E-004 +2.8051435947E-006 +6.8768858910E-005 -1.1203384399E-001 +3.2234191895E-003
1900000000.000 -1.2919616699E-001 -5.9547424316E-002 +1.2595057487E-003 -4.1890144348E-004 +7.5986608863E-006 -1.3366341591E-005 -1.1386871338E-001 -3.2844543457E-003
2032500000.000 -1.2935638428E-001 -6.3461303711E-002 +5.7834386826E-004 -1.1267066002E-003 -1.8525868654E-005 -1.1756271124E-004 -1.1389160156E-001 -2.4135589600E-002
2165000000.000 -1.2914276123E-001 -6.8603515625E-002 -1.4317035675E-004 -1.1506676674E-003 +2.4944543839E-005 +6.6559761763E-005 -1.2272262573E-001 -4.1828155518E-002
2297500000.000 -1.2998199463E-001 -7.2265625000E-002 -8.1649422646E-004 -8.4671378136E-004 -1.6303732991E-005 +2.0229257643E-005 -1.2656402588E-001 -5.3283691406E-002
2430000000.000 -1.3014221191E-001 -7.5927734375E-002 -1.1345744133E-003 -3.5434961319E-004 +9.0822577477E-006 -8.8274478912E-005 -1.2716674805E-001 -6.4727783203E-002
2562500000.000 -1.3044738770E-001 -8.0917358398E-002 -1.0069012642E-003 +4.3660402298E-004 +7.0434063673E-005 +5.5171549320E-005 -1.2593078613E-001 -7.0182800293E-002
2695000000.000 -1.3260650635E-001 -8.4175109863E-002 -7.3513388634E-004 +8.2373619080E-004 -4.9209222198E-005 -3.0856579542E-005 -1.1354064941E-001 -7.2734832764E-002
2827500000.000 -1.3389587402E-001 -8.6242675781E-002 -1.3208389282E-004 +1.1745691299E-003 -6.6831707954E-006 -1.0917335749E-004 -9.8854064941E-002 -8.1817626953E-002
2960000000.000 -1.3396453857E-001 -9.0530395508E-002 +4.4441223145E-004 +1.0626316071E-003 -5.0138682127E-005 +9.3504786491E-006 -8.9096069336E-002 -8.6433410645E-002
3092500000.000 -1.3559722900E-001 -9.5329284668E-002 +8.3827972412E-004 +6.1812996864E-004 -5.0760805607E-005 +5.8678910136E-005 -7.0648193359E-002 -8.5197448730E-002
3225000000.000 -1.3855743408E-001 -9.8815917969E-002 +1.2788176537E-003 +7.7068805695E-005 +4.7129578888E-006 -1.4710705727E-005 -5.1921844482E-002 -9.1217041016E-002
3357500000.000 -1.3934326172E-001 -1.0131072998E-001 +1.0854005814E-003 -6.5141916275E-004 -2.4065375328E-006 +1.3904273510E-004 -4.2228698730E-002 -9.1945648193E-002
3490000000.000 -1.4069366455E-001 -1.0601043701E-001 +5.4079294205E-004 -1.1500716209E-003 -8.0477446318E-005 +9.1128051281E-005 -2.8644561768E-002 -8.2801818848E-002
3622500000.000 -1.4256286621E-001 -1.1120605469E-001 -1.6713142395E-004 -1.2466311455E-003 -3.4928321838E-005 -1.0710954666E-004 -1.1512756348E-002 -7.8838348389E-002
3755000000.000 -1.4484405518E-001 -1.1537933350E-001 -9.1451406479E-004 -9.2345476151E-004 -3.7066638470E-006 -3.1450763345E-005 -6.2942504883E-003 -7.3398590088E-002
3887500000.000 -1.4646148682E-001 -1.1911773682E-001 -1.3668537140E-003 -3.1542778015E-004 +1.4688819647E-005 +4.4206157327E-005 +1.1100769043E-003 -5.5881500244E-002
4020000000.000 -1.4754486084E-001 -1.2236022949E-001 -1.2769103050E-003 +3.4415721893E-004 -9.6060335636E-005 -1.6085803509E-005 +1.3154983521E-002 -4.4101715088E-002
4152500000.000 -1.4849090576E-001 -1.2765502930E-001 -7.2482228279E-004 +9.2282891273E-004 +4.8808753490E-005 -1.2802332640E-004 +1.5323638916E-002 -3.3069610596E-002
4285000000.000 -1.5067291260E-001 -1.3236999512E-001 -6.5147876740E-005 +1.3152956963E-003 +3.9309263229E-005 +6.9979578257E-005 +1.6474723816E-002 -1.3678550720E-002
4417500000.000 -1.5287017822E-001 -1.3545227051E-001 +7.0440769196E-004 +1.0513663292E-003 -5.5870041251E-005 +2.3638829589E-005 +2.5300979614E-002 +3.4646987915E-003
4550000000.000 -1.5311431885E-001 -1.3903045654E-001 +1.2121796608E-003 +5.5015087128E-004 +1.2021977454E-005 +8.3590857685E-006 +2.8975486755E-002 +9.0961456299E-003
4682500000.000 -1.5402221680E-001 -1.4402770996E-001 +1.2544989586E-003 -1.7428398132E-004 +3.2398849726E-005 +7.0147216320E-006 +2.5555610657E-002 +1.9852638245E-002
4815000000.000 -1.5690612793E-001 -1.4813995361E-001 +1.0778903961E-003 -8.5937976837E-004 -9.6140429378E-006 +2.3761764169E-005 +3.1199455261E-002 +2.6718139648E-002
4947500000.000 -1.5743255615E-001 -1.5122222900E-001 +4.1341781616E-004 -1.2585520744E-003 -1.8766149879E-006 +2.4509616196E-005 +2.7700424194E-002 +1.9271850586E-002
5080000000.000 -1.5763854980E-001 -1.5529632568E-001 -3.4207105637E-004 -1.1983513832E-003 +2.6771798730E-005 +1.8889084458E-005 +1.3401031494E-002 +1.9956588745E-002
5212500000.000 -1.5943145752E-001 -1.6010284424E-001 -1.0565519333E-003 -8.7106227875E-004 -4.7769397497E-005 +6.0144811869E-005 +9.6311569214E-003 +2.4303436279E-002
5345000000.000 -1.6117095947E-001 -1.6261291504E-001 -1.3478398323E-003 -9.1075897217E-005 -3.6545097828E-006 -5.1250681281E-005 +5.9995651245E-003 +1.5644073486E-002
5477500000.000 -1.6088104248E-001 -1.6554260254E-001 -1.2426376343E-003 +7.1895122528E-004 +2.1224841475E-005 +7.7169388533E-006 -8.9521408081E-003 +9.7446441650E-003
5610000000.000 -1.6145324707E-001 -1.7002105713E-001 -6.7150592804E-004 +1.3207793236E-003 -1.3569369912E-005 +4.1818246245E-005 -1.4540195465E-002 +1.4441490173E-002
5742500000.000 -1.6370391846E-001 -1.7283630371E-001 +1.3315677643E-004 +1.4399886131E-003 -5.9211626649E-005 -2.2536143661E-005 -1.0833263397E-002 +5.7702064514E-003
5875000000.000 -1.6502380371E-001 -1.7453002930E-001 +9.2947483063E-004 +1.0308027267E-003 +4.3978914618E-005 -2.6637688279E-005 -1.9835472107E-002 -3.7384033203E-003
6007500000.000 -1.6545867920E-001 -1.7660522461E-001 +1.3660788536E-003 +3.4022331238E-004 -8.2696788013E-006 -1.4351680875E-005 -2.3100852966E-002 +1.2779235840E-004
6140000000.000 -1.6663360596E-001 -1.8086242676E-001 +1.3338923454E-003 -4.9066543579E-004 -4.4131651521E-005 +2.5775283575E-005 -1.4960765839E-002 -2.5467872620E-003
6272500000.000 -1.6998291016E-001 -1.8376922607E-001 +8.1074237823E-004 -1.2401342392E-003 +7.9367309809E-006 +1.6801059246E-006 -1.5846252441E-002 -1.1654853821E-002
6405000000.000 -1.7275238037E-001 -1.8399047852E-001 -4.3511390686E-005 -1.3986229897E-003 -1.5510246158E-005 +4.1857361794E-005 -1.9186019897E-002 -6.3486099243E-003
6537500000.000 -1.7276000977E-001 -1.8679046631E-001 -8.1747770309E-004 -1.1985301971E-003 -3.5237753764E-006 +3.4775584936E-006 -9.3665122986E-003 -3.0078887939E-003
6670000000.000 -1.7466735840E-001 -1.9157409668E-001 -1.4282464981E-003 -4.9877166748E-004 -1.8315389752E-005 -4.6268105507E-006 -7.6212882996E-003 -6.7484378815E-003
6802500000.000 -1.7952728271E-001 -1.9492340088E-001 -1.4379024506E-003 +3.4654140472E-004 +5.4547563195E-006 +3.0145980418E-005 -1.0802745819E-002 +1.9264221191E-004
6935000000.000 -1.8186187744E-001 -1.9448089600E-001 -9.5933675766E-004 +1.0489821434E-003 -2.1764077246E-005 +1.2869015336E-005 -6.5636634827E-003 +9.7317695618E-003
7067500000.000 -1.8155670166E-001 -1.9839477539E-001 -1.5717744827E-004 +1.4116168022E-003 -1.5577301383E-005 +6.8955123425E-006 -5.0573348999E-003 +1.0845661163E-002
7200000000.000 -1.8423461914E-001 -2.0375061035E-001 +6.9957971573E-004 +1.2921690941E-003 +3.6757439375E-005 -1.9498169422E-005 -1.4592170715E-002 +1.7594337463E-002
7332500000.000 -1.8894958496E-001 -2.0580291748E-001 +1.1876225471E-003 +6.8128108978E-004 -2.1567568183E-005 +1.5591271222E-005 -1.6921997070E-002 +3.0344963074E-002
7465000000.000 -1.9042968750E-001 -2.0744323730E-001 +1.4313459396E-003 -1.3679265976E-004 -1.2056902051E-005 -4.3468549848E-005 -2.0740509033E-002 +3.1307220459E-002
7597500000.000 -1.9137573242E-001 -2.1170043945E-001 +1.0750889778E-003 -9.0622901917E-004 -2.8422102332E-005 -7.5157731771E-007 -3.6539077759E-002 +3.4164428711E-002
7730000000.000 -1.9448089600E-001 -2.1669769287E-001 +3.7580728531E-004 -1.2758374214E-003 -2.2547319531E-005 +6.0468912125E-005 -4.7830581665E-002 +4.3613433838E-002
7862500000.000 -1.9709014893E-001 -2.1927642822E-001 -4.1300058365E-004 -1.1880397797E-003 -2.5249086320E-005 -4.2160972953E-006 -5.4141998291E-002 +4.2200088501E-002
7995000000.000 -1.9767761230E-001 -2.2151184082E-001 -1.0651946068E-003 -8.9132785797E-004 +7.3257833719E-005 -4.1387975216E-006 -7.3390960693E-002 +3.5751342773E-002
8127500000.000 -1.9880676270E-001 -2.2789001465E-001 -1.2569427490E-003 -2.0444393158E-004 -2.5875633582E-006 +8.5751526058E-007 -9.1102600098E-002 +3.9966583252E-002
8260000000.000 -2.0245361328E-001 -2.2996520996E-001 -1.1243224144E-003 +5.8585405350E-004 -3.8672238588E-005 +3.7558376789E-005 -9.5806121826E-002 +3.4053802490E-002
8392500000.000 -2.0255279541E-001 -2.3296356201E-001 -5.9336423874E-004 +1.1671185493E-003 -6.6906213760E-006 -4.1449442506E-005 -1.1010742188E-001 +1.8714904785E-002
8525000000.000 -2.0260620117E-001 -2.3673248291E-001 +1.7207860947E-004 +1.2888312340E-003 +1.5310011804E-005 +8.8969245553E-006 -1.2169265747E-001 +1.5048980713E-002
8657500000.000 -2.0462799072E-001 -2.4082183838E-001 +8.2564353943E-004 +1.0120272636E-003 -3.6964192986E-005 +5.0803646445E-005 -1.1800384521E-001 +3.9253234863E-003
8790000000.000 -2.0645141602E-001 -2.4380493164E-001 +1.2459158897E-003 +3.3009052277E-004 -2.4868175387E-005 -3.2024458051E-005 -1.1975479126E-001 -1.7070770264E-002
8922500000.000 -2.0713806152E-001 -2.4487304688E-001 +1.1810660362E-003 -4.2223930359E-004 +1.3962388039E-005 +3.0800700188E-005 -1.2176513672E-001 -3.0490875244E-002
9055000000.000 -2.0715332031E-001 -2.4858093262E-001 +8.2069635391E-004 -1.0465383530E-003 -3.1899660826E-005 +1.7054378986E-005 -1.1124038696E-001 -4.4563293457E-002
9187500000.000 -2.0901489258E-001 -2.5080871582E-001 +3.7014484406E-005 -1.2992024422E-003 -1.4682300389E-005 -1.1728145182E-005 -1.0076904297E-001 -6.6371917725E-002
9320000000.000 -2.1289062500E-001 -2.5192260742E-001 -6.6202878952E-004 -1.0479688644E-003 +7.1775168180E-005 -3.8698315620E-005 -9.2983245850E-002 -7.9238891602E-002
9452500000.000 -2.1374511719E-001 -2.5311279297E-001 -1.1808276176E-003 -5.4097175598E-004 -8.2226470113E-006 +2.0646490157E-005 -7.4054718018E-002 -8.7539672852E-002
9585000000.000 -2.1478271484E-001 -2.5567626953E-001 -1.2572407722E-003 +2.4890899658E-004 -3.3386051655E-005 -3.5442411900E-005 -5.5213928223E-002 -1.0120773315E-001
9717500000.000 -2.1862792969E-001 -2.5907897949E-001 -9.0721249580E-004 +9.0616941452E-004 +1.0148622096E-005 -3.3550895751E-006 -4.0996551514E-002 -1.0601806641E-001
9850000000.000 -2.2291564941E-001 -2.5825500488E-001 -2.5504827499E-004 +1.1596083641E-003 -3.5475939512E-005 +3.6004930735E-005 -1.8367767334E-002 -1.0285568237E-001
9982500000.000 -2.2291564941E-001 -2.6046752930E-001 +4.6569108963E-004 +1.1113882065E-003 -1.0472722352E-005 +1.1899974197E-005 +5.7258605957E-003 -1.0407638550E-001
10115000000.000 -2.2497558594E-001 -2.6420593262E-001 +9.9545717239E-004 +7.2401762009E-004 +2.2035092115E-006 -3.1471252441E-005 +1.8924713135E-002 -9.8297119141E-002
10247500000.000 -2.3014831543E-001 -2.6637268066E-001 +1.1825561523E-003 +1.3554096222E-004 +4.2444095016E-005 -2.9781833291E-005 +3.6525726318E-002 -7.9856872559E-002
10380000000.000 -2.3300170898E-001 -2.6612854004E-001 +9.9235773087E-004 -6.8938732147E-004 -6.6749751568E-005 +3.2447278500E-006 +5.7144165039E-002 -6.8336486816E-002
10512500000.000 -2.3432922363E-001 -2.6809692383E-001 +4.6002864838E-004 -1.1675953865E-003 +5.0982926041E-006 -5.1481183618E-006 +6.1809539795E-002 -5.5770874023E-002
10645000000.000 -2.3629760742E-001 -2.7165222168E-001 -2.2637844086E-004 -1.1531710625E-003 +6.8053603172E-005 -4.9360096455E-006 +6.6352844238E-002 -2.8675079346E-002
10777500000.000 -2.4064636230E-001 -2.7378845215E-001 -7.5381994247E-004 -9.4354152679E-004 -1.2489035726E-005 +2.9042363167E-005 +7.7655792236E-002 -8.2664489746E-003
10910000000.000 -2.4429321289E-001 -2.7505493164E-001 -1.1935234070E-003 -2.7310848236E-004 +1.3072043657E-005 -4.9788504839E-005 +7.2082519531E-002 +5.2070617676E-003
11042500000.000 -2.4653625488E-001 -2.7713012695E-001 -1.1888146400E-003 +3.8224458694E-004 +2.0299106836E-005 -8.4236264229E-005 +5.9364318848E-002 +3.1690597534E-002
11175000000.000 -2.4844360352E-001 -2.8115844727E-001 -7.2160363197E-004 +9.3671679497E-004 -9.7639858723E-006 +7.6089054346E-005 +5.6823730469E-002 +5.2450180054E-002
11307500000.000 -2.5085449219E-001 -2.8361511230E-001 -5.0008296967E-005 +1.1861920357E-003 -3.7169083953E-005 +8.5029751062E-006 +4.3424606323E-002 +5.8273315430E-002
11440000000.000 -2.5454711914E-001 -2.8509521484E-001 +5.5938959122E-004 +1.1053085327E-003 +9.7151845694E-005 +1.7695128918E-006 +1.8131256104E-002 +7.2383880615E-002
11572500000.000 -2.5537109375E-001 -2.8955078125E-001 +1.1864304543E-003 +6.1285495758E-004 -3.4235417843E-005 +6.7438930273E-005 +4.6272277832E-003 +8.7139129639E-002
11705000000.000 -2.5733947754E-001 -2.9156494141E-001 +1.2715458870E-003 -1.6361474991E-004 -4.1555613279E-005 -1.5629455447E-005 -1.0543823242E-002 +8.0898284912E-002
11837500000.000 -2.5976562500E-001 -2.9470825195E-001 +9.6574425697E-004 -8.8155269623E-004 -2.5386922061E-005 -1.8430873752E-006 -4.3025970459E-002 +7.7312469482E-002
11970000000.000 -2.6036071777E-001 -2.9562377930E-001 +2.8723478317E-004 -1.2550354004E-003 +4.2857602239E-005 +1.5037134290E-005 -5.8723449707E-002 +8.2855224609E-002
12102500000.000 -2.6055908203E-001 -2.9779052734E-001 -5.1248073578E-004 -1.1889934540E-003 +5.7667493820E-006 +4.1129067540E-005 -6.6062927246E-002 +6.3667297363E-002
12235000000.000 -2.6333618164E-001 -3.0064392090E-001 -1.0737776756E-003 -7.7027082443E-004 +3.4874305129E-005 -4.1635707021E-005 -9.3540191650E-002 +4.4860839844E-002
12367500000.000 -2.6431274414E-001 -3.0075073242E-001 -1.2242794037E-003 -4.2736530304E-005 +4.8242509365E-005 +5.1809474826E-005 -1.0444641113E-001 +4.3102264404E-002
12500000000.000 -2.6686096191E-001 -3.0041503906E-001 -1.0357499123E-003 +6.6512823105E-004 +8.5914507508E-006 +4.9588270485E-006 -9.7408294678E-002 +1.9073486328E-002
12632500000.000 -2.6741027832E-001 -3.0319213867E-001 -4.1776895523E-004 +1.2372136116E-003 +2.7630478144E-005 -5.1962211728E-005 -1.1066055298E-001 -1.3069152832E-002
12765000000.000 -2.6940917969E-001 -3.0502319336E-001 +2.6220083237E-004 +1.2053251266E-003 -4.4628977776E-006 +2.6037916541E-005 -1.1648559570E-001 -1.6738891602E-002
12897500000.000 -2.7160644531E-001 -3.0403137207E-001 +8.8161230087E-004 +8.3702802658E-004 -2.8872862458E-005 +4.1788443923E-005 -9.1289520264E-002 -3.5655975342E-002
13030000000.000 -2.7268981934E-001 -3.0442810059E-001 +1.2671351433E-003 +1.2868642807E-004 -4.9918889999E-005 -3.6535784602E-005 -9.0679168701E-002 -7.1701049805E-002
13162500000.000 -2.7525329590E-001 -3.0644226074E-001 +1.1647939682E-003 -5.0562620163E-004 +1.7857179046E-005 -5.9816986322E-005 -9.1793060303E-002 -7.1319580078E-002
13295000000.000 -2.7711486816E-001 -3.0809020996E-001 +6.4069032669E-004 -1.0622143745E-003 -4.3597072363E-005 +4.1330233216E-005 -5.9894561768E-002 -7.8773498535E-002
13427500000.000 -2.8028869629E-001 -3.0766296387E-001 -1.0025501251E-004 -1.2709498405E-003 -5.2062794566E-005 -1.3498589396E-005 -4.7245025635E-002 -1.0514450073E-001
13560000000.000 -2.7922058105E-001 -3.0838012695E-001 -7.5638294220E-004 -9.8377466202E-004 -1.5993602574E-005 +2.4071894586E-005 -4.7210693359E-002 -1.0089111328E-001
13692500000.000 -2.8201293945E-001 -3.1092834473E-001 -1.1258721352E-003 -4.1240453720E-004 -3.5636126995E-005 +1.3719499111E-004 -1.7215728760E-002 -8.9035034180E-002
13825000000.000 -2.8526306152E-001 -3.1228637695E-001 -1.1404752731E-003 +2.6929378510E-004 -5.0831586123E-005 -7.2062015533E-005 +4.3220520020E-003 -1.0349655151E-001
13957500000.000 -2.8793334961E-001 -3.1065368652E-001 -8.8432431221E-004 +9.0709328651E-004 +4.0754675865E-005 -8.4374099970E-005 -3.0517578125E-004 -9.5596313477E-002
14090000000.000 -2.8770446777E-001 -3.1214904785E-001 -2.1582841873E-004 +1.1560320854E-003 +8.4064900875E-005 +6.5736472607E-005 +2.2312164307E-002 -7.0461273193E-002
14222500000.000 -2.8895568848E-001 -3.1539916992E-001 +5.6958198547E-004 +1.1835694313E-003 +5.9859827161E-005 +3.9730221033E-006 +4.3682098389E-002 -7.4481964111E-002
14355000000.000 -2.9463195801E-001 -3.1668090820E-001 +1.1504292488E-003 +6.2811374664E-004 -6.7148357630E-006 -4.8922374845E-005 +3.3374786377E-002 -6.6474914551E-002
14487500000.000 -2.9618835449E-001 -3.1694030762E-001 +1.1321902275E-003 -7.7545642853E-005 +5.1219016314E-005 -5.2358955145E-005 +4.1189193726E-002 -3.4589767456E-002
14620000000.000 -2.9547119141E-001 -3.1922912598E-001 +9.5793604851E-004 -6.4611434937E-004 -1.2866221368E-005 -2.0458362997E-005 +6.0239791870E-002 -3.2321929932E-002
14752500000.000 -2.9859924316E-001 -3.2394409180E-001 +2.0337104797E-004 -1.2422204018E-003 -2.5765970349E-005 -2.6623718441E-005 +4.2812347412E-002 -3.1202316284E-002
14885000000.000 -3.0183410645E-001 -3.2514953613E-001 -4.0185451508E-004 -1.0890364647E-003 +1.1530704796E-005 +2.5800429285E-005 +3.7210464478E-002 +1.7089843750E-003
15017500000.000 -3.0134582520E-001 -3.2853698730E-001 -9.6207857132E-004 -6.4569711685E-004 +1.0026618838E-004 +2.2970139980E-005 +5.3220748901E-002 +7.2116851807E-003
15150000000.000 -3.0238342285E-001 -3.3187866211E-001 -1.1705756187E-003 -4.5537948608E-005 -7.7392905951E-005 -4.0005892515E-005 +3.3847808838E-002 -1.0814666748E-003
15282500000.000 -3.0326843262E-001 -3.3456420898E-001 -9.8675489426E-004 +5.4675340652E-004 +1.0829418898E-004 +1.6253441572E-005 +1.5608787537E-002 +2.4611473083E-002
